!Created with skrf (http://scikit-rf.org).
# GHz S RI R 50.0 
!freq ReS11 ImS11 ReS21 ImS21 ReS12 ImS12 ReS22 ImS22
1.0 0.09831159720316189 -0.053985951159975155 0.24605757189183428 -0.049527241944761394 0.26298156058987837 -0.06004359811598315 -0.17296272117543315 -0.13313947418836636
1.495 0.05524222021857241 -0.00551005964324963 -0.2655259908311028 0.015868298761130505 -0.26593093205876717 0.018546840239573197 0.02713447812968537 0.017573786987072522
1.99 0.11105804537921508 0.015797679820972903 0.24681236494681794 0.028554064492222732 0.25316574234346734 0.01129957304021418 -0.21625593158730952 0.05455727357109229
2.485 0.0952534722133164 -0.04034737014120172 -0.2374974470874635 -0.04638740388808671 -0.24277368483731657 -0.03692692307879424 -0.08665940506264425 -0.14295866650118394
2.98 0.0438252731511847 -0.00015791359930478546 0.23452819689534385 0.07760366332579469 0.2317389758722071 0.07516017821695399 -0.03351099694310226 0.08982202604250128
3.475 0.09385063218743125 0.02926437390443938 -0.21591207138819224 -0.1018269173600929 -0.21198176080358708 -0.09286889569472921 -0.23468821974646875 -0.0289902360989373
3.97 0.0894913977207049 -0.027759813932419934 0.19924402027810778 0.12621420242974446 0.19582960591572784 0.12016058662078548 -0.01433861052056776 -0.09754139221777808
4.465 0.03187478710922703 0.0011066987441745257 -0.17508007649762794 -0.14213356563151333 -0.172833159031956 -0.14640093108843769 -0.11955120112439364 0.11155223660906079
4.96 0.07668178174026832 0.04050262489271087 0.16188849820231463 0.15497151412796323 0.1515723356740674 0.15619258671287467 -0.20060072151707556 -0.10117628895929823
5.455 0.08661821608789404 -0.017850794873207818 -0.13088602990427528 -0.1817036844913723 -0.12647544700633248 -0.18034550121734877 0.014143954959572814 -0.016298682646946804
5.95 0.026420692728259934 -0.004735360675422008 0.09918204955354433 0.17939710104046044 0.09988514240665157 0.19049609431105163 -0.19675120761721307 0.08086351715295272
6.445 0.062499467550032176 0.04448491636629044 -0.08884341295845757 -0.18996028205055895 -0.07773569294882465 -0.19618684808500422 -0.1300771282650339 -0.1357517610663864
6.94 0.08886680133506974 -0.011194327930699428 0.04605127254245591 0.20683915890872856 0.045862632393584984 0.20962157965232428 -0.012839248478253334 0.06571798884439976
7.435 0.029744927420505368 -0.01568101197751019 -0.01976010734671692 -0.19236802685903615 -0.0232153968303082 -0.20631140831828348 -0.2380601573098538 0.01457037227896541
7.93 0.05238768031201094 0.04090206615833858 0.006597774830044571 0.20185056134873455 -0.0015973345399165734 0.20789794985042725 -0.05177954059697537 -0.11879170188655812
8.425 0.09520572202581928 -0.004412133874645165 0.03638180907098004 -0.2012412753970282 0.03259453028066403 -0.20609266004728866 -0.0819692159142397 0.11476382144503937
8.92 0.04219847714646771 -0.026283800074484 -0.054699061022709154 0.1836146622723427 -0.049047711490340345 0.19497634393177915 -0.23117194032552688 -0.060416660696142904
9.415 0.04817055758243166 0.03252288307638273 0.07229826441323374 -0.18514144474020763 0.07609354370684498 -0.18901176741091824 0.0016582428060953579 -0.05579567792683724
9.91 0.10307218132259474 0.00462899107914853 -0.10136895774919916 0.17083954692710332 -0.09801628201594685 0.17402295087651432 -0.16320637496603868 0.11394578886757423
10.405 0.06208472815164618 -0.03251534238250116 0.11672069624867168 -0.154819240100726 0.11030798557142901 -0.1590113941666853 -0.1801360390785648 -0.11589787139989255
10.9 0.04966314460857273 0.02153107410413388 -0.133228106840572 0.1398613510643858 -0.13478559581618707 0.1425574133012287 0.0072748243283057516 0.027970346133179613
11.395 0.10771964396414195 0.01416923671766986 0.14244432695773465 -0.12130607681961565 0.14426488381430935 -0.12128200924597209 -0.22511943547890112 0.06758748130280183
11.89 0.08364729648350895 -0.032920436313108425 -0.15939122959438126 0.10518805801325062 -0.15441505216690074 0.1027892180985893 -0.10392972984055157 -0.13027377435518572
12.385 0.05349012225300706 0.009704536077265118 0.16692045161819297 -0.07375770202017716 0.16953339147838198 -0.0775172870722044 -0.03668327504060332 0.09817996199521639
12.88 0.10450933048586326 0.022434322296172295 -0.1626083135206596 0.058672251699883 -0.16894428024150215 0.056623486770621685 -0.24657107989892657 -0.004314769171662932
13.375 0.09980463039139753 -0.026405132507921505 0.17948603182573647 -0.03803521813293924 0.1757452071178269 -0.03360487016715234 -0.031571320143267335 -0.09615435470215478
13.87 0.05750784158425268 -0.0010662677896005604 -0.17290646851644406 0.0010938807651932258 -0.17756969907494982 0.006110556608054574 -0.110512104206371 0.12811949117163232
14.365 0.09370725444941354 0.02762372076203411 0.16440809470229134 0.008410227299667145 0.17147539140339155 0.011623503256681716 -0.22147180456800422 -0.07482235936321822
14.86 0.10706466565684215 -0.014644736273486565 -0.17435501035979278 -0.03455947508019648 -0.17098790192906305 -0.038061743856573176 0.008005610989666654 -0.025299100621521627
15.355 0.06196362502887675 -0.010432479228493698 0.15608885631704414 0.06505109304219808 0.161211855111891 0.06022104994643945 -0.1842498958044026 0.1097402866218436
15.85 0.07840637581796217 0.02670917701044084 -0.14736207212888908 -0.0724743029562743 -0.15222981353470919 -0.07542141232727834 -0.15908147847159979 -0.11827093095904491
16.345 0.10475391967025247 -0.0022800019871254025 0.1443489964139877 0.0974800497014106 0.14136839520051858 0.10032842967869916 -0.0009219101347269021 0.054446381057797824
16.84 0.06688825074016952 -0.018111252796385802 -0.12341692015170905 -0.1160679240442774 -0.125561875556051 -0.11316006881694149 -0.2312291925919171 0.05360848014560682
17.335 0.06234551997645144 0.01834988234203334 0.11150708326894279 0.1251953586176777 0.11306425947386477 0.1265913225594046 -0.0815946074044945 -0.11797312199003529
17.83 0.09456655709136191 0.00732400195633259 -0.0952349581622834 -0.13830715088956566 -0.09303403284842836 -0.1433577930090247 -0.05289404838133435 0.11175089341878662
18.325 0.07193327329108247 -0.021962577050997877 0.07885826725825239 0.14631866245902084 0.07637832610433229 0.1475740342958576 -0.23652793975975583 -0.01813382032681637
18.82 0.050209413350686724 0.004887943545500678 -0.05849569667356892 -0.15690443999522646 -0.05856365640849568 -0.15749042930724486 -0.01783123978430219 -0.07306050982679911
19.315 0.08094277701386293 0.013254256073692988 0.03530872738289695 0.1532719725345713 0.03490306185552827 0.16217704385333126 -0.1249833348377784 0.1265333568108074
19.81 0.07798631194670737 -0.020126268596673345 -0.023651685987510083 -0.15582822219194092 -0.01941589543985811 -0.16065453702191487 -0.19973790276706313 -0.07996458585603858
20.305 0.04673187852897591 -0.009618926699111574 -0.005372610548010265 0.16236706615097452 -0.0033151650565629073 0.16318065402848006 0.007810503668613718 -0.0008349974139105392
20.8 0.06826148156191031 0.014897525606211638 0.025712892289481218 -0.1462390417698914 0.02417727597311821 -0.1569558994391643 -0.18889903653380377 0.09709512647929913
21.295 0.08457079601883119 -0.013323389294981803 -0.03598961528947789 0.14676590079261628 -0.03899927091299107 0.1514310912803085 -0.13426232549882866 -0.11033176635991043
21.79 0.05263659481898883 -0.02111554710138312 0.06735536116825458 -0.1428505004616476 0.06248366735601427 -0.14365807818455867 -0.01308271976398575 0.06972602264828588
22.285 0.05849531396117932 0.012749890500956367 -0.07981549401471914 0.12222001503761441 -0.07695165839973718 0.13121735874448104 -0.22255399233498854 0.037589255071240356
22.78 0.0893333936484889 -0.002506572410740587 0.09078222587751886 -0.11922664026577028 0.09139532120565011 -0.12111650715343726 -0.06368568136306774 -0.0984746726715737
23.275 0.06482832653977344 -0.025894652825970327 -0.1149485120977873 0.10492522465893454 -0.1096286279490506 0.10408039687263454 -0.06897442592824292 0.11159925259290855
23.77 0.05265294298580311 0.008596301497072507 0.12152630749093853 -0.0860189899964747 0.11777926274605109 -0.08991366569583764 -0.21619211879289973 -0.02933264869894306
24.265 0.09046097090457754 0.010862736658281427 -0.1307655058454286 0.0754502110303831 -0.1298235367204587 0.07397446519854957 -0.01413123972683858 -0.04947510188050929
24.76 0.07936775381377657 -0.0229599737002677 0.14045666709068216 -0.0572344112121846 0.1387178449141496 -0.05265708607281822 -0.13531010468943702 0.11169149020667309
25.255 0.05151315433935949 0.0036100022559027744 -0.14510158146667698 0.041326458420935554 -0.14214302226484432 0.038626199753115785 -0.17378941948105908 -0.08023865239368756
25.75 0.08727876388633736 0.02331399480647353 0.14733621049371548 -0.021171753209278405 0.1479369027187866 -0.017600430480715662 -0.0034898484637916997 0.01635162542861522
26.245 0.09223182108300869 -0.014979902056328149 -0.14287709758020417 0.005384721450698471 -0.147449526866508 -0.0020976616390312947 -0.1866052811191445 0.07410524134924737
26.74 0.05410698825205162 -0.0024687197879689395 0.14672367701208422 0.010251343836415423 0.1466250834599312 0.016283833559813072 -0.11143970701063319 -0.0978557274437808
27.235 0.07969942360337229 0.030827394890235223 -0.13875179596099868 -0.035449186549931684 -0.1432101354890072 -0.038502855705560904 -0.03298435211367379 0.07212335493135963
27.73 0.09989116654573382 -0.005163582373238461 0.126979517554828 0.045734921756503726 0.13619060522209597 0.05305268616396687 -0.20592074102396798 0.015628571068419236
28.225 0.05839064063115881 -0.009116919674811683 -0.12751487936236286 -0.06314510236067171 -0.12981974090514017 -0.0675319306916554 -0.052581009802340026 -0.07705350933823824
28.72 0.06954097261353491 0.03162018411079558 0.11025151873797982 0.08487009608912469 0.1176385801553788 0.08563223318626038 -0.08727594944362323 0.09699779084436963
29.215 0.10174646475078539 0.003996059784671433 -0.09698987847613524 -0.09025875075446717 -0.10701770477218518 -0.0947360004336655 -0.18898077607142594 -0.04163643832794664
29.71 0.06380894094783908 -0.01552400912656824 0.09071781544038904 0.10723422770738575 0.09373496719987971 0.107643063634317 -0.019484567623293564 -0.027800878844825776
30.205 0.06022814086903256 0.025871054812021673 -0.06968802202281917 -0.12003645491900121 -0.0765677522413955 -0.11799457911103842 -0.1429597266940743 0.08461488744194769
30.7 0.09936162185856863 0.010150798321185095 0.05631006185256311 0.12286204124253755 0.06363073810993948 0.12283567605366857 -0.1441882948629496 -0.07748912015829466
31.195 0.07023208672428796 -0.021295949491003635 -0.042807848152261636 -0.1332296876213462 -0.04433213418180108 -0.1306703649695134 -0.023457239602040488 0.02824099467861696
31.69 0.054080655780925295 0.015339913489284387 0.024665242656964226 0.13680787385628462 0.02681246223901772 0.13299582851677438 -0.17909193629008874 0.04338252290300458
32.185 0.09452115983574866 0.012295054331826986 -0.009371550432600767 -0.13761566415311083 -0.011685963932609627 -0.13394197891115214 -0.08969362384252556 -0.08006330715510906
32.68 0.07668318617714771 -0.025304222153418817 -0.007925778376946378 0.13591036744939353 -0.009784509743694141 0.13395011601342696 -0.059624581567007555 0.06760372654882348
33.175 0.051432452086905216 0.0037418109179492625 0.02083302888591682 -0.13304916413730875 0.02469363404152051 -0.1303049285474681 -0.18424680413272218 -0.008933544645894445
33.67 0.0888950852847735 0.012056781795788177 -0.03928558185368702 0.12997097822598144 -0.041270700783673724 0.12624779910514827 -0.04727393564857443 -0.05049845512031363
34.165 0.08234114405683254 -0.02587631166722923 0.05492586625214693 -0.11708152940601027 0.0598402618959913 -0.11857163770474041 -0.11021950142453817 0.07579314506880411
34.66 0.052198789238396985 -0.0051182611693878395 -0.06442497591553308 0.1112235558591173 -0.07137995220400752 0.11099774430999254 -0.15904374189152157 -0.05222300400866681
35.155 0.084247904202861 0.011753966644871178 0.08337327439756471 -0.10182848651272783 0.08684398461008842 -0.10077574601216413 -0.03357686756087185 -0.0031886873126067464
35.65 0.0867689276627336 -0.02300693345252803 -0.09275346565536653 0.08342892122414836 -0.09887428192160691 0.08828102117539299 -0.1537369962994023 0.05244128363562424
36.145 0.05512603173878799 -0.009848833567488276 0.10063535180057366 -0.0755992136716557 0.10714886817656542 -0.0774360510077132 -0.11519394993253934 -0.07065058909232984
36.64 0.08067698891001537 0.01253789703274456 -0.11491327901886723 0.05996370681400068 -0.11777050801076724 0.06181704385946245 -0.052487579693419356 0.040372270588493665
37.135 0.08918871518831814 -0.01789152677928719 0.11764202821911846 -0.04158703933700914 0.12243495525419361 -0.04789786078702161 -0.1738528756182078 0.009419084295384444
37.63 0.05782363380733541 -0.010678664363241124 -0.12318816626418493 0.030805964905662717 -0.12686444031107358 0.03368467943751156 -0.07146844293784421 -0.05819870873748075
38.125 0.07712374179229192 0.014880187137900042 0.12865078949929457 -0.013259745448051318 0.12988326100389816 -0.015856374602980935 -0.0936564339003038 0.06170923401818451
38.62 0.08948158284590144 -0.011578852587098318 -0.12707678342026485 -0.002449136331612087 -0.12841164871453847 0.0024662491740083405 -0.16449654283368215 -0.035038548199213676
39.115 0.05890264110011903 -0.008924871463061992 0.12676098458776228 0.01646487402065253 0.12749562248509602 0.014249380510926465 -0.04660983971243923 -0.021532235528297767
39.61 0.07329636566233008 0.01836908011642056 -0.12262920261233698 -0.030512774382750556 -0.12283525306630712 -0.030251193723083845 -0.13825929915555565 0.05334834952306218
40.105 0.08892753139972974 -0.005252636293453086 0.11825487550881059 0.044173793475823786 0.11669341865789935 0.04266939812258798 -0.13101294075327086 -0.06308986388850565
40.6 0.0589161427672022 -0.007223832046540272 -0.10915356766684596 -0.05950088292631319 -0.10931054627211156 -0.05911809730267674 -0.0511153623861394 0.022294590138878283
41.095 0.06942895062991711 0.021169676188033906 0.09882319812379463 0.06790151294411689 0.09931060839516402 0.07056539149018846 -0.16781409024486924 0.020571149094943415
41.59 0.08868367171082576 -0.0004995950364059466 -0.09145313287590008 -0.08082578529822454 -0.0890864830113117 -0.08169112996068782 -0.08812817743963748 -0.06350294713214472
42.085 0.05899811593411221 -0.008021215230436574 0.07474268639658542 0.0929561497218354 0.07609853139010812 0.09411399057045744 -0.08229924787487486 0.053573249934609
42.58 0.06529985927416691 0.021774260087301208 -0.06288896658216542 -0.09641097054662427 -0.06363973472839074 -0.10042722171436504 -0.17115797473566643 -0.022194984193824173
43.075 0.08908018470197605 0.002530574468916477 0.051563197204057006 0.1074892477815074 0.0495546313067646 0.1088591977626182 -0.05470134611582891 -0.036202384993410705
43.57 0.06061358277258856 -0.011450333110888104 -0.03162751801914817 -0.11262678564512901 -0.03403084237366538 -0.11453802596796257 -0.1260267021649518 0.05907972698809443
44.065 0.0613704650033103 0.01986485887582116 0.020277829035005867 0.11285367488038969 0.02088762785587451 0.11637649017135886 -0.14768266521377696 -0.05730212799730332
44.56 0.09042785844447658 0.0048899942045284054 -0.005726447808895874 -0.11876690890139037 -0.004214349683425446 -0.11982134704201003 -0.045920441888497004 0.006999057944636027
45.055 0.06520537255469865 -0.016140953597632096 -0.012170022535669072 0.1170129242807633 -0.01014496845131384 0.11841505973450801 -0.16377938095682995 0.037261415714354776
45.55 0.05862966092242005 0.01544426907403062 0.023501365127519085 -0.1145173976903603 0.023379938355804767 -0.11620171418298574 -0.1071441240582832 -0.07009891729337002
46.045 0.09218683642897303 0.007413787301993286 -0.03751969863394798 0.11188593159924212 -0.039664025783215 0.11296628078184894 -0.06615223369369422 0.04723314791569137
46.54 0.07270192794948226 -0.02043589770048757 0.05014606059429969 -0.10583578732622284 0.050509679659682526 -0.10609477288134761 -0.18046780225614228 -0.0024099568770929274
47.035 0.057362279728102955 0.008867775450126935 -0.06241820426831801 0.09904333992804862 -0.06322081153995135 0.09945119131812188 -0.0663639438262089 -0.05442173567732529
47.53 0.09241244235467198 0.010539026714979948 0.07178360394959825 -0.08751341562874099 0.07549887672928746 -0.08993782856544914 -0.10689318223971878 0.06728505400148034
48.025 0.08118615909901507 -0.022260318688370202 -0.07967035199577743 0.07952659653122407 -0.08245627442965137 0.07965385841439293 -0.16959225587797622 -0.04397316764306669
48.52 0.057231776662581904 0.0015494392148383727 0.09184999965382729 -0.06711202468302592 0.0929383116239265 -0.06821541844893454 -0.04292204116764294 -0.015734271922048754
49.015 0.08952796017452219 0.014326116986145982 -0.09453399117771286 0.051001959190548285 -0.09890313716126699 0.05501202850399586 -0.15124552952751588 0.05916356179367744
49.51 0.08870900401412524 -0.019950431179518172 0.09957368112604899 -0.042174208782303615 0.10252144779119102 -0.04262990475386812 -0.13504987842692137 -0.07082436758665671
50.005 0.058338660893523575 -0.005157082880673416 -0.10795306958038026 0.024958648368262077 -0.10826354946064146 0.02740650588790341 -0.047481122330753085 0.030413925812249106
50.5 0.08339020802054767 0.01746373531831277 0.10454549280473385 -0.009461411995623087 0.10795821136465328 -0.013813279621104572 -0.18168483121243173 0.026569544581065665
50.995 0.09351832245816191 -0.013865939938246894 -0.10701783129535002 -0.00045307339952574107 -0.1082839564240606 -1.8310000292266156e-05 -0.08988732429146892 -0.07150827022389324
51.49 0.06066779965439692 -0.010761321683383583 0.1084905417341491 0.01876103166680082 0.1074994815925927 0.016149516590444345 -0.07865628412015561 0.06512780912356812
51.985 0.07474785868856659 0.018108585200263642 -0.10174686092374723 -0.031135068942870967 -0.10261291386518491 -0.027849356039223127 -0.18670124297690213 -0.017665222441892295
52.48 0.0940929108042895 -0.005675316477166504 0.09970774465630809 0.04186478129629343 0.09881843118573798 0.0421217892077944 -0.05195581314847416 -0.04440318798809938
52.975 0.06399712225797485 -0.014664205844750543 -0.09413585603368638 -0.05578375819030739 -0.0918283280877838 -0.05549242021506893 -0.12384236067649124 0.07474108284413802
53.47 0.06532691389619213 0.015426597253224105 0.0863667912796929 0.06529602157096466 0.08408881428627889 0.06455269567023754 -0.16428274576281776 -0.05673147528751012
53.965 0.09030408672250136 0.002738895353222758 -0.07714979477001176 -0.0749687170288224 -0.07542936700441062 -0.07709042688859516 -0.03690111356215732 0.0007037553368660735
54.46 0.06851792578383643 -0.015937682664534023 0.0668099710236232 0.08120695329865148 0.0645643431808623 0.08509344689560482 -0.1653415522575715 0.05624402983168065
54.955 0.05801374088397156 0.009741589530768036 -0.05810485770280472 -0.08917696375083181 -0.05471730295296491 -0.09143960793575402 -0.12233530842709306 -0.07560904924676534
55.45 0.08375721140339011 0.009400874431233597 0.04198967062829058 0.09511668219335252 0.04186267287259807 0.0993569923406758 -0.05107792662110975 0.04614897659121965
55.945 0.07421252559670838 -0.014389725493041579 -0.030559819453987357 -0.09471311727816721 -0.029976484572076207 -0.10151202721584833 -0.1877654089135569 0.017362135501211868
56.44 0.055269333884863825 0.0019059855662937756 0.01990276779194209 0.10117131660217163 0.018103485151606473 0.10459583169468661 -0.0762816422198927 -0.06641717972615513
56.935 0.07628833781470244 0.012775520573784085 -0.0010395213926835587 -0.10085538513105582 -0.003526643373885308 -0.10586852753821266 -0.08853761027948008 0.07420503446660762
57.43 0.07988369359951346 -0.010201992838243589 -0.008822368841897334 0.09651405797103374 -0.007494284771892047 0.10331624374727491 -0.18326201363194164 -0.027259305845792167
57.925 0.05778898492772371 -0.006033567710966246 0.021511492627322337 -0.09943231091647974 0.02078902152572448 -0.10189893360841631 -0.043739400700034986 -0.03198731821511148
