!Created with skrf (http://scikit-rf.org).
# GHz S RI R 50.0 
!freq ReS11 ImS11 ReS21 ImS21 ReS12 ImS12 ReS22 ImS22
1.0 0.11652231305671824 -0.08654035895999576 0.2487736357295241 -0.0494275166492706 0.26266875312429205 -0.0633004275358456 -0.15405880506368022 -0.10347314856947666
1.2475 0.10087482209793339 0.07474365037797294 0.04036416817827738 0.25580866092497956 0.042672854300573805 0.271083928749625 -0.056218131969015164 -0.06430807660061336
1.495 0.019165664896443405 -0.012056159292475626 -0.26367079927518705 0.01705795988970598 -0.2636007676776128 0.019527634216931607 -0.008253274025720389 0.010436639771868355
1.7425 0.09506028937237389 -0.046235369688775604 0.007805768087082836 -0.25805342862991176 -0.007861850925874367 -0.2561771902331482 -0.10278391426502223 0.11250868870033984
1.99 0.1160539628096657 0.0499539196797746 0.247787436870045 0.02241730469299221 0.2564790759030199 0.007385246509318943 -0.1894597882714777 0.03478349149935595
2.2375 -0.0026848121560410403 3.9821261130562266e-05 -0.03329147974644574 0.2429307623391033 -0.025315302401200827 0.24660302185710223 -0.1929543447840819 -0.03989309287539198
2.485 0.12578448351557006 -0.056117147984098795 -0.23878949597972352 -0.043599049912582365 -0.2421578403717854 -0.03184817417260041 -0.08994628005957488 -0.10937930260308686
2.7325 0.08431886714065334 0.06764573984500612 0.05537632114378501 -0.2393712648676813 0.050456281918360726 -0.24432693568047362 -0.018287402182341206 -0.0033681639053209783
2.98 0.019159968688655802 -0.02422291006030227 0.23549133734207947 0.0734561455673124 0.23166307841669814 0.07134034854641479 -0.0557948662120199 0.06431256404390281
3.2275 0.11979882477137305 -0.03529730880804383 -0.08669064571991889 0.22543609390133146 -0.0784877410868152 0.21850822618715163 -0.16317329477142814 0.09365733534658159
3.475 0.0796474744949186 0.059508384904351765 -0.21876224698552096 -0.0960975027489582 -0.21691626784417437 -0.08807864451106309 -0.20361140041424805 -0.028921605502791457
3.7225 0.023614061992760352 -0.03014232827436329 0.10882451398840239 -0.21200293787028981 0.10534581604634306 -0.2072312369103737 -0.1350801474245083 -0.07657615672258064
3.97 0.12230763585637557 -0.02361741394600359 0.2018377693317322 0.1198005823088965 0.19724567418121247 0.11319112582858165 -0.03708730600204699 -0.07291187016739534
4.2175 0.07273257213281817 0.05225043045086987 -0.12924079617169157 0.19170076207461004 -0.1272100897639742 0.19178875989052643 -0.026801984552676423 0.060858303473644626
4.465 0.025355153815436557 -0.03064740240664939 -0.18019634123836065 -0.1372265938308777 -0.1765037624050028 -0.14186705439141714 -0.12238997715929939 0.07985544491252747
4.7125 0.1333330098199858 -0.021285749679641773 0.1414981208465715 -0.17091492626579805 0.14500444436483376 -0.16194706911257437 -0.19844231492631856 0.04142987049078385
4.96 0.0494667519782018 0.05791846818079429 0.16650591663608116 0.1505804903032648 0.15877526108163487 0.15160718358264919 -0.17641765422636196 -0.08294347271513758
5.2075 0.052569572769039924 -0.048233938919924606 -0.16486872020386478 0.15473068361062878 -0.16721856767345317 0.14720267846570004 -0.06847173989499088 -0.07344488004121896
5.455 0.1117280503155453 0.0036963240056284053 -0.13735474708825252 -0.17383759990971656 -0.1318109344247619 -0.1730832339451061 -0.018220229913961914 -0.009715778012259394
5.7025 0.06387514984431093 0.03449793744483254 0.17652220872682825 -0.12023888671606908 0.17969900352556809 -0.12147466764813278 -0.07312172412831046 0.10127685505585861
5.95 0.03870566548617872 -0.03320796478495446 0.10789252785205089 0.17604929463624844 0.10733893383791325 0.18751446525000792 -0.1817331865546593 0.055208108390341855
6.1975 0.13302138582054965 -0.0048037831926180915 -0.17694923121515188 0.1013733821179605 -0.18854327972728094 0.0934642565808634 -0.19579260547677763 -0.02269846047998736
6.445 0.03167216062088044 0.04457896358625991 -0.09544810493705155 -0.18728869271233003 -0.08762461098064854 -0.19292233487930235 -0.12119386623126857 -0.10656167788011199
6.6925 0.07663930867321854 -0.05071485246294647 0.19872438271712956 -0.07806432839128526 0.20400948624329188 -0.07342547669929565 -0.018980140950316825 -0.03273318659756751
6.94 0.09880743807463191 0.020151753186449 0.057170053466232745 0.20146524751214875 0.05545804226393984 0.2047176611764534 -0.04170995664684405 0.05323480077759492
7.1875 0.0578830060351212 0.01867502740620714 -0.19686049385668947 0.04025525123440035 -0.20378958189392626 0.044484365001035586 -0.13438791369016131 0.10216313684128148
7.435 0.05557739110355331 -0.032075316217963154 -0.03089856142699187 -0.19225912688437163 -0.033511775139054435 -0.20656045103153198 -0.21245484533122247 0.003234432009480053
7.6825 0.12160317509410466 0.010356870948263004 0.1930343190428489 -0.02564388729540815 0.20663841676883768 -0.020166059949552673 -0.15634834000612277 -0.07465414095449868
7.93 0.027757225745665998 0.024781132759709168 0.015549280569566717 0.20171872267301105 0.010940961659817387 0.20735844538457085 -0.06108688380938533 -0.08952019945242107
8.1775 0.09119046416492815 -0.04133027137390809 -0.2056680194355235 -0.004010255283748574 -0.21101569877234172 -0.004048745511878202 -0.0065026756888859425 0.02772627776672077
8.425 0.08760330710505823 0.02635842575594996 0.022545447450225686 -0.20148237585765627 0.02027869123635176 -0.20592733151410542 -0.0971145044874373 0.09022020680053358
8.6725 0.05446679236765772 0.00561656417464805 0.193193163037211 0.03525528873746139 0.19991708876384937 0.029124521021666697 -0.18461819587829364 0.0645951921683823
8.92 0.07264905740755802 -0.026466469335038007 -0.04227949587980452 0.18761063953400228 -0.037340204822759425 0.19943072865756556 -0.20468877604128038 -0.054742899619051204
9.1675 0.1026413741533617 0.019713904691696517 -0.18729907755224728 -0.04876484304462614 -0.1977823557625863 -0.05074816090728366 -0.09444433752863628 -0.09497504296728006
9.415 0.03698190057090121 0.0059966572372412204 0.0612031768174751 -0.189214033220616 0.06195073751583159 -0.19280359746913267 -0.02155709140739735 -0.03715886821883413
9.6625 0.09392843966253688 -0.02673909281181485 0.18491042441466807 0.07633036742948342 0.18850789645630686 0.07427179097267746 -0.03540838588495407 0.08154109539543553
9.91 0.08140980838093335 0.024985570018892483 -0.08810536858389982 0.17746484562506765 -0.08564841642872595 0.17964633745779834 -0.1612270677853892 0.08811920413586993
10.1575 0.05241392918677404 -0.0035958210421817606 -0.16962708725784031 -0.09701183499433616 -0.17147451843935993 -0.09205520120992965 -0.2047243984878247 0.003536138955361876
10.405 0.08753070454250923 -0.018011968860523947 0.10430411028112771 -0.16311474948744883 0.09893477353235718 -0.16812070370997892 -0.16197030339611562 -0.09622041785060961
10.6525 0.08096071753661983 0.021993630400350104 0.15762087818475848 0.11257925770457532 0.16279125674844566 0.11168328767564553 -0.03349629764409619 -0.07540986507579252
10.9 0.05444612751422019 -0.00707090903040045 -0.12179795750715063 0.14959226542951415 -0.12137627120557834 0.151812971227361 -0.019834886821343396 0.03018987755260396
11.1475 0.08758411169528331 -0.01195223049203278 -0.14013365108293718 -0.12782979482776685 -0.1421590990952373 -0.12840412921158434 -0.09260723744956878 0.1060446668134474
11.395 0.07972725658168466 0.018219705148135968 0.13257501024524548 -0.13312586937828355 0.13455849787847993 -0.1322786829487885 -0.20937078682965293 0.05006431084733684
11.6425 0.052394891033232346 -0.007477610603455143 0.12694869934318895 0.1399877420244268 0.12341798564809554 0.13946170835738225 -0.18759580346537233 -0.05895381330140773
11.89 0.09669736651266758 -0.009691238487665451 -0.14902480655064762 0.11764992432484284 -0.1454632159268452 0.11655324909967928 -0.10001570262452136 -0.10434792422848219
12.1375 0.06362726086820038 0.018393998985122968 -0.10427437752032838 -0.15688066749748036 -0.10653843110353917 -0.1551560076508902 0.0021959570396902 -0.023312171525043522
12.385 0.07161992332942393 -0.01244357212383739 0.15861521350424337 -0.08899128793255716 0.1599370887323908 -0.09204055768666176 -0.05673081817338354 0.08577637972192488
12.6325 0.07861709787664904 -0.0011895453243353409 0.0790586854746812 0.1567718969757571 0.08094635021239367 0.16153371832625418 -0.15471171648004556 0.09193967374054166
12.88 0.07944884688447129 0.010172546580259904 -0.15781788012971387 0.07378911582416407 -0.16401795532185715 0.07162141683197872 -0.22462257402590896 -0.00817418508256356
13.1275 0.055767355522973606 -0.007750762773976547 -0.06758336252357883 -0.16514008754195006 -0.06190599743652272 -0.1678217935679501 -0.13911999094709473 -0.10093012408523866
13.375 0.09777407364350463 -0.0024086171619315277 0.17381198801591646 -0.05435431872144502 0.17157003725196132 -0.05133008539660792 -0.042196540928440204 -0.07403667545779416
13.6225 0.05558308664997709 0.010706378028383357 0.03557552337898569 0.1769691091895813 0.038194243933246545 0.17555902874923354 -0.0020530846993239748 0.04001223805299762
13.87 0.08248759740146448 -0.010560589248155665 -0.17104874276163345 0.01989589334901851 -0.17444876492749903 0.024117564982251444 -0.11674315704370046 0.10886500241670585
14.1175 0.07144009171414041 0.0033125675881472113 -0.01259803316772017 -0.16546260000177337 -0.01433754274261977 -0.17244286887316201 -0.19872572982504563 0.04519540091181272
14.365 0.07932139300849649 0.004379440489346195 0.16558775302709047 -0.00829161292705313 0.17274840504123481 -0.005563615757975863 -0.20212718903319626 -0.06488002761223759
14.6125 0.06124020937967502 -0.0065243976631712535 2.1206122478479924e-05 0.17162485387473472 -0.005468633689360948 0.17445019339870796 -0.07641103606181551 -0.10731937492048017
14.86 0.09236019045664451 0.0026224872880304373 -0.17581572685781044 -0.015827652834444816 -0.17374202658494475 -0.018164018610610302 -0.011138473610425009 -0.015274971823462076
15.1075 0.05679704572349326 0.0029572085956734552 0.03417018240191688 -0.17210510418593292 0.03084661599990607 -0.17122639002629422 -0.04422543735017404 0.08860591113758431
15.355 0.08535268748896191 -0.005468524245013696 0.16219413572411476 0.0456202189884442 0.1658932737847522 0.04154263883365007 -0.17630945100265233 0.09304803507639249
15.6025 0.06841938713042368 0.003347205939176345 -0.050656515557384346 0.1560191311159351 -0.04935432684938948 0.16224275030670163 -0.21003717049514628 -0.017306713985962043
15.85 0.07823125316636281 0.0010957179136895391 -0.15512076746569556 -0.05564760992932466 -0.16050526869593956 -0.05812844728389656 -0.14963341410501657 -0.0993466217797304
16.0975 0.0675828491668913 -0.004068480950735059 0.06549926917076537 -0.15667275025437524 0.06966332831923683 -0.15829765557790512 -0.022765929216201027 -0.07562097447336806
16.345 0.08336874928825168 0.0036418485893594857 0.15419382177166563 0.07934514014268437 0.15215024634118976 0.08119187901704537 -0.018785414670818686 0.04982947283098634
16.5925 0.06452970737615266 -0.0008787438089055454 -0.09183479333362767 0.1462593977377574 -0.09015526840113039 0.14490472301282087 -0.10711191006930158 0.10391631355918117
16.84 0.08092706321120186 -0.0016111910813961915 -0.13693873503015966 -0.09889853583221107 -0.1378401364017842 -0.09680575441524014 -0.21408931880512036 0.04658611815936394
17.0875 0.07089449817940613 0.0019688899217755345 0.10381849577454465 -0.13075502651001433 0.10319095486190508 -0.13322420744193217 -0.18587993171707062 -0.07431544017940807
17.335 0.07470164671350732 -0.00048142438805033735 0.12618305062158133 0.1099962223029155 0.1284406332919757 0.11166028112826243 -0.08530005164937828 -0.098424212377478
17.5825 0.07420527971125303 -0.0011225518212764386 -0.11773668006801388 0.12040574260043053 -0.1212416343482481 0.1213650269043615 0.0010266816443405625 -0.018112463105860684
17.83 0.0740764769462369 0.0014620393343253344 -0.11250717622000973 -0.12449718722120406 -0.11118918733203917 -0.12841497158222231 -0.060753121104626384 0.09673155465861369
18.0775 0.07438159535022584 -0.0005833341301693471 0.12926698106446716 -0.10452387336911483 0.13257884214921317 -0.10217998295659413 -0.16713129480801478 0.08193868673958346
18.325 0.07244069213952811 -0.0004596969172320081 0.09774820624217857 0.1339648146604623 0.09482615980782737 0.13616291553854387 -0.21793712307510957 -0.012733144130077423
18.5725 0.07753334218548917 0.0008370791979029429 -0.14013786731829223 0.09018192384858444 -0.141359777177609 0.08864480839432982 -0.13537477547572085 -0.10671589908724946
18.82 0.06922550378072943 -0.0006668000385922752 -0.07945858765079472 -0.14615894402842403 -0.08006168238154712 -0.14779953470283771 -0.032222470813266034 -0.06180138341771365
19.0675 0.07948336227868723 0.0006233837824802632 0.14810421592687514 -0.06694327097237816 0.15267051269150286 -0.06931622716664873 -0.013946741257579626 0.042482580392387045
19.315 0.06833790627205255 -0.0010930974154249014 0.05716048360388226 0.1469460418981739 0.05806811113447001 0.15434625798381088 -0.11916906687166383 0.10947747872533771
19.5625 0.08075167925596624 0.0017492051960001386 -0.14653568443162596 0.0511322668126197 -0.15472060601733553 0.04943946575003088 -0.20414877622142136 0.03256824030151212
19.81 0.06571778359581963 -0.0019173660747522914 -0.04555139855233862 -0.15059128319441076 -0.04177739835724726 -0.15625742353699007 -0.18755389881146828 -0.06419435730287544
20.0575 0.08382585615965286 0.0013441458644419813 0.15684291004127218 -0.035351632818676905 0.1593899145858814 -0.03335622271783261 -0.07685884824470673 -0.10358350028393075
20.305 0.06442485818190759 -0.0006328452057917343 0.019723501835202727 0.15971148819129133 0.021868437194879655 0.1615419892651843 -0.009666161059789482 -0.0033234340368010276
20.5525 0.08205012383400417 0.0007022244909445836 -0.15502141228827293 0.005384107500717299 -0.16057300961209917 0.01041862489361715 -0.060565400629462134 0.08313924823997947
20.8 0.06762327291970346 -0.002118781401660036 0.002634287267623859 -0.149042054605806 -0.0006531995774040471 -0.15793135326671065 -0.17165580941372344 0.08634469152385932
21.0475 0.08096800693922963 0.004267796855213116 0.14696857466875912 0.006867334247055449 0.1560933614748829 0.007093901148751849 -0.207664159939585 -0.025921742615165024
21.295 0.06453608403388221 -0.005487842628969879 -0.013337880038756057 0.1502095716597102 -0.01557039706799753 0.15552864891585544 -0.133938703611011 -0.09040093040017091
21.5425 0.08637667759147137 0.00442888314273308 -0.1534427557440933 -0.02574663981351818 -0.15505614529629988 -0.0256069649298133 -0.032051032821727665 -0.0667351627418691
21.79 0.06169324489890199 -0.0016193896471205756 0.041898770796540946 -0.15071628241375526 0.037369983248213966 -0.15184511797483907 -0.024400307452756342 0.05428239445610682
22.0375 0.0829399788123952 -0.0006718499051819858 0.14160288074195346 0.05322819145433656 0.14620960654616305 0.04663403643081952 -0.11986621554401415 0.09058688934315537
22.285 0.06986652133015384 -0.00014101388241954623 -0.05846846588276766 0.13426608184774036 -0.05395709345441084 0.14133260211870502 -0.20033130814740996 0.038340635914747026
22.5325 0.07623493421285418 0.004183772748299444 -0.13168830825491823 -0.06235648112264657 -0.13803813702876414 -0.06126243976394804 -0.1788890089979799 -0.07347397693940289
22.78 0.06936360396598185 -0.008279187957329173 0.07001372745803158 -0.1320474488966113 0.07023135862670128 -0.13438936365873955 -0.076081763006763 -0.08286034284191607
23.0275 0.08389772006987668 0.008361249828130085 0.1301156573492013 0.08165737627889975 0.12947096588334794 0.07963803719117622 -0.017564629624204634 -0.011028989815191941
23.275 0.06146346961169957 -0.0033958336032977976 -0.09360475181818241 0.1229234240358038 -0.08878927618105602 0.12199123858984053 -0.06777093461351266 0.08966476445224822
23.5225 0.08354138675777936 -0.0030843741381819233 -0.1132309412711384 -0.10042334828633694 -0.11404653945828656 -0.0946096084053034 -0.1702552587911357 0.06544243897743796
23.77 0.07233499012711148 0.005329925760024209 0.10420141508673376 -0.10629460162491493 0.09978894712850626 -0.1083296772394151 -0.19705351485020103 -0.016396592187391902
24.0175 0.06921935350431647 -0.0007417649806179183 0.10181454579757152 0.1086265884049476 0.10329765074354028 0.10673287240128683 -0.1297702464922825 -0.09433780871738932
24.265 0.07880461638333314 -0.007057493785278696 -0.11501694474608024 0.09713056100719801 -0.11452395703404257 0.095850425599567 -0.03461284709954229 -0.04566691002016567
24.5125 0.07631881967197093 0.010783274336456431 -0.09050968215512092 -0.12172446458909116 -0.08741821366039447 -0.12057906077118469 -0.03742710766506486 0.04160304593881635
24.76 0.06434017819590947 -0.005910886398106187 0.1269165242997017 -0.08223489611969832 0.12565439350111277 -0.07823770276552856 -0.12073389751181708 0.09197149616555589
25.0075 0.08407020976165051 -0.0046176236377744925 0.07450602300780876 0.13017780282234206 0.06985783548922458 0.12842665080707638 -0.19579887707618884 0.019804870176898227
25.255 0.0730694804796025 0.012127697446212256 -0.13385931500119658 0.06758833292926539 -0.13182416836464558 0.0634937050047769 -0.1648544453292982 -0.05898561287147514
25.5025 0.06327421530496598 -0.009690983090201813 -0.059061139138983754 -0.1379786864562733 -0.05632723665741785 -0.1373466668853625 -0.07920336488134344 -0.08226178843420229
25.75 0.08953853837516955 -0.0011852392490742953 0.139919513392708 -0.04920200035291862 0.14175467511873927 -0.045832686664059236 -0.02356494871538054 0.005380167473831139
25.9975 0.06554233959903726 0.010907309706170551 0.040262989709411154 0.13993763901617592 0.03623859413684345 0.14291580898734862 -0.08155347932090663 0.07204151237542858
26.245 0.06989562824841136 -0.009868926009640087 -0.1394166452978967 0.033136496429393605 -0.14422046781146444 0.027749719913544385 -0.1629864085339772 0.06380803226042836
26.4925 0.08488960818104695 -0.002515538726058137 -0.027076966919434804 -0.14078357806698624 -0.019570858021150966 -0.14487714789648595 -0.1905734340240809 -0.028484332892601986
26.74 0.0700373273067416 0.01635565250033214 0.14423006045369405 -0.018850886688515547 0.14603191233955395 -0.01218161078505049 -0.11652119155854535 -0.07563172100705182
26.9875 0.06253903245580963 -0.019348913331338074 0.00643941755008248 0.14584365008213845 0.0035216981854650537 0.14831098333090195 -0.04632218658808297 -0.04335922869427556
27.235 0.09672688862609978 0.007921144598973029 -0.14234256456014469 -0.005378835310065334 -0.14813531331304872 -0.007765629398363063 -0.04421544052716304 0.04948301724586968
27.4825 0.05510665746090958 0.008263395516015185 0.013642420032868556 -0.13755382317917447 0.01626123287913939 -0.14473583683424698 -0.13130390647544601 0.07186178892906815
27.73 0.07682131937989835 -0.014365778972409142 0.13430230315729486 0.019019935062321486 0.14334037471596714 0.022944528455584246 -0.18062778751974332 0.01820580097871243
27.9775 0.08594514999845033 0.003654010230994269 -0.024802473986330138 0.13468416603700056 -0.03103330600430861 0.14229112547004688 -0.15938096653206582 -0.06206676352625015
28.225 0.06284252079841501 0.01561102353503337 -0.1360865542483731 -0.034683080544488515 -0.1400834155689901 -0.03932334541545964 -0.07043856163501636 -0.062291532599582415
28.4725 0.06895923791678352 -0.026434260267457033 0.04783637951738741 -0.13305386675835656 0.04753568251064198 -0.13784287422896158 -0.04257496748728017 0.005804127739217086
28.72 0.09737237469880851 0.018230612560126955 0.12557998532209447 0.05753169780913158 0.13373311960790418 0.05710534383701279 -0.08512416260512815 0.07027617053727596
28.9675 0.04747750319704894 0.002529141316909073 -0.06353094128783349 0.11876406645736992 -0.06352467774894881 0.12728337905573656 -0.16808293039798453 0.04516852921230202
29.215 0.08475718362848123 -0.017613735331547017 -0.11454217867942436 -0.06763554207189935 -0.12388965417258117 -0.06842709458979927 -0.16986047849222075 -0.027185285110019462
