!Created with skrf (http://scikit-rf.org).
# GHz S RI R 50.0 
!freq ReS11 ImS11 ReS21 ImS21 ReS12 ImS12 ReS22 ImS22
1.0 0.11652231305671824 -0.08654035895999576 0.2487736357295241 -0.0494275166492706 0.26266875312429205 -0.0633004275358456 -0.15405880506368022 -0.10347314856947666
1.0545 0.02598115258034057 0.04266553709307745 -0.22064387962332335 -0.14606329989480468 -0.22993566123751524 -0.14167439955203806 -0.10923385756101903 0.1061446263345981
1.109 0.1269716536542694 0.05507891377191102 0.08261740308277234 0.24839690971474623 0.08853287724530882 0.2629794556111993 -0.04432302971411314 -0.05729409836857093
1.1635 0.035359248677485106 -0.07997915837255488 0.11648836443548143 -0.22477408082079212 0.1056136193317567 -0.24006466685151817 -0.225358168682299 0.017315098665566367
1.218 0.0394824459679825 0.03552672360363381 -0.2484580500021879 0.10195295634606591 -0.25133713362199844 0.10541964599062693 -0.021392256903449293 0.02754912936347143
1.2725 0.16707428051335624 -0.005500765749985242 0.23542313749004 0.08127869257104411 0.2576381055107658 0.07721017739886551 -0.1428527738110375 -0.09222043923186618
1.327 0.019961299572683562 -0.02484378682656099 -0.1148570365449655 -0.2351184453905901 -0.12655796930675212 -0.22919580180289706 -0.12053903602454878 0.11376119557853896
1.3815 0.051358959685204826 0.07458527854060329 -0.05378789450019684 0.2530556168434884 -0.05780723848874401 0.2646605501668231 -0.05605489270428958 -0.06371393764791511
1.436 0.12320939454891154 -0.06642911871350878 0.21082220320605588 -0.13305103904583485 0.20867988728016817 -0.15579932395124518 -0.21828913301600963 0.0037376802440107805
1.4905 0.024703395342201957 -0.017988433879675473 -0.2620115563140948 -0.0372255313035472 -0.2615429208884552 -0.033060252968093215 -0.01026636777157331 0.03362534376503111
1.545 0.12275077386060154 0.07578640063996313 0.1612556867559173 0.18727049794542397 0.1792264587151934 0.19644911832526918 -0.14329772567035767 -0.07797027347278367
1.5995 0.07566387300410299 -0.055770924418222095 0.018823394886247683 -0.2573237226256425 0.0016552259876536292 -0.2573244786708853 -0.13502146018419045 0.1112119926095483
1.654 -0.0028288925961369865 0.016508828151906303 -0.17358113717747709 0.18806291525325058 -0.17810909592767027 0.1924807737048951 -0.056729146089270835 -0.07584611578112462
1.7085 0.15005312899914033 0.012235980457820475 0.2469497736683728 -0.009912004310262313 0.25808326955966987 -0.02896281816148367 -0.20440220050949004 -0.0011931420027065185
1.763 0.06857892523014877 -0.055095170680136946 -0.203792965733043 -0.16145448114201663 -0.20630340188234272 -0.15355274099834496 -0.007469597528673908 0.0471854757988504
1.8175 0.03257154439467103 0.07617826927464151 0.04384672717566703 0.2427609781532832 0.05114867731563197 0.2542740980528873 -0.15359458580551033 -0.07097583009066813
1.872 0.12396672188898689 -0.01930048522512047 0.14255923410180812 -0.21112101125647034 0.12829412057229891 -0.22137969350044995 -0.14425116954775746 0.0994154480884719
1.9265 0.022699456634412803 -0.05874843265339913 -0.24177363923332942 0.07181673887392784 -0.24263758347850128 0.07633613009311686 -0.04676177155648828 -0.08353153355760719
1.981 0.09557396976658333 0.06880296718372052 0.21871060864413694 0.11450913296736841 0.23346470684937567 0.10695006380350285 -0.1927828422042221 0.005282823473637142
2.0355 0.12269867155151441 -0.03137516350427847 -0.09401125265875239 -0.2375250275182941 -0.10273832291227798 -0.23237614115015576 -0.015368075318592331 0.05967367083374164
2.09 -0.008573070316892355 -0.0008401148220615129 -0.08605185468624156 0.23028054928815234 -0.08172863537154816 0.23723287373428187 -0.16433463134969556 -0.07571658907064961
2.1445 0.1108121929983219 0.037982801630665156 0.22656802104723217 -0.1119592021016363 0.22199887080172248 -0.12512249865243055 -0.1426048120177075 0.08524340072934569
2.199 0.09959488722916443 -0.07190339038152525 -0.24075638959394155 -0.05960485290122484 -0.24413384378590075 -0.0515561851847487 -0.03330782340942309 -0.08102403712874456
2.2535 0.024211828344810664 0.04600340156471263 0.1317175555985143 0.20903401127117816 0.14145751986204722 0.2066444882642362 -0.19165932676286412 0.01714213629877629
2.308 0.12660231299377755 0.029093727397692296 0.0361568016728233 -0.2494481208413633 0.02733583377904886 -0.2515684159791974 -0.029772890140559317 0.06339336718891209
2.3625 0.03884774371436313 -0.06929559974677837 -0.18962397821639898 0.153127861137641 -0.1829709996597502 0.1610804118277314 -0.16698005635146895 -0.08774003508831209
2.417 0.0534587014720191 0.04943298861783792 0.25096664072493735 0.01537557500616672 0.2513559424921588 0.007086482658924967 -0.1317775399898182 0.0782465320093469
2.4715 0.1468942016577365 -0.012741122038406383 -0.17607164350076174 -0.1700182881296373 -0.1854800175842745 -0.16447764993407077 -0.024909844939258505 -0.06924546339343368
2.526 0.015026390653415456 -0.025013411130032054 0.008528479564894017 0.2459803270671789 0.01717873948452831 0.24190424345338865 -0.20080572375216035 0.024269870560053027
2.5805 0.07378979053646711 0.06176636337135275 0.15447282150164632 -0.19632926094250197 0.15116593927968516 -0.2009399088572248 -0.04165532006019434 0.05595161539391232
2.635 0.11658336643115137 -0.058859182945341225 -0.23847451435802638 0.03682849763107116 -0.23476161915575208 0.04997175071549878 -0.1594401258749352 -0.09864948243199259
2.6895 0.01906824058574002 0.0014015211983060957 0.20803955402545607 0.13774978257040763 0.20680497859956953 0.13169000031574213 -0.12094373516486888 0.08294638635924631
2.744 0.11907018676244027 0.05522931726688728 -0.0670141735665657 -0.2337282900968948 -0.07680012374593549 -0.23536233664557427 -0.027140545616516125 -0.05499352306147484
2.7985 0.07306936262782521 -0.061193781398906064 -0.11440903457480144 0.2152929016899043 -0.10188990953401686 0.2130766683474141 -0.21266688630996233 0.02123331636312111
2.853 0.019071436031121537 0.030008730311744117 0.23026184811779135 -0.09109436682102066 0.22921940854826975 -0.09264894818907839 -0.04290572139247318 0.04334055147656863
2.9075 0.14118127620167517 0.010801195661447108 -0.22397509573891117 -0.08596205549999908 -0.22805748634792672 -0.07288757334737259 -0.14587436499385695 -0.10136541832151015
2.962 0.04860304523788966 -0.05057472692638511 0.10981062668648292 0.22027785843541534 0.10914943662575896 0.2116145543923574 -0.11888712356329734 0.09456157208289732
3.0165 0.04827775814939047 0.0630641100467891 0.05952647274147814 -0.23505615838617613 0.055068597535178024 -0.2394236101652326 -0.038494092996496414 -0.047704183286412
3.071 0.12804161342806633 -0.025082886523599777 -0.2035975061327662 0.12940628613807972 -0.19097316889598215 0.13383563917395846 -0.21903858229542428 0.009862090400428103
3.1255 0.021404492190265093 -0.03340944009879236 0.24153685223332272 0.037286740060076054 0.23808792169406537 0.03634891792190989 -0.03369484964951548 0.03590229222721858
3.18 0.09242518749957014 0.06149452491113076 -0.15170084006837872 -0.18566673098452496 -0.1594334242984164 -0.17887728046110474 -0.1345848870656104 -0.09371205265888688
3.2345 0.10871927660391972 -0.0466029479883716 -0.013755863760666696 0.24151181292403892 -0.009647721684175006 0.23273146595637142 -0.12707537469980726 0.10401502659890709
3.289 0.00998151729201682 0.006159856251511961 0.16956386972266937 -0.17168811200459996 0.16738548074748674 -0.173078613395997 -0.04990795656245195 -0.05213855622869361
3.3435 0.11897477897121818 0.038644272148373744 -0.23909887120132525 0.012729837777406751 -0.23208175848698323 0.020845296495729554 -0.21554745605205824 -0.0030483153029878
3.398 0.07743844763919766 -0.06083913703961934 0.18668263639267937 0.15117829268372396 0.18311073967932065 0.14683621619868945 -0.02213175493904376 0.03927291251968181
3.4525 0.028074143571443874 0.04035461857488485 -0.03866350193324574 -0.23655207893742386 -0.04337749063081641 -0.23367206598914594 -0.13329950166452154 -0.08108917102434753
3.507 0.13267534258244337 0.009084498207019742 -0.12903494781434247 0.2000404252293391 -0.12228899559643465 0.19574835607310176 -0.14022606365583704 0.10471565791619658
3.5615 0.04181764607469874 -0.05068545745588151 0.2308091215764612 -0.06172547231234497 0.22584576545479343 -0.06234147595885424 -0.0523208486606858 -0.06353291693289337
3.616 0.05761769637650582 0.05778334937532278 -0.2130545170518733 -0.10627398638269546 -0.21034796832817704 -0.10063415084213544 -0.2041131446800481 -0.00920295831235738
3.6705 0.12671197730999884 -0.025934675632816633 0.08469398794807467 0.22049098313302326 0.08506917291350291 0.21475030210993287 -0.016906269851958443 0.050937579521443566
3.725 0.020591472860106076 -0.024793835574483832 0.08462898908660053 -0.22277689283046645 0.08181239627704166 -0.21773725818275014 -0.1421263222517511 -0.0735265976417906
3.7795 0.09436933200483576 0.05668731362602835 -0.20844746871087566 0.10860375365240026 -0.20402818622034125 0.10783918950051263 -0.1500889477651912 0.09581731038644956
3.834 0.10295384657658443 -0.04765037957567987 0.22783506969314185 0.06155198500906925 0.22176534668499204 0.05702974309488491 -0.04434627973129662 -0.07246432766768068
3.8885 0.013555410258337983 0.010162871732902142 -0.13068459533295435 -0.19643285885492062 -0.12657009512701317 -0.19331108220164192 -0.19306801983065394 -0.004476386171839465
3.943 0.12014632182284893 0.031716460909172614 -0.036124211548307895 0.2303959208471321 -0.03294980516875056 0.22764258743946666 -0.021847087404515367 0.06331853027427063
3.9975 0.07514659285758209 -0.05754977637273298 0.18223455446600775 -0.14913491235574747 0.17596264321024932 -0.1424135274211042 -0.15295303114274064 -0.07661971194016284
4.052 0.03397240030604274 0.04527259245344817 -0.23200063949232383 -0.010005535315132985 -0.23013085733893457 -0.012002237376379062 -0.15010186933542277 0.08313649413091839
4.1065 0.12571770366893495 0.0051951392340533874 0.16535906771991427 0.1651537383159155 0.16287870585505354 0.15751775550965325 -0.03169511846214365 -0.07243210552473764
4.161 0.03749154171254549 -0.050646339790505514 -0.014885304539896173 -0.2316753889442102 -0.00865161907567082 -0.22602824998039306 -0.1909699208819077 0.006472030924126045
4.2155 0.06862755627900843 0.05248182553464731 -0.1455197771790274 0.17948098852194427 -0.14394526287350895 0.1797000809366437 -0.03411039391590291 0.06832966895571624
4.27 0.1266385504712245 -0.022616742445416924 0.22900948491131057 -0.03912302585799274 0.21893452658149304 -0.03560602037466589 -0.1572564583505521 -0.08742910662306105
4.3245 0.01576745916714366 -0.013089453644332297 -0.192213528894627 -0.12365930515329117 -0.18859112303352618 -0.1278462472628184 -0.14082536704585705 0.07605990988766183
4.379 0.08973578481968542 0.04641472452604731 0.06075469302873689 0.22426493888397608 0.062346532216238544 0.2180269956016683 -0.02261360581838054 -0.06305940447914057
4.4335 0.10254303303287829 -0.0564135132777127 0.10013045396497826 -0.2041030963998861 0.10406462971666466 -0.19459315260995344 -0.19874548223042132 0.014252392377352997
4.488 0.02847858940050499 0.018246625802464066 -0.21421694556019194 0.08036503019849553 -0.21509777310018138 0.07949210707119904 -0.04520104888802094 0.06264985797761895
4.5425 0.11738706572358043 0.03848941907646193 0.2162599921726668 0.07790621090439673 0.20654164329628413 0.07670367458608644 -0.1519709415882188 -0.09839904107150231
4.597 0.05766681078235741 -0.05562096331361019 -0.10137181865941708 -0.19964447642935898 -0.09449678224741609 -0.2022262178197853 -0.1304405915255752 0.07960993168017438
4.6515 0.039115756211463286 0.031456814270825806 -0.05963869044975777 0.2232976736751899 -0.05789199337266593 0.21990938533640728 -0.023242287586306677 -0.05027614483080465
4.706 0.13764943866436855 -0.0017121415209912297 0.18427681276288393 -0.12529215808563657 0.18378882631275806 -0.11536678591052353 -0.21007887309200018 0.013043865366962375
4.7605 0.04026013187547844 -0.029791665321247957 -0.22239261470443186 -0.03896937049905601 -0.22207113132920686 -0.04227799315800147 -0.046989049354922596 0.05135946180368686
4.815 0.05783521915351443 0.05709027916138566 0.14788636128688354 0.1734337976016779 0.14077100557485225 0.17058042527289402 -0.14023661758493963 -0.10232843675295344
4.8695 0.11276972342474995 -0.03973794517107593 0.012485886339889904 -0.21882706225227555 0.019596277176044927 -0.21779034551728246 -0.1273292682700716 0.0901675025832812
4.924 0.03248875863348875 -0.019577098613020323 -0.16258211590097307 0.16132179004738656 -0.16243516705806746 0.15732335143150097 -0.03282953734100627 -0.043198950507433796
4.9785 0.10630634227462855 0.0549884266714825 0.21868625017783885 -0.01698941218666447 0.2159511949434677 -0.009075104350385483 -0.2171831938615797 0.0036344903795987636
5.033 0.08503235459615224 -0.03948311851685668 -0.16956574629267215 -0.14389731610357614 -0.16633336077907399 -0.14637211915567303 -0.03901781209523687 0.043933399298781435
5.0875 0.014245834042314533 0.011045995977130055 0.04059992101094539 0.22174832202835426 0.033621370014122555 0.21943330588706123 -0.1297971974640183 -0.0964912547642403
5.142 0.12483091023226925 0.013502902828306539 0.11854786337748434 -0.17983110176976455 0.12373129416393812 -0.17720013561047346 -0.13363271195727158 0.09969242976017327
5.1965 0.07576896098407326 -0.04571340229855413 -0.21872515835577241 0.05696469586550212 -0.21666301429867216 0.05039274068156787 -0.04323063324329162 -0.04666297174464887
5.251 0.041725374473134944 0.05450714463258738 0.19498311838489565 0.09385102008449873 0.1920331322825163 0.10128428245573556 -0.21534392303700267 -0.00798854873751154
5.3055 0.1108654765006988 -0.005983130370794991 -0.07310957727568286 -0.20699493748613684 -0.06975620786140864 -0.20653229804071443 -0.02814597706518816 0.045914370079848
5.36 0.036385982162597426 -0.04908128805484052 -0.075269919649984 0.20851172332872472 -0.08434532624433053 0.20386192023098526 -0.12808868899310544 -0.08555802954667877
5.4145 0.0860684694505589 0.04780280068199171 0.19066546557388625 -0.0942492738449663 0.19540471626228273 -0.09187022559421355 -0.14514093827637534 0.10170762194076588
5.469 0.11709805217632388 -0.017246657003164006 -0.21501197761927915 -0.05911121368312332 -0.20826631514334884 -0.0647221881113927 -0.046152824694603654 -0.05683846011865785
5.5235 0.011902998283707136 -0.0019338809385025732 0.11844840226780819 0.1770210003793278 0.11324163764667569 0.18590202103116135 -0.20590202049469394 -0.013987485479193085
5.578 0.09253595493422317 0.028881669028283534 0.04075414477863485 -0.2137469986244768 0.04178909558245466 -0.21260043820726565 -0.02225780451921603 0.05573820599942233
5.6325 0.09999628895385425 -0.05672892314696836 -0.16625755883196333 0.1397663145863109 -0.1741191281499603 0.12945660824613553 -0.13554885188941176 -0.07849215959925272
5.687 0.04034941110668852 0.03083255472221476 0.20981390399169278 0.015761176715443477 0.21588808655239147 0.01969679757477957 -0.15432673901644847 0.09486443779839675
5.7415 0.10883761255180943 0.03261481759490427 -0.15533530622543812 -0.15685871408998844 -0.14662003608757546 -0.15761702426274596 -0.03983224927022539 -0.06559511289101334
5.796 0.04656146751850192 -0.05343941936526126 0.011581179148960332 0.2084917421920461 0.0010458476016906707 0.21614579214571672 -0.19623974804581384 -0.010400324506692649
5.8505 0.05541842258263435 0.02616899166777415 0.14245357897652652 -0.16261199373089374 0.14306078324988444 -0.16349059411095368 -0.025347460247776822 0.06691137922233321
5.905 0.1364063372291994 -0.004485099456350792 -0.20989930030075485 0.037428408529384755 -0.21167313729714207 0.023787280879660658 -0.14541775711864016 -0.08047789217363532
5.9595 0.03482958172346726 -0.014210975390366419 0.17010241732741915 0.11944185660859621 0.17521616323578285 0.12761878812728145 -0.15502849428895502 0.08417246370653408
6.014 0.05934655000659466 0.047132068606008375 -0.05535127457673389 -0.21208657600679742 -0.04903744107155921 -0.2092085388248405 -0.028779894183400604 -0.06685988269833812
6.0685 0.10573121835334923 -0.047839161199230096 -0.09380317057800204 0.18180607860845616 -0.1078198919438777 0.18349068406425542 -0.1938733230442223 -0.0009936654271431849
6.123 0.04414839191622036 -0.007723220512548621 0.2038149187444957 -0.06707916869815528 0.20711833578593694 -0.06822329798810721 -0.0353011108071978 0.07203176685576582
6.1775 0.10819185356585265 0.052200963200431126 -0.1977892439234343 -0.07164151728179563 -0.19355779979797297 -0.08338770552252579 -0.15026258299254164 -0.08955332070057463
6.232 0.06943722824208168 -0.03731062562965688 0.08404747246990865 0.18704986963896564 0.08412712671467212 0.19771237727675842 -0.1475069501860239 0.07780506235793075
6.2865 0.023693642848889196 0.00812141903585805 0.058939227084897156 -0.20926495220001917 0.06302800957126198 -0.20668049572446381 -0.020223109905203887 -0.05975305348970555
6.341 0.12826212878570306 0.003900315196504903 -0.17004317011539732 0.10769540336902693 -0.18245705154569908 0.10303058875715575 -0.20002860339475526 0.006432111720255993
6.3955 0.07057835786239178 -0.030380380792211482 0.20769580043335334 0.04526272579936209 0.2121529863220834 0.047613303318779956 -0.04479769934665102 0.06792313094077522
6.45 0.04527858965299237 0.05468922153920755 -0.13311987719464985 -0.16010450433905118 -0.12677269579017353 -0.16844261228700608 -0.14689458615235 -0.09948389762720715
6.5045 0.10214528802833628 -0.018410366347529045 -0.022509668252965513 0.20145568120833873 -0.02735463587392503 0.21007652526548976 -0.13841051449212005 0.08022069041523296
6.559 0.043067314663148865 -0.04205721873866057 0.15494618046851982 -0.14874573910812866 0.16030683229045073 -0.14615895712127688 -0.019794243223993955 -0.049159408812091125
6.6135 0.09572518760109135 0.046321724815615535 -0.19909059269984988 0.00652905914197982 -0.20788690712522895 -0.0009944902613255736 -0.2098883264977765 0.006601764225094217
6.668 0.10140281080691828 -0.014834851257314877 0.1550293450280957 0.14270004051611085 0.15636287618162525 0.14763399478463934 -0.04686819521097404 0.05860831457836371
6.7225 0.013556658577617177 0.0012741031484203471 -0.03246036356976006 -0.2032214116939962 -0.025093786190242554 -0.21065941512780895 -0.13754193255353542 -0.10385782941511443
6.777 0.09949415607756178 0.015740385495362587 -0.12080414176341754 0.16099323280689232 -0.12712688178863177 0.16632729864682383 -0.1347542645761595 0.08896726612619749
6.8315 0.09690915533471986 -0.04778345459753848 0.20581846399595577 -0.049582044261017824 0.21161370498495988 -0.04296438287993395 -0.027179504715002314 -0.04279738278428903
6.886 0.045872706439006906 0.038457086959281336 -0.17321535236636423 -0.09544107586655419 -0.18010553013228103 -0.10430610514090247 -0.21686866260346654 -0.00046374237381863366
6.9405 0.09942349049817384 0.019997047223509153 0.06176284593992387 0.20023172023784086 0.060000742559061744 0.20350112286796673 -0.040697179068511107 0.05172526307450288
6.995 0.04463316035350133 -0.050480560349947065 0.0748002754459166 -0.18839284968580616 0.0861521396436331 -0.19465095286937337 -0.12862702806258086 -0.09998529496311082
7.0495 0.07016242665562243 0.026442690338728432 -0.18530539085669293 0.07685439567433111 -0.1920516623636874 0.08092419845687397 -0.1389354032065815 0.09770642262204339
7.104 0.12727423578614366 -0.002990459074679738 0.20043615708607665 0.05958603859787495 0.20150362205134204 0.06977281961879901 -0.035994599296470114 -0.04494367653721029
7.1585 0.030600488571167116 -0.006170563413065355 -0.09880338260663316 -0.16955443353064328 -0.10367115764556602 -0.18166795542586436 -0.21657419169534886 -0.010076333849793258
7.213 0.06602286270715953 0.03291119117016391 -0.047546075858480426 0.20353580072236735 -0.04866220250864469 0.20458128635622508 -0.03131781851256219 0.05218933902002097
7.2675 0.10236276026536403 -0.04805123565774355 0.15767900704564233 -0.12225452192266979 0.17270725461336275 -0.1224338954863387 -0.12642938036930093 -0.09132144783455333
