!Created with skrf (http://scikit-rf.org).
# GHz S RI R 50.0 
!freq ReS11 ImS11 ReS21 ImS21 ReS12 ImS12 ReS22 ImS22
1.0 0.09741176941761114 -0.054084344164067426 0.2451533221077535 -0.05129682098890263 0.26192604988333823 -0.06186778115264332 -0.17311089675571603 -0.1334243959104813
1.495 0.05519521567834967 -0.005092885875918251 -0.26460638879575854 0.018801873341812644 -0.2649954033988377 0.021480322866674503 0.02686839947992028 0.017883941001513613
1.99 0.11125825389870553 0.014701087044864858 0.24634120088834183 0.024788615456999 0.25238053637347707 0.007417985061068959 -0.21714528362538252 0.05435136229983903
2.485 0.0937489669002431 -0.04089271311045345 -0.23742841993658104 -0.04175469856340367 -0.242460885362445 -0.03230945246182283 -0.08675887515507347 -0.14319365762524433
2.98 0.04387420007497442 0.0010249569452290483 0.23520365161559786 0.07199143567162085 0.23240938548039083 0.06960830607331668 -0.034347592236630815 0.09047585208139562
3.475 0.0950722720806852 0.02830776808508691 -0.21743266060138744 -0.09568669757487826 -0.21321103599326757 -0.08680243705237582 -0.23588202620245322 -0.029377446946594978
3.97 0.08816756630570936 -0.02844242470157777 0.2018898356124472 0.11961385156125852 0.19831088170381972 0.11376620746859216 -0.014403793138665563 -0.09742243565795028
4.465 0.032148664694551306 0.0033730569928531497 -0.17875931876549273 -0.13535947933053552 -0.17671511067970894 -0.13965309702808817 -0.12096238356086034 0.11243820022243355
4.96 0.07920537253435422 0.04036729749802927 0.16657915519642266 0.14790417634830788 0.1562383898589642 0.1494853933684179 -0.20182328150302087 -0.10167376608592242
5.455 0.08587583861586555 -0.018408841704609644 -0.13733794784935263 -0.17515677637301513 -0.13295712282396796 -0.1740357245886188 0.014060797402773995 -0.015624638038069407
5.95 0.026618592182066036 -0.0015040345584026735 0.10639333891282578 0.17355064465234152 0.10760909991763194 0.18448241621583944 -0.1985871796734626 0.08185399565879588
6.445 0.06592540115877442 0.045435367165479836 -0.09732209553486669 -0.18408569598563695 -0.0864106510078828 -0.1908541175349375 -0.13104406435935245 -0.13625999813182013
6.94 0.0885564770458183 -0.011679428150658073 0.05629287769396467 0.2027758536104075 0.056355694803036156 0.20556022630527776 -0.012989205338712811 0.06705662603318216
7.435 0.029341104556117114 -0.012011335179210353 -0.030232163930003976 -0.18945684753086875 -0.03440726424126322 -0.2029888684573764 -0.24009554847084288 0.015550528484338728
7.93 0.055933908689323686 0.04274999528554501 0.01854355224437649 0.19947113051351098 0.010564946975848174 0.2060529695976741 -0.05221702569063158 -0.11913659125539768
8.425 0.09508596724010912 -0.005246874230696132 0.02349686508506213 -0.201564790326749 0.019306890391445546 -0.20610402916391218 -0.08221498395190603 0.11677942250892813
8.92 0.04090079026817358 -0.02307440039091515 -0.041962138047199844 0.18525864199252293 -0.035677445248844246 0.19599728306430847 -0.23316666784419238 -0.05955559101864842
9.415 0.05117566818538984 0.03452242532010661 0.058483140380435034 -0.188108627031202 0.062144822175944685 -0.19233603179565797 0.0019523589577925445 -0.055726069065200334
9.91 0.10307543360187996 0.0027685276334201625 -0.08771672421763059 0.17631926583815416 -0.0840447137722561 0.17916199885005163 -0.16357894635245104 0.11653855695693004
10.405 0.059921197919640214 -0.030848282962035 0.10340195765882267 -0.16195599318512094 0.09681788025512182 -0.16545547854811213 -0.1818522854312871 -0.11526534903887344
10.9 0.05178105430017444 0.02275736708253151 -0.1202681821322564 0.14881823054576246 -0.12165836027093117 0.15174819530111774 0.008345775466492664 0.02871375973518474
11.395 0.10780374779600614 0.010945087334554548 0.13038654672757077 -0.13163837040255774 0.13210948109148546 -0.13171774282633242 -0.2256804700416676 0.07054726286254653
11.89 0.08086692260165242 -0.033384423055259835 -0.14800887774300905 0.11781518771162632 -0.1433929023454167 0.1148688827963014 -0.10511619492101595 -0.12996241514699472
12.385 0.054785121051155135 0.009830975907370636 0.15789764597013398 -0.0879241218548506 0.16008620570636423 -0.09200050480072311 -0.03498594402278339 0.09975924875186867
12.88 0.10483813110955419 0.01832088328497799 -0.1546211504416411 0.07311495920382285 -0.16104263162122626 0.07167167677488402 -0.24739787139477626 -0.0012902406930400748
13.375 0.0970638257031845 -0.028624964245323695 0.1730309488753714 -0.055226957912988664 0.16987150303315737 -0.050385371230307875 -0.031949891784199026 -0.09619367909062482
13.87 0.05837686834096876 -0.001679702867408404 -0.17018327769584343 0.01865215265034272 -0.17415522376971673 0.02417253238860653 -0.10848011476189665 0.13053165607744477
14.365 0.09456364917596381 0.023505131620516685 0.16253172442906463 -0.008957811595994061 0.1698687429110493 -0.006529797553966147 -0.22258905128487258 -0.07211619599430773
14.86 0.10506079941305485 -0.017599554057727625 -0.1752163651020409 -0.01485302204247543 -0.17237553185651194 -0.018736851151046716 0.008705972413765518 -0.0256015529075783
15.355 0.06260327509450751 -0.011122825788331374 0.16080817531003808 0.04640770576210687 0.16517692622651808 0.04102277944263767 -0.1822142485555516 0.11281752656518462
15.85 0.07965888125890708 0.023597397366491614 -0.1530438771116628 -0.05412133049582967 -0.15824537268064856 -0.05646528250076668 -0.16037282901877545 -0.1163284306740414
16.345 0.1036012270907675 -0.004624154994783544 0.1533875086858073 0.07832039095293145 0.15088186598856276 0.08151520015448 0.0010248501833084534 0.05410113339358328
16.84 0.06711684649444868 -0.01810935710758795 -0.1354525015141379 -0.09867376596477555 -0.13709365599150233 -0.09556913858233707 -0.22948966940303242 0.057053819858351985
17.335 0.06337601966243109 0.01722655390394603 0.12518206487757097 0.10859888192199971 0.126925736591329 0.10979242574163699 -0.08274101798767504 -0.11722227536130551
17.83 0.09393591337671707 0.006786965165827505 -0.1113872729621124 -0.12309789774624093 -0.10994907895939426 -0.1283412809285654 -0.04974604313891584 0.11166210559466498
18.325 0.0716853903209425 -0.02072880972376128 0.09685072431495625 0.13268073802528735 0.09454005707361174 0.13432907456035575 -0.23533285781600666 -0.014713997579399526
18.82 0.050364362884256664 0.006119029383785855 -0.07895415360961817 -0.14548090242518105 -0.07903487901497636 -0.14606985493845445 -0.018334617036499322 -0.07374631499528154
19.315 0.0804948447867066 0.014823132452106928 0.05619334443654065 0.14501859638993694 0.057090856819446346 0.15376424197634223 -0.12093406466104627 0.1269832648156622
19.81 0.07747662912315112 -0.018020367267252337 -0.04565020471080369 -0.14880734191335068 -0.04222182402158063 -0.1542483290513609 -0.199269911954431 -0.07703712504727565
20.305 0.04555742315090189 -0.006886766061276512 0.019065457223402582 0.15941861648586314 0.02102863821819441 0.1599145023798545 0.008479426553260797 -0.002846148730275842
20.8 0.06765051173727779 0.017970059181565804 0.0028942066523984 -0.14682015055510847 -0.0002723135115310382 -0.15701555745083248 -0.18445578560821985 0.09826396953284625
21.295 0.08401834057242724 -0.01131089787234878 -0.01231539841951672 0.14867093996018946 -0.014480694168308408 0.1537817245964223 -0.13458269000600648 -0.10840540355104926
21.79 0.050096204815758195 -0.018431170858635947 0.042703093824916834 -0.15008870934327997 0.038032228914456304 -0.1500876358170238 -0.010904526167553528 0.06688040224241343
22.285 0.05763133569333738 0.016498813576446975 -0.057922528675830316 0.13223108044625156 -0.05360460439757617 0.14049309473220703 -0.21834244496278896 0.0394975141031311
22.78 0.089344343018417 -0.0014742743796417397 0.068563722567374 -0.1310840517368122 0.06880417370618369 -0.133076982876006 -0.06464602579045227 -0.09803454805974186
23.275 0.06167665780554242 -0.024721055251072252 -0.09386887847311357 0.1217549668038211 -0.08901889821423649 0.12005592174095037 -0.06530692632372165 0.1086051906366462
23.77 0.05190973834116907 0.012243929234467498 0.10326486465029822 -0.10486280898531368 0.09887347986499129 -0.10795884135888163 -0.21287115465278791 -0.026868860504793833
24.265 0.09210479971359986 0.01037071296107768 -0.11365916253947479 0.0964469573513154 -0.1129995295430588 0.09483080575232448 -0.01533038287014387 -0.050861160496594844
24.76 0.07673751507865653 -0.02435141906222225 0.1260193524922047 -0.0810313072760435 0.12526867605127243 -0.07641526549515666 -0.1305401169530864 0.10917759878502813
25.255 0.05125797144839202 0.006469166766143964 -0.13310600044371163 0.06692810798677758 -0.13069443058338157 0.06373370882067352 -0.17195769092061317 -0.07763940593409728
25.75 0.091344830611205 0.021388456043006362 0.13880950297069772 -0.04833297163511529 0.14013392845153924 -0.044881269691121294 -0.004357969865490377 0.013093587066233887
26.245 0.09075207768479375 -0.019171588845707837 -0.13748596679301656 0.03257527720323509 -0.14336846571899683 0.026469669584401456 -0.18137585870621986 0.07249519095768284
26.74 0.05405283224347273 -0.0004537668428090131 0.1438837739736222 -0.018758243131929225 0.14497086972320633 -0.012874601183966 -0.11149470953486852 -0.09576220888832176
27.235 0.08611285152998632 0.028562700866554783 -0.14122351698366267 -0.006448323942244662 -0.14630579968782204 -0.008677852301704673 -0.03298366040405658 0.0673234206257706
27.73 0.09971439765350834 -0.01138604857086989 0.13211814729743462 0.018571967477554675 0.14244523165750378 0.023436397569360414 -0.2009896159251768 0.015127719985303694
28.225 0.057856017300419574 -0.007267110840890255 -0.1359723791950599 -0.03462984668910893 -0.13914452353799214 -0.038463088116077494 -0.05454325988241738 -0.07621272816587163
28.72 0.07749034600966126 0.030538468856379453 0.12422071379590084 0.05842810755557079 0.13172930851460368 0.057776756217170405 -0.0860953011722626 0.09130723919009315
29.215 0.10271938907852397 -0.0032358617025446917 -0.11287109670211126 -0.06640704528529806 -0.12337135555018144 -0.06824332123662252 -0.18509344339414208 -0.04101374451752104
29.71 0.06179707161569668 -0.013321737872458559 0.11053839312743094 0.08347501539085188 0.11359943413785743 0.08334641298809806 -0.022900216599748766 -0.02883435912074271
30.205 0.06823932327723313 0.027033116300361405 -0.09367827980336864 -0.09979355773100801 -0.10008595678253107 -0.09640982997420869 -0.14058971380680074 0.07885125170727499
30.7 0.10086201134840893 0.002690726956310067 0.08177692677777892 0.10550883738817099 0.08863010138608426 0.10360281418389868 -0.14197467121284493 -0.07593192215794424
31.195 0.06549895198701634 -0.01880420902598507 -0.07154854256912185 -0.11808785856191964 -0.07249146207376851 -0.11542261924858456 -0.027511254145520657 0.025096186870310563
31.69 0.06039913881777163 0.019239152453921004 0.05552356013907825 0.12531493919012546 0.056937165541060784 0.12112829955253768 -0.175790008441078 0.038364177550492595
32.185 0.09580421350208002 0.005219305017359918 -0.04142792521132383 -0.12958228760293886 -0.04257696053959823 -0.12546589418864723 -0.0895831998391085 -0.07798897184903993
32.68 0.06858079662484902 -0.023005823762317433 0.025140457985245102 0.13199864570803746 0.022949923698752466 0.13066565539076566 -0.06344089773499353 0.0626191392690817
33.175 0.05503364453374512 0.010396554589911428 -0.012515612413060111 -0.13224801539316167 -0.008361717362019482 -0.13034642536444427 -0.18047577570375725 -0.012510407226062736
33.67 0.09001001945993309 0.005685850297034507 -0.005455024323936102 0.13359190687595385 -0.008456995947049094 0.13067774739503663 -0.04941349353962767 -0.048501224296365546
34.165 0.07155568949119201 -0.02470062053214452 0.02280345970830966 -0.12553484220087008 0.0270034176290297 -0.1282299923945112 -0.11314801382705658 0.0696582836354094
34.66 0.053139248284891576 0.0034781390731238784 -0.03307062466923568 0.1224409337427207 -0.03962366306491479 0.12362603076153991 -0.15542371362063515 -0.05387284826254872
35.155 0.08606776794737654 0.005886154887713216 0.05305322065774789 -0.11807341081867467 0.05678915561270639 -0.1182838685652099 -0.037768682438623524 -0.001877281695941655
35.65 0.07483760470012486 -0.0239918029421278 -0.0660996916639131 0.10367740290599797 -0.07042714208714572 0.10986665764044154 -0.15545718309426654 0.046041654406965574
36.145 0.054011984436032945 -0.00043761848467742783 0.07547403175740225 -0.09857278059693138 0.08113534383641291 -0.10161338827022684 -0.112436760072332 -0.07018311249258526
36.64 0.08432359678037554 0.00717901305310919 -0.09269105140427705 0.08740238562837035 -0.09501812081667606 0.09035114610335705 -0.0582032779262616 0.04057424715616622
37.135 0.0779787517081348 -0.021409535651567828 0.09986703780304186 -0.07150644847512282 0.10238972636293182 -0.07870857978502797 -0.17431208844025448 0.0036168415334549902
37.63 0.055663063129790136 -0.001136118053452149 -0.10792895766686535 0.06322850204265325 -0.11070411443421187 0.06657069523465635 -0.07024767470628032 -0.055792275120543786
38.125 0.08366403192996581 0.010644232405898792 0.11753946282186474 -0.04826511960692876 0.1180039185706724 -0.05148573844949588 -0.10014576833606044 0.060671098225043636
38.62 0.0808968706883445 -0.017292786464406625 -0.12037742099026473 0.03364262998532021 -0.11994457451691926 0.03856580234834627 -0.16381766339190132 -0.039547744252960954
39.115 0.05677217695903328 0.0004268371610582542 0.12390475547195748 -0.020892593694037127 0.12420507490946422 -0.022919683819538426 -0.047371285625067434 -0.017728992349146863
39.61 0.08315636416355832 0.015923084255338244 -0.12386691834969636 0.00687532780498018 -0.12390738416159938 0.0074815911485952066 -0.14470905366072598 0.05119565586282072
40.105 0.08413972646783326 -0.01264493439943791 0.12389669374884418 0.006887860129825491 0.12172828232888633 0.006011169790106609 -0.1294533761438632 -0.06582850466531112
40.6 0.057038236354268274 0.0016101369633833278 -0.11970471518843816 -0.0233204334448167 -0.12007842879654813 -0.023008682479274546 -0.05391567185262271 0.026732323422524462
41.095 0.08164333939643705 0.020956164901028557 0.11261970685827338 0.03367578257515171 0.113714069190737 0.035893861762133404 -0.17348878972598233 0.017586223416006762
41.59 0.08742648493863144 -0.008816198937236595 -0.10994025446220829 -0.04792246353131133 -0.10781081872606714 -0.0495396384490021 -0.0860625879394666 -0.06420400817206323
42.085 0.05656699199907699 8.436540505764485e-05 0.09796403869630636 0.06372861229487205 0.09992179192571067 0.06432602722995309 -0.08678316946437771 0.05789831409271889
42.58 0.07800637009973832 0.024126786995804138 -0.08831949723642082 -0.06998244807179835 -0.0900232840172137 -0.07351081378245208 -0.175474924216859 -0.02563324635060316
43.075 0.0902483011829449 -0.00585127847184631 0.08157215759104267 0.08394117684427455 0.08006720139081434 0.08596307156943411 -0.05257516556177038 -0.03479934994221303
43.57 0.05668013581879087 -0.004509306869087282 -0.06478273173335207 -0.09449254063530217 -0.06788032124109537 -0.09530485009453928 -0.1315607904485291 0.06274525139556524
44.065 0.07266199282376751 0.02448133252143996 0.054835827810582015 0.09781639967239866 0.05623013710677873 0.10100956058282913 -0.1502318023103786 -0.060728326904812925
44.56 0.09271555481232828 -0.0032793540544363126 -0.04355979272934463 -0.10813913676797793 -0.04255371026660732 -0.10975114014054332 -0.044166965189552994 0.010360189945182011
45.055 0.05913349493259555 -0.0112962449703238 0.02676119130709803 0.11206194592019031 0.029224240290096865 0.11238107054849227 -0.1696464374687835 0.039960627005884874
45.55 0.06687355419884203 0.021258581725678922 -0.01601603363326153 -0.11318924556396202 -0.016401155899205152 -0.11486247186568217 -0.10770721338312027 -0.07297242079411935
46.045 0.09441703940531729 -0.0007125174147631542 0.0024906948840409363 0.11548671868963306 0.0010351131559405795 0.11736044757409474 -0.06511141938500632 0.05218308079970802
46.54 0.06432567723101013 -0.01847917923139985 0.010664827433683643 -0.1141792986573825 0.010935189695057834 -0.11417223115248198 -0.18601291513593476 -0.0008115198984893575
47.035 0.06164808415359377 0.014752389213148769 -0.02382568677299989 0.11206084914649936 -0.02461260563070942 0.11283046546601137 -0.06496543009913971 -0.05618630685063181
47.53 0.09414172155389897 0.0026007694078244757 0.036082733971916026 -0.10460929029483546 0.03842965642833208 -0.10824892890472293 -0.10677791353120533 0.0732595865204907
48.025 0.07135846813015077 -0.023175727680097145 -0.045501203979291076 0.10030936536719205 -0.048155670552413335 0.10107221355939573 -0.17427523895344027 -0.043509848640366014
48.52 0.05804220434364683 0.0067976444812245015 0.06073118228369706 -0.09340804187850005 0.061407508771709626 -0.0948636469058644 -0.039878216768512095 -0.01593374928377295
49.015 0.09128454384831795 0.007025833977454142 -0.06853922416841474 0.07950484210584643 -0.0708940995640093 0.08479676626143176 -0.15215170775186776 0.06548282306977794
49.51 0.07916556888845509 -0.02323279746019571 0.07578903510707706 -0.07371972717799904 0.07851631741727642 -0.0749736405434415 -0.13842210383046205 -0.07144523736662119
50.005 0.057076592859755054 -0.0008754481647233153 -0.08951599046878435 0.06140048563449623 -0.08887900523473648 0.06377566112888615 -0.043372994271517494 0.03200770688580544
50.5 0.08580798103460671 0.011417859168265656 0.09169504892770997 -0.04602307455502259 0.09306362558799192 -0.05125138308591418 -0.18359297324826546 0.032528870544693604
50.995 0.08584537689102403 -0.0184795830494524 -0.09726427979743675 0.038481349737050315 -0.09846277244602258 0.03924442743443291 -0.09155380963842571 -0.07304107268511657
51.49 0.058687669326302 -0.007134625965451339 0.10537972706263422 -0.022840018811094688 0.10342465866608311 -0.024858895208802263 -0.07419749502270834 0.06844267072972386
51.985 0.07803497276378886 0.014231622363085145 -0.10362151885292324 0.00925499762181759 -0.10308976079597731 0.012523328770178902 -0.18944300530424374 -0.012739350385867007
52.48 0.08924936819564948 -0.009984076753573245 0.10572898113442956 0.0006955758110154711 0.10519526194698293 0.0012522178923555576 -0.05159402972796915 -0.04650923460902529
52.975 0.06233120382482393 -0.010953648667249872 -0.10603177629123446 -0.01493789254087309 -0.10376048035344172 -0.015546885095147603 -0.11971237916154508 0.07942272887960918
53.47 0.06937382904362589 0.014508111081974992 0.1025998030491335 0.026140180497010966 0.10021032836994867 0.026456614959428984 -0.16749587635457178 -0.053446825919626635
53.965 0.08852770193969822 0.00021604203910280504 -0.09817232404475774 -0.038046490265237966 -0.09753017633910382 -0.04054045575636946 -0.034364432628529895 -0.0014685752679179033
54.46 0.0677795249321836 -0.01189902454475726 0.09134398576003222 0.047267414049192644 0.09080301407973912 0.051636736355201544 -0.16208117079057877 0.061738363089910125
54.955 0.06226996027528253 0.011573150437693844 -0.0868300962765243 -0.057333109131781475 -0.08464840922391183 -0.06088425206238529 -0.125447239401386 -0.07443614131390851
55.45 0.0842937921237418 0.009161361742013447 0.0750493914306166 0.06889179083216304 0.07659873066085557 0.07264841864540801 -0.04652967115340193 0.04450826384156436
55.945 0.07426231537308518 -0.010481691047720098 -0.06469816087457314 -0.07274270670727973 -0.06689328517475451 -0.07907049000445791 -0.18575534124213225 0.023005726804195267
56.44 0.058558692680563275 0.005336827920885804 0.05816726564490412 0.08229782078060552 0.05789999968694286 0.08628908642255835 -0.07856202692300908 -0.06755044106679785
56.935 0.07772324790546728 0.014501368826002742 -0.04159604456936203 -0.08971977103958938 -0.04576591060344934 -0.09311078810875052 -0.08251013630433542 0.07364508520170067
57.43 0.08037606181784676 -0.007053583942300141 0.0311214408032385 0.08960841802547978 0.03512769874151736 0.09513958683502288 -0.182725810921049 -0.022175958645705436
57.925 0.05918234515095742 -0.00263685301199017 -0.021583130841703376 -0.09709744611556739 -0.023182626458077973 -0.0991656028455655 -0.044446887015923746 -0.035195749573822835
