!Created with skrf (http://scikit-rf.org).
# GHz S RI R 50.0 
!freq ReS11 ImS11
1.0 0.21751527591393865 -0.14899074445518223
1.495 0.14381617800970695 -0.18949707441004388
1.99 0.058739315937655065 -0.1955558556524713
2.485 -0.022045942233739957 -0.16449873060876222
2.98 -0.08236809066311788 -0.10095375977581988
3.475 -0.10932230135528177 -0.016904295660940323
3.97 -0.09692390164111643 0.07056857756223979
4.465 -0.047982954147757995 0.14350697976723203
4.96 0.026794194027226353 0.1876604075530401
5.455 0.11198923425456347 0.19558211123298364
5.95 0.1913799930367176 0.16737680481584755
6.445 0.25111027047501894 0.10954016219428335
6.94 0.2815437652544453 0.032947119764695255
7.435 0.2780339913112232 -0.04916442028734369
7.93 0.24112697516006523 -0.1229270715204516
8.425 0.17653917269301994 -0.17545490724634472
8.92 0.09486824321234728 -0.1966292174246796
9.415 0.010633956533417699 -0.18114791307752892
9.91 -0.059849689358222005 -0.13043326978176212
10.405 -0.10186871226603768 -0.05346429384403865
10.9 -0.1061891082786823 0.034464236279158525
11.395 -0.07185605953585743 0.1152537098536692
11.89 -0.006496421497122429 0.17265414180446298
12.385 0.07603994459797737 0.1961548866697611
12.88 0.15947526090107977 0.1827333071978374
13.375 0.22869982930199473 0.13639153099911094
13.87 0.2721842659044821 0.06638486988837967
14.365 0.2831484092415565 -0.014852945360143251
14.86 0.2599469127922839 -0.09355897540426897
15.355 0.20612469002441253 -0.15626648981982116
15.85 0.1302710288677891 -0.19148551550593304
16.345 0.04540539773350979 -0.1916536253463632
16.84 -0.032609183293764665 -0.15518391818363425
17.335 -0.08795802327645257 -0.08787785223265948
17.83 -0.10869580915565004 -0.0026453167957816207
18.325 -0.09019746013428938 0.08310436048907846
18.82 -0.03661567057896506 0.15183318156691605
19.315 0.04043449887222081 0.19029798367973472
19.81 0.12525797873875202 0.19228122897389432
20.305 0.20192076520402027 0.15898798283187254
20.8 0.2572095241001864 0.09769656364299388
21.295 0.28228333352839 0.01972029365906543
21.79 0.2733249001458979 -0.0615588892904685
22.285 0.2316980090612488 -0.1323829015590302
22.78 0.16389703790533078 -0.1802362326722352
23.275 0.08118272905308377 -0.1956730137266211
23.77 -0.0015333059323457549 -0.17437581485949344
24.265 -0.06802174583929728 -0.1189511206266198
24.76 -0.1042655550998112 -0.03948015759706763
25.255 -0.10225820580233339 0.04809626832158721
25.75 -0.062461127346682827 0.12575572079752673
26.245 0.006345188627040907 0.17802462167772912
26.74 0.08973548500431544 0.19556955556043465
27.235 0.17147971200416778 0.1765620477272508
27.73 0.23697353860332693 0.1259451238300985
28.225 0.27543083535815577 0.05356925375943318
28.72 0.2808938761979984 -0.027856096319230524
29.215 0.25254577769522024 -0.10456023196714853
29.71 0.19473717706365212 -0.16332259861090556
30.205 0.11679128184964993 -0.19318576026116596
30.7 0.032268376553534345 -0.1874401199273552
31.195 -0.04281559166525056 -0.1456224958851119
31.69 -0.09306650225783308 -0.07471958710979322
32.185 -0.10756087130896302 0.01146583654572447
32.68 -0.08306081496227637 0.09526536958666063
33.175 -0.02503892891087592 0.15963148577550842
33.67 0.054038655274264054 0.19236690326264538
34.165 0.13826072540901785 0.18848070255847327
34.66 0.2120219089860579 0.150249548137587
35.155 0.2627687336985255 0.085700462102636
35.65 0.28245897331678327 0.006557926134491723
36.145 0.268105116802046 -0.07367278001756863
36.64 0.22189091693373686 -0.14136444704212442
37.135 0.1510878156828598 -0.18440206588202657
37.63 0.06760385224054868 -0.19405202040587327
38.125 -0.013300364210948462 -0.16701868789159235
38.62 -0.07555048527748447 -0.10710451029315582
39.115 -0.10590290465574137 -0.025457742649817594
39.61 -0.09762428256719424 0.06141602760584084
40.105 -0.052579978282590756 0.13566625221389766
40.6 0.019360474531599725 0.1826630862580931
41.095 0.1032792499258941 0.19426635251465518
41.59 0.1830603750545159 0.1698149300917178
42.085 0.24464062628432934 0.11514806643269745
42.58 0.27798832338429086 0.04066933942752553
43.075 0.27796826813253384 -0.040668774373913634
43.57 0.24459040703355925 -0.11511581533033094
44.065 0.18300786537562752 -0.16972922269396196
44.56 0.10326390374665008 -0.1941243999999658
45.055 0.019421981494496435 -0.18248712310780002
45.55 -0.05241692619050044 -0.13550288516810652
46.045 -0.09736451609064765 -0.06132571762488101
46.54 -0.10558728046157127 0.025420110598939248
47.035 -0.07524886198461826 0.106910930689269
47.53 -0.013092450433728448 0.16668136843174378
48.025 0.0676514873745155 0.1936229213320576
48.52 0.15093932706676794 0.18396053797010165
49.015 0.2215490543806738 0.14099971062984018
49.51 0.2676106823879614 0.07346724123902287
50.005 0.2818853522437651 -0.006542265531005851
50.5 0.26221369397630656 -0.08543322534481926
50.995 0.2115962475665759 -0.14974198454353013
51.49 0.13807155690728745 -0.18779356939211492
51.985 0.054165866006711284 -0.19161192706923064
52.48 -0.024570276028054575 -0.15895964743930435
52.975 -0.08230260804606478 -0.09483726583278869
53.47 -0.10664485093458696 -0.011408075257594318
53.965 -0.0921791123771383 0.07435643507796903
54.46 -0.04215050807180694 0.14488465527687508
54.955 0.03256071445531735 0.18646017105849683
55.45 0.1166373423069882 0.1921480764881124
55.945 0.19414963664357923 0.16242166123075436
56.44 0.25161396004460357 0.10396584862638433
56.935 0.27976553452494685 0.02768997240917929
57.43 0.2742921097085049 -0.05324855635594057
57.925 0.2360277789559018 -0.12515339146094173
58.42 0.1709214596318067 -0.17539796046701392
58.915 0.08971576071573617 -0.19421585383358975
59.41 0.006929693360938224 -0.17673209785929822
59.905 -0.06132911371403903 -0.12480093662868975
60.4 -0.10076962223318785 -0.047714821901880464
60.895 -0.10271456513629969 0.039164687306829704
61.39 -0.0667343845804323 0.11797087585984897
61.885 -0.0007827565233906458 0.17291301092451336
62.38 0.08123956673208205 0.19400960365631303
62.875 0.16324289393708286 0.17868498530021426
63.37 0.2304432335336494 0.1312265693003345
63.865 0.2716772435105782 0.06100946379402769
64.36 0.2805140900079507 -0.019544875328258948
64.855 0.25562083776306654 -0.09678659850972685
65.35 0.20081030848902465 -0.1574522866406236
65.845 0.12487432435458934 -0.1903506280701806
66.34 0.04092136754517718 -0.18831053579316215
66.835 -0.035275544063876646 -0.1501867255098231
67.33 -0.08821347787183523 -0.0821718392438261
67.825 -0.10644702873564539 0.0026188659696072614
68.32 -0.08590845905234977 0.08685521104311131
68.815 -0.031188025220734855 0.15335283799916405
69.31 0.04590915610107293 0.18937349617885602
69.805 0.1297618338519798 0.1891929239313026
70.3 0.20469723001288814 0.15438123424107603
70.795 0.25784772456112004 0.09241647025356062
71.29 0.28072686465207886 0.014665559761468435
71.785 0.2698456295655319 -0.06554844896263806
72.28 0.2268591632634963 -0.1346196084887798
72.775 0.1585033424497616 -0.18027855047208577
73.27 0.07619457894110396 -0.19342483880488756
73.765 -0.005147213699426376 -0.1701658185034584
74.26 -0.0694924936727524 -0.11353865284909934
74.755 -0.10324039258056279 -0.03393539950082648
75.25 -0.09893042021544322 0.05263839592463436
75.745 -0.05753484183066018 0.12838817483229892
76.24 0.011851099113147107 0.1782861652791796
76.735 0.09475373744370749 0.19350869592409323
77.23 0.17512211927526156 0.17265702734665922
77.725 0.23866177948943357 0.12095092140765591
78.22 0.2749369506481164 0.048361897159612435
78.715 0.278328743911796 -0.0324051363071389
79.21 0.2483287951413053 -0.10768325641895903
79.705 0.18955663298315395 -0.16444831227775336
80.2 0.11154023235873935 -0.1920387655343766
80.695 0.02792856107314559 -0.184136339458388
81.19 -0.04535680634424907 -0.140717889835102
81.685 -0.09323873103195136 -0.06915364693973677
82.18 -0.10529280237772998 0.016561946535635162
82.675 -0.07882674532213307 0.09885246380228861
83.17 -0.019731239616574317 0.16102681601148583
83.665 0.05935492963299821 0.1913822216807068
84.16 0.14260128366798516 0.1854030568316966
84.655 0.21465912360703288 0.14571463965233114
85.15 0.26330991931707226 0.08053474911870971
85.645 0.28085532114268125 0.0016401509772725976
86.14 0.26462946010575206 -0.07751993526162881
86.635 0.21710496501389043 -0.14346772413934944
87.13 0.14579374141429222 -0.18433452568010578
87.625 0.06275589544347666 -0.19173495250453362
88.12 -0.016748572872663944 -0.16279964530853336
88.615 -0.07685758148724266 -0.1017560128241086
89.11 -0.1047524361492213 -0.020047200950818876
89.605 -0.09424225509685809 0.06577791730252759
90.1 -0.0476854120762336 0.13811248566942028
90.595 0.024757841719507248 0.18277361758242205
91.09 0.10813967420743825 0.19211789846904292
91.585 0.18652942324884317 0.1658953373445498
92.08 0.24616945761955922 0.11020658816254017
92.575 0.27736981444878805 0.035568077463151215
93.07 0.27532655131779205 -0.045074702851205864
93.565 0.2403537443213869 -0.11807557389534945
94.06 0.177870853927446 -0.17069049284243284
94.555 0.09812150162388052 -0.19283554237881154
95.05 0.015247850830270512 -0.179092517261631
95.545 -0.054759373079639656 -0.13058547087314437
96.04 -0.09734478566769858 -0.05583873257591397
96.535 -0.10317977047312103 0.030355733218236307
97.03 -0.07096243512092498 0.11029097537615117
97.525 -0.007829554301361341 0.1678708450129639
98.02 0.0728414975421695 0.19247679070178209
98.515 0.1551037973585209 0.1807924386867986
99.01 0.2239953119432291 0.13645326372571942
99.505 0.26797593986071244 0.06836322397530495
100.0 0.28014346688723335 -0.011337953868379023
