!Created with skrf (http://scikit-rf.org).
# GHz S RI R 50.0 
!freq ReS11 ImS11
1.0 0.2175146023059949 -0.14898997850559453
1.0545 0.21037865251037127 -0.15491753480244236
1.109 0.20296317285137044 -0.16051133408661206
1.1635 0.19528302480027132 -0.16575793868629768
1.218 0.18735374250065373 -0.17064450399712683
1.2725 0.1791915156365031 -0.17515881401782007
1.327 0.17081317038694455 -0.17928931718412977
1.3815 0.16223614832675173 -0.18302516239032324
1.436 0.15347848314257434 -0.18635623507058402
1.4905 0.1445587750458747 -0.18927319319613595
1.545 0.13549616277534618 -0.19176750302775986
1.5995 0.12631029309446218 -0.19383147444775486
1.654 0.11702128770398333 -0.19545829568046988
1.7085 0.10764970750489299 -0.19664206719644528
1.763 0.09821651416441148 -0.19737783458215868
1.8175 0.08874302895649855 -0.19766162014556343
1.872 0.07925088886857291 -0.1974904530172461
1.9265 0.06976199998800633 -0.19686239749834844
1.981 0.06029848820519661 -0.19577657939958854
2.0355 0.05088264729456249 -0.19423321011101874
2.09 0.0415368844604508 -0.1922336081397661
2.1445 0.032283663461536154 -0.18978021785311333
2.199 0.023145445454550773 -0.18687662516707845
2.2535 0.014144627725872189 -0.1835275699262821
2.308 0.00530348050730782 -0.17973895472950546
2.3625 -0.0033559178999729156 -0.17551784996700437
2.417 -0.011811747442331141 -0.17087249485044015
2.4715 -0.020042513794191932 -0.16581229423423485
2.526 -0.028027116700145557 -0.1603478110482105
2.5805 -0.03574491885333132 -0.15449075418547575
2.635 -0.04317581496366224 -0.1482539617165528
2.6895 -0.050300300650714655 -0.14165137933050895
2.744 -0.05709954078017686 -0.13469803393614765
2.7985 -0.06355543684996406 -0.127410002390848
2.853 -0.06965069302277453 -0.1198043753610907
2.9075 -0.0753688803962714 -0.11189921635668604
2.962 -0.08069449910045544 -0.10371351601983082
3.0165 -0.08561303781433711 -0.0952671417898847
3.071 -0.09011103030085046 -0.08658078310471462
3.1255 -0.09417610857013538 -0.07767589233907789
3.18 -0.09779705229687312 -0.06857462171929735
3.2345 -0.1009638341371988 -0.059299756490882774
3.289 -0.1036676606147214 -0.04987464465126272
3.3435 -0.10590100827314593 -0.040323123592894014
3.398 -0.10765765482463138 -0.030669444032228467
3.4525 -0.10893270505801222 -0.020938191626895506
3.507 -0.10972261130895808 -0.011154206706591875
3.5615 -0.11002518833458388 -0.001342502562208265
3.616 -0.10983962247748236 0.00847181724763428
3.6705 -0.10916647504807196 0.018263642103432728
3.725 -0.10800767989900344 0.028007937570581266
3.7795 -0.10636653521053856 0.03767982820923185
3.834 -0.10424768955076447 0.047254679477853834
3.8885 -0.10165712231860718 0.056708178269375714
3.943 -0.09860211872034566 0.0660164116327056
3.9975 -0.09509123947112634 0.07515594325076283
4.052 -0.09113428545136128 0.0841038872686555
4.1065 -0.08674225758338495 0.09283797909192265
4.161 -0.08192731222596367 0.10133664280446975
4.2155 -0.07670271241282321 0.1095790548884836
4.27 -0.07108277528602401 0.1175452039637637
4.3245 -0.06508281609555253 0.1252159463010372
4.379 -0.05871908915274257 0.1325730569024045
4.4335 -0.05200872613705218 0.13959927598159344
4.488 -0.04496967216326306 0.14627835071661727
4.5425 -0.03762062001940383 0.15259507218726978
4.597 -0.02998094298476403 0.15853530744912264
4.6515 -0.02207062663241026 0.16408602673388475
4.706 -0.013910200011894663 0.16923532580270106
4.7605 -0.00552066659562124 0.1739724435138308
4.815 0.0030765646430906957 0.1782877746988195
4.8695 0.011859747670467977 0.18217287847148556
4.924 0.020806867022257328 0.18562048212151666
4.9785 0.02989570431705875 0.18862448076908062
5.033 0.039103903371459026 0.19117993297840774
5.0875 0.04840903366133228 0.19328305254677636
5.142 0.05778865190055757 0.19493119670065032
5.1965 0.0672203615358767 0.19612285094291215
5.251 0.07668186998432977 0.19685761080426867
5.3055 0.08615104346732304 0.1971361607580482
5.36 0.0956059593226034 0.1969602505609032
5.4145 0.10502495570197447 0.19633266928252843
5.469 0.11438667858820561 0.19525721728557593
5.5235 0.12367012608909106 0.19373867641268777
5.578 0.1328546899897778 0.19178277863120552
5.6325 0.14192019456618687 0.1893961733778361
5.687 0.15084693268245045 0.18658639383561515
5.7415 0.15961569921370738 0.18336182236411733
5.796 0.1682078218522482 0.17973165529125074
5.8505 0.17660518936988878 0.17570586726134974
5.905 0.18479027742249407 0.17129517531987096
5.9595 0.19274617199386232 0.16651100289998322
6.014 0.2004565905856527 0.161365443860938
6.0685 0.2079059012678227 0.15587122671245413
6.123 0.2150791397101237 0.1500416791436509
6.1775 0.22196202431969997 0.1438906929594249
6.232 0.2285409696128007 0.1374326895117537
6.2865 0.23480309795014753 0.13068258569831492
6.341 0.2407362497656626 0.1236557605861564
6.3955 0.24632899241720863 0.11636802270401456
6.45 0.2515706277857264 0.10883557803333922
6.5045 0.2564511987458684 0.10107499871520975
6.559 0.2609614946269402 0.09310319247815742
6.6135 0.26509305577780384 0.08493737278050412
6.668 0.2688381773434433 0.0765950296502057
6.7225 0.27218991235422824 0.06809390119538075
6.777 0.2751420742216319 0.059451945749726814
6.8315 0.27768923872630236 0.05068731460890017
6.886 0.2798267455760725 0.041818325306649896
6.9405 0.2815506996027626 0.03286343537306195
6.995 0.2828579716575226 0.02384121651171832
7.0495 0.28374619925510064 0.014770329127841497
7.104 0.2842137870077878 0.005669497135640975
7.1585 0.2842599068799929 -0.0034425170299357856
7.213 0.2838844982844534 -0.012546937274009386
7.2675 0.2830882680310491 -0.021624998653413767
7.322 0.28187269012910854 -0.030657972217941906
7.3765 0.28024000543401645 -0.03962718995958376
7.431 0.2781932211188859 -0.04851406994694066
7.4855 0.2757361099421116 -0.057300141719949266
7.54 0.2728732092718074 -0.06596707201715124
7.5945 0.2696098198184925 -0.07449669090399519
7.649 0.265952004018002 -0.08287101836607054
7.7035 0.2619065839974737 -0.09107229142571532
7.758 0.25748113904851866 -0.099082991834153
7.8125 0.25268400252330214 -0.10688587438415562
7.867 0.24752425806140216 -0.1144639958802357
7.9215 0.2420117350479507 -0.12180074479453598
7.976 0.2361570031968565 -0.1288798716269191
8.0305 0.22997136614687075 -0.135685519977282
8.085 0.22346685395301777 -0.14220225832686917
8.1395 0.21665621435153398 -0.14841511251332812
8.194 0.20955290267303256 -0.15430959887154314
8.2485 0.2021710702762492 -0.15987175799887005
8.303 0.1945255513734841 -0.1650881890894256
8.3575 0.1866318481188791 -0.16994608476754794
8.412 0.178506113831998 -0.1744332663356041
8.4665 0.17016513423194662 -0.17853821933601183
8.521 0.16162630656152185 -0.18225012931183107
8.5755 0.1529076164867469 -0.18555891763465918
8.63 0.14402761266462455 -0.18845527725300604
8.6845 0.13500537888117137 -0.19093070819895736
8.739 0.1258605036727556 -0.19297755267596867
8.7935 0.11661304735649644 -0.194589029536216
8.848 0.10728350641004504 -0.19575926794228254
8.9025 0.09789277515736876 -0.19648333999529377
8.957 0.08846210473524045 -0.19675729210011594
9.0115 0.07901305933488129 -0.19657817482816503
9.066 0.06956746973455219 -0.19594407102992056
9.1205 0.06014738416173237 -0.19485412194265753
9.175 0.05077501654766371 -0.19330855103438174
9.2295 0.04147269226237132 -0.19130868532273254
9.284 0.03226279144451691 -0.18885697390785655
9.3385 0.02316769006740782 -0.18595700346116104
9.393 0.014209698909862456 -0.1826135104175699
9.4475 0.005411000628165963 -0.17883238962757056
9.502 -0.0032064148473340687 -0.17462069923702062
9.5565 -0.011620816340632695 -0.16998666157749065
9.611 -0.019810798607247507 -0.16493965986780845
9.6655 -0.027755350359301628 -0.15949023054847886
9.72 -0.03543392281470942 -0.1536500510946508
9.7745 -0.04282649842572214 -0.14743192318021342
9.829 -0.049913659423604956 -0.14084975109521544
9.8835 -0.056676655800497217 -0.13391851535091523
9.938 -0.06309747233688932 -0.12665424144109091
9.9925 -0.06915889427400897 -0.11907396376445278
10.047 -0.07484457122493504 -0.11119568475072536
10.1015 -0.0801390789167492 -0.10303832927179948
10.156 -0.08502797835866288 -0.09462169445882335
10.2105 -0.08949787203790484 -0.08596639508577116
10.265 -0.09353645675636867 -0.0770938047193152
10.3195 -0.09713257273651514 -0.06802599287332257
10.374 -0.10027624864480249 -0.05878565844337413
10.4285 -0.10295874220480607 -0.04939605973191416
10.483 -0.10517257610000165 -0.03988094140744823
10.5375 -0.1069115688976388 -0.03026445877115324
10.592 -0.10817086075990394 -0.020571099730887908
10.6465 -0.1089469337462708 -0.010825604905494574
10.701 -0.109237626551092 -0.001052886301133545
10.7555 -0.10904214356264483 0.008722054984124414
10.81 -0.10836105817345297 0.018474211561321043
10.8645 -0.10719631031620568 0.028178652585957094
10.919 -0.10555119824445358 0.037810606156013796
10.9735 -0.10343036462182968 0.04734554080547695
11.028 -0.10083977702734266 0.05675924563542538
11.0825 -0.09778670302665825 0.06602790863856794
11.137 -0.09427967999978852 0.07512819279134694
11.1915 -0.0903284799536733 0.08403730951006567
11.246 -0.08594406958335934 0.09273308909360911
11.3005 -0.08113856587744149 0.10119404780480606
11.355 -0.07592518759177885 0.10939945127490613
11.4095 -0.07031820293997382 0.11732937395053951
11.464 -0.06433287386947438 0.12496475433935397
11.5185 -0.057985397308290235 0.13228744584884633
11.573 -0.051292843779139174 0.13928026305209582
11.6275 -0.04427309378532224 0.1459270232537594
11.682 -0.03694477237586419 0.15221258326919368
11.7365 -0.02932718229651453 0.15812287136853442
11.791 -0.021440236128335774 0.16364491437544693
11.8455 -0.013304387806936102 0.16876685994672974
11.9 -0.00494056390331217 0.17347799409354875
11.9545 0.0036299049680332818 0.17776875403753287
12.009 0.01238535226614286 0.18163073652494122
12.0635 0.02130384283883892 0.18505670174941663
12.118 0.03036323913185155 0.1880405730582727
12.1725 0.039541266011929664 0.19057743263869342
12.227 0.04881557394973975 0.19266351339857452
12.2815 0.058163800335037666 0.19429618727197623
12.336 0.06756362872385849 0.19547395019129876
12.3905 0.07699284584496631 0.19619640397738033
12.445 0.0864293962202194 0.19646423540485586
12.4995 0.09585143428053872 0.1962791927034207
12.554 0.10523737388551957 0.1956440597562635
12.6085 0.1145659351801779 0.19456262825505957
12.663 0.1238161887466581 0.19303966806671696
12.7175 0.13296759703173217 0.19108089606077766
12.772 0.1420000530525042 0.1886929436381955
12.8265 0.1508939164026823 0.18588332319236303
12.881 0.15963004660010754 0.1826603937219861
12.9355 0.1681898338327907 0.17903332580288384
12.99 0.1765552271754885 0.17501206611231027
13.0445 0.18470876036185482 0.17060730168507832
13.099 0.19263357520842903 0.16583042406588433
13.1535 0.20031344279614388 0.16069349350694148
13.208 0.20773278252282273 0.155209203344486
13.2625 0.21487667914616243 0.14939084467214747
13.317 0.22173089794122725 0.14325227141362207
13.3715 0.22828189809941515 0.13680786588180455
13.426 0.23451684449742521 0.13007250489651273
13.4805 0.24042361796492495 0.12306152651840235
13.535 0.24599082417858645 0.1157906974426011
13.5895 0.2512078013079376 0.10827618108213906
13.644 0.2560646265352078 0.1005345063584612
13.6985 0.26055212156710833 0.09258253720419468
13.753 0.26466185725137586 0.08443744277201175
13.8075 0.2683861574049871 0.0761166683328612
13.862 0.27171810195434826 0.06763790683708815
13.9165 0.2746515294805205 0.0590190711030286
13.971 0.2771810392547436 0.05027826658958194
14.0255 0.279301992841251 0.041433764702017796
14.08 0.28101051533568766 0.03250397657387829
14.1345 0.2823034962983924 0.023507427262295568
14.189 0.2831785904324894 0.01446273028936744
14.2435 0.28363421804715117 0.00538856245837541
14.298 0.28366956533665055 -0.003696361129353654
14.3525 0.2832845844959168 -0.012773311933281913
14.407 0.2824799936833282 -0.02182357278584987
14.4615 0.28125727683144736 -0.03082846273613738
14.516 0.27961868329636363 -0.03976936200273683
14.5705 0.27756722732632855 -0.04862773711236297
14.625 0.27510668732046367 -0.057385166298671575
14.6795 0.27224160483856147 -0.06602336523284962
14.734 0.2689772833134137 -0.07452421315380989
14.7885 0.26531978640776416 -0.08286977946120666
14.843 0.26127593594891824 -0.09104235082907378
14.8975 0.2568533093653423 -0.09902445889157072
14.952 0.2520602365412701 -0.1067989085452079
15.0065 0.24690579599752294 -0.11434880690391708
15.061 0.24139981029944735 -0.12165759293453765
15.1155 0.23555284058623044 -0.1287090677906224
15.17 0.22937618010986194 -0.13548742585204368
15.2245 0.2228818466668426 -0.1419772864666367
15.279 0.21608257380141052 -0.1481637263781445
15.3335 0.20899180065568898 -0.1540323128120415
15.388 0.20162366033985296 -0.159569137177479
15.4425 0.19399296669423308 -0.16476084932964125
15.497 0.18611519931533382 -0.1695946923223729
15.5515 0.1780064867191407 -0.17405853756602035
15.606 0.1696835875178858 -0.17814092029023249
15.6605 0.16116386949075018 -0.18183107519600977
15.715 0.15246528643486879 -0.18511897216577536
15.7695 0.14360635269051256 -0.18799535188476976
15.824 0.13460611524357666 -0.1904517612118085
15.8785 0.12548412331945474 -0.19248058812257843
15.933 0.11626039539514561 -0.19407509603434786
15.9875 0.10695538357096146 -0.19522945730743174
16.042 0.09758993525949848 -0.19593878570620626
16.0965 0.08818525216757694 -0.1961991675910914
16.151 0.07876284656655072 -0.1960076916029687
16.2055 0.06934449486768035 -0.19536247659317812
16.26 0.05995218854200143 -0.1942626975457617
16.3145 0.05060808244821566 -0.19270860923422017
16.369 0.041334440657301116 -0.19070156735292715
16.4235 0.03215357988871301 -0.1882440468636815
16.478 0.023087810699832637 -0.1853396573008813
16.5325 0.014159376597579654 -0.181993154784585
16.587 0.005390391268467257 -0.17821045049945344
16.6415 -0.0031972258494988998 -0.17399861540929665
16.696 -0.011581815403016324 -0.16936588099177857
16.7505 -0.019742045092071975 -0.16432163579573236
16.805 -0.027656977470740432 -0.15887641764452962
16.8595 -0.03530613825730275 -0.15304190133291207
16.914 -0.042669584810044514 -0.14683088169153577
16.9685 -0.04972797440680332 -0.14025725192301278
17.023 -0.056462631950792305 -0.1333359771452389
17.0775 -0.06285561671282588 -0.12608306311197526
17.132 -0.06888978771105324 -0.11851552011671704
17.1865 -0.07454886732401865 -0.11065132212343094
17.241 -0.07981750273147971 -0.1025093612063612
17.2955 -0.08468132478014363 -0.09410939742038378
17.35 -0.08912700387844388 -0.08547200426278276
17.4045 -0.09314230253571973 -0.07661850992641656
17.459 -0.09671612417671463 -0.067570934582434
17.5135 -0.09983855788207537 -0.05835192396755158
17.568 -0.10250091872940385 -0.0489846795858218
17.6225 -0.1046957834371421 -0.03949288586740968
17.677 -0.10641702104496646 -0.029900634656547142
17.7315 -0.10765981839898503 -0.02023234742723647
17.786 -0.1084207002475923 -0.01051269564796145
17.8405 -0.10869754379381517 -0.0007665197352764205
17.895 -0.10848958759193647 0.008981252949539349
17.9495 -0.10779743471955676 0.018705690596845924
18.004 -0.10662305020053331 0.028381939469064345
18.0585 -0.10496975269880361 0.037985305975972224
18.113 -0.10284220054743902 0.04749133784020734
18.1675 -0.10024637222075619 0.05687590389760355
18.222 -0.09718954139944733 0.06611527209081955
18.2765 -0.09368024681888346 0.07518618523291595
18.331 -0.08972825712857008 0.0840659341398246
18.3855 -0.0853445310256789 0.09273242775668036
18.44 -0.08054117295730613 0.10116425993234754
18.4945 -0.07533138471423102 0.10934077252874516
18.549 -0.06972941326321305 0.1172421145863185
18.6035 -0.06375049518506273 0.12484929730363444
18.658 -0.057410798101700064 0.13214424462719537
18.7125 -0.05072735948710473 0.13910983928654488
18.767 -0.04371802326444578 0.14572996414916356
18.8215 -0.036401374594850794 0.15198953880892024
18.876 -0.028796673262282774 0.1578745513605787
18.9305 -0.020923786054112034 0.163372085350513
18.985 -0.012803118528314561 0.16847034193001215
19.0395 -0.0044555465461633 0.17315865727195082
19.094 0.004097652065956997 0.17742751534381945
19.1485 0.01283486537998925 0.1812685561599119
19.203 0.02173421442979978 0.18467457966258366
19.2575 0.03077361917234509 0.1876395454067571
19.312 0.03993086306812016 0.1901585682431404
19.3665 0.04918365602816655 0.1922279102138544
19.421 0.05850969550142743 0.19384496888927938
19.4755 0.06788672550336902 0.19500826238700486
19.53 0.07729259341410803 0.19571741132277293
19.5845 0.0867053044015465 0.19597311794939765
19.639 0.09610307335188685 0.19577714274292418
19.6935 0.10546437421609962 0.19513227869588506
19.748 0.11476798670621077 0.19404232357565387
19.8025 0.12399304029948792 0.19251205040170344
19.857 0.13311905553143807 0.19054717638932522
19.9115 0.14212598258001474 0.1881543305992202
19.966 0.15099423716324906 0.1853410205225857
20.0205 0.1597047337907606 0.18211559782009354
20.075 0.16823891642602007 0.17848722342072948
20.1295 0.17657878663099608 0.17446583217302641
20.184 0.18470692927769322 0.17006209722701365
20.2385 0.19260653592226834 0.16528739431039452
20.293 0.20026142594680663 0.16015376604725118
20.3475 0.20765606558151672 0.1546738864521393
20.402 0.21477558492617088 0.148861025716918
20.4565 0.2216057930940576 0.14272901539222937
20.511 0.2281331916046783 0.13629221405029632
20.5655 0.23434498615293722 0.12956547350081898
20.62 0.24022909688277522 0.12256410561724118
20.6745 0.24577416729214824 0.11530384981670053
20.729 0.25096957189404484 0.10780084122357958
20.7835 0.2558054227549866 0.10007157953384976
20.838 0.2602725750282331 0.0921328985853543
20.8925 0.2643626315938121 0.08400193662790983
20.947 0.26806794691162067 0.07569610727658066
21.0015 0.27138163018724615 0.06723307112179006
21.056 0.2742975479429579 0.058630707961033646
21.1105 0.27681032607853995 0.04990708960895136
21.165 0.278915351498419 0.04108045323525193
21.2195 0.28060877337286894 0.032169175173698335
21.274 0.28188750409208346 0.023191745139794426
21.3285 0.2827492199626146 0.014166740790195514
21.383 0.2831923616861326 0.005112802553035371
21.4375 0.28321613465075823 -0.0039513913445941564
21.492 0.2828205090553537 -0.013007149727913317
21.5465 0.28200621987721697 -0.02203579328164281
21.601 0.28077476668363155 -0.031018679390727742
21.6555 0.2791284132777371 -0.039937227091851366
21.71 0.2770701871592316 -0.04877294221169917
21.7645 0.2746038787705676 -0.057507442765943356
21.819 0.2717340404895803 -0.06612248468992626
21.8735 0.2684659853199486 -0.07459998796833328
21.928 0.2648057852215937 -0.0829220632265027
21.9825 0.26076026901411253 -0.09107103884059603
22.037 0.2563370197776699 -0.0990294886175489
22.0915 0.2515443716675413 -0.10678026008859794
22.146 0.24639140605070425 -0.11430650345217604
22.2005 0.24088794686564302 -0.12159170119320087
22.255 0.2350445550999406 -0.12861969839609563
22.3095 0.2288725222742895 -0.13537473375850256
22.364 0.22238386281643732 -0.1418414713014004
22.4185 0.21559130520430997 -0.14800503275941468
22.473 0.20850828175426542 -0.15385103062241545
22.5275 0.2011489169281152 -0.15936560178625434
22.582 0.19352801403152642 -0.16453544175650608
22.6365 0.18566104017641455 -0.16934783933477665
22.691 0.17756410938148642 -0.1737907117022005
22.7455 0.16925396368786463 -0.17785263979967372
22.8 0.1607479521711176 -0.18152290388893977
22.8545 0.15206400773692144 -0.18479151916321718
22.909 0.14322062159514592 -0.18764927126066533
22.9635 0.13423681531643453 -0.19008775151879959
23.018 0.12513211038628877 -0.19209939179320762
23.0725 0.11592649518451573 -0.19367749864969824
23.127 0.10664038933233418 -0.19481628672559959
23.1815 0.0972946053658203 -0.1955109110434644
23.236 0.08791030771231392 -0.19575749804918477
23.2905 0.07850896896613242 -0.19555317513667636
23.345 0.06911232348115119 -0.1948960984130753
23.3995 0.05974231832055604 -0.19378547845202904
23.454 0.050421061627983106 -0.19222160377837183
23.5085 0.041170768509516856 -0.19020586182545285
23.563 0.032013704541928575 -0.1877407571068283
23.6175 0.02297212704933846 -0.1848299263471152
23.672 0.014068224317554473 -0.18147815032267642
