!Created with skrf (http://scikit-rf.org).
# GHz S RI R 50.0 
!freq ReS11 ImS11
1.0 0.25059294114639796 -0.15117662369038032
1.495 0.1917690674422501 -0.20632986374441195
1.99 0.11782303925625225 -0.2399244176796217
2.485 0.036293183676686665 -0.24784483505464477
2.98 -0.04406056460429887 -0.22853779434444682
3.475 -0.11413959081788627 -0.18347588701661507
3.97 -0.16562804507173984 -0.11728408161811385
4.465 -0.19219010226625957 -0.03738247272690857
4.96 -0.1904872608673112 0.046896139655534234
5.455 -0.16074935017264225 0.12559436979468636
5.95 -0.1067334886142075 0.1895583388872245
6.445 -0.03508329953955353 0.231686015700565
6.94 0.045727172467490015 0.24774513478840549
7.435 0.1265936401913384 0.23666293039024905
7.93 0.19887835741267906 0.20034690980303704
8.425 0.255254915461395 0.14319083732596627
8.92 0.2902655250618505 0.07143373141920885
9.415 0.30063509883649026 -0.0075057770848656405
9.91 0.2854158851284018 -0.08566432070118504
10.405 0.24602230873822487 -0.15513978104998988
10.9 0.18617538356390542 -0.20870042739230515
11.395 0.11172842737667903 -0.2404258327035745
11.89 0.030309308777328743 -0.2463718928962046
12.385 -0.049292110003980906 -0.22519144954897274
12.88 -0.11802324413420406 -0.17857680796502023
13.375 -0.16769823202910875 -0.11135418032414036
13.87 -0.19218678379520926 -0.031089185651377967
14.365 -0.18840369626421247 0.05282743130502332
14.86 -0.15683760904183713 0.13048300689261028
15.355 -0.10146502853732513 0.19286312368663944
15.85 -0.029075305617877946 0.23307160413541528
16.345 0.051800454016307694 0.24710976448012328
16.84 0.1320849852013817 0.23412936699915138
17.335 0.2032338387034066 0.19622715216338213
17.83 0.2580578507240661 0.13793767276885005
18.325 0.29126051913626594 0.06558964697351456
18.82 0.2997378330856313 -0.013356786463952872
19.315 0.28271398772650447 -0.09094123866178457
19.81 0.2417700011495085 -0.15930747047982793
20.305 0.1807810712281013 -0.21131357258225228
20.8 0.10573132284365333 -0.24117461485304353
21.295 0.024339848841459857 -0.24512615037383648
21.79 -0.05457163452775778 -0.2220352599142106
22.285 -0.12199615842079962 -0.17382181984925488
22.78 -0.16987940703432194 -0.10552030561285455
23.275 -0.19229985908825725 -0.024847331871521727
23.77 -0.18642976050625343 0.058744898302888954
24.265 -0.15302077517983903 0.13538681611106312
24.76 -0.0962724635438445 0.19620327196492054
25.255 -0.023122792098610553 0.23450462279369344
25.75 0.05783790579042505 0.24652690100312985
26.245 0.13755780050621494 0.23164778046696544
26.74 0.20758465722336017 0.19215480244755237
27.235 0.26086600057474196 0.1327250100876995
27.73 0.29226665196926094 0.05977853970451443
28.225 0.2988543391508768 -0.01918142910243837
28.72 0.28002642794612315 -0.09619639373114895
29.215 0.23753211791112955 -0.16345559200814824
29.71 0.17540240419054576 -0.21390739073464937
30.205 0.09975340964559812 -0.2419036620259803
30.7 0.018395760965074767 -0.24386150927257202
31.195 -0.05981784564524846 -0.21886419153953393
31.69 -0.12592806696394557 -0.16906042428491697
32.185 -0.17201476944553418 -0.09969290537640696
32.68 -0.19236759381647267 -0.01862765838220197
33.175 -0.1844174910545433 0.06462442633843737
33.67 -0.14917877062218807 0.1402399691308533
34.165 -0.09107217608622573 0.19948553238767694
34.66 -0.01718160502192219 0.23587916197818756
35.155 0.06384603710626864 0.24589139513661562
35.65 0.14298636317840058 0.22912463715049394
36.145 0.21188050279776569 0.18805566003138788
36.64 0.2636131159039654 0.1275025108068489
37.135 0.29321042232987193 0.05397555624097342
37.63 0.29791190468740386 -0.024979920236957238
38.125 0.2772882178544901 -0.1014082111697727
38.62 0.2332569105497978 -0.16754518264499615
39.115 0.170004730905683 -0.21643105605288887
39.61 0.09377914406140386 -0.24255648516388742
40.105 0.012480650250972412 -0.2425221791241643
40.6 -0.06500991679629817 -0.21562908772068323
41.095 -0.12978461597042132 -0.1642549799584135
41.59 -0.1740614500459337 -0.09384911736313951
42.085 -0.1923442591488926 -0.01242336006375246
42.58 -0.18232381232667555 0.07045753079864425
43.075 -0.1452758101522465 0.14502122731833772
43.57 -0.08583891129917563 0.20267967602167555
44.065 -0.011238636878202937 0.23716033600699452
44.56 0.06982575534195468 0.24516798524815459
45.055 0.1483606300289306 0.22652804734019233
45.55 0.21610257370575103 0.1839041235835647
46.045 0.26627440170423317 0.12225281354069156
46.54 0.29406405437517175 0.04817254763369228
47.035 0.29688276658316076 -0.030751147049574025
47.53 0.27447436709558115 -0.10656710010953815
48.025 0.22892450541085402 -0.17155968147863931
48.52 0.16457505544514575 -0.21886313819149297
49.015 0.0878034326772619 -0.2431093056985838
49.51 0.006597493423221176 -0.2410847445818516
50.005 -0.07013754095408575 -0.212309507030952
50.5 -0.13354975134733202 -0.15939020586332114
50.995 -0.17599987131086148 -0.08798028825939228
51.49 -0.19220929433686113 -0.006232968338996728
51.985 -0.1801296581720199 0.07623887947956187
52.48 -0.14129639364816535 0.14971964651136116
52.975 -0.08056216626148298 0.20577088455003317
53.47 -0.005289079885686207 0.23833143962386605
53.965 0.07577617661243465 0.24434004228961037
54.46 0.15367461688215775 0.22384319050444196
54.955 0.22024081542046847 0.17968855149868784
55.45 0.26883704974449185 0.1169683968587436
55.945 0.2948134518105041 0.042366601526602016
56.44 0.2957530342798931 -0.03649337327400251
56.935 0.2715726029942509 -0.11166706690804262
57.43 0.22452547093812947 -0.17548962650144959
57.925 0.15910771220590098 -0.22119183800349124
58.42 0.08182489549979471 -0.24354936926383045
58.915 0.0007492249978627921 -0.23953699022925695
59.41 -0.07519396548560536 -0.20889519661284844
59.905 -0.13721387757250322 -0.1544589627286232
60.4 -0.1778189096736668 -0.08208309618165872
60.895 -0.19195149162800199 -5.713935637910756e-05
61.39 -0.17782508012952966 0.08196420794487738
61.885 -0.13723288798944214 0.1543281419757182
62.38 -0.07523728725777563 0.20875029114891475
62.875 0.000668486311556131 0.2393829412504521
63.37 0.08169560024663225 0.2433984291911322
63.865 0.15892390757985314 0.2210622336990644
64.36 0.22428871731873484 0.17540312205678216
64.855 0.271293220477684 0.11164592700751694
65.35 0.29545029305848425 0.03655710384950191
65.845 0.2945147725311248 -0.04220451473218526
66.34 0.26857620361200374 -0.11670360606300317
66.835 0.2200550133038711 -0.1793286148878837
67.33 0.15360035898975768 -0.22340959745285055
67.825 0.0758438946484058 -0.24386886160880236
68.32 -0.005061168456443513 -0.23787180062326613
68.815 -0.08017401002249863 -0.20538061600212165
69.31 -0.1407703541069454 -0.14945793823760425
69.805 -0.17951138330767052 -0.07615677402138317
70.3 -0.19156406946237686 0.006102410794231046
70.795 -0.17540450150599893 0.08762971533612558
71.29 -0.13308147960349515 0.1588414541646337
71.785 -0.06986249849880202 0.21161190003998975
72.28 0.006633784646426326 0.24030881617440383
72.775 0.08758188568922684 0.24233771331491263
73.27 0.16410483409867657 0.21818083721094372
73.765 0.2282415207228075 0.1710449570322885
74.26 0.2736375689372696 0.10628421795856255
74.755 0.2959691913598123 0.030744646148058205
75.25 0.29316310748604596 -0.04788227301242052
75.745 0.2654813338270722 -0.12167294910155248
76.24 0.21551078146900468 -0.18307181231828507
76.735 0.14805243151700687 -0.22551106994825565
77.23 0.06986174929919939 -0.2440625787485967
77.725 -0.0108306397309329 -0.23608478743063302
78.22 -0.08507331252547914 -0.20176277339322682
78.715 -0.14421412235220765 -0.14438591346568944
79.21 -0.18107225080850783 -0.07020197031306225
79.705 -0.1910426746309059 0.012243363652460391
80.2 -0.17286476437129278 0.09323184008089684
80.695 -0.12884048412682791 0.163255324830408
81.19 -0.0644376409090681 0.21435131011953507
81.685 0.012605574443391727 0.24110500296514792
82.18 0.09343263250268052 0.2411545500878558
82.675 0.16921414046440142 0.21519664388150633
83.17 0.23209545373665363 0.166612861668373
83.665 0.2758661694453531 0.10088332419296495
84.16 0.2963664438839776 0.02493052807308209
84.655 0.2916949366744322 -0.053524209602035515
85.15 0.26228584392024074 -0.12657174044009115
85.645 0.21089186498647433 -0.18671528893018566
86.14 0.14246442707177792 -0.2274922018352123
86.635 0.06388036188759927 -0.2441268594204409
87.13 -0.01655609023849476 -0.2341731895995291
87.625 -0.08988798965732255 -0.19804021101140212
88.12 -0.1475410699961402 -0.13924293941193044
88.615 -0.18249776455298478 -0.06422019875534501
89.11 -0.1903844316826355 0.018363028807654905
89.605 -0.17020418967797654 0.09876716394396193
90.1 -0.12450952355810786 0.16756610858870255
90.595 -0.05896355018024023 0.21696510081097364
91.09 0.01858202028273493 0.24176865110523243
91.585 0.0992452786049089 0.23984688670185644
92.08 0.17424882468785668 0.2121085274233619
92.575 0.23584735649115104 0.16210669125134103
93.07 0.277975980912223 0.09544407904000637
93.565 0.29663940300262576 0.01911649899991669
94.06 0.290108274519337 -0.05912779100071782
94.555 0.25898865443597696 -0.1313968790111398
95.05 0.20619827572938607 -0.1902556846005152
95.545 0.1368375292730699 -0.22934976300915494
96.04 0.05790201743539383 -0.24405903385693525
96.535 -0.022234382110438433 -0.23213530003634866
97.03 -0.0946144656923105 -0.19421247100976022
97.525 -0.15074770182238245 -0.1340298986455083
98.02 -0.18378502610018377 -0.05821354057780128
98.515 -0.1895874383239855 0.024458473408398993
99.01 -0.16742207343635837 0.10423236735753065
99.505 -0.12008908081784496 0.171770569721349
100.0 -0.05344171628603013 0.21945050433837818
