!Created with skrf (http://scikit-rf.org).
# GHz S RI R 50.0 
!freq ReS11 ImS11
1.0 0.2175146023059949 -0.14898997850559453
1.2475 0.18296351730728355 -0.17313499694566775
1.495 0.14381563325716423 -0.18949526417030507
1.7425 0.1017706619045011 -0.19715391676538394
1.99 0.058739693775048264 -0.19555323012731973
2.2375 0.01677150526912856 -0.18455664512956294
2.485 -0.022044095345602657 -0.16449594087808816
2.7325 -0.05569282290966633 -0.13619366931297588
2.98 -0.08236467464604728 -0.10095171916264783
3.2275 -0.1005828311579319 -0.0604999298389384
3.475 -0.10931776924244456 -0.016903898342805035
3.7225 -0.10807142144360063 0.027562347018857722
3.97 -0.09691918169316331 0.07056677854371765
4.2175 -0.07650337326244024 0.1098763932559833
4.465 -0.047979186185551206 0.14350299601132477
4.7125 -0.012921230297319328 0.16982215015576754
4.96 0.0267959995920138 0.18765483889665122
5.2075 0.06912834040901984 0.1963079469466827
5.455 0.11198847016810332 0.1955759794976445
5.7025 0.15335770080680206 0.18571113698777147
5.95 0.191376579625669 0.1673712969421438
6.1975 0.22441231624151556 0.14155566493654692
6.445 0.2511046413069805 0.1095363865960463
6.6925 0.27039398062150555 0.07279199866892885
6.94 0.2815367731593283 0.03294592481135217
7.1875 0.28411259489279006 -0.008289209774380477
7.435 0.2780267846597943 -0.049162571039986905
7.6825 0.2635108050649281 -0.08793378404477427
7.93 0.2411208575713118 -0.12292219221867964
8.1775 0.21173350552455894 -0.15255947638249312
8.425 0.17653542801227584 -0.17544755968498885
8.6725 0.13700314626340332 -0.19042219990318976
8.92 0.09486790233039526 -0.19662053031355745
9.1675 0.052061138830842214 -0.19354824296198647
9.415 0.010637514858365463 -0.1811394881004132
9.6625 -0.027324767437330172 -0.15980047357282492
9.91 -0.059842529030326164 -0.13042691279399182
10.1575 -0.08515666930293436 -0.09438657287871849
10.405 -0.10185913566801107 -0.05346157803038799
10.6525 -0.1090027394880946 -0.009750590145730853
10.9 -0.10617900333799418 0.03446244700339211
11.1475 -0.09355266117701073 0.0768601899638382
11.395 -0.07184755514511465 0.11524756615202655
11.6425 -0.04228609467322694 0.14769363610073155
11.89 -0.006491325422771074 0.17264478876971623
12.1375 0.03363465210902686 0.18899983398223408
12.385 0.076040575094979 0.19614414035123895
12.6325 0.11865031509183617 0.19394605617994648
12.88 0.15947128271204358 0.18272319893602568
13.1275 0.1966812087013642 0.16318826180829005
13.375 0.22869193717129957 0.1363839012032776
13.6225 0.2541922490864721 0.10361462126119797
13.87 0.27217379007755016 0.06638109683065144
14.1175 0.2819449314220231 0.026319732283345526
14.365 0.2831370874701936 -0.014852095893726769
14.6125 0.2757069600642959 -0.05538645902287196
14.86 0.25993667306130375 -0.09355343475003161
15.1075 0.23643203534082086 -0.12769071796748166
15.355 0.20611742287777274 -0.1562569423979548
15.6025 0.1702241878406643 -0.17789042354129306
15.85 0.13026830770600917 -0.19147341186601613
16.0975 0.08801245739862995 -0.1961997310189066
16.345 0.045408134381448736 -0.19164108360029106
16.5925 0.004515160091110207 -0.1778047432346973
16.84 -0.03260108320418863 -0.15517342577859367
17.0875 -0.06399017559905264 -0.1247175733386493
17.335 -0.08794584986047263 -0.08787173959927633
17.5825 -0.10313079341563117 -0.04647051431367182
17.83 -0.10868190595398021 -0.0026451188124414393
18.0775 -0.10428160783178732 0.04131162631739524
18.325 -0.09018469612529628 0.08309839878281838
18.5725 -0.06719664850681427 0.12055942851280138
18.82 -0.03660669488715684 0.1518222078217597
19.0675 -8.557145482883388e-05 0.17540477853384362
19.315 0.040437910134307406 0.19028420106454966
19.5625 0.0829062548403995 0.19592438409411622
19.81 0.12525524655435366 0.19226730367307676
20.0575 0.16551890974829975 0.17969562771630054
20.305 0.20191247598481188 0.15897645885214512
20.5525 0.23289259200939882 0.1311955394141509
20.8 0.2571971777104538 0.09768944932182941
21.0475 0.27386917877185 0.05998080226860259
21.295 0.28226902827120565 0.01971883625187469
21.5425 0.28208019213626384 -0.02137446995869389
21.79 0.2733110377197632 -0.06155431006760401
22.0375 0.2562947161560045 -0.09910156652686428
22.285 0.23168701599347796 -0.13237283011112777
22.5325 0.20046041827063227 -0.15985445874397358
22.78 0.16389105296528617 -0.18022215806737896
23.0275 0.12353415386709013 -0.1924058481104931
23.275 0.08118321791897509 -0.19565729630793074
23.5225 0.03880870615230568 -0.18961538843332668
23.77 -0.0015259735700326876 -0.1743614145852399
24.0175 -0.03777023471959995 -0.1504550015245115
24.265 -0.06800860975122353 -0.11894105356764645
24.5125 -0.09058980966870568 -0.08131987668846527
24.76 -0.10424905099680624 -0.039476747072787116
25.0075 -0.10820846841467446 0.004426917978651497
25.255 -0.1022416853190837 0.04809208990804065
25.5025 -0.08669296469721209 0.08923609774909422
25.75 -0.06244801278218069 0.1257447298095864
25.9975 -0.030860885152005316 0.15580553556071272
26.245 0.006352279115014681 0.17800907454052722
26.4925 0.04723823790867414 0.1914107688327979
26.74 0.0897352926115156 0.1955525444028242
26.9875 0.13179276123395206 0.1904490362625569
27.235 0.17147244062165218 0.17654675351912913
27.4825 0.20702778573436592 0.15466594012509033
27.73 0.23696061635492388 0.1259342292372636
27.9775 0.2600581194578016 0.09171922716850708
28.225 0.2754145365362128 0.05356459962957828
28.4725 0.2824423163316363 0.013131665929130808
28.72 0.2808769475114158 -0.027853669302246937
28.9675 0.27077847311966957 -0.06765039691150371
29.215 0.25253110317014515 -0.10455095249467575
29.4625 0.22684060358881175 -0.1369317065671949
29.71 0.1947274365293304 -0.16330779497905812
29.9575 0.15751215405953553 -0.18239352991486416
30.205 0.11678854273025448 -0.1931678194414398
30.4525 0.07437977152195041 -0.19494167495108483
30.7 0.03227361647648163 -0.18742227089519342
30.9475 -0.007465051191864525 -0.17076561091486253
31.195 -0.04280291583025861 -0.14560830541818337
31.4425 -0.07186206429512096 -0.11306900001389397
31.69 -0.09304860897894121 -0.07471216740578657
31.9375 -0.10517220347275319 -0.0324713864886581
32.185 -0.10754131294450557 0.01146469732071255
32.4325 -0.10002085880980079 0.054794066222067235
32.68 -0.08304363394454937 0.09525578093103827
32.9275 -0.05757374247409372 0.13077976581019993
33.175 -0.025027609978841625 0.15961543702697634
33.4225 0.01283596396700172 0.18042679149847313
33.67 0.05404200321634558 0.1923476701562234
33.9175 0.09652699046778547 0.19499735742538418
34.165 0.13825568769568428 0.18846198714498874
34.4125 0.17731904268235646 0.17325047699966828
34.66 0.21200961422658104 0.15023470669220296
34.9075 0.240874869698467 0.12058276579572154
35.155 0.2627514506111794 0.08569200375141453
35.4025 0.276784912184036 0.04712602640621695
35.65 0.282439663406954 0.0065572666267676005
35.8975 0.2795031493385053 -0.03428532789904938
36.145 0.2680870338064151 -0.07366541790903727
36.3925 0.24862652302605692 -0.10988792963181845
36.64 0.2218772313632632 -0.14135007481076145
36.8875 0.18890731558060697 -0.16659698120891508
37.135 0.15108119342811266 -0.18438291736977047
37.3825 0.11003026303865507 -0.19373719163917913
37.63 0.06760594761178024 -0.19403139891272597
37.8775 0.025811405418016437 -0.18504207879353693
38.125 -0.013289431528120232 -0.16700053848670904
38.3725 -0.04768324171397778 -0.14062025849813048
38.62 -0.07553245727883273 -0.10709264943153368
38.8675 -0.09530312121047103 -0.06804446286465304
39.115 -0.10588124224362108 -0.025454878964463943
39.3625 -0.10666262680832399 0.018463494680995084
39.61 -0.09760342544355341 0.06140911699644258
39.8575 -0.07922380840160494 0.10114603619247575
40.105 -0.05256420876709565 0.13565098682834847
40.3525 -0.019100734568686675 0.16323708468179282
40.6 0.01936810172208006 0.1826426490690219
40.8475 0.060848454399016275 0.19307992310195848
41.095 0.10327750168436792 0.19424479545454792
41.3425 0.1446374543458803 0.1862936351536179
41.59 0.1830498574920364 0.16979623239392033
41.8375 0.21684730214163223 0.14567449714460518
42.085 0.24462341161180123 0.11513544477430031
42.3325 0.26526449266946944 0.07960479033488817
42.58 0.2779674462577696 0.040664873202335305
42.8275 0.28224859049430173 -1.8254324727344968e-06
43.075 0.2779472527343169 -0.040664299376409724
43.3225 0.2652266393274718 -0.07959185824876913
43.57 0.24457284658995943 -0.11510296554775948
43.8175 0.21679114016854023 -0.14561684384979642
44.065 0.18299698787435875 -0.1697099271903228
44.3125 0.1445979888555524 -0.1861778733342831
44.56 0.10326205463380574 -0.1941018569820066
44.8075 0.060867265586698124 -0.19291540800574422
45.055 0.019430041111744623 -0.18246546667885002
45.3025 -0.01898920704957363 -0.16305913395982277
45.55 -0.0524000211207762 -0.13548649040056213
45.7975 -0.07900806185025915 -0.1010105345004158
46.045 -0.09734185487686882 -0.06131818579129536
46.2925 -0.10636563045013493 -0.018431307110398608
46.54 -0.10556342891070927 0.025416980728145952
46.7875 -0.09498239637915461 0.06792920649280557
47.035 -0.0752287435753446 0.10689772289939567
47.2825 -0.04741698632762102 0.14034874704442676
47.53 -0.013080078111392071 0.16666087604052882
47.7775 0.025946813962888435 0.1846475552348908
48.025 0.06765391003811996 0.1935993207907312
48.2725 0.10998163583690646 0.1932878226519591
48.52 0.15093167067334395 0.18393832475077138
48.7675 0.18865760597487452 0.16617989151451262
49.015 0.22153299197712223 0.1409828077010986
49.2625 0.24819811601058023 0.10959144136866986
49.51 0.2675891634143293 0.07345845527034864
49.7575 0.2789544174367319 0.03418367252259316
50.005 0.2818620578362609 -0.006541492197140727
50.2525 0.2762032185493529 -0.04698501676949384
50.5 0.26219255815764175 -0.08542290524884877
50.7475 0.24036692905021528 -0.12018827810156957
50.995 0.2115810019820294 -0.1497236134268149
51.2425 0.1769970981855223 -0.17263803589043342
51.49 0.1380652132983585 -0.18777008064489664
51.7375 0.09648854925280742 -0.19425428407972556
51.985 0.05417010519839736 -0.19158745428235469
52.2325 0.013137295925240988 -0.17968791298463455
52.48 -0.024555697868945514 -0.15893894040176443
52.7275 -0.05694424608031666 -0.1302067972998392
52.975 -0.0822801620920122 -0.09482471256685729
53.2225 -0.09915698221859333 -0.05453747451041223
53.47 -0.10661893600364539 -0.011406540806999207
53.7175 -0.10423904991344038 0.03231802890690956
53.965 -0.09215506265299567 0.07434649174611424
54.2125 -0.07105771728212858 0.11250282340906613
54.46 -0.04213321794309016 0.14486534226400988
54.7075 -0.0069684179207517155 0.1698798177976386
54.955 0.03256798260621951 0.18643551867360447
55.2025 0.07445322726226972 0.19390106212538277
55.45 0.11663353324040619 0.19212293008367337
55.6975 0.15713204317700183 0.18139387702395418
55.945 0.19413581393038493 0.16240060069338128
56.1925 0.22606025585334152 0.1361600788691654
56.44 0.2515928106361174 0.1039524421747805
56.6875 0.26971974699609474 0.06725586827855792
56.935 0.2797407656784296 0.02768639554529313
57.1825 0.2812758622500064 -0.01305676940522114
57.43 0.2742679009223766 -0.05324166793488983
57.6775 0.25898289350100084 -0.09115209096841562
57.925 0.2360082916608628 -0.12513699017578273
58.1725 0.20624788302187144 -0.1536634011714435
58.42 0.17091031952367824 -0.17537457623987562
58.6675 0.1314871193484286 -0.1891534543462457
58.915 0.08971544205030267 -0.19418944176160563
59.1625 0.04752134493047599 -0.19004394490602994
59.41 0.006940851631267786 -0.17670758114667975
59.6575 -0.029980900319756157 -0.15464008390257933
59.905 -0.06130813507479993 -0.12478332487932621
60.1525 -0.08534175065866648 -0.08853923482095785
60.4 -0.10074276763342715 -0.0477080026264118
60.6475 -0.10663707965210811 -0.0043874521554927385
60.895 -0.10268729610369703 0.03915908287205111
61.1425 -0.08912117228642986 0.08065327375774237
61.39 -0.0667123123832619 0.11795400252317756
61.6375 -0.03671608436481419 0.14919422273135075
61.885 -0.0007702122342509582 0.17288845353116455
62.1325 0.03922622701004933 0.18800236405743115
62.38 0.08124045158217343 0.19398233291235512
62.6275 0.12322697979986405 0.19074866103466354
62.875 0.16323236510290176 0.17866013312925025
63.1225 0.1994785013025514 0.15845940836894223
63.37 0.23042352048400788 0.13120846295813274
63.6175 0.25480248213180634 0.09822159694310191
63.865 0.27165192871430294 0.06100106893209063
64.1125 0.2803230088640764 0.021177858261545328
64.36 0.28048748818821734 -0.019542192752105565
64.6075 0.27213988395365146 -0.05942829400889166
64.855 0.25559745403052925 -0.09677315201214931
65.1025 0.23149807112706144 -0.12994276801162885
65.35 0.20079431151556693 -0.15743008386021323
65.5975 0.16474057330142836 -0.1779139580101599
65.845 0.12486893925893142 -0.19032328623196593
66.0925 0.082949091567327 -0.19390385363674512
66.34 0.040928173852554484 -0.18828295019499758
66.5875 0.0008483262702804195 -0.17352432628088366
66.835 -0.035257251276558016 -0.15016432404864777
67.0825 -0.06548470424228996 -0.1192197058324419
67.33 -0.08818693182397835 -0.082159409966342
67.5775 -0.10209483595063898 -0.04083640165700733
67.825 -0.10641750875165219 0.0026184786217422285
68.0725 -0.10090757357646157 0.04593235326552944
68.32 -0.08588205160732895 0.08684199420717253
68.5675 -0.06219558065242514 0.12324441284038411
68.815 -0.03117005174135022 0.15332962639308195
69.0625 0.005509034752038025 0.1756823528958235
69.31 0.04591539610608565 0.18934511145755456
69.5575 0.08800915065229001 0.19384161323004967
69.805 0.12975557653085926 0.18916488483301996
70.0525 0.16922652474502975 0.1757382314212466
70.3 0.2046800398818383 0.15435857887805823
70.5475 0.23461779094308105 0.12613120312863926
70.795 0.25782288697135924 0.09240298599828141
71.0425 0.27338231712699407 0.05469883980111209
71.29 0.28069870170761746 0.014663412000502175
71.5375 0.27949552955836265 -0.025991983768470575
71.785 0.2698188921371393 -0.06553885052217756
72.0325 0.25203717750249927 -0.10227996933160284
72.28 0.22683847924355344 -0.13459964731697005
72.5275 0.19522379397213338 -0.16101812118073705
72.775 0.158492620166868 -0.18025136787665008
73.0225 0.1182165651589226 -0.19127581069568605
73.27 0.07619630063684385 -0.19339511359258849
73.5175 0.03439798061271447 -0.1863036904649768
73.765 -0.005132725672400959 -0.17013917628194714
74.0125 -0.04037751834011723 -0.1455145526552457
74.26 -0.06946755437347193 -0.11352059916174892
74.5075 -0.09081061672349588 -0.07569140548297755
74.755 -0.10320979213560164 -0.033929942882201074
75.0025 -0.10595876183163001 0.009603386188072797
75.25 -0.09890042118160441 0.052629936254751486
75.4975 -0.08244013173693007 0.09290524626767269
75.745 -0.05751158782693702 0.1283676009813611
75.9925 -0.025500458310880394 0.1572663897422206
76.24 0.011863125018838322 0.17825784146876328
76.4875 0.052628844541043406 0.19046164339510924
76.735 0.09475260492095941 0.1934783021320404
76.9825 0.13621284061460645 0.18737240032443567
77.23 0.17510851780869513 0.17263021010980556
77.4775 0.20973508219085674 0.15010121291888437
77.725 0.23863850473889342 0.12093228775473619
77.9725 0.26065034194606684 0.08650132163226124
78.22 0.27490818389273497 0.04835446487299807
78.4675 0.2808661388714394 0.008148765747187637
78.715 0.2782993703879289 -0.03240015972099159
78.9625 0.26730546270280886 -0.071567248418834
79.21 0.24830380834895427 -0.107666541806362
79.4575 0.22203249842809344 -0.13910194314864632
79.705 0.18954054019574768 -0.16442240770241806
79.9525 0.15217182465715276 -0.18238257107331945
80.2 0.11153636192472127 -0.19200796524294944
80.4475 0.06946418427706356 -0.19266161568962767
80.695 0.027938281183850194 -0.18410624695693634
80.9425 -0.010994823031317463 -0.16655403630687213
81.19 -0.04533474692316533 -0.1406945048867586
81.4375 -0.07325075783315028 -0.10769142114973383
81.685 -0.09320835554058174 -0.06914201121414708
81.9325 -0.10408500714695644 -0.02699634511768866
82.18 -0.10526021931602406 0.016559158619718545
82.4275 -0.09666723956216977 0.05924389175918303
82.675 -0.07879867078906921 0.09883578952342456
82.9225 -0.05266514408553104 0.13331746012376006
83.17 -0.019713267350993866 0.16099984274854615
83.4175 0.0182853791122065 0.18061184619209786
83.665 0.059359601017131385 0.19135051141808124
83.9125 0.10146392577273733 0.19289249748746787
84.16 0.14259227049512158 0.18537270161223152
84.4075 0.18087245968608495 0.16933877116875318
84.655 0.21463852379995912 0.14569102085368946
84.9025 0.24248144913736086 0.11561624284325914
85.15 0.26328160301886705 0.0805217675981579
85.3975 0.2762273117205888 0.04197358221192661
85.645 0.28082418017047617 0.001639876204862009
85.8925 0.2768989956601561 -0.03876060367665672
86.14 0.26460075037878833 -0.07750738341154442
86.3875 0.24439970433980895 -0.11292697553552362
86.635 0.2170836977509742 -0.14344420110553363
86.8825 0.1837492955039129 -0.167638189097931
87.13 0.14578400967605826 -0.18430379678441733
87.3775 0.10483504915778256 -0.19251725008390275
87.625 0.06276008350919784 -0.1917023937767653
87.8725 0.02155666787184647 -0.18169138801592133
88.12 -0.01673057153267643 -0.16277150871511115
88.3675 -0.05012223548936988 -0.13570858072157072
88.615 -0.07682879612410362 -0.101738176499108
88.8625 -0.09537623988807 -0.06251848839717533
89.11 -0.10471848965084384 -0.020043649419792704
89.3575 -0.10432195110683955 0.023477530311218513
89.605 -0.0942101228933099 0.06576629899803187
89.8525 -0.07496157923834794 0.10462656551332472
90.1 -0.04766163292251355 0.13808820554737505
90.3475 -0.0138149089712713 0.1645257470604616
90.595 0.02476877327420421 0.18274180120736394
90.8425 0.06610047802374999 0.19201081628849936
91.09 0.1081361336844743 0.19208485828810717
91.3375 0.14888739047134714 0.18316783060590286
91.585 0.1865125965151614 0.1658671310070917
91.8325 0.2193854825987744 0.14113217869475514
92.08 0.2461427117424611 0.11018799954276004
92.3275 0.26571379129130407 0.07446982320846436
92.575 0.27733790044402645 0.03556208851773843
92.8225 0.2805721418258138 -0.00485712448715977
93.07 0.2752948729337764 -0.0450671120309539
93.3175 0.26170640448849203 -0.08335315816578406
93.565 0.24032771404985542 -0.11805548097949012
93.8125 0.21199611534325924 -0.14762117050303158
94.06 0.17785523226274844 -0.1706610130854987
94.3075 0.13933536092579535 -0.18601166915222106
94.555 0.09811962185939985 -0.19280164199873723
94.8025 0.05609150519703849 -0.19051702147429161
95.05 0.015260770792902417 -0.1790604589358364
95.2975 -0.022332678738542222 -0.15879477704805417
95.545 -0.05473352567804245 -0.13056172789796375
95.7925 -0.08019652490330748 -0.0956673455888481
96.04 -0.09731084367161749 -0.05582846689747627
96.2875 -0.10510880517740925 -0.013080131925663886
96.535 -0.1031446180617768 0.030350148455991592
96.7825 -0.09153174814391013 0.07218929834923453
97.03 -0.07093330345712717 0.11027071265918048
97.2775 -0.04250689587609996 0.14267436225610491
97.525 -0.0078121726945813985 0.16784025790441348
97.7725 0.031306033216135024 0.18464558733079506
98.02 0.07284414748467921 0.19244212960616802
98.2675 0.1147622128012487 0.19105651373876076
98.515 0.15509178280634434 0.18076027912752227
98.7625 0.19202331483340335 0.16221892094319265
99.01 0.22397128717625897 0.13642923178976696
99.2575 0.24961864968305764 0.10465280518258524
99.505 0.267944345710258 0.06835124507630286
99.7525 0.2782385063561642 0.0291260741050055
100.0 0.28010972573385845 -0.011335978782430155
