!Created with skrf (http://scikit-rf.org).
# GHz S RI R 50.0 
!freq ReS11 ImS11
1.0 0.25059294114639796 -0.15117662369038032
1.0545 0.24505137720031017 -0.15813180863736337
1.109 0.23926141237446916 -0.16488865309505446
1.1635 0.23322979170670757 -0.17143831546000607
1.218 0.2269635756762565 -0.1777721599995019
1.2725 0.22047013528116752 -0.18388176786699312
1.327 0.21375714683650904 -0.18975894815194636
1.3815 0.20683258645725935 -0.195395748957797
1.436 0.19970472419477964 -0.200784468499215
1.4905 0.192382117799438 -0.205917666207597
1.545 0.18487360608480022 -0.21078817383153214
1.5995 0.1771883018711115 -0.21538910651694282
1.654 0.16933558448774483 -0.2197138738496146
1.7085 0.16132509181603638 -0.22375619084092233
1.763 0.15316671185556188 -0.22751008883571255
1.8175 0.14487057379849005 -0.23096992631950009
1.872 0.13644703859824128 -0.2341303996004089
1.9265 0.12790668902030713 -0.23698655333961882
1.981 0.11926031916477714 -0.23953379090247584
2.0355 0.1105189234518997 -0.24176788450090403
2.09 0.10169368506386883 -0.24368498509632636
2.1445 0.09279596383800845 -0.24528163203096207
2.199 0.08383728360860604 -0.2465547623541423
2.2535 0.07482931899683797 -0.247501719809174
2.308 0.06578388165053452 -0.2481202634453118
2.3625 0.056712905937937826 -0.2484085758185518
2.417 0.047628434102113 -0.24836527074429443
2.4715 0.03854260088528061 -0.24798940056439486
2.526 0.029467617635021717 -0.2472804628907952
2.5805 0.0204157559070781 -0.24623840678777456
2.635 0.011399330582290867 -0.24486363835491173
2.6895 0.002430682518110093 -0.24315702567309966
2.744 -0.006477839241983176 -0.2411199030764405
2.7985 -0.015313895674858621 -0.23875407471353474
2.853 -0.024065176370699035 -0.23606181736261483
2.9075 -0.03271941848038803 -0.2330458824661298
2.962 -0.04126442598227674 -0.22970949735180088
3.0165 -0.04968808923043249 -0.22605636560879533
3.071 -0.05797840474370826 -0.22209066658957421
3.1255 -0.06612349519228457 -0.21781705401007
3.18 -0.07411162953577524 -0.2132406536232334
3.2345 -0.08193124326455692 -0.20836705994356716
3.289 -0.08957095869371122 -0.2032023320030953
3.3435 -0.09701960525686618 -0.19775298812223746
3.398 -0.10426623974533486 -0.19202599968230621
3.4525 -0.11130016643625834 -0.186028783889762
3.507 -0.11811095705202698 -0.17976919552597206
3.5615 -0.12468847049205345 -0.17325551767997063
3.616 -0.13102287227706663 -0.16649645146562392
3.6705 -0.13710465364544872 -0.15950110472860923
3.725 -0.14292465024081938 -0.1522789797527388
3.7795 -0.14847406033003646 -0.14483995997932275
3.834 -0.15374446249109314 -0.1371942957575107
3.8885 -0.15872783271100674 -0.12935258914777456
3.943 -0.16341656083475364 -0.12132577780493517
3.9975 -0.16780346630760187 -0.11312511797133978
4.052 -0.1718818131548045 -0.10476216661490372
4.1065 -0.17564532414458137 -0.09624876275078446
4.161 -0.17908819408258167 -0.0875970079893455
4.2155 -0.18220510218862349 -0.07881924635683482
4.27 -0.18499122350939237 -0.06992804343876585
4.3245 -0.18744223932396592 -0.06093616489936012
4.379 -0.1895543465024929 -0.05185655443354273
4.4335 -0.19132426578205858 -0.042702311210850594
4.488 -0.19274924892771325 -0.03348666687321348
4.5425 -0.1938270847507886 -0.024222962150857643
4.597 -0.19455610396095485 -0.01492462316255748
4.6515 -0.1949351828329621 -0.005605137468102829
4.706 -0.19496374567361976 0.0037219700578638376
4.7605 -0.1946417660792691 0.013043161460542387
4.815 -0.19396976697878554 0.022344909977544486
4.8695 -0.19294881946194498 0.03161372427847592
4.924 -0.19158054039779865 0.04083617260084492
4.9785 -0.18986708885247422 0.04999890671215547
5.033 -0.18781116132053144 0.0590886856289501
5.0875 -0.18541598578862772 0.06809239902484093
5.142 -0.18268531465473203 0.07699709026118018
5.1965 -0.17962341653047964 0.08578997897597543
5.251 -0.17623506695841443 0.09445848316893062
5.3055 -0.17252553807982357 0.10299024072306112
5.36 -0.16850058729259773 0.11137313030619334
5.4145 -0.16416644494202023 0.1195952915987709
5.469 -0.15952980109059492 0.12764514479774017
5.5235 -0.15459779141593516 0.1355114093498499
5.578 -0.14937798228835059 0.14318312187143636
5.6325 -0.14387835508206767 0.15064965321567256
5.687 -0.13810728977598924 0.1579007246522712
5.7415 -0.13207354790155829 0.16492642312876976
5.796 -0.12578625489658654 0.17171721558669692
5.8505 -0.1192548819249062 0.17826396231017236
5.905 -0.11248922722233978 0.18455792928871115
5.9595 -0.10549939702980904 0.19059079958025146
6.014 -0.0982957861744076 0.19635468366459355
6.0685 -0.09088905835894583 0.20184212878155772
6.123 -0.08329012621987328 0.20704612725219396
6.1775 -0.0755101312125809 0.21196012378527734
6.232 -0.06756042338192467 0.21657802177509747
6.2865 -0.059452541074379014 0.22089418860015958
6.341 -0.051198190646574854 0.22490345993586264
6.3955 -0.0428092262230934 0.22860114309745938
6.45 -0.034297629554308734 0.23198301943266392
6.5045 -0.025675490022815634 0.23504534578609804
6.559 -0.016954984844563557 0.23778485506038005
6.6135 -0.00814835950827146 0.2401987559010449
6.668 0.0007320915059736421 0.2422847315346216
6.7225 0.009674043690780454 0.2440409377911021
6.777 0.01866516112286489 0.24546600034370059
6.8315 0.027693114689371596 0.24655901120021967
6.886 0.036745599899577805 0.24731952448153388
6.9405 0.045810354255397735 0.2477475515236367
6.995 0.0548751741570007 0.2478435553404352
7.0495 0.06392793132277438 0.24760844448494937
7.104 0.07295658870572372 0.2470435663468784
7.1585 0.08194921589119113 0.24615069992455063
7.213 0.09089400396353005 0.2449320481091572
7.2675 0.0997792798320189 0.24339022951885805
7.322 0.10859352000886777 0.24152826991986706
7.3765 0.1173253638346293 0.23934959327095734
7.431 0.1259636261486743 0.23685801242704163
7.4855 0.13449730940463103 0.23405771953653556
7.54 0.14291561523277968 0.23095327616612932
7.5945 0.1512079554533734 0.2275496031854323
7.649 0.1593639625466924 0.22385197044264887
7.7035 0.1673734995873337 0.2198659862610796
7.758 0.17522666965179293 0.2155975867847895
7.8125 0.18291382470981576 0.21105302520026106
7.867 0.19042557401125212 0.20623886085929083
7.9215 0.197752791981293 0.20116194832676362
7.976 0.20488662563793586 0.19582942637530315
8.0305 0.21181850154638848 0.19024870694713297
8.085 0.21854013232582312 0.18442746410179858
8.1395 0.22504352272446382 0.17837362296673578
8.194 0.23132097527945622 0.17209534870598772
8.2485 0.23736509557826577 0.16560103552072933
8.303 0.24316879713856565 0.15889929569361388
8.3575 0.24872530592365316 0.15199894868736594
8.412 0.2540281645104054 0.14490901030646952
8.4665 0.2590712359266449 0.1376386819292794
8.521 0.26384870717455394 0.13019733981640963
8.5755 0.268355092456439 0.12259452449983044
8.63 0.27258523611872815 0.11483993025573021
8.6845 0.27653431532956674 0.10694339466291186
8.739 0.2801978425047983 0.09891488824723503
8.7935 0.28357166749645196 0.09076450421145757
8.848 0.28665197955712246 0.0825024482487226
8.9025 0.28943530909284715 0.0741390284369112
8.957 0.2919185292162209 0.0656846452101357
9.0115 0.29409885711059625 0.05714978140276311
9.066 0.2959738552152603 0.04854499236057576
9.1205 0.2975414322404898 0.039880896112955096
9.175 0.2987998440203542 0.03116816359934296
9.2295 0.2997476942100771 0.022417508942686244
9.284 0.30038393483367415 0.013639679762105377
9.3385 0.30070786668647426 0.0048454475166403305
9.393 0.30071913959600277 -0.003954402128362222
9.4475 0.30041775254355635 -0.012749078920879873
9.502 0.2998040536476531 -0.02152779763664056
9.5565 0.2988787400093777 -0.030279787697167396
9.611 0.2976428574184915 -0.03899430280022488
9.6655 0.29609779991801677 -0.04766063057131877
9.72 0.29424530922386993 -0.056268102244679874
9.7745 0.2920874739949836 -0.06480610238188442
9.829 0.28962672894824815 -0.07326407863585316
9.8835 0.28686585381151675 -0.08163155156753257
9.938 0.283807972106852 -0.08989812452198633
9.9925 0.28045654975517903 -0.09805349357000924
10.047 0.2768153934924975 -0.10608745752065965
10.1015 0.2728886490868805 -0.1139899280093006
10.156 0.26868079934456873 -0.12175093966488537
10.2105 0.2641966618926373 -0.12936066035925345
10.265 0.25944138672490513 -0.13680940154019694
10.3195 0.25442045349704506 -0.14408762864893898
10.374 0.24913966855618735 -0.15118597162151537
10.4285 0.24360516168972327 -0.1580952354723
10.483 0.23782338257751315 -0.16480641095661874
10.5375 0.2318010969312838 -0.1713106853080369
10.592 0.22554538230466725 -0.17759945304448063
10.6465 0.21906362355709924 -0.1836643268358839
10.701 0.21236350795466466 -0.18949714842453735
10.7555 0.2054530198909491 -0.1950899995877457
10.81 0.19834043521104022 -0.20043521313081475
10.8645 0.1910343151220265 -0.20552538389675476
10.919 0.18354349967365635 -0.21035337977744223
10.9735 0.17587710079328278 -0.21491235270931858
11.028 0.16804449485977968 -0.2191957496350324
11.0825 0.1600553148018362 -0.22319732341077242
11.137 0.1519194417068846 -0.22691114363736725
11.1915 0.14364699592789076 -0.23033160739160935
11.246 0.1352483276763775 -0.2334534498326502
11.3005 0.12673400709130445 -0.23627175465674666
11.355 0.11811481377485158 -0.23878196437214574
11.4095 0.10940172578769092 -0.24097989036443657
11.464 0.10060590809803727 -0.2428617227213458
11.5185 0.09173870048058846 -0.2444240397846714
11.573 0.08281160486343841 -0.24566381739587267
11.6275 0.0738362721231407 -0.24657843780078112
11.682 0.06482448833031773 -0.2471656981779587
11.7365 0.05578816045055629 -0.24742381875443578
11.791 0.04673930150778367 -0.24735145047192372
11.8455 0.037690015219860526 -0.24694768216610993
11.9 0.028652480118781538 -0.2462120472213482
11.9545 0.019638933170596187 -0.24514452966293232
12.009 0.010661652912951895 -0.2437455696492228
12.0635 0.0017329421310072132 -0.24201606832618214
12.118 -0.007134889904649708 -0.23995739200737304
12.1725 -0.015929545611545 -0.23757137564319522
12.227 -0.02463875765087696 -0.2348603255440861
12.2815 -0.03325030783273944 -0.23182702132359956
12.336 -0.041752046335811664 -0.22847471702869004
12.3905 -0.05013191120348733 -0.22480714142620034
12.445 -0.058377948075683625 -0.220828497416442
12.4995 -0.06647833011293197 -0.21654346054689674
12.554 -0.07442137806680353 -0.21195717660144764
12.6085 -0.0821955804483436 -0.20707525824313447
12.663 -0.08978961374393649 -0.20190378069127127
12.7175 -0.09719236262597289 -0.1964492764167775
12.772 -0.10439294010381814 -0.19071872884282554
12.8265 -0.11138070755893661 -0.1847195650413313
12.881 -0.11814529460662426 -0.17845964741939874
12.9355 -0.12467661872563553 -0.17194726439359218
12.99 -0.1309649045961196 -0.1651911200537887
13.0445 -0.1370007030856571 -0.15820032282237426
13.099 -0.14277490982292723 -0.15098437311861498
13.1535 -0.1482787832984943 -0.1435531500422292
13.208 -0.15350396243257355 -0.1359168970943533
13.2625 -0.15844248355025364 -0.12808620695833736
13.317 -0.16308679670565884 -0.1200720053669933
13.3715 -0.16742978129782754 -0.11188553408709312
13.426 -0.1714647609227402 -0.10353833305600654
13.4805 -0.17518551740788976 -0.09504222170936316
13.535 -0.1785863039780805 -0.08640927954250004
13.5895 -0.1816618575037483 -0.07765182595217027
13.644 -0.18440740978598852 -0.06878239940851939
13.6985 -0.1868186978356723 -0.05981373601067489
13.753 -0.18889197310748734 -0.05075874748236581
13.8075 -0.19062400965344323 -0.04163049866684905
13.862 -0.19201211116432293 -0.03244218458295011
13.9165 -0.1930541168716903 -0.02320710710629457
13.971 -0.1937484062873933 -0.013938651341742103
14.0255 -0.19409390276196453 -0.004650261754630287
14.08 -0.19409007584791477 0.004644581870297
14.1345 -0.19373694245859807 0.013932388572517511
14.189 -0.1930350668180772 0.023199680391589293
14.2435 -0.19198555920219243 0.032433016504787235
14.298 -0.19059007347581078 0.04161901725622331
14.3525 -0.1888508034359785 0.050744388007756325
14.407 -0.18677047797537621 0.059795942742903715
14.4615 -0.1843523550850558 0.06876062735627889
14.516 -0.18160021471989946 0.07762554256269119
14.5705 -0.17851835055454607 0.08637796636201006
14.625 -0.17511156066164324 0.09500537599819553
14.6795 -0.17138513714821496 0.1034954693534449
14.734 -0.16734485478960265 0.11183618572129987
14.7885 -0.16299695870389075 0.1200157259056293
14.843 -0.15834815111287323 0.12802257159579106
14.8975 -0.15340557723851392 0.135845503971785
14.952 -0.14817681038640831 0.14347362149698234
15.0065 -0.1426698362700407 0.15089635685985803
15.061 -0.13689303663154223 0.15810349303020074
15.1155 -0.13085517221631002 0.16508517839933212
15.17 -0.12456536516008923 0.17183194097808324
15.2245 -0.11803308084810057 0.17833470163044207
15.279 -0.11126810930641531 0.18458478632502373
15.3335 -0.10428054618606386 0.19057393739070982
15.388 -0.09708077340036841 0.1962943237669531
15.4425 -0.08967943947564108 0.20173855024332846
15.497 -0.08208743967478321 0.20689966568691004
15.5515 -0.07431589595239985 0.21177117025991937
15.606 -0.06637613679887441 0.21634702163382977
15.6605 -0.05827967702941448 0.22062164020969946
15.715 -0.05003819757242452 0.2245899133579046
15.7695 -0.04166352530965628 0.22824719869367172
15.824 -0.03316761301855385 0.2315893264078177
15.8785 -0.024562519464902316 0.23461260067492087
15.933 -0.01586038969154089 0.23731380016371445
15.9875 -0.0070734355463067805 0.23969017767685688
16.042 0.001786083510238956 0.24173945894934998
16.0965 0.010705879279520832 0.24345984063674656
16.151 0.019673653347112532 0.24484998752594003
16.2055 0.02867711522024937 0.24590902900272302
16.26 0.03770400005148721 0.24663655481147007
16.3145 0.04674208592218079 0.24703261014322575
16.369 0.05577921066241798 0.24709769008918958
16.4235 0.06480328818685632 0.24683273349706483
16.478 0.07380232432880668 0.2462391162680097
16.5325 0.08276443215765472 0.24531864413198784
16.587 0.0916778467674468 0.24407354493918884
16.6415 0.10053093952710315 0.24250646050486166
16.696 0.1093122317852499 0.24062043804442182
16.7505 0.11801040802512029 0.23841892123502947
16.805 0.1266143284672935 0.2359057409390378
16.8595 0.13511304112025055 0.23308510562376272
16.914 0.14349579328082365 0.22996159151095918
16.9685 0.15175204248854357 0.22654013248820382
17.023 0.15987146693973533 0.22282600981310982
17.0775 0.16784397536887394 0.2188248416399184
17.132 0.1756597164062596 0.21454257239657099
17.1865 0.18330908742246593 0.20998546203885873
17.241 0.19078274287126745 0.2051600752066729
17.2955 0.19807160214387193 0.2000732703057905
17.35 0.2051668569482556 0.19473218853697533
17.4045 0.21205997822822656 0.18914424289254061
17.459 0.21874272263755312 0.18331710713883478
17.5135 0.22520713858504396 0.17725870480146436
17.568 0.2314455718669306 0.17097719816838025
17.6225 0.23745067090317656 0.16448097732435024
17.677 0.24321539159457278 0.1577786492286724
17.7315 0.2487330018175205 0.15087902684643437
17.786 0.25399708557338607 0.14379111834203975
17.8405 0.25900154680916154 0.1365241163422316
17.895 0.26374061292593765 0.12908738727435617
17.9495 0.26820883799133854 0.12149046078422693
18.004 0.27240110567165926 0.11374301923656518
18.0585 0.2763126318989292 0.10585488729972233
18.113 0.2799389672875356 0.09783602161514739
18.1675 0.2832759993143775 0.08969650055091452
18.222 0.28631995427579676 0.08144651403751865
18.2765 0.2890673990337335 0.07309635348315208
18.331 0.29151524256270567 0.06465640176471724
18.3855 0.2936607373083132 0.05613712328997327
18.44 0.29550148036701746 0.04754905412542673
18.4945 0.2970354144959539 0.03890279218388816
18.549 0.2982608289605163 0.030208987464953638
18.6035 0.2991763602263834 0.021478332341183418
18.658 0.2997809925015832 0.012721551882242173
18.7125 0.30007405813307175 0.003949394208926459
18.767 0.30005523786118643 -0.004827379131304055
18.8215 0.2997245609341909 -0.013598002775871545
18.876 0.29908240508398154 -0.02235171715440347
18.9305 0.29812949636287345 -0.031077778100571694
18.985 0.2968669088402395 -0.03976546647713178
19.0395 0.29529606415661624 -0.048404097822719955
19.094 0.2934187309317748 -0.056983032028729216
19.1485 0.2912370240221098 -0.06549168305430332
19.203 0.2887534036216153 -0.0739195286870754
19.2575 0.2859706741996252 -0.08225612035682779
19.312 0.28289198326744963 -0.09049109300866909
19.3665 0.27952081996501366 -0.09861417504172565
19.421 0.27586101345763264 -0.10661519831857237
19.4755 0.2719167311321085 -0.11448410824988743
19.53 0.26769247658045336 -0.12221097395789467
19.5845 0.2631930873586928 -0.1297859985212287
19.639 0.258423732507443 -0.13719952930281581
19.6935 0.2533899098202113 -0.14444206836128362
19.748 0.24809744284475743 -0.15150428294520646
19.8025 0.2425524776022348 -0.15837701606830373
19.857 0.23676147900838967 -0.16505129716235353
19.9115 0.23073122698063253 -0.1715183528032766
19.966 0.2244688122145322 -0.17776961750437406
20.0205 0.21798163161300435 -0.18379674456928458
20.075 0.2112773833514026 -0.18959161699566623
20.1295 0.2043640615616566 -0.19514635841908115
20.184 0.19724995061873224 -0.20045334408495774
20.2385 0.18994361901288637 -0.2055052118348776
20.293 0.18245391279152456 -0.2102948730918138
20.3475 0.17478994855494234 -0.21481552382726068
20.402 0.16696110599079866 -0.21906065549156567
20.4565 0.15897701993292024 -0.22302406588708962
20.511 0.15084757193085796 -0.22669986996219538
20.5655 0.14258288131765767 -0.2300825105024235
20.62 0.13419329576439226 -0.23316676869364367
20.6745 0.12568938131133672 -0.23594777453039806
20.729 0.11708191186702407 -0.2384210170411848
20.7835 0.10838185816804546 -0.24058235430098404
20.838 0.09960037619409429 -0.24242802319998782
20.8925 0.09074879503464917 -0.24395464893624064
20.947 0.08183860420560987 -0.24515925419872936
21.0015 0.07288144041634873 -0.2460392680064317
21.056 0.06388907378981169 -0.24659253416791768
21.1105 0.05487339354070756 -0.24681731932531148
21.165 0.04584639311920923 -0.24671232054582284
21.2195 0.036820154830194185 -0.24627667242357643
21.274 0.02780683394066471 -0.24550995365420164
21.3285 0.018818642290709654 -0.2444121930445417
21.383 0.009867831426169878 -0.24298387491994333
21.4375 0.0009666752739825729 -0.2412259438918986
21.492 -0.007872547615927143 -0.23913980894932618
21.5465 -0.01663757223546529 -0.23672734683752578
21.601 -0.025316165660233994 -0.23399090468981454
21.6555 -0.033896145935943964 -0.23093330187804736
21.71 -0.04236540127396757 -0.22755783104967894
21.7645 -0.05071190951790344 -0.22386825832068644
21.819 -0.058923757840241606 -0.21986882259560442
21.8735 -0.06698916262564522 -0.2155642339880659
21.928 -0.07489648949483482 -0.21095967131762836
21.9825 -0.08263427342069382 -0.2060607786612894
22.037 -0.09019123888601306 -0.20087366094090675
22.0915 -0.09755632003025244 -0.19540487853080352
22.146 -0.10471868073086035 -0.18966144087306813
22.2005 -0.11166773456310324 -0.18365079909147763
22.255 -0.11839316458093962 -0.17738083759859102
22.3095 -0.12488494286038866 -0.17085986469428366
22.364 -0.13113334974596932 -0.1640966021578895
22.4185 -0.13712899274022963 -0.15710017384009514
22.473 -0.14286282497610225 -0.14988009326484003
22.5275 -0.1483261632118987 -0.1424462502555634
22.582 -0.15351070528904853 -0.1348088966044091
22.6365 -0.15840854699345136 -0.12697863080709884
22.691 -0.16301219826224067 -0.11896638189045047
22.7455 -0.16731459867915563 -0.11078339236360404
22.8 -0.17130913220335633 -0.10244120032810435
22.8545 -0.17498964107851045 -0.09395162078595967
22.909 -0.1783504388713028 -0.08532672618862372
22.9635 -0.18138632259112392 -0.07657882627354783
23.018 -0.1840925838456231 -0.06772044723842348
23.0725 -0.1864650189900012 -0.05876431030655826
23.127 -0.1884999382313899 -0.049723309739841605
23.1815 -0.19019417365337132 -0.04061049035860576
23.236 -0.19154508612963486 -0.03143902463012794
23.2905 -0.19255057109989943 -0.022222189389822174
23.345 -0.19320906318554448 -0.0129733422609777
23.3995 -0.19351953962685425 -0.003705897840552567
23.454 -0.19348152252836157 0.005566696280350352
23.5085 -0.19309507990344305 0.014830983591719736
23.563 -0.19236082551404662 0.024073522765592936
23.6175 -0.19127991750619366 0.03328091171251179
23.672 -0.18985405584663728 0.04243981152356482
