!Created with skrf (http://scikit-rf.org).
# GHz S RI R 50.0 
!freq ReS11 ImS11
1.0 0.2175146023059949 -0.14898997850559453
1.495 0.14381563325716423 -0.18949526417030507
1.99 0.058739693775048264 -0.19555323012731973
2.485 -0.022044095345602657 -0.16449594087808816
2.98 -0.08236467464604728 -0.10095171916264783
3.475 -0.10931776924244456 -0.016903898342805035
3.97 -0.09691918169316331 0.07056677854371765
4.465 -0.047979186185551206 0.14350299601132477
4.96 0.0267959995920138 0.18765483889665122
5.455 0.11198847016810332 0.1955759794976445
5.95 0.191376579625669 0.1673712969421438
6.445 0.2511046413069805 0.1095363865960463
6.94 0.2815367731593283 0.03294592481135217
7.435 0.2780267846597943 -0.049162571039986905
7.93 0.2411208575713118 -0.12292219221867964
8.425 0.17653542801227584 -0.17544755968498885
8.92 0.09486790233039526 -0.19662053031355745
9.415 0.010637514858365463 -0.1811394881004132
9.91 -0.059842529030326164 -0.13042691279399182
10.405 -0.10185913566801107 -0.05346157803038799
10.9 -0.10617900333799418 0.03446244700339211
11.395 -0.07184755514511465 0.11524756615202655
11.89 -0.006491325422771074 0.17264478876971623
12.385 0.076040575094979 0.19614414035123895
12.88 0.15947128271204358 0.18272319893602568
13.375 0.22869193717129957 0.1363839012032776
13.87 0.27217379007755016 0.06638109683065144
14.365 0.2831370874701936 -0.014852095893726769
14.86 0.25993667306130375 -0.09355343475003161
15.355 0.20611742287777274 -0.1562569423979548
15.85 0.13026830770600917 -0.19147341186601613
16.345 0.045408134381448736 -0.19164108360029106
16.84 -0.03260108320418863 -0.15517342577859367
17.335 -0.08794584986047263 -0.08787173959927633
17.83 -0.10868190595398021 -0.0026451188124414393
18.325 -0.09018469612529628 0.08309839878281838
18.82 -0.03660669488715684 0.1518222078217597
19.315 0.040437910134307406 0.19028420106454966
19.81 0.12525524655435366 0.19226730367307676
20.305 0.20191247598481188 0.15897645885214512
20.8 0.2571971777104538 0.09768944932182941
21.295 0.28226902827120565 0.01971883625187469
21.79 0.2733110377197632 -0.06155431006760401
22.285 0.23168701599347796 -0.13237283011112777
22.78 0.16389105296528617 -0.18022215806737896
23.275 0.08118321791897509 -0.19565729630793074
23.77 -0.0015259735700326876 -0.1743614145852399
24.265 -0.06800860975122353 -0.11894105356764645
24.76 -0.10424905099680624 -0.039476747072787116
25.255 -0.1022416853190837 0.04809208990804065
25.75 -0.06244801278218069 0.1257447298095864
26.245 0.006352279115014681 0.17800907454052722
26.74 0.0897352926115156 0.1955525444028242
27.235 0.17147244062165218 0.17654675351912913
27.73 0.23696061635492388 0.1259342292372636
28.225 0.2754145365362128 0.05356459962957828
28.72 0.2808769475114158 -0.027853669302246937
29.215 0.25253110317014515 -0.10455095249467575
29.71 0.1947274365293304 -0.16330779497905812
30.205 0.11678854273025448 -0.1931678194414398
30.7 0.03227361647648163 -0.18742227089519342
31.195 -0.04280291583025861 -0.14560830541818337
31.69 -0.09304860897894121 -0.07471216740578657
32.185 -0.10754131294450557 0.01146469732071255
32.68 -0.08304363394454937 0.09525578093103827
33.175 -0.025027609978841625 0.15961543702697634
33.67 0.05404200321634558 0.1923476701562234
34.165 0.13825568769568428 0.18846198714498874
34.66 0.21200961422658104 0.15023470669220296
35.155 0.2627514506111794 0.08569200375141453
35.65 0.282439663406954 0.0065572666267676005
36.145 0.2680870338064151 -0.07366541790903727
36.64 0.2218772313632632 -0.14135007481076145
37.135 0.15108119342811266 -0.18438291736977047
37.63 0.06760594761178024 -0.19403139891272597
38.125 -0.013289431528120232 -0.16700053848670904
38.62 -0.07553245727883273 -0.10709264943153368
39.115 -0.10588124224362108 -0.025454878964463943
39.61 -0.09760342544355341 0.06140911699644258
40.105 -0.05256420876709565 0.13565098682834847
40.6 0.01936810172208006 0.1826426490690219
41.095 0.10327750168436792 0.19424479545454792
41.59 0.1830498574920364 0.16979623239392033
42.085 0.24462341161180123 0.11513544477430031
42.58 0.2779674462577696 0.040664873202335305
43.075 0.2779472527343169 -0.040664299376409724
43.57 0.24457284658995943 -0.11510296554775948
44.065 0.18299698787435875 -0.1697099271903228
44.56 0.10326205463380574 -0.1941018569820066
45.055 0.019430041111744623 -0.18246546667885002
45.55 -0.0524000211207762 -0.13548649040056213
46.045 -0.09734185487686882 -0.06131818579129536
46.54 -0.10556342891070927 0.025416980728145952
47.035 -0.0752287435753446 0.10689772289939567
47.53 -0.013080078111392071 0.16666087604052882
48.025 0.06765391003811996 0.1935993207907312
48.52 0.15093167067334395 0.18393832475077138
49.015 0.22153299197712223 0.1409828077010986
49.51 0.2675891634143293 0.07345845527034864
50.005 0.2818620578362609 -0.006541492197140727
50.5 0.26219255815764175 -0.08542290524884877
50.995 0.2115810019820294 -0.1497236134268149
51.49 0.1380652132983585 -0.18777008064489664
51.985 0.05417010519839736 -0.19158745428235469
52.48 -0.024555697868945514 -0.15893894040176443
52.975 -0.0822801620920122 -0.09482471256685729
53.47 -0.10661893600364539 -0.011406540806999207
53.965 -0.09215506265299567 0.07434649174611424
54.46 -0.04213321794309016 0.14486534226400988
54.955 0.03256798260621951 0.18643551867360447
55.45 0.11663353324040619 0.19212293008367337
55.945 0.19413581393038493 0.16240060069338128
56.44 0.2515928106361174 0.1039524421747805
56.935 0.2797407656784296 0.02768639554529313
57.43 0.2742679009223766 -0.05324166793488983
57.925 0.2360082916608628 -0.12513699017578273
58.42 0.17091031952367824 -0.17537457623987562
58.915 0.08971544205030267 -0.19418944176160563
59.41 0.006940851631267786 -0.17670758114667975
59.905 -0.06130813507479993 -0.12478332487932621
60.4 -0.10074276763342715 -0.0477080026264118
60.895 -0.10268729610369703 0.03915908287205111
61.39 -0.0667123123832619 0.11795400252317756
61.885 -0.0007702122342509582 0.17288845353116455
62.38 0.08124045158217343 0.19398233291235512
62.875 0.16323236510290176 0.17866013312925025
63.37 0.23042352048400788 0.13120846295813274
63.865 0.27165192871430294 0.06100106893209063
64.36 0.28048748818821734 -0.019542192752105565
64.855 0.25559745403052925 -0.09677315201214931
65.35 0.20079431151556693 -0.15743008386021323
65.845 0.12486893925893142 -0.19032328623196593
66.34 0.040928173852554484 -0.18828295019499758
66.835 -0.035257251276558016 -0.15016432404864777
67.33 -0.08818693182397835 -0.082159409966342
67.825 -0.10641750875165219 0.0026184786217422285
68.32 -0.08588205160732895 0.08684199420717253
68.815 -0.03117005174135022 0.15332962639308195
69.31 0.04591539610608565 0.18934511145755456
69.805 0.12975557653085926 0.18916488483301996
70.3 0.2046800398818383 0.15435857887805823
70.795 0.25782288697135924 0.09240298599828141
71.29 0.28069870170761746 0.014663412000502175
71.785 0.2698188921371393 -0.06553885052217756
72.28 0.22683847924355344 -0.13459964731697005
72.775 0.158492620166868 -0.18025136787665008
73.27 0.07619630063684385 -0.19339511359258849
73.765 -0.005132725672400959 -0.17013917628194714
74.26 -0.06946755437347193 -0.11352059916174892
74.755 -0.10320979213560164 -0.033929942882201074
75.25 -0.09890042118160441 0.052629936254751486
75.745 -0.05751158782693702 0.1283676009813611
76.24 0.011863125018838322 0.17825784146876328
76.735 0.09475260492095941 0.1934783021320404
77.23 0.17510851780869513 0.17263021010980556
77.725 0.23863850473889342 0.12093228775473619
78.22 0.27490818389273497 0.04835446487299807
78.715 0.2782993703879289 -0.03240015972099159
79.21 0.24830380834895427 -0.107666541806362
79.705 0.18954054019574768 -0.16442240770241806
80.2 0.11153636192472127 -0.19200796524294944
80.695 0.027938281183850194 -0.18410624695693634
81.19 -0.04533474692316533 -0.1406945048867586
81.685 -0.09320835554058174 -0.06914201121414708
82.18 -0.10526021931602406 0.016559158619718545
82.675 -0.07879867078906921 0.09883578952342456
83.17 -0.019713267350993866 0.16099984274854615
83.665 0.059359601017131385 0.19135051141808124
84.16 0.14259227049512158 0.18537270161223152
84.655 0.21463852379995912 0.14569102085368946
85.15 0.26328160301886705 0.0805217675981579
85.645 0.28082418017047617 0.001639876204862009
86.14 0.26460075037878833 -0.07750738341154442
86.635 0.2170836977509742 -0.14344420110553363
87.13 0.14578400967605826 -0.18430379678441733
87.625 0.06276008350919784 -0.1917023937767653
88.12 -0.01673057153267643 -0.16277150871511115
88.615 -0.07682879612410362 -0.101738176499108
89.11 -0.10471848965084384 -0.020043649419792704
89.605 -0.0942101228933099 0.06576629899803187
90.1 -0.04766163292251355 0.13808820554737505
90.595 0.02476877327420421 0.18274180120736394
91.09 0.1081361336844743 0.19208485828810717
91.585 0.1865125965151614 0.1658671310070917
92.08 0.2461427117424611 0.11018799954276004
92.575 0.27733790044402645 0.03556208851773843
93.07 0.2752948729337764 -0.0450671120309539
93.565 0.24032771404985542 -0.11805548097949012
94.06 0.17785523226274844 -0.1706610130854987
94.555 0.09811962185939985 -0.19280164199873723
95.05 0.015260770792902417 -0.1790604589358364
95.545 -0.05473352567804245 -0.13056172789796375
96.04 -0.09731084367161749 -0.05582846689747627
96.535 -0.1031446180617768 0.030350148455991592
97.03 -0.07093330345712717 0.11027071265918048
97.525 -0.0078121726945813985 0.16784025790441348
98.02 0.07284414748467921 0.19244212960616802
98.515 0.15509178280634434 0.18076027912752227
99.01 0.22397128717625897 0.13642923178976696
99.505 0.267944345710258 0.06835124507630286
100.0 0.28010972573385845 -0.011335978782430155
