!Created with skrf (http://scikit-rf.org).
# GHz S RI R 50.0 
!freq ReS11 ImS11
1.0 0.250593719710295 -0.1511772157354703
1.495 0.1917700756598276 -0.2063313554845334
1.99 0.1178236981233115 -0.23992683835213477
2.485 0.03629297701539172 -0.24784797603525904
2.98 -0.04406202069525098 -0.22854123674603677
3.475 -0.11414247339010483 -0.18347906016212293
3.97 -0.1656322698972786 -0.11728635559250496
4.465 -0.1921953108717328 -0.03738327448209456
4.96 -0.1904928613392813 0.04689720958012562
5.455 -0.1607546084298491 0.12559744824509217
5.95 -0.10673765039825292 0.189563261280737
6.445 -0.0350857141132323 0.23169233482417445
6.94 0.04572695364728543 0.24775218756335746
7.435 0.12659580507261883 0.23666993202209097
7.93 0.19888281660781204 0.2003530534679761
8.425 0.2552613187419048 0.1431953838486481
8.92 0.2902732995366636 0.07143608226821344
9.415 0.3006434996953482 -0.007506023169415302
9.91 0.285424054900111 -0.0856673242091727
10.405 0.24602934580373492 -0.15514542931906333
10.9 0.18618042302290333 -0.2087083155552728
11.395 0.11173073591771668 -0.24043526556516703
11.89 0.030308389413937303 -0.24638191940488946
12.385 -0.04929641670562556 -0.22520094125158197
12.88 -0.1180306852522616 -0.17858458554547874
13.375 -0.1677081212644893 -0.11135917775177431
13.87 -0.19219805538175816 -0.03109062382569792
14.365 -0.1884150365774019 0.052829901673700594
14.86 -0.15684764393816214 0.13048923148907754
15.355 -0.10147252500203491 0.19287246006252048
15.85 -0.029079342450926984 0.23308301979427776
16.345 0.05180037835296382 0.2471219883639798
16.84 0.13208891686275048 0.2341410566301894
17.335 0.2032413939340324 0.1962370450565019
17.83 0.2580682813921387 0.1379447053676695
18.325 0.2912727978279275 0.0655930388711387
18.82 0.2997507447329339 -0.013357476375009747
19.315 0.2827262239336345 -0.09094607564866608
19.81 0.24178026034005062 -0.1593161225176203
20.305 0.1807881701308015 -0.21132530672566885
20.8 0.10573432155249046 -0.24118832184655484
21.295 0.02433818276655781 -0.24514041264374362
21.79 -0.05457803513137046 -0.22204847610955908
22.285 -0.1220067922279347 -0.17383238760661018
22.78 -0.16989320288704252 -0.10552684401501905
23.275 -0.19231527739944787 -0.024848902919473892
23.77 -0.18644499111491586 0.05874862238861924
24.265 -0.1530339959881697 0.13539548573256116
24.76 -0.09628210239068061 0.19621591181099562
25.255 -0.02312773440365795 0.2345197854988979
25.75 0.05783819955206305 0.2465428793406806
26.245 0.13756327276671554 0.2316628277955941
26.74 0.20759470715447598 0.1921673229762773
27.235 0.260879583717832 0.13273370111668586
27.73 0.2922823988776833 0.05978248651679924
28.225 0.29887067730132477 -0.019182694816842344
28.72 0.2800417032705719 -0.09620286005887506
29.215 0.23754472073126592 -0.16346675170440333
29.71 0.17541090659533426 -0.21392224842601787
30.205 0.09975671647961187 -0.2419207766613114
30.7 0.018393265072910885 -0.24387908978220185
31.195 -0.05982612862286519 -0.21888026000226646
31.69 -0.12594142193957367 -0.16907304568123152
32.185 -0.17203180296981277 -0.09970045806696243
32.68 -0.19238637624277838 -0.018629093809730685
33.175 -0.18443580986846367 0.06462939847441235
33.67 -0.14919444735659912 0.14025082181999776
34.165 -0.0910833760001808 0.19950100486636202
34.66 -0.017187072672223143 0.2358974599999316
35.155 0.06384685479903401 0.24591045267829126
35.65 0.14299330766975693 0.2291423794318637
36.145 0.21189278162109926 0.18807022430146822
36.64 0.2636294301710037 0.12751240670883016
37.135 0.2932291125469143 0.05397976906202319
37.63 0.2979310973648985 -0.024981869144775497
38.125 0.27730596971932453 -0.1014162324422278
38.62 0.2332713565998709 -0.1675586088097481
39.115 0.17001424445624436 -0.21644865802919508
39.61 0.09378251050258171 -0.24257653070294238
40.105 0.012477242359878904 -0.24254255355990265
40.6 -0.06501999180263562 -0.21564749196029517
41.095 -0.1298004414115852 -0.16426920189985322
41.59 -0.17408134077062182 -0.09385734380684908
42.085 -0.19236594164088236 -0.012424467814491653
42.58 -0.18234472763739928 0.07046377734106105
43.075 -0.1452934810806417 0.14503412768130275
43.57 -0.08585129153269369 0.20269770776291648
44.065 -0.011244367816172232 0.2371813968237047
44.56 0.06982721959319035 0.24518969743842078
45.055 0.1483690265756894 0.22654805644591092
45.55 0.21611693029195372 0.1839203439758662
46.045 0.26629318854051165 0.12226360307435262
46.54 0.2940853532608068 0.048176817255322975
47.035 0.2969044387009209 -0.030753871525837435
47.53 0.27449421698561516 -0.1065766477885934
48.025 0.2289404487184313 -0.1715752308407373
48.52 0.16458529941662134 -0.21888324230998374
49.015 0.08780667037899621 -0.24313196589585664
49.51 0.006593096583045174 -0.2411075549824126
50.005 -0.07014936524099347 -0.21232988512921946
50.5 -0.1335678893396672 -0.15940570206994487
50.995 -0.17602236430536167 -0.08798893449570967
51.49 -0.1922335553525275 -0.0062335952700328535
51.985 -0.18015282067547742 0.07624643698136736
52.48 -0.14131572329978284 0.14973451394552856
52.975 -0.08057544326602004 0.20579129206276367
53.47 -0.005294871825946949 0.2383550028887262
53.965 0.07577839096251515 0.244364104979921
54.46 0.1536844653501701 0.22386515348782898
54.955 0.22025715232560863 0.17970613892887657
55.45 0.268858129683869 0.11697984215366716
55.945 0.2948371194051023 0.042370761697238454
56.44 0.29577691068846024 -0.0364969551391472
56.935 0.2715942675907577 -0.11167813325025522
57.43 0.22454264702692237 -0.17550720417801757
57.925 0.1591184663421583 -0.22121427205621494
58.42 0.08182785038619093 -0.2435744115151664
58.915 0.0007437677665537434 -0.23956196697499077
59.41 -0.07520751920126788 -0.20891727031107862
59.905 -0.13723421813769893 -0.15447547708433468
60.4 -0.17784381687024386 -0.08209195769127203
60.895 -0.19197808721951382 -5.7156333390563284e-05
61.39 -0.17785021960804206 0.08197311593935533
61.885 -0.13725361244344197 0.15434492408639855
62.38 -0.07525123389650619 0.2087729396785557
62.875 0.0006627996364342512 0.23940880908492918
63.37 0.08169865506706057 0.24342460662667462
63.865 0.15893521720181542 0.22108590419954502
64.36 0.22430696632806318 0.17542184543702835
64.855 0.2713164587280071 0.11165783434824231
65.35 0.2954761440249982 0.036561015196474624
65.845 0.29454063669039793 -0.04220902775743682
66.34 0.268599456286159 -0.11671619385799935
66.835 0.22007320705235844 -0.1793481532246733
67.33 0.15361144050301895 -0.22343422984537106
67.825 0.07584643487231285 -0.24389610284526375
68.32 -0.0050677523937659175 -0.23789872728464664
68.815 -0.08018928543606363 -0.20540415826425015
69.31 -0.14079281496705548 -0.1494752584527843
69.805 -0.1795385565255528 -0.07616567809488141
70.3 -0.19159280297288403 0.006103116328883888
70.795 -0.1754313968441795 0.08764001337161226
71.29 -0.133103380200691 0.1588601144750662
71.785 -0.06987692412155568 0.21163668406324007
72.28 0.006628345376474366 0.2403368292134141
72.775 0.08758586145712544 0.24236581271858207
73.27 0.1641176185589039 0.21820601139610085
73.765 0.2282616309792417 0.1710646229314423
74.26 0.2736628583410071 0.10629642289391239
74.755 0.2959970748709051 0.03074818777297377
75.25 0.2931907804627096 -0.047887784487604
75.745 0.26550598484403415 -0.12168706668839377
76.24 0.2155298103851253 -0.18309326020433292
76.735 0.1480636829397251 -0.2255377946398933
77.23 0.06986375870761755 -0.2440918677002671
77.725 -0.01083841201395297 -0.2361134822861353
78.22 -0.08509030856037697 -0.20178759116396247
78.715 -0.14423863835017292 -0.14440385690642676
79.21 -0.1811015674371514 -0.07021076640499463
79.705 -0.19107338042271235 0.01224489191588206
80.2 -0.1728932272799451 0.09324356634674373
80.695 -0.12886337303865272 0.16327583628820685
81.19 -0.06445238026874146 0.21437814280591025
81.685 0.012600507342435743 0.24113502723897115
82.18 0.09343760182134399 0.24118440758794127
82.675 0.16922841534970537 0.21522314698905032
83.17 0.23211738524517672 0.16663330281216543
83.665 0.2758934209919902 0.10089568300890063
84.16 0.2963962322931677 0.024933592634499846
84.655 0.2917242651977464 -0.05353078138919612
85.15 0.26231172907861167 -0.12658739900700547
85.645 0.21091156951683906 -0.1867386057838195
86.14 0.14247570913236807 -0.22752092973793903
86.635 0.06388173610104403 -0.2441580663839391
87.13 -0.01656510823374306 -0.23420349487966657
87.625 -0.08990670882656418 -0.1980661350953157
88.12 -0.14756758699505548 -0.1392613446997831
88.615 -0.1825291191893073 -0.06422875268530875
89.11 -0.1904169655400429 0.018365470315544703
89.605 -0.1702340550082006 0.09878035458861235
90.1 -0.12453323511763732 0.16758844981158513
90.595 -0.05897845669852067 0.21699390780040145
91.09 0.0185774369154671 0.2418005702009402
91.585 0.09925130754635583 0.23987835884317799
92.08 0.17426460605554153 0.2121362055714618
92.575 0.23587107625824777 0.1621277594606625
93.07 0.27800511800647937 0.0954564634653123
93.565 0.29667098493020644 0.01911898960212373
94.06 0.29013912363168914 -0.05913548027902268
94.555 0.2590156280244219 -0.13141409101597665
95.05 0.2062185132030585 -0.1902808367150639
95.545 0.13684871639810076 -0.229380416691625
96.04 0.05790266132349898 -0.2440920443405421
96.535 -0.022244699245141754 -0.23216707519549054
97.03 -0.094634912253306 -0.19423934969525888
97.525 -0.15077617293167808 -0.13404862032155773
98.02 -0.18381832531598946 -0.058221730801310455
98.515 -0.18962167139786368 0.024461910726891363
99.01 -0.16745319302049888 0.10424705613915974
99.505 -0.12011346596147668 0.1717947226813785
100.0 -0.053456657691141815 0.21948121982319255
