!Created with skrf (http://scikit-rf.org).
# GHz S RI R 50.0 
!freq ReS11 ImS11
1.0 0.25059294114639796 -0.15117662369038032
1.2475 0.22347650449361256 -0.18110756180822318
1.495 0.1917690674422501 -0.20632986374441195
1.7425 0.15625217379412462 -0.2261322779726414
1.99 0.11782303925625225 -0.2399244176796217
2.2375 0.0774782753972367 -0.24725767662324172
2.485 0.036293183676686665 -0.24784483505464477
2.7325 -0.004603677276087861 -0.24157718451888155
2.98 -0.04406056460429887 -0.22853779434444682
3.2275 -0.08093672083903043 -0.20900945350204708
3.475 -0.11413959081788627 -0.18347588701661507
3.7225 -0.14266353358935852 -0.15261509313798388
3.97 -0.16562804507173984 -0.11728408161811385
4.2175 -0.18231321983022764 -0.07849489138832941
4.465 -0.19219010226625957 -0.03738247272690857
4.7125 -0.19494375002985032 0.004834247758334606
4.96 -0.1904872608673112 0.046896139655534234
5.2075 -0.17896566173391248 0.08755000658323289
5.455 -0.16074935017264225 0.12559436979468636
5.7025 -0.1364176102612102 0.15992221537451723
5.95 -0.1067334886142075 0.1895583388872245
6.1975 -0.07261191288334176 0.21368946582273554
6.445 -0.03508329953955353 0.231686015700565
6.6925 0.004744996239363475 0.2431151131248196
6.94 0.045727172467490015 0.24774513478840549
7.1875 0.0867155285664726 0.24554264133940096
7.435 0.1265936401913384 0.23666293039024905
7.6825 0.16430523780554634 0.2214356466611953
7.93 0.19887835741267906 0.20034690980303704
8.1775 0.2294447565964214 0.17401930190408182
8.425 0.255254915461395 0.14319083732596627
8.6725 0.2756891568621981 0.10869376140227505
8.92 0.2902655250618505 0.07143373141920885
9.1675 0.29864506855530654 0.032369655204620575
9.415 0.30063509883649026 -0.0075057770848656405
9.6625 0.29619086212521184 -0.04718501836749218
9.91 0.2854158851284018 -0.08566432070118504
10.1575 0.2685610573392261 -0.1219624509454732
10.405 0.24602230873822487 -0.15513978104998988
10.6525 0.21833655032908458 -0.18431798521198503
10.9 0.18617538356390542 -0.20870042739230515
11.1475 0.15033597231687273 -0.22759311432822
11.395 0.11172842737667903 -0.2404258327035745
11.6425 0.071359097523882 -0.2467728029409011
11.89 0.030309308777328743 -0.2463718928962046
12.1375 -0.010290647479996994 -0.2391411777654979
12.385 -0.049292110003980906 -0.22519144954897274
12.6325 -0.08556260531621081 -0.2048332143892355
12.88 -0.11802324413420406 -0.17857680796502023
13.1275 -0.1456873412843997 -0.14712453293876995
13.375 -0.16769823202910875 -0.11135418032414036
13.6225 -0.1833639993518544 -0.07229391100732749
13.87 -0.19218678379520926 -0.031089185651377967
14.1175 -0.19388455646322406 0.011036844095065132
14.365 -0.18840369626421247 0.05282743130502332
14.6125 -0.17592138203676277 0.09303830603622397
14.86 -0.15683760904183713 0.13048300689261028
15.1075 -0.1317574633956583 0.16407483250636354
15.355 -0.10146502853732513 0.19286312368663944
15.6025 -0.06689086176372006 0.2160621539814621
15.85 -0.029075305617877946 0.23307160413541528
16.0975 0.010870031097201388 0.24348832536855214
16.345 0.051800454016307694 0.24710976448012328
16.5925 0.09257420707097616 0.24392995860803451
16.84 0.1320849852013817 0.23412936699915138
17.0875 0.16929008682326718 0.2180599804904218
17.335 0.2032338387034066 0.19622715216338213
17.5825 0.23306633610007907 0.16926945857657638
17.83 0.2580578507240661 0.13793767276885005
18.0775 0.2776094572639722 0.1030736513431138
18.325 0.29126051913626594 0.06558964697351456
18.5725 0.29869366857119845 0.02644828530733748
18.82 0.2997378330856313 -0.013356786463952872
19.0675 0.29436971953802127 -0.05281974871567885
19.315 0.28271398772650447 -0.09094123866178457
19.5625 0.26504214621073563 -0.12674708764306683
19.81 0.2417700011495085 -0.15930747047982793
20.0575 0.21345330173534138 -0.18775667874564125
20.305 0.1807810712281013 -0.21131357258225228
20.5525 0.14456600967652736 -0.22930255039925415
20.8 0.10573132284365333 -0.24117461485304353
21.0475 0.06529339030083954 -0.2465278263992527
21.295 0.024339848841459857 -0.24512615037383648
21.5425 -0.01599705809174372 -0.23691545617273838
21.79 -0.05457163452775778 -0.2220352599142106
22.0375 -0.09025969731438904 -0.2008247584342177
22.285 -0.12199615842079962 -0.17382181984925488
22.5325 -0.14881354757362275 -0.14175389627266083
22.78 -0.16987940703432194 -0.10552030561285455
23.0275 -0.18453026152129262 -0.06616595964749705
23.275 -0.19229985908825725 -0.024847331871521727
23.5225 -0.1929396246748175 0.017207826421381897
23.77 -0.18642976050625343 0.058744898302888954
24.0175 -0.1729801184747699 0.09852839463235785
24.265 -0.15302077517983903 0.13538681611106312
24.5125 -0.1271830550286837 0.16825379005326552
24.76 -0.0962724635438445 0.19620327196492054
25.0075 -0.0612355231073963 0.21847719091504036
25.255 -0.023122792098610553 0.23450462279369344
25.5025 0.016949617706703335 0.2439122981437056
25.75 0.05783790579042505 0.24652690100312985
25.9975 0.09840607898088999 0.24237012449957285
26.245 0.13755780050621494 0.23164778046696544
26.4925 0.17426381661307772 0.21473440742149663
26.74 0.20758465722336017 0.1921548024475524
26.9875 0.23668870256063562 0.16456375327735054
27.235 0.26086600057474196 0.1327250100876995
27.4825 0.2795384016140978 0.09749025513344135
27.73 0.29226665196926094 0.05977853970451443
27.9775 0.2987550703308826 0.02055639136959312
28.225 0.2988543391508768 -0.01918142910243837
28.4725 0.2925627960450824 -0.05843070895759533
28.72 0.28002642794612315 -0.09619639373114895
28.9675 0.26153757083767765 -0.13151135271972902
29.215 0.23753211791112955 -0.16345559200814824
29.4625 0.20858485619545059 -0.19117610575745397
29.71 0.17540240419054576 -0.21390739073464937
29.9575 0.13881312991418748 -0.23099242694591077
30.205 0.09975340964559812 -0.2419036620259803
30.4525 0.05924966074491237 -0.2462632494002355
30.7 0.018395760965074767 -0.24386150927257202
30.9475 -0.021674243383830095 -0.23467234435308
31.195 -0.05981784564524846 -0.21886419153953393
31.4425 -0.09491943948820614 -0.1968050693600674
31.69 -0.12592806696394557 -0.16906042428491697
31.9375 -0.15189581728878399 -0.13638280591301802
32.185 -0.17201476944553418 -0.09969290537640696
32.4325 -0.18565017340501394 -0.060052136486235495
32.68 -0.19236759381647267 -0.01862765838220197
32.9275 -0.19195202266597255 0.023348557859623698
33.175 -0.1844174910545433 0.06462442633843737
33.4225 -0.17000642123261045 0.10397362743902484
33.67 -0.14917877062218807 0.1402399691308533
33.9175 -0.1225918232944956 0.17237768375082652
34.165 -0.09107217608622573 0.19948553238767694
34.4125 -0.05558196209791673 0.22083319832687054
34.66 -0.01718160502192219 0.23587916197818756
34.9075 0.02300860381944874 0.24427996415597789
35.155 0.06384603710626864 0.24589139513661562
35.4025 0.1042006900700477 0.24076263034204168
35.65 0.14298636317840058 0.22912463715049394
35.8975 0.17918736625615606 0.21137429859366363
36.145 0.21188050279776569 0.18805566003138788
36.3925 0.24025247371681552 0.15983954113029303
36.64 0.2636131159039654 0.1275025108068489
36.8875 0.2814050562261045 0.09190593938055552
37.135 0.29321042232987193 0.05397555624097342
37.3825 0.2987552223256824 0.014681680874400551
37.63 0.29791190468740386 -0.024979920236957238
37.8775 0.2907004571310772 -0.06400675606952573
38.125 0.2772882178544901 -0.1014082111697727
38.3725 0.2579883722749032 -0.13622434678558457
38.62 0.2332569105497978 -0.16754518264499615
38.8675 0.20368764306379233 -0.19453062795052464
39.115 0.170004730905683 -0.21643105605288887
39.3625 0.133052105358972 -0.23260828851641713
39.61 0.09377914406140386 -0.24255648516388742
39.8575 0.053222059471536534 -0.2459221490183754
40.105 0.012480650250972412 -0.2425221791241643
40.3525 -0.02730962864782529 -0.23235867808806743
40.6 -0.06500991679629817 -0.21562908772068323
40.8475 -0.09951368404124405 -0.1927302274837672
41.095 -0.12978461597042132 -0.1642549799584135
41.3425 -0.15489485434375574 -0.13098072081508166
41.59 -0.1740614500459337 -0.09384911736313951
41.8375 -0.1866787192539963 -0.053937578582637674
42.085 -0.1923442591488926 -0.01242336006375246
42.3325 -0.19087669851814007 0.0294579820439985
42.58 -0.18232381232667555 0.07045753079864425
42.8275 -0.16696035866121794 0.10935873427179094
43.075 -0.1452758101522465 0.14502122731833772
43.3225 -0.11795294290372688 0.17642025804849162
43.57 -0.08583891129917563 0.20267967602167555
43.8175 -0.049910897451967196 0.2230970672313763
44.065 -0.011238636878202937 0.23716033600699452
44.3125 0.029053914287802973 0.2445557388013843
44.56 0.06982575534195468 0.24516798524815459
44.8075 0.10995324843510215 0.23907347906521642
45.055 0.1483606300289306 0.22652804734019233
45.3025 0.18404599515866282 0.20795060275980107
45.55 0.21610257370575103 0.1839041235835647
45.7975 0.24373548315463686 0.15507515873232985
46.045 0.26627440170423317 0.12225281354069156
46.2925 0.28318275474832316 0.08630788689312274
46.54 0.29406405437517175 0.04817254763369228
46.7875 0.2986659909250035 0.008820684009242529
47.035 0.29688276658316076 -0.030751147049574025
47.2825 0.2887560030253198 -0.06954239222124617
47.53 0.27447436709558115 -0.10656710010953815
47.7775 0.25437185816772556 -0.14087276495605588
48.025 0.22892450541085402 -0.17155968147863931
48.2725 0.19874505007461413 -0.19780095618538365
48.52 0.16457505544514575 -0.21886313819149297
48.7675 0.12727381458543482 -0.23412719745210142
49.015 0.0878034326772619 -0.2431093056985838
49.2625 0.0472095638637473 -0.24548058823720562
49.51 0.006597493423221176 -0.2410847445818516
49.7575 -0.03289642372191923 -0.2299522215538843
50.005 -0.07013754095408575 -0.212309507030952
50.2525 -0.10402900609603483 -0.18858213716991734
50.5 -0.13354975134733202 -0.15939020586332114
50.7475 -0.1577925365346139 -0.1255355445243111
50.995 -0.17599987131086148 -0.08798028825939228
51.2425 -0.18759550738565894 -0.047817215520203946
51.49 -0.19220929433686113 -0.006232968338996728
51.7375 -0.1896935474041323 0.035534063929182826
51.985 -0.1801296581720199 0.07623887947956187
52.2325 -0.1638244248588078 0.11467538713282532
52.48 -0.14129639364816535 0.14971964651136116
52.7275 -0.11325327872147585 0.18036839189506446
52.975 -0.08056216626148298 0.20577088455003317
53.2225 -0.04421463235712672 0.22525278320249587
53.47 -0.005289079885686207 0.23833143962386605
53.7175 0.03508747059886595 0.24472272002481474
53.965 0.07577617661243465 0.24434004228961037
54.2125 0.1156602150623875 0.23728674972527095
54.46 0.15367461688215775 0.22384319050444196
54.7075 0.18883153387201368 0.204449943412436
54.955 0.22024081542046847 0.17968855149868784
55.2025 0.24712612258615105 0.15026093501812168
55.45 0.26883704974449185 0.1169683968587436
55.6975 0.28485785729150886 0.08069084803213547
55.945 0.2948134518105041 0.042366601526602016
56.1925 0.29847319857613425 0.0029728352959696868
56.44 0.2957530342798931 -0.03649337327400251
56.6875 0.2867161848652853 -0.07503367771288609
56.935 0.2715726029942509 -0.11166706690804262
57.1825 0.2506770395564311 -0.14544875773817703
57.43 0.22452547093812947 -0.17548962650144959
57.6775 0.193749435988744 -0.20097630015120002
57.925 0.15910771220590098 -0.22119183800349124
58.1725 0.1214746989397791 -0.23553669341479827
58.42 0.08182489549979471 -0.24354936926383045
58.6675 0.04121298041780838 -0.24492589511017368
58.915 0.0007492249978627921 -0.23953699022925695
59.1625 -0.03842969086586086 -0.22744157501955609
59.41 -0.07519396548560536 -0.20889519661284844
59.6575 -0.1084570841510735 -0.18435198302958528
59.905 -0.13721387757250322 -0.1544589627286232
60.1525 -0.1605783264308442 -0.12004199140183164
60.4 -0.1778189096736668 -0.08208309618165872
60.6475 -0.18838919277604566 -0.04168972911242977
60.895 -0.19195149162800199 -5.713935637910756e-05
61.1425 -0.1883918377185898 0.04157426731383486
61.39 -0.17782508012952966 0.08196420794487738
61.6375 -0.16058972015922734 0.11991779308564875
61.885 -0.13723288798944214 0.1543281419757182
62.1325 -0.10848663041720752 0.18421397105893098
62.38 -0.07523728725777563 0.20875029114891475
62.6275 -0.03849012244781945 0.22729100832186624
62.875 0.000668486311556131 0.2393829412504521
63.1225 0.04110909837322768 0.2447714488168477
63.37 0.08169560024663225 0.2433984291911322
63.6175 0.1213184656096068 0.23539385539301388
63.865 0.15892390757985314 0.2210622336990644
64.1125 0.19353843078680114 0.20086541877794084
64.36 0.22428871731873484 0.17540312205678216
64.6075 0.2504171147367006 0.14539224772311124
64.855 0.271293220477684 0.11164592700751694
65.1025 0.28642217468224546 0.07505283560992526
65.35 0.29545029305848425 0.03655710384950191
65.5975 0.29816860935938216 -0.0028611115305159363
65.845 0.2945147725311248 -0.04220451473218526
66.0925 0.2845735759261072 -0.08047726726572417
66.34 0.26857620361200374 -0.11670360606300317
66.5875 0.24689807924020968 -0.14994679083412016
66.835 0.2200550133038711 -0.1793286148878837
67.0825 0.1886971825104911 -0.2040495749623278
67.33 0.15360035898975768 -0.22340959745285055
67.5775 0.1156537565112791 -0.23682897155148824
67.825 0.0758438946484058 -0.24386886160880236
68.0725 0.035234015650240785 -0.24425048690089088
68.32 -0.005061168456443513 -0.23787180062326613
68.5675 -0.04390527185660985 -0.22482031171467592
68.815 -0.08017401002249863 -0.20538061600212165
69.0625 -0.1127919009901586 -0.18003527604839337
69.31 -0.1407703541069454 -0.14945793823760425
69.5575 -0.16324519253323438 -0.11449800579947098
69.805 -0.17951138330767052 -0.07615677402138317
70.0525 -0.18905268125495692 -0.0355556245796636
70.3 -0.19156406946237686 0.006102410794231046
70.5475 -0.18696530341637035 0.047575766639856895
70.795 -0.17540450150599893 0.08762971533612558
71.0425 -0.15725149734022997 0.12508133463213297
71.29 -0.13308147960349515 0.1588414541646337
71.5375 -0.10365018629252007 0.18795127634229422
71.785 -0.06986249849880202 0.21161190003998975
72.0325 -0.0327366306908802 0.22920564815595615
72.28 0.006633784646426326 0.24030881617440383
72.5275 0.047117554716530695 0.24469612593304724
72.775 0.08758188568922684 0.24233771331491263
73.0225 0.1269250465810497 0.23338985540782456
73.27 0.16410483409867657 0.21818083721094372
73.5175 0.19816241305965512 0.19719338230196684
73.765 0.2282415207228075 0.1710449570322885
74.0125 0.25360334159690245 0.1404670447427963
74.26 0.2736375689372696 0.10628421795856255
74.5075 0.2878702715750393 0.06939355119460351
74.755 0.2959691913598123 0.030744646148058205
75.0025 0.29774702438059364 -0.008679692451786214
75.25 0.29316310748604596 -0.04788227301242052
75.4975 0.28232375966430356 -0.0858700872339454
75.745 0.2654813338270722 -0.12167294910155248
75.9925 0.24303183584752747 -0.15436250225705206
76.24 0.21551078146900468 -0.18307181231828507
76.4875 0.18358680562812635 -0.20701561309856562
76.735 0.14805243151700687 -0.22551106994825565
76.9825 0.10981136769617252 -0.23799867123188312
77.23 0.06986174929919939 -0.2440625787485967
77.4775 0.02927488878947154 -0.2434494863057774
77.725 -0.0108306397309329 -0.23608478743063302
77.9725 -0.049319395629171245 -0.222084679329117
78.22 -0.08507331252547914 -0.20176277339322682
78.4675 -0.11702865993787451 -0.17562988029013632
78.715 -0.14421412235220765 -0.14438591346568944
78.9625 -0.16578799501619806 -0.10890330962527664
79.21 -0.18107225080850783 -0.07020197031306225
79.4575 -0.18958119956720565 -0.02941642666123371
79.705 -0.1910426746309059 0.012243363652460391
79.9525 -0.18541013914102905 0.05353555823837968
80.2 -0.17286476437129278 0.09323184008089684
80.4475 -0.153807315389583 0.1301620307356903
80.695 -0.12884048412682791 0.163255324830408
80.9425 -0.09874303071960341 0.19157591199079216
81.19 -0.0644376409090681 0.21435131011953507
81.4375 -0.02695472214357808 0.23099241738769793
81.685 0.012605574443391727 0.24110500296514792
81.9325 0.05311098413247443 0.244493008101196
82.18 0.09343263250268052 0.2411545500878558
82.4275 0.1324770890914742 0.23127187132965576
82.675 0.16921414046440142 0.21519664388150633
82.9225 0.20269992270825216 0.19343204172623663
83.17 0.23209545373665363 0.166612861668373
83.4175 0.2566809079965296 0.13548475057802592
83.665 0.2758661694453531 0.10088332419296495
83.9125 0.2891982861407364 0.06371367842121682
84.16 0.2963664438839776 0.02493052807308209
84.4075 0.2972049945875639 -0.014481018152125227
84.655 0.2916949366744322 -0.053524209602035515
84.9025 0.27996406893179243 -0.09120920524700508
85.15 0.26228584392024074 -0.12657174044009115
85.3975 0.23907674955435296 -0.15869219909529592
85.645 0.21089186498647433 -0.18671528893018566
85.8925 0.17841808725117586 -0.20987036101568168
86.14 0.14246442707177792 -0.2274922018352123
86.3875 0.10394874510706624 -0.23904186891203716
86.635 0.06388036188759927 -0.2441268594204409
86.8825 0.023338139814186934 -0.2425196228566373
87.13 -0.01655609023849476 -0.2341731895995291
87.3775 -0.05466850875372547 -0.2192325285190303
87.625 -0.08988798965732255 -0.19804021101140212
87.8725 -0.12116328842119788 -0.17113508182632117
88.12 -0.1475410699961402 -0.13924293941193044
88.3675 -0.16820273227872545 -0.10325870710619052
88.615 -0.18249776455298478 -0.06422019875534501
88.8625 -0.18997138252796267 -0.023274285760048495
89.11 -0.1903844316826355 0.018363028807654905
89.3575 -0.18372404080677188 0.05945052574566277
89.605 -0.17020418967797654 0.09876716394396193
89.8525 -0.1502561459694446 0.13515628809614744
90.1 -0.12450952355810786 0.16756610858870255
90.3475 -0.09376541309679778 0.195084294437811
90.595 -0.05896355018024023 0.21696510081097364
90.8425 -0.021145764195145765 0.23264814487379104
91.09 0.01858202028273493 0.24176865110523243
91.3375 0.05908715215421633 0.24415962199921917
91.585 0.0992452786049089 0.23984688670185644
91.8325 0.13797177539882685 0.22903830264266445
92.08 0.17424882468785668 0.2121085274233619
92.3275 0.20714784398412694 0.18958075850896197
92.575 0.23584735649115104 0.16210669125134103
92.8225 0.2596466790345284 0.13044571346678713
93.07 0.277975980912223 0.09544407904000637
93.3175 0.2904033398224408 0.058014520407104954
93.565 0.29663940300262576 0.01911649899991669
93.8125 0.2965401707126095 -0.02026292572742053
94.06 0.290108274519337 -0.05912779100071782
94.3075 0.2774929434044173 -0.09649177121068683
94.555 0.25898865443597696 -0.1313968790111398
94.8025 0.2350322688155841 -0.16293260659437295
95.05 0.20619827572938607 -0.1902556846005152
95.2975 0.17319162353115908 -0.21261047109886974
95.545 0.1368375292730699 -0.22934976300915494
95.7925 0.0980676427175747 -0.23995556068012602
96.04 0.05790201743539383 -0.24405903385693525
96.2875 0.017426522499227146 -0.24145866294076568
96.535 -0.022234382110438433 -0.23213530003634866
96.7825 -0.05994919401619519 -0.2162627516700669
97.03 -0.0946144656923105 -0.19421247100976022
97.2775 -0.1251921835115217 -0.16655109600751472
97.525 -0.15074770182238245 -0.1340298986455083
97.7725 -0.17048614777123855 -0.09756571214936013
98.02 -0.18378502610018377 -0.05821354057780128
98.2675 -0.19022079096703903 -0.01713176222732243
98.515 -0.1895874383239855 0.024458473408398993
98.7625 -0.18190569378440674 0.06531748188664668
99.01 -0.16742207343635837 0.10423236735753065
99.2575 -0.14659789210932728 0.14006077399396705
99.505 -0.12008908081784496 0.171770569721349
99.7525 -0.08871835000458995 0.19847338166631046
100.0 -0.05344171628603013 0.21945050433837818
