!Created with skrf (http://scikit-rf.org).
# GHz S RI R 50.0 
!freq ReS11 ImS11 ReS21 ImS21 ReS12 ImS12 ReS22 ImS22
1.0 0.3024535260630089 -0.30517178465005557 0.7680774557372483 -0.10732392422956508 0.8248876519416402 -0.19062047730209541 -0.12374570075335396 -0.2756587553979515
1.495 0.09999425192454886 -0.11252124154671485 -0.8386058356570206 0.00013180834168349177 -0.8406222542794883 0.0008246971093338396 0.12268534370315351 -0.1250572566741882
1.99 0.2945433289159419 0.040694379345012244 0.7625684438731488 0.15187863577491117 0.8235638422632997 0.08208717874795468 -0.1527202737688808 -0.051696058740989315
2.485 0.2519084145254612 -0.17165985014191215 -0.7198461040413865 -0.22325804886021658 -0.7415660416619737 -0.1664342909590782 -0.06246822020079931 -0.28113062722031945
2.98 -0.007060090226268396 -0.045321518537194544 0.7106540717120897 0.33129854014209564 0.7086152885781978 0.33383432725401035 0.05177111232198264 -0.0499248459209459
3.475 0.1237511562987035 0.12435377131450509 -0.6361401634890184 -0.4068964170377907 -0.647907466997143 -0.36970202320462503 -0.19911978898074228 -0.12485777321842773
3.97 0.1325049270331956 -0.07415825750788696 0.5606489165270565 0.4926227295000309 0.546399700453477 0.4558696049310141 0.0015231420948579593 -0.24294100875033037
4.465 -0.12803766661456742 -0.029241752564566736 -0.47075686572347264 -0.5503140637285194 -0.47135597244988015 -0.5683928883324 -0.03730873532321698 -0.015494880736069618
4.96 -0.034488353129354894 0.15201286707286912 0.4113320450901944 0.5807391839665121 0.397827814513826 0.5660280217318224 -0.18735457477925088 -0.18340353654440664
5.455 0.03087103008440826 -0.037878890756341224 -0.2947454865230941 -0.6555380377939956 -0.2722172313070669 -0.6372866202690314 0.033990479018687826 -0.16844876147987617
5.95 -0.18171130683273512 -0.06718594284535548 0.17271444815965542 0.6464781506361902 0.18265968744393227 0.6809919108845539 -0.1261183117936355 -0.020783380573456366
6.445 -0.12298123802722252 0.11564113706510576 -0.12359950280810407 -0.6549809805817206 -0.09895626752934918 -0.6554509905710217 -0.14136164412646374 -0.21181300996289437
6.94 -0.0014203052820722453 -0.04967975863041026 -0.023647163731039977 0.6816300260316815 -0.03763469450466935 0.6855303764614783 0.013931929251805428 -0.08579167688738952
7.435 -0.15535338712619487 -0.12280701429314554 0.1284508452461899 -0.6225127938610383 0.10575068503594687 -0.667943574764815 -0.1878378819687718 -0.056008274282628945
7.93 -0.12270612462008881 0.05319353131363186 -0.17967679104740011 0.6209391350168221 -0.19490367816670587 0.6222474755885468 -0.08902264849887274 -0.19966083075941293
8.425 0.037221363629871294 -0.056810797425924126 0.3083402773041829 -0.5802136865859174 0.30892186610573663 -0.6033366281044173 -0.05099752818812576 -0.02433144600439645
8.92 -0.07247314802015965 -0.1383136618583599 -0.3757722092342271 0.502464364023172 -0.3485524511888894 0.5426402767715334 -0.21080687551107655 -0.10302913395944488
9.415 -0.05857470164667436 0.032234163629649204 0.4289433611891554 -0.47104241338364145 0.4359211463090128 -0.47366614630974124 -0.053836991937644144 -0.1506299621832125
9.91 0.11469158711781735 -0.01701579650807705 -0.5015698334954198 0.39190877800560797 -0.49838163847311073 0.4166841689952152 -0.1329410134848356 -0.004932131338661207
10.405 0.0319685330303534 -0.09611478110145118 0.5415118065361406 -0.31461876030073144 0.5147523196263546 -0.33673088767640125 -0.19613831362043482 -0.14447754686486355
10.9 0.02429554952606044 0.06796813562686012 -0.5729091987465413 0.24279050279311237 -0.5784206138600783 0.24616890848763884 -0.054365565801044964 -0.0890153424773169
11.395 0.18369807133451346 0.055227179119309786 0.5777367299644589 -0.161559211875126 0.5859873675217802 -0.17581861738652096 -0.20060662936224796 -0.02496802839603645
11.89 0.11614980500503362 -0.027051281489751278 -0.6024066253582678 0.08314403899835805 -0.5825823233242146 0.07996840539373029 -0.15506634429345761 -0.15980890263862751
12.385 0.07198501925915744 0.12183178455484672 0.5905199696972454 0.015970008833600707 0.6056408260554244 0.01572672838072234 -0.08800971058394699 -0.033850355883238516
12.88 0.20904161420909378 0.12183487376214434 -0.555621583978288 -0.0813148881279143 -0.5670280690670049 -0.08062953072801897 -0.2311436207306455 -0.06891788383503844
13.375 0.14370816457736743 0.027620263993776855 0.5579922330063368 0.16564347123604284 0.5441093445676052 0.1793959941961615 -0.10926785200908697 -0.14203816747747522
13.87 0.06015337961602016 0.151285140926052 -0.4995738618177763 -0.2586340073521534 -0.5188478842336607 -0.2548497087019433 -0.1444128352474973 -0.0031159629443814835
14.365 0.18462369548647536 0.1571220222173252 0.4479504997667879 0.29774242819256713 0.4529289190859528 0.30841654532054175 -0.22026980845354394 -0.11345941571957657
14.86 0.12254444111554243 0.04062551008374701 -0.41166772441906285 -0.3842601756450335 -0.4043211485350522 -0.3961396769250666 -0.081739825080186 -0.091495607315067
15.355 0.019859320464804084 0.1326903749498897 0.32641577625572443 0.44360683499703624 0.34797812731290667 0.4368790789474748 -0.1974520690948055 -0.002473176037307569
15.85 0.14316650135719072 0.14695831348837946 -0.27040904457344983 -0.46254757959066345 -0.26488886883171037 -0.47052679541094267 -0.17979400814756547 -0.13605362215580588
16.345 0.10479850338409102 0.001671180146494092 0.1993129590274318 0.5207615826139775 0.1989874733001695 0.5291508753325186 -0.0878541459066853 -0.027069613292640828
16.84 -0.00790793880884282 0.06536727846418364 -0.11472380792638674 -0.5388654834247947 -0.1268693706669391 -0.5249471969522593 -0.23039370074082027 -0.02649833033838506
17.335 0.1168849802568161 0.09390540047689673 0.05112393540043503 0.5396068774939414 0.03761352781225163 0.5430374829332214 -0.12958715774542579 -0.12476911844943978
17.83 0.11498403417914421 -0.07019206456332283 0.03175593620478727 -0.5424508208118756 0.03253177272275514 -0.5565869401399363 -0.12789382708367136 0.025544009029004156
18.325 -0.0063085204139091125 -0.02982115142484859 -0.10086378644472178 0.530465364110779 -0.0991611663942832 0.517875780149468 -0.23741537716557834 -0.06565036936017066
18.82 0.11661808659183104 0.03177106485649983 0.17344367772141853 -0.5049667281128896 0.18688019146155233 -0.5125161159705391 -0.093279302756541 -0.08098051327951998
19.315 0.15261243044254505 -0.12460671881213149 -0.23582785950137586 0.4509142249722642 -0.23919218861788785 0.47545700370576577 -0.18680408984730448 0.0474592916264739
19.81 0.018566037671757414 -0.10608879220271569 0.287605618168454 -0.42824143054995545 0.2958449405362971 -0.4190766555809648 -0.21321116406229482 -0.09576223012312061
20.305 0.12709479811472596 0.002416616208320854 -0.3610356937581412 0.3675052304727948 -0.37179844357946484 0.38539416386773007 -0.08622800058286575 -0.019047882881204847
20.8 0.19670178207682884 -0.12630826717352778 0.38528232914864097 -0.28374312521617673 0.388426426658317 -0.31553819747696754 -0.23140030325459846 0.03298934946205866
21.295 0.05320986186794434 -0.13047767658261378 -0.4251425549628057 0.24714691695705718 -0.43649318281305505 0.24489040414960397 -0.17244533390592662 -0.10789638309710953
21.79 0.12838134061936038 0.01556046371691202 0.47164650432967925 -0.16262721781630482 0.4757988818614881 -0.19044754818240578 -0.11004369501658376 0.037880330567268854
22.285 0.22132694849359005 -0.08647886568264478 -0.46030184629370285 0.08266749254633318 -0.4622010974121549 0.11264150179316336 -0.2554162339075282 -0.007177821012452639
22.78 0.0739605023350337 -0.12126555843140338 0.48372332608037705 -0.032913451752432606 0.4910552831436786 -0.03096985863423451 -0.1229440927706372 -0.08902156184692275
23.275 0.09645646138620657 0.046557551540985925 -0.49333813787037073 -0.05209884777425393 -0.4859588312509389 -0.030586917517202796 -0.15322154476771768 0.06974314232495875
23.77 0.20679287168790875 -0.028263516957392647 0.45972132759730516 0.11901796652966339 0.45165242920106635 0.10337020339577964 -0.24725920878919422 -0.05307913370778362
24.265 0.05944516389602159 -0.09561957819916311 -0.4525094134133636 -0.17963536768042998 -0.4541622088947556 -0.1840435228790653 -0.09102461574859493 -0.045280502060845794
24.76 0.02605751209978914 0.06744641459018867 0.4258273958106005 0.24063852038871672 0.4092116714397875 0.23162213136558946 -0.1991174681095338 0.07043740822485943
25.255 0.15039956951089528 0.025143264250534918 -0.38391792021076115 -0.28901534105932836 -0.3595732092545184 -0.2924176161391946 -0.20719592912910806 -0.08429724391262326
25.75 0.02776961635334812 -0.07897331233197093 0.33313360714969964 0.34375581131741567 0.3329400390542689 0.35746480503356276 -0.0841934405717483 0.01312784504579118
26.245 -0.04362032413482361 0.06543771430940157 -0.281594378639451 -0.3695351760255023 -0.2633525051656258 -0.37658725401536824 -0.2326880486008169 0.045132493633522154
26.74 0.09133791871173046 0.05754198224819897 0.2326969546573005 0.407786373552844 0.20627960265779094 0.4253313909058141 -0.15404853781536407 -0.085075844431785
27.235 0.0102107967416636 -0.08120730565421994 -0.14521768682244215 -0.437215578647721 -0.1567420692236898 -0.4503741093675461 -0.10504141439550656 0.06379862208033588
27.73 -0.08521701097864505 0.03351956813368343 0.09317762572707174 0.430752692762745 0.08056357097450656 0.4476021667058738 -0.2392185936638662 0.006426988503792288
28.225 0.05179485231274431 0.05888077019151393 -0.034451190007552236 -0.4544191837908447 -0.01557049946058796 -0.47353686734813855 -0.10847560375258855 -0.055545043509329206
28.72 0.024806717900389148 -0.09322449259102726 -0.0655007124356417 0.4404015724390178 -0.04051626261951202 0.45949511305885193 -0.14554700962522069 0.0907338420421743
29.215 -0.08480771339141231 -0.010870023772290455 0.1064923546636605 -0.41832049764310764 0.11109546716913941 -0.43323368808478535 -0.2213492110996823 -0.029566138758812418
29.71 0.04576433441982067 0.050287273682043464 -0.1712774968816894 0.4160050536192518 -0.1735814508117471 0.4364009219198549 -0.0838571884108524 -0.003099494430098418
30.205 0.06729523236268196 -0.09005941882375455 0.2471199085953524 -0.36868015130949955 0.21752651308284168 -0.38068538194169843 -0.1902270639787621 0.08658433055357175
30.7 -0.04442514921025451 -0.03576229589106639 -0.284452942446968 0.3342334612102029 -0.27768429582369375 0.3421851186499039 -0.1841464285705221 -0.04845944955925057
31.195 0.065395292381211 0.05767984126981918 0.3322898720085195 -0.30069726068431163 0.3220757338077328 -0.31089417256142543 -0.08781094694806502 0.04941909791585597
31.69 0.1200638448487157 -0.05599868627872681 -0.3718997243072972 0.24230243515776 -0.3455321393263986 0.23879747943494076 -0.21596175055616398 0.05549606704915422
32.185 0.009951077318063245 -0.03056090581987412 0.40120456914429675 -0.19245171757166032 0.3928992074810279 -0.18823957704983732 -0.13826595561529162 -0.04226141976402326
32.68 0.09009652410287197 0.08271030865916927 -0.4144629488946163 0.1360067474652031 -0.4065058209588038 0.13433124657667386 -0.11657851969191736 0.0832596323341804
33.175 0.1629364210057037 -0.00781264381670402 0.4196317668632162 -0.08137564635928386 0.40958167624642006 -0.06034744996629477 -0.21678746916136532 0.015950355348164164
33.67 0.054849895156273254 -0.007011351031583547 -0.4325958463042303 0.016035564262798625 -0.4311046135878414 0.001582429501652443 -0.10070707523072076 -0.013834632284376258
34.165 0.09498624481171433 0.10627885074803403 0.41189239439086484 0.04702795488016904 0.41279630475996454 0.057639205972037595 -0.1536208457251912 0.08890326482578471
34.66 0.17128328665012854 0.03459478592969766 -0.39584227510867476 -0.0931929217031552 -0.3994692716559351 -0.12454008583220764 -0.19038245153572456 -0.017572806719606066
35.155 0.06605713073793011 0.012211926494038483 0.3858521748654505 0.16670087099483052 0.3904037271771128 0.17886455505704427 -0.08704720136535146 0.02762541449917135
35.65 0.07843624928766467 0.11634868758050135 -0.3394843358504107 -0.2145553297247994 -0.34482066193713123 -0.2273749965338416 -0.18183945127352016 0.07100215988699381
36.145 0.15700032761323132 0.05719288895877875 0.30930053486418824 0.25495168493433384 0.3195238087345913 0.28354706577941663 -0.14603653108332557 -0.027602630789284897
36.64 0.06182054901520608 0.01100049568212816 -0.26538129918214565 -0.31316480711405165 -0.2791791780478123 -0.318714722251942 -0.09311362785214251 0.06496161021559564
37.135 0.05337904994327538 0.10252583156940985 0.21082928914257687 0.3411593619478305 0.22006573029633353 0.3513339870278343 -0.18967187067680502 0.03836880755179374
37.63 0.13355360551031906 0.04861885208213606 -0.16727718446313114 -0.3685806115169155 -0.18033955854624698 -0.38628654296799697 -0.10089705045088926 -0.011823084546234782
38.125 0.054797688175170285 -0.018537336758004352 0.10768685094882612 0.4006595960840872 0.12137041317422605 0.39546286743597775 -0.11944026050530304 0.08527877139493954
38.62 0.036938898139083305 0.06013944270583318 -0.05537086192531775 -0.40451267655625756 -0.05887657376761506 -0.40723411574374757 -0.1721267025066799 0.006228158656055361
39.115 0.12653898569196143 0.017575978664630156 0.0008020748263037569 0.4074867144762289 0.010214916645014876 0.4114527445004256 -0.0752206719557777 0.023678006578295878
39.61 0.06277248984781297 -0.06329947885047076 0.057311013249258164 -0.3983593354013816 0.05458772847043715 -0.39366212712928583 -0.15131712235239234 0.08229464671079886
40.105 0.03672359847550283 0.011520485045472437 -0.10571734309908451 0.39189888472240464 -0.11034756881454803 0.3879188426235413 -0.13889666175324009 -0.011966203271372109
40.6 0.1314376302861154 -0.013741355449803094 0.16405407997770166 -0.3597281610458702 0.15789882729084537 -0.362346401665545 -0.07429455007191209 0.06281461514369793
41.095 0.08364291873207191 -0.09800313000781039 -0.2045305730932713 0.327208141879325 -0.21260271877382045 0.3213928494104486 -0.1712957938681578 0.05695137938710125
41.59 0.04407565998577033 -0.020400133133309555 0.24917129348462436 -0.29825438271890153 0.2576521906333508 -0.2979699659141149 -0.09853345818732738 -0.009471332089300925
42.085 0.14663973259047472 -0.019067242968643667 -0.29029177138036694 0.24183758893314344 -0.2899380830036262 0.2461290438765215 -0.09854666996175244 0.0889995806219371
42.58 0.11140778798892735 -0.10615343208057355 0.31053188983509716 -0.19821851400823925 0.32580160385020845 -0.19467310831882836 -0.17106121642321992 0.02054136427775809
43.075 0.05226782363185474 -0.026203471508588278 -0.34778094514154995 0.1559408416742347 -0.3550595060476166 0.15696444568113982 -0.06739807552576974 0.012243152588150773
43.57 0.15316805753206456 0.001505803120293163 0.36075524504723416 -0.08797123657109972 0.36411400910970093 -0.091243734091004 -0.13061919026281302 0.09099947434125148
44.065 0.12629478590431834 -0.0888624011719263 -0.36287583224693637 0.040160338388200656 -0.38210634349865885 0.03802417893267746 -0.14572305896433654 -0.011194237501007617
44.56 0.04567071611498344 -0.0180507998486343 0.38079947758477356 0.01123287518898517 0.3822478276147187 0.009589977594681791 -0.05623258280232802 0.04603819244181524
45.055 0.13585538798202662 0.03331590846759246 -0.3675517213258467 -0.07167784631161342 -0.3681445724156912 -0.07396882236777519 -0.15937463994363132 0.07041793773003455
45.55 0.12561598026317616 -0.06483963076094587 0.3535085533704343 0.11736247910911185 0.3670237549196672 0.1203030210001156 -0.10696381545192304 -0.02588255901197467
46.045 0.017005144231532 -0.009174913653052702 -0.3405293593213649 -0.16846023540405725 -0.3380972144488143 -0.16712053995663242 -0.06430830755334074 0.07375220773367734
46.54 0.09400915894654673 0.06294759483875247 0.311374427080301 0.2081443025596853 0.307487631911191 0.21902402978239122 -0.16833771302177977 0.03402190019067962
47.035 0.10571785725294018 -0.03958904126354 -0.2770673697065638 -0.2508635030325414 -0.2857440956742548 -0.252108987363975 -0.06434454283368918 -0.017161460401945283
47.53 -0.0128007103897933 -0.013747677360053003 0.232884476057405 0.28103271384815587 0.23178790748704375 0.286258238746027 -0.09435640305347906 0.09220858190224941
48.025 0.04705134595106307 0.07737443765314911 -0.19872061699144009 -0.30224698190871124 -0.19245671225749816 -0.32107208976641205 -0.15340011015197957 -0.003748889547417216
48.52 0.09120838845984978 -0.025702004052850173 0.14411740844372103 0.3317752887296439 0.15103845548352446 0.3367439701813011 -0.03653778311172341 0.011770596937254275
49.015 -0.027987551941276684 -0.036288494431064085 -0.08491018144577164 -0.33796452278481875 -0.0874430546802589 -0.347183506173099 -0.12547247955887772 0.0852408280321854
49.51 0.0131533539710959 0.06983636484652879 0.046976504637045134 0.3428762119360935 0.04653768289418836 0.36027688349948206 -0.1204480653160441 -0.030024386323814337
50.005 0.09001952113655762 -0.020421333011354285 0.01847612638961208 -0.3535790143777543 0.006875122268687474 -0.35430532553526406 -0.034338333132415445 0.04983375318021179
50.5 -0.014865446516473039 -0.061486807001243086 -0.07411952306939489 0.3340137263519635 -0.06950924876834677 0.3432988358886391 -0.1503571582462062 0.05912212308034677
50.995 0.0010028020221971208 0.049656156004804844 0.11080578102882006 -0.3285341541781629 0.1080656163723269 -0.3380178192556856 -0.08174888638776552 -0.0358254552972719
51.49 0.10550856417578708 -0.010531957290319218 -0.17052334154363014 0.30939912279608156 -0.1602486060016722 0.30440656866915305 -0.05586906408647513 0.07888390060152567
51.985 0.01996345032788938 -0.07417874171480338 0.21026057164087902 -0.27059677987090613 0.21003443248754192 -0.2780756685800435 -0.15501619176053133 0.022291068604906986
52.48 0.0088411008549167 0.04008228096064943 -0.2428328172228965 0.24997152602769798 -0.23749472021780194 0.25128213601690047 -0.04492993882521232 -0.018311307145122243
52.975 0.12618139767197217 0.013760463945112081 0.2806789502394106 -0.21090023337600516 0.2769843718003015 -0.1987666195794719 -0.08903159426841843 0.08585601330897717
53.47 0.06531252490602094 -0.0663073613823568 -0.30515663552296274 0.1681951162987116 -0.3082317799053244 0.16608048031476064 -0.14084184663919727 -0.014555277536750611
53.965 0.025917084750217013 0.039046094563584724 0.3257908626394069 -0.12798619752674945 0.3230300027931847 -0.12322363218440155 -0.030388289266567052 0.010558761773687848
54.46 0.14136826295105642 0.04671062433755588 -0.3295015614854356 0.08119732543698362 -0.3372273694740605 0.061530861629874097 -0.12373392631980171 0.07211009522581828
54.955 0.1046550063671174 -0.0439669064899208 0.34101923905374015 -0.0357958970138779 0.35045773604476904 -0.026847102278261627 -0.10930397835626955 -0.038374523338146026
55.45 0.037683208969301885 0.043167886243433894 -0.33641728841067026 -0.019872392097964216 -0.3435808110926338 -0.025778136290418727 -0.03643895279181066 0.04065309243700294
55.945 0.1376426223208172 0.07530242704930364 0.3157424074362943 0.059624392549492845 0.33614370546686206 0.07980842559454569 -0.14269503691697105 0.03856933055478751
56.44 0.12347652368193437 -0.020388875865017694 -0.31166693411350577 -0.1065644832040782 -0.3270006840649553 -0.11552162507147458 -0.07131324432980503 -0.04062731878525698
56.935 0.03536202675117177 0.039901486548236165 0.28548941664142696 0.16334575564544063 0.29653805799018707 0.16548526090182333 -0.06108581756269285 0.06096429050908328
57.43 0.11772285267418724 0.09010138346941049 -0.2523377007416713 -0.18984203220238638 -0.2746205779054145 -0.2025149189536052 -0.1384153335379574 -4.023951486426151e-05
57.925 0.12199941454828922 -0.0054167944426327915 0.22858758772249083 0.23084436689066487 0.24316128188255332 0.23162875482907258 -0.043327153800671474 -0.02257643934271555
58.42 0.029162345927922204 0.023719830145492476 -0.1848551473158929 -0.2691401083423702 -0.1959960953339343 -0.26751285087064836 -0.09249205598685946 0.061310227730833444
