!Created with skrf (http://scikit-rf.org).
# GHz S RI R 50.0 
!freq ReS11 ImS11 ReS21 ImS21 ReS12 ImS12 ReS22 ImS22
1.0 0.014943279401627938 -0.3685005832724891 0.6609348175858728 -0.41340871828988324 0.6517072440170819 -0.47790058510122024 -0.2589486825817413 -0.2557200988909793
1.495 -0.035635487200634655 -0.07610405927103898 -0.6601076470862696 0.4968743752394147 -0.6628354116163788 0.5081849948848927 -0.09358508544925541 -0.11172291238260618
1.99 0.06842982529908592 -0.1908219786707837 0.6185013015485065 -0.4714558166427306 0.5527172828467646 -0.5199559612059556 -0.33159215632618205 0.040117185568927766
2.485 -0.12375825788192095 -0.05234943342214343 -0.5440022740172513 0.5334193406126262 -0.5307612059059398 0.5361752511437214 -0.2525281040537924 -0.08166248570751879
2.98 0.09656171300815887 0.04333132637479959 0.4968965391676542 -0.5712141156970678 0.4700526511019528 -0.5700340970079469 -0.1585546926550561 0.1637767229769205
3.475 0.025866164868882813 -0.08952161194878243 -0.44779701633240276 0.5862536813643723 -0.43204755922215204 0.5515299741184503 -0.2792818057814587 0.10553446265252507
3.97 0.08072364887345386 0.08155057918417434 0.3859748497955996 -0.6113616265858852 0.3761528605794247 -0.6154057623860676 -0.023975203095663224 0.06660610812970229
4.465 0.20784743343938392 -0.12805921232204448 -0.3285359622394066 0.595547649123861 -0.34527576219185974 0.5744635623507601 -0.07145513551892596 0.23687001692416346
4.96 -0.024604336276411485 -0.1233307188556511 0.26385825218389425 -0.6336969717218504 0.2943070355272544 -0.6297262427027879 -0.10593281032265185 -0.0014210368360620543
5.455 0.13508787019395407 -0.04054176571660078 -0.2458941823235577 0.6335383105388721 -0.23630117847908122 0.6165321756775465 0.13197077422022713 0.007555739264648284
5.95 0.027955512429820174 -0.25015840069694567 0.19918654726967588 -0.5913953982163939 0.23007723225686819 -0.6285943923028519 -0.05813796471640911 0.09092436324785828
6.445 -0.13539571617649587 -0.029938432713645182 -0.11507664883765467 0.6261850441165383 -0.13090518941456544 0.6324665417224942 -0.07534575044025378 -0.17782348384716576
6.94 0.02826594491698055 -0.06349997328259827 0.1193311145195633 -0.6368689687820679 0.13209557220419246 -0.6359000955877974 0.04410051659040447 -0.058249016959181464
7.435 -0.14386409895353441 -0.08130897956602226 -0.07972768334903912 0.5988588839018545 -0.05819516440273132 0.6360855593830549 -0.19946362839615772 -0.047861813853326454
7.93 -0.048738546861406544 0.125333741607821 -0.0005073004267474422 -0.6117445071830264 0.023162961280344216 -0.621937081401798 -0.13346166148835478 -0.17058442475652852
8.425 -0.0024087821874589567 0.0029032950107804427 0.0047023374883769665 0.6225596757023191 0.02327733069757539 0.6351484067277178 -0.14522085563290055 0.025973367652731012
8.92 -0.04996615749853052 0.1287789975618278 -0.05366961750118732 -0.5901275472665066 -0.06364789168451669 -0.5943598621892103 -0.27572154696425477 -0.035890756540206396
9.415 0.14011292970760764 0.07956897605939431 0.11194962634120191 0.5863721700197814 0.11426285691019215 0.6143790256842828 -0.10672317564265849 -0.006583884245189303
9.91 0.010363682589114102 -0.010221377104914034 -0.13606097321591326 -0.5875829251798911 -0.1433329795606182 -0.5670423231685354 -0.19209196090543415 0.1536140142312482
10.405 0.0947449204105313 0.11319750531355628 0.18406158461625272 0.5543716590891479 0.1866275163542267 0.5675397506608937 -0.18089645650066066 -0.009117428985151258
10.9 0.12707464136206895 -0.08872455113475147 -0.2149093786818413 -0.5369157107809817 -0.23534404652562546 -0.5342561625356632 0.021747005272024493 0.0908476353608403
11.395 -0.06655364078046672 0.0025080419296711664 0.2598256128702436 0.5075515415640761 0.23824644237810552 0.5173343893395869 -0.13816892784855422 0.13297472380851716
11.89 0.08956560290789972 0.06296462577326865 -0.3014231048487232 -0.48261638437465976 -0.3092090031222368 -0.48094352478079794 -0.04438680762697086 -0.0808776898396784
12.385 -0.020073436474806725 -0.06302722022901636 0.3041400099815108 0.4656013847234747 0.3052450621377742 0.46109746847995625 0.0506242348746244 0.04873807629080872
12.88 -0.040301154643700716 0.13739151653420867 -0.33899901922055264 -0.4059410203174517 -0.34823560457328384 -0.43225235203193635 -0.13348465105434681 -0.02086441200374507
13.375 0.09576822698480225 0.07402875504606837 0.37645590676164875 0.3909567097978968 0.3632740577097154 0.38845734365674384 -0.032725044649148695 -0.14178806726473916
13.87 -0.00955151014240307 0.09200359668565036 -0.3710592821032439 -0.3749108804807894 -0.38597823644297286 -0.38102100377139697 -0.08181314156412645 -0.0022591677110631405
14.365 0.14137722526414614 0.15182272357202284 0.3896927989504452 0.31501179212480834 0.3976466797341374 0.32500359472567597 -0.2040982032223409 -0.1079082331417618
14.86 0.12002782695219176 0.023241592195685657 -0.4248598528716847 -0.309014070596671 -0.42081270103477086 -0.31976058547810116 -0.08681289980847721 -0.06899531601517786
15.355 0.10998211958550655 0.1275639462004756 0.41727118359937165 0.28588772648872895 0.4287005963562793 0.27184600242082557 -0.22285095000826793 0.050098966418599775
15.85 0.2252805611756068 -0.0036096288921932053 -0.43053878133215573 -0.23507538071347603 -0.43947034175054067 -0.2544433753586078 -0.2024536020615011 -0.07732924327696553
16.345 0.05835239262667733 -0.035569452529407894 0.46910076344617463 0.22142273813318775 0.47067373675469465 0.21866902850921213 -0.07843308950563055 0.07862248819593319
16.84 0.15141474609734848 0.06821452379973016 -0.4650646239839854 -0.19111408594224744 -0.4539229095019663 -0.19268861039500834 -0.2272484732858885 0.09462946221188596
17.335 0.12688594795936975 -0.09776866951164787 0.4757623774774765 0.15068382501426592 0.49520169553850196 0.1536397007296094 -0.09241953437061055 -0.03302898915243466
17.83 -0.004247009052541828 0.03407096800954263 -0.49132946516421416 -0.11225489052302819 -0.48493118007748853 -0.12168642118882203 -0.028236133625480764 0.1239835463713015
18.325 0.1459405602121382 0.04775818356007316 0.4870244582552639 0.06790722578256247 0.4983570682505007 0.08988207638266858 -0.15056977384796272 0.031580552497333735
18.82 0.05310731350524199 -0.021372509932131106 -0.494526316604807 -0.03873805185011882 -0.4985768292804582 -0.03458048775095665 -0.0014148982223602111 -0.053438827830537515
19.315 0.10068026160346653 0.10597471038815048 0.4736507009764904 0.0014028314455947794 0.49941961724122785 0.016525336448753356 -0.05684512949849683 0.054326096825754754
19.81 0.17040544154491413 -0.007938050495525175 -0.46646843056612963 0.043019492767488114 -0.48463660329479835 0.04197430493646963 -0.127830653419413 -0.09114799474426888
20.305 0.09590262387341433 0.03509553091239384 0.47061474007191556 -0.06110911740790422 0.48144504678249145 -0.06224590687071841 -0.027763015978659596 -0.0524060890229951
20.8 0.21360424531662214 0.0092114969514057 -0.43354316868456017 0.08292072405444427 -0.4621283206228671 0.10512425246608473 -0.18050388050244523 -0.0017039536475862097
21.295 0.1093905496688558 -0.09931203736648361 0.4326738749506442 -0.12715391005660961 0.4415994082871188 -0.12645389027965181 -0.14837086247547057 -0.11915731492720158
21.79 0.12083838711203701 0.016668070894717665 -0.436853627117678 0.13762703381596175 -0.44109967965998337 0.16012063799741874 -0.09918294531889359 0.03550368977003733
22.285 0.17040864424801294 -0.11347246302692394 0.40222556422904626 -0.15028274996291344 0.40045137281538756 -0.17297517698995793 -0.248326863258204 0.018630747681979875
22.78 -0.0029213641727094163 -0.07901166482631301 -0.39755498092343833 0.1997134081870375 -0.40720172284672224 0.20405248225567157 -0.11710834501163944 -0.05003017777167414
23.275 0.1073714808902428 0.008485381760918089 0.3981435706979095 -0.21694858550441462 0.3761435703749669 -0.22294078776128673 -0.1095484612709715 0.12356393372776611
23.77 0.06151926113937528 -0.10728837780810863 -0.3733632687083062 0.23357252879320559 -0.36671271614870443 0.2350586128062757 -0.1967638230152867 0.027154747638531134
24.265 0.0025998369790442124 0.02951345671358355 0.35287761247430816 -0.27590614871054897 0.34819515690514136 -0.276211533792279 -0.03091401587693101 0.010252955016596265
24.76 0.12439402222091489 -0.004192899031516237 -0.33144256962529783 0.29587457589907346 -0.3327861899178508 0.2783813958439217 -0.09367333035223284 0.1060708161691626
25.255 0.03923436799461241 -0.03089677442865907 0.30585338793440475 -0.32130810946706073 0.307344206866188 -0.315960244680642 -0.10098117521817784 -0.03808373496677197
25.75 0.11865272687389505 0.03249849598628289 -0.27681378664352146 0.336817924326785 -0.28720799248389506 0.327593408558208 -0.0011286364181591292 0.013164361681727844
26.245 0.1038068416992054 -0.08453585443060595 0.2412052948613969 -0.3483608432236438 0.26351212847381217 -0.3527653179850963 -0.1302046244528688 0.007750098508600392
26.74 0.04628231105929926 -0.00637490664945877 -0.21500676061659327 0.3721166906539551 -0.22621370014401232 0.3643437386978208 -0.07235896478671185 -0.10617694049105156
27.235 0.1392633085322877 -0.0640111913337382 0.19697072555038667 -0.36254815438627414 0.21266440908114112 -0.38228991566547005 -0.06705634480614484 0.020858540407410142
27.73 -0.0066891454914759845 -0.10306703458448158 -0.15597133743136604 0.3679325169072379 -0.16521515556147356 0.38495267769501956 -0.20762016732290345 -0.04439399494075422
28.225 0.03660591608836112 0.02523029060324828 0.13241757942437912 -0.39223928693472515 0.1500609690021343 -0.40042013826422124 -0.08634849459056577 -0.08081654350069983
28.72 0.06459979433697395 -0.090746003005627 -0.1283474032908789 0.380255630873906 -0.11190912049172397 0.40458792750091516 -0.14303571571529564 0.07454885486407843
29.215 -0.056643604933750376 -0.0022971206979903913 0.08571374682444549 -0.38164044198001934 0.08704036161085256 -0.3980300154134583 -0.21140481293493152 -0.028821468238422996
29.71 0.0682626720138111 0.04956885585829541 -0.059455126170287906 0.4013911060376509 -0.05343655112798044 0.41528642584085046 -0.0684151839267532 0.010806307723972595
30.205 0.0183540439795719 -0.031035928568605955 0.050020468711613385 -0.39954533079625765 0.03043630368338316 -0.399320546199886 -0.15247930713782926 0.09807210024667191
30.7 0.029946192770812292 0.075560986884121 -0.008643920638641656 0.39706525251718455 0.002569999964917187 0.40643467990695814 -0.12303297396673457 -0.018649803492323192
31.195 0.10433794202007887 -0.000862899166093182 -0.019511196150047053 -0.40365722029765205 -0.02897543822890377 -0.39633803810522084 -0.03151928468855496 0.05949978247538085
31.69 0.026224213572465235 0.014013596582848101 0.046978418319774055 0.3994616955931964 0.05140044492232719 0.39272132646860286 -0.13164264073033888 0.033859497140933975
32.185 0.11611671875051563 0.026847715152231808 -0.07966125217740451 -0.38828129422740515 -0.08655079603692144 -0.37953512593999716 -0.03887829580158444 -0.05748402175409087
32.68 0.04514312787291957 -0.06659289697077113 0.10458290975916074 0.37772280748737436 0.09569186218035301 0.37618502065695364 -0.054732045173232324 0.04833968692599151
33.175 0.021399816010885208 0.04819037513361618 -0.14093223096438542 -0.36224539256113614 -0.1322639549712917 -0.35644773562691323 -0.15390356163199323 -0.05969474415160164
33.67 0.09905503600005759 -0.025290788420851532 0.15645684796441944 0.35375491924649316 0.1432300703866022 0.350535064113068 -0.03598283740124661 -0.07160719286358727
34.165 -0.031346254301710993 -0.015677216698664734 -0.16973203291665992 -0.33020010838770464 -0.17015796129335914 -0.3438019692637597 -0.1355950517223667 0.036101848434506166
34.66 0.05845531789248985 0.09380875872332357 0.20362905451469396 0.3069704878275213 0.186813086976623 0.31847699479179703 -0.18040347947037552 -0.08256460423185344
35.155 0.06909167338035209 -0.0100926508301271 -0.21452581941702312 -0.3082474119834288 -0.21119974551953774 -0.32118024618055274 -0.07338212979459725 -0.014463420239577524
35.65 0.010373891853465527 0.07419796680712323 0.2204382107284017 0.28298749005090607 0.22807697760001244 0.29321468221532754 -0.18716448125258614 0.049586126316149115
36.145 0.12711767010978173 0.06368058609333194 -0.2470817142186571 -0.2590554560993216 -0.2504263574713979 -0.2838860419280816 -0.14546402236055944 -0.04289070771225436
36.64 0.06667157221734767 0.012734794368759026 0.2618302128993838 0.2582269034319458 0.2733092592376871 0.2620988019639495 -0.08529398923210356 0.06525048429528553
37.135 0.11161273145318884 0.07179028820768671 -0.26934737425500266 -0.2326187995347476 -0.2850586994385116 -0.24250609167374887 -0.1682858897627806 0.03346273793013994
37.63 0.12469023674354443 -0.027845721029255928 0.2928535872186021 0.21142439042063016 0.31053219056104187 0.21389342757225796 -0.05734705334445991 -0.014483044245796883
38.125 0.05625161707749185 0.027937714234579112 -0.30861460785723827 -0.19773635741011167 -0.31172085621185 -0.19481045039360945 -0.08408807207867944 0.0795614686390376
38.62 0.1432252426844682 0.0068498074424565795 0.31539145581096645 0.16989158276063618 0.33168525041161584 0.16172404077800706 -0.13090080911877255 -0.03727283691879055
39.115 0.04239529865874623 -0.052518057920688595 -0.33039358669186947 -0.1459339024797583 -0.3325835317338233 -0.13873990319730767 -0.01444787333372766 -0.02330166394188611
39.61 0.059882835082344994 0.06951707630641275 0.33779967526401716 0.1159085955897822 0.3413717629262475 0.11839120442718234 -0.1225816177445294 0.03812907265099847
40.105 0.12370100702112928 -0.016529544236697963 -0.3435302897893556 -0.08970606710196852 -0.3374058693377362 -0.08204784865033159 -0.12988592079141226 -0.0928401799230887
40.6 0.021382789273510835 0.01645542210561571 0.3462415553772357 0.07103703326962878 0.344905231232696 0.07220659433640346 -0.05225857590434822 -0.012430711335358145
41.095 0.12510474359423684 0.07215861262602893 -0.33515069455885305 -0.037878698792796754 -0.34045144759181206 -0.03990359060095151 -0.18171199688818385 0.00829879431027146
41.59 0.11091747568704595 -0.02281058477360131 0.3429327762966233 0.0138803592483483 0.3396690701177258 0.02352707826283025 -0.1303883796965179 -0.07296070445644953
42.085 0.08852815999545875 0.04562694002644245 -0.3382907606028863 -0.0021536244653558695 -0.3434385088570403 0.0004395054775909983 -0.11137353204339305 0.042782806238159964
42.58 0.15512899689475787 -0.013394637925425274 0.32433189721071665 -0.02473700780372379 0.33174599155074574 -0.018720390407798562 -0.19021432515185485 0.002245150725762797
43.075 0.077215890972214 -0.02683291137535089 -0.33246400947032534 0.04832258526394785 -0.338825256732414 0.04467985557279157 -0.08643532272642478 -0.005876962354180746
43.57 0.13590466219323485 0.006342683296112953 0.3243097787676947 -0.05731925425157909 0.32516784926110265 -0.06012045348446016 -0.13106551650329296 0.08245149175051841
44.065 0.09174603639095763 -0.08344058248582663 -0.31240921286728657 0.08325543533097016 -0.3275456709172665 0.08615696228662494 -0.13963966569085304 -0.020045824859867487
44.56 0.04333486423186283 0.009412937652928739 0.3177038248458694 -0.11048137078661445 0.31638732649402024 -0.10926170834405251 -0.031481730824943356 0.02864665970411943
45.055 0.1275883723909874 -0.02887795353610746 -0.30696218056856117 0.12091950742519172 -0.3127557531638303 0.12341557129790533 -0.133549898985703 0.057144342216225226
45.55 0.021640861044677866 -0.05277396909089025 0.29437888795681444 -0.14705020293417895 0.29664039128476843 -0.1569849039801651 -0.09300060704400855 -0.06686893648678441
46.045 0.0725835004717477 0.052199968110406975 -0.2838245619771454 0.17254406658811 -0.2902240540921734 0.167304330161272 -0.03531263784853249 0.023229273481959134
46.54 0.11067852189720567 -0.03890206747466064 0.2687510243217664 -0.1899011508678895 0.2728445516645577 -0.19396244647431005 -0.15599062962085308 -0.0035905219907007317
47.035 0.03975260173851155 0.004203009263184723 -0.25409461295910657 0.21141473144649564 -0.25430576366788 0.2100550692505127 -0.08686567916319442 -0.07642274564168908
47.53 0.12672279542702497 0.011874972024754004 0.2315259836512194 -0.22130347380302387 0.24328943582103835 -0.22950954932022005 -0.10209113173669099 0.02674757643063953
48.025 0.0767253635191828 -0.053971994074270016 -0.20902123863591854 0.23862581568892394 -0.21509415163202064 0.2404735583886971 -0.17656381528922688 -0.03425124390613347
48.52 0.08275612586796355 0.005253760555792255 0.19678292402489891 -0.2524328795192709 0.20152036640584728 -0.25754274644931174 -0.08922368944584103 -0.021099951057923207
49.015 0.1001161731923435 -0.06579633562823693 -0.17506566404526264 0.250277982774088 -0.17582009376487837 0.2623843686505188 -0.15778264901913275 0.05352945441238767
49.51 0.019178052170158954 -0.02524933718825534 0.15033570830043083 -0.2670080316430336 0.1593441487898494 -0.273789007779219 -0.1480657691986716 -0.033252218547712174
50.005 0.09527463046360064 -0.00868597152228942 -0.14265588896623613 0.2740102843944362 -0.1355292116566182 0.2822898106174227 -0.06453304206836945 0.04522446253733782
50.5 0.027527467141542004 -0.07085457467327057 0.12458545577664984 -0.2705625923439401 0.12178953223941855 -0.2802640022863115 -0.16256588862368715 0.05297804817479252
50.995 0.017389847927761895 0.04249662297364981 -0.0973119091287861 0.2862176610929409 -0.09572605894266788 0.2942703149380676 -0.08624464211112992 -0.0395474435940982
51.49 0.09581088719339811 -0.014082176147741442 0.08938271932910512 -0.2941701446919772 0.08301164098675182 -0.2899259557171112 -0.05124056203100439 0.06057158178107163
51.985 0.007047860010388535 -0.014374220506366345 -0.07036392910240852 0.29481561180062343 -0.06354603057922205 0.2987164591208371 -0.14535953949195354 0.0033814088933706013
52.48 0.07811424586905484 0.056134848223568186 0.041677349359938165 -0.301600255619138 0.03935851427246069 -0.29814377405713605 -0.05312921250060333 -0.05127466248340036
52.975 0.084901750184551 -0.029519928915458366 -0.02406403926979527 0.30773580923103827 -0.028015493814702596 0.3024193113280895 -0.08811955701887278 0.03484951727013932
53.47 0.04347908845526387 0.020651554830869525 -0.0016211223772430775 -0.3070476530062856 -0.0006668952096384162 -0.3001316093400575 -0.14249096081861526 -0.050646927315543204
53.965 0.10471841225683484 -0.0073705009917766195 0.02425969488121134 0.30192137294550203 0.015863292545445738 0.30290873015354614 -0.06646176317067103 -0.02752731288782455
54.46 0.033717560384311035 -0.027688234412629187 -0.04825621627336485 -0.2955747828188715 -0.040630408295709214 -0.2987336592256983 -0.15400127849279052 0.018795824998879777
54.955 0.07235038938607138 0.02585908384860987 0.07275974833237471 0.2890026514437866 0.05964779361452967 0.29343062560371713 -0.1344851830158758 -0.05883468707842803
55.45 0.05858063252283419 -0.04555825725598131 -0.08303266283057158 -0.2811800950283331 -0.08397327102593347 -0.29259065864434775 -0.08995287000894168 0.03305062159230252
55.945 0.005336185963901489 0.03274732451317685 0.10426253555493513 0.2625534319160894 0.09885087062100162 0.2764741989847914 -0.18231683593640158 0.02049642761677312
56.44 0.09766540176815101 0.028162349154253915 -0.12425413556607905 -0.2575287686456285 -0.12476824529865699 -0.27447473458275623 -0.09519933647688214 -0.034345997461390006
56.935 0.025779553547284572 -0.018151692595693037 0.12818359535774407 0.2536486306063211 0.13896779927085604 0.258556143463691 -0.08986089578822508 0.07245570120021036
57.43 0.053232459714070486 0.07782681874380508 -0.1452644159326705 -0.23276466755050437 -0.15555545366308032 -0.24909384478213967 -0.15699979074049802 0.002418955772131579
57.925 0.1142059970889222 0.005834284342365813 0.16492637801399931 0.22860532886160512 0.1774360394505777 0.23261537796975387 -0.050619933090224944 -0.018055577399934148
58.42 0.04307887684365349 0.019090380764215587 -0.1724596839134132 -0.2232921824229778 -0.18374407662057746 -0.22129460335434467 -0.09843237803143351 0.054403252812065504
