!Created with skrf (http://scikit-rf.org).
# GHz S RI R 50.0 
!freq ReS11 ImS11 ReS21 ImS21 ReS12 ImS12 ReS22 ImS22
1.0 0.3557494177358102 -0.25720020594944604 0.7730795009037845 -0.02852871655043287 0.8500170209792377 -0.10650916403431133 -0.09071710276824206 -0.2614386259615477
1.495 0.13133398147459818 -0.09231514562487893 -0.8301665435697901 -0.13117094359560477 -0.829164305319818 -0.12805655147268832 0.16518304960435307 -0.08615069003702229
1.99 0.2697353433909311 0.12732869761996127 0.7180317635656561 0.30304734976736447 0.792084347915587 0.26939324813145976 -0.10290162534751954 -0.017416298277733288
2.485 0.3086090226686499 -0.07362532120992929 -0.6382817185366477 -0.39645798536680016 -0.6904539961812234 -0.35409671946433824 0.012986415115393286 -0.2460737989243464
2.98 0.02308428095661122 -0.07824248127437125 0.5723320046254451 0.5373194726236042 0.5603377419723435 0.5384460454605708 0.12170124643418698 0.026438856634054018
3.475 0.03851458827486753 0.14038217566490307 -0.45303735682229307 -0.6114728574124499 -0.4807184195766911 -0.6005134670790312 -0.11743536349263543 -0.07298989889086584
3.97 0.18005282805246917 -0.021271786063047086 0.31554124811549866 0.6773730377678114 0.3313815323161393 0.6422324203030156 0.1074450611653815 -0.17110137443313547
4.465 -0.03624711454199839 -0.1847170132831079 -0.1649783407072962 -0.7028107265504405 -0.1416615705131603 -0.719774605163347 0.04047489888630054 0.09093439119845123
4.96 -0.11312409495809309 0.0008636624290492457 0.06677545873031578 0.716870352834665 0.05689418725435273 0.7219408510105544 -0.08593893280927564 -0.11500281811456174
5.455 0.11189954025365687 -0.06253446412475258 0.11399837429255165 -0.7077041147617535 0.10743610482264776 -0.6829853238822353 0.14582372848009284 -0.052289217969743486
5.95 0.04949354701620453 -0.27758690558772836 -0.24226241915045704 0.6100453477511861 -0.2790547001283609 0.6477305933148751 -0.046723147743146676 0.10345821566834602
6.445 -0.09491109212937002 -0.1521049952769065 0.3238662379858703 -0.5886397744427874 0.34639726283672767 -0.603303818088817 -0.02972511177159176 -0.1270806661297917
6.94 0.14048735018916284 -0.07034886294436134 -0.47444327941648223 0.4865310988253587 -0.4757544825632236 0.4760279687431451 0.11868226431823473 0.06055370329413502
7.435 0.19930848168714063 -0.25175326921597185 0.5146273788737822 -0.3368014651082623 0.5777319934102201 -0.38096163505413194 -0.11340812781357094 0.06549815301593694
7.93 0.015386133053982062 -0.19937077560095787 -0.5796416100080822 0.2755914572667798 -0.6065582393601896 0.296412671381817 0.03024415529369326 -0.1016406814706757
8.425 0.15040175118248686 0.0027245249086896143 0.6449253457903943 -0.1261183763879721 0.648112685906942 -0.12122121744351134 0.043730897927935455 0.13070411005494134
8.92 0.2715827430680204 -0.11346685918365855 -0.609857427048185 -0.008887657555536764 -0.6740532050966258 0.016945473780179982 -0.1270100828715943 -7.953978810730747e-05
9.415 0.07548427451465817 -0.15395558126347864 0.6261565171519559 0.10366862525096762 0.6469925720041761 0.08723887483379068 0.07719837631633211 -0.04435667272500559
9.91 0.05872486544791757 0.073860171456832 -0.597018250171105 -0.23694276978085912 -0.5927142711077403 -0.2482955832623956 -0.040218280898004874 0.14672257462352806
10.405 0.20836005960112625 0.023749500760713714 0.5232025202826922 0.3306300840345875 0.5630622306829585 0.3253701226266225 -0.09680821617374727 -0.05296238249709779
10.9 0.05179885620759282 -0.1145380395229353 -0.45241951601337216 -0.4303395622450839 -0.4632586480210245 -0.4146064527600314 0.08596961498744202 0.03924992574748879
11.395 -0.07774134326784378 0.04977662570509497 0.3672114048903457 0.4908129588129733 0.34864147785082533 0.5122017847977522 -0.10738465309548788 0.12365676509948378
11.89 0.07960024027356336 0.07121981852816378 -0.2713994986529404 -0.5488223667502714 -0.28083152158363706 -0.5524170471753863 -0.037317010320076914 -0.06408107049571987
12.385 0.03476039983824084 -0.13794085950097257 0.12270241711160271 0.5836745178016928 0.13317916497609547 0.5722536140057716 0.048037116740228744 0.12030857223308196
12.88 -0.136650847084897 -0.06789607676821093 -0.031742140962722654 -0.5709054812519703 -0.006947128603291116 -0.5957323076678664 -0.1447806850238812 0.07759617301771657
13.375 -0.0007972499780514527 0.026847445297255617 -0.07572422840930765 0.5893311943289054 -0.07496527656895223 0.5858049616582037 0.014394786377868634 -0.02870704799050667
13.87 0.09214682588529913 -0.16273625605413838 0.22457902744346334 -0.517316119572489 0.2136461238446683 -0.5191333253288964 -0.028154394497093786 0.17080927052483993
14.365 -0.07107030454310047 -0.18094147637037367 -0.28964717860662004 0.46007385746075125 -0.31938355155475495 0.48426829029272067 -0.1498857914970858 0.026555002571565692
14.86 0.00112803383015202 -0.018235684082555086 0.3907903110447985 -0.4203725276152157 0.38400182164948193 -0.4199314376169635 0.03476619706007992 0.036572009227148684
15.355 0.1742663283950687 -0.11312299916548502 -0.4665380822075544 0.2899198787517003 -0.4659345099804577 0.29157753491009825 -0.11464898246245152 0.16733930080373818
15.85 0.04639512286091925 -0.19324434741646074 0.496363997999495 -0.20738475432987474 0.5291507490475641 -0.22345844435774417 -0.12373242919130875 -0.013570916647926427
16.345 0.011733558326143952 -0.00682386577114346 -0.5524916075980404 0.11894345809359973 -0.5454574756391501 0.1159977249970533 0.011632907428750134 0.10163175734181124
16.84 0.18822227728672006 0.0035577724478706462 0.5477259041131405 0.006029182964042909 0.5468587155253166 0.01940180406974162 -0.17667381693039175 0.1219517241412872
17.335 0.1086683988436934 -0.12247223145510122 -0.5338618785291036 -0.10239890094141561 -0.5613391426622474 -0.1003445075951439 -0.0782038802631515 -0.024903042875655673
17.83 -0.026282734515376972 0.01663084631713113 0.5154499544468495 0.19896416633577862 0.5040417417449626 0.20535840435996489 -0.04074214293518396 0.14410842638730093
18.325 0.10484083696075466 0.10410491533261856 -0.46283214672394785 -0.279346585982924 -0.44867231722160894 -0.30960262379742975 -0.1975602957213912 0.05933429228489744
18.82 0.09623236383814071 -0.05060263650858553 0.39326984730481385 0.3706985960778237 0.4092155095781286 0.3777295410198165 -0.03398812060157995 0.0011587645606467543
19.315 -0.08326406418878195 -0.01594414491656555 -0.30239475565674223 -0.4282105266846871 -0.29859802365382965 -0.4362397352954117 -0.10715165926677493 0.1572378549999292
19.81 -0.011187969248512744 0.11607455818833888 0.2346781957291805 0.4616117880851575 0.21215960352854862 0.49370360427500515 -0.17829673018245681 0.005401092499913202
20.305 0.07046112224711316 -0.03208586913882434 -0.11439268271773458 -0.5132265827869735 -0.13154319089979435 -0.5202557803558042 -0.01862203493238895 0.053612586240576326
20.8 -0.07936969766590357 -0.10202366587461262 -0.0008430236239021122 0.4958317745558153 0.003470050925356441 0.5068688699464217 -0.169537725779155 0.1368726762122982
21.295 -0.07382808685539682 0.044138349027843485 0.06883036072155961 -0.49523055875685634 0.0870637579872954 -0.5174111396858582 -0.14130047857723765 -0.020379973908898615
21.79 0.08432813843302972 -0.03651443807228752 -0.19837878940328899 0.47064966848809275 -0.17280889478577452 0.4752087943042531 -0.046185111306602133 0.10934462341762494
22.285 0.004222946196533395 -0.1609149624356504 0.2799837944556278 -0.39208405377862354 0.2708544037570954 -0.40381648717946317 -0.21471574363268509 0.08806799081733761
22.78 -0.06004021239258976 -0.02735698834735399 -0.3433559760119483 0.3577273650005605 -0.3495309333446659 0.36892397886511347 -0.10174697951924178 -0.01754108352312803
23.275 0.11289900818788706 0.0013292187543716652 0.4222185695886119 -0.27265652464576384 0.397889336993394 -0.27844326730608315 -0.10461875401373917 0.13742256929498645
23.77 0.10569866300601719 -0.13430421791398833 -0.45541729819225246 0.17427042273683316 -0.4458318023616547 0.1749274194368637 -0.22539929436049758 0.027037361283758294
24.265 -0.019539413323535437 -0.04041360239084289 0.4873335381737145 -0.10126618188597392 0.48816215177182576 -0.10426460923793507 -0.07519033258996641 0.010847163067128624
24.76 0.09781372339998794 0.07822828869995363 -0.4940401740224358 0.003873285039659863 -0.4731451470665078 -0.002792634386654526 -0.17071639799530858 0.12826124394426766
25.255 0.1464222817899388 -0.03739362150386736 0.48270368457191826 0.0858276974674621 0.4683234132895361 0.10611676645138665 -0.2019881957872531 -0.02591879421495324
25.75 -0.010748255275144631 -0.026194062481696992 -0.4541448267901961 -0.18180621417785126 -0.4559110006866865 -0.18415124308679495 -0.07238186762466009 0.05005966425537248
26.245 0.02304702232178751 0.12611554800230412 0.40280116487645956 0.24494527948040987 0.3843354486382521 0.26466447842432755 -0.21533582641254173 0.0852703410730791
26.74 0.11993541280820343 0.0448142608457108 -0.35344382985406103 -0.31937042234088114 -0.33827926253612944 -0.34923123114709 -0.1556946242786407 -0.05153453794254531
27.235 -0.019291840513358884 -0.03896757630165704 0.25878613635100595 0.3905519776220994 0.27189974000416534 0.3989437419648295 -0.09579833067534158 0.0844684829101929
27.73 -0.06125935339073995 0.09585867900671738 -0.18675062185509217 -0.40873041545477445 -0.17521714389860082 -0.430484743395245 -0.2333879187950709 0.029896325909379448
28.225 0.06681959683802673 0.06511678337033584 0.10915857055271785 0.449951431347134 0.09600901708454448 0.4742238014420565 -0.10757025313886959 -0.03925803671505816
28.72 0.004735128890177987 -0.08111949757811703 0.015495574451906732 -0.4534054884661474 -0.00933331681524448 -0.4698880364591941 -0.14153650885064836 0.09996714345257153
29.215 -0.08814961620523913 0.007469724749978806 -0.08486215689161804 0.43322486725654535 -0.08672031097740276 0.4475877265344013 -0.2239717944412837 -0.02267407487658137
29.71 0.04687758175932717 0.05365606918930233 0.1703938899508157 -0.4235845426605333 0.17093033851110648 -0.44178403364802343 -0.085800928060757 -0.00218816223520083
30.205 0.07398906997436022 -0.09298173675948603 -0.2675011877907816 0.36265272880153515 -0.23859605683301746 0.3783205771970859 -0.19436521740980311 0.0837537551841307
30.7 -0.041833297079730575 -0.05974485347002357 0.32048623674206284 -0.3092208310284907 0.31258742985191323 -0.31942872981737314 -0.18685997231187165 -0.058355190231205285
31.195 0.04921535958901824 0.056755720008994 -0.37812937064151536 0.2525479496747568 -0.37020631258067305 0.26167839869231624 -0.09125707482235305 0.03703751592490833
31.69 0.14283429678944257 -0.03884557011646271 0.41815016825364687 -0.1669414370948488 0.39251169628306093 -0.17093893947089892 -0.22584394243623096 0.03789487267749687
32.185 0.02675386767351584 -0.06401319371784503 -0.44122063430500136 0.08537199639736838 -0.43111321227903976 0.08392441234507841 -0.14396640652222817 -0.07209120543500817
32.68 0.03771090268906087 0.08716769583596584 0.44274912845328873 -0.006498001655924062 0.4395581841866819 -0.0052012253069875555 -0.12304424970723732 0.059814953645400175
33.175 0.15696656567413683 0.05182329825815873 -0.42861445808162757 -0.06993137213448408 -0.40923431775613617 -0.08265260557740639 -0.2323677166259553 -0.01969302214062793
33.67 0.062284175330157565 -0.029747104990675344 0.4099700701235218 0.16310654021881377 0.4006438425673364 0.17606826525677405 -0.10344844747605371 -0.057904903426400464
34.165 -0.010115653740604472 0.0897100212859276 -0.35517290669453 -0.23290996103159922 -0.3561609141957089 -0.2386437631977459 -0.16292168873557952 0.05722646834603723
34.66 0.10589476615441634 0.11318710412777688 0.30635550615213375 0.28054133703667056 0.28952005980559636 0.29913979471271157 -0.20262158842799016 -0.06788087077338328
35.155 0.06403409583469202 -0.01299048454627958 -0.2370148395539898 -0.35499957464780835 -0.2329812107389428 -0.3714630496725788 -0.0822122410810349 -0.022510442576726675
35.65 -0.05256989141575785 0.040112445482048446 0.14845842532710432 0.3801344193563984 0.16047724057516277 0.3927854889120621 -0.19442994820330897 0.030794356788752485
36.145 0.03898454753909679 0.11247299876860019 -0.0878239977933315 -0.39739532481725615 -0.07336768378770787 -0.4159662422077888 -0.1566703063803627 -0.0926674194893798
36.64 0.07469772439251429 -0.019309207509623165 -0.011583567458803621 0.4204426046178365 -0.007227842815117639 0.4386422309478809 -0.08770763688538809 0.016078299177056377
37.135 -0.04248070885470252 -0.03507840728498171 0.09635329037856898 -0.39691103916515325 0.07958463454727167 -0.4115278075260416 -0.2086189980972491 -0.009127562830787868
37.63 0.008319801097529373 0.07459007751320443 -0.15876235855350485 0.37981179717294894 -0.16595432372119598 0.3896009749960187 -0.10897074939870524 -0.08536663727060823
38.125 0.1139296572031505 -0.010415266132472494 0.24354499364039817 -0.3419744992443827 0.23704145433690885 -0.35596051581910915 -0.12088554411082798 0.03761909504504684
38.62 0.026969797773396698 -0.07431637159557407 -0.3004269448753005 0.2837637757641145 -0.2835225952190682 0.2938451679581831 -0.1994367853769455 -0.053105017925524564
39.115 0.017453214881184544 0.048734908931330354 0.3460904018087886 -0.22915282498632095 0.34882667156630864 -0.23184245440294482 -0.07802306982949367 -0.05724996351714426
39.61 0.14656405554133273 0.03831052782676369 -0.375854301023792 0.15640654041942093 -0.3762336751942168 0.16553508226106659 -0.1589302122999503 0.03164659483521537
40.105 0.10126372231287534 -0.05333646485572805 0.39969592756171585 -0.08406303839100628 0.3877798637479086 -0.08411959277592378 -0.16700133440776527 -0.08848623637805773
40.6 0.02480085286818701 0.04478748390737563 -0.4062373432632282 -6.094214668939938e-05 -0.40713305149029977 -0.0019525135954143239 -0.0690040498185889 -0.02081212987882356
41.095 0.13195041457165563 0.1010643339632362 0.38036461116463477 0.0680662970045222 0.3878995991481371 0.06887865421940616 -0.18391695209383183 0.00012698949755860758
41.59 0.13227377716980135 -0.002582297787660333 -0.3674698982302076 -0.14142684275877035 -0.35609909830668696 -0.14828807539499658 -0.11836891303914755 -0.10007302051455616
42.085 0.010801020738396866 0.03612809905097482 0.3209852846802599 0.2235233548984596 0.32754924706474947 0.22807864323191238 -0.08396462498460673 0.008969700788444225
42.58 0.0702221547650527 0.12859032530661857 -0.2653902695334069 -0.2631435663971923 -0.27007493384590736 -0.2686777111538534 -0.18242162617894297 -0.040883300218017296
43.075 0.11867913012780404 0.032842420111658104 0.215946490211335 0.3199652005473225 0.2049588506262929 0.32533042582713584 -0.07325352375752969 -0.08484041774849381
43.57 0.0007565078430849126 -0.0025392493462216654 -0.13075551254460485 -0.36273098838283135 -0.1381153810950141 -0.36829572708934016 -0.11286464243872027 0.022784817799054353
44.065 0.008289535513600609 0.09812303330829102 0.06551528932864334 0.3674780449332839 0.07068469413992925 0.37461639454917645 -0.16023343885605384 -0.07573821830449395
44.56 0.10611818897199099 0.03989629227935149 0.007549061805376635 -0.38553416213801806 0.01779734586944407 -0.38978167359455057 -0.04650022279601191 -0.046228256815061576
45.055 0.03454770641298533 -0.05085495479938655 -0.09463572358204465 0.37250529814965233 -0.08700747676440529 0.38318268756431395 -0.14128630035400525 0.015022294169671657
45.55 -0.005024952686341193 0.04032631184249365 0.15702549501380358 -0.3511177970208034 0.15033184582559084 -0.35168068301762323 -0.12077640289162554 -0.09177756150041348
46.045 0.11384444893709762 0.04423718838858727 -0.21840903815851226 0.31540854396598866 -0.23050894402642888 0.3176297408420623 -0.04824027902816537 -0.004687224327086698
46.54 0.10241148327530994 -0.06122208601496464 0.27553860306993777 -0.26511424469146644 0.27507191098466205 -0.27181074229477387 -0.15978141560580117 -0.012074353251078316
47.035 0.02605214940853235 -0.0010618679463941293 -0.32130517851418855 0.2101083406564709 -0.31821283671605644 0.20979196183060178 -0.07995969202912094 -0.08631139217380543
47.53 0.1196423211821047 0.06856743463001283 0.3450587287821287 -0.14143410130781553 0.3608198281877001 -0.13851968430696407 -0.0743297745177736 0.021755899279609622
48.025 0.15724146461268176 -0.02269041524735552 -0.35848257236072545 0.07575971508310084 -0.36968075982711507 0.07825937304938645 -0.1531813170120252 -0.0470214457332435
48.52 0.056079078151548736 -0.008273995655563172 0.37202687091142284 0.00017176564610650211 0.3729689636422593 0.0016841823009260597 -0.04711506007435703 -0.05898978652491287
49.015 0.0917817581945785 0.09666684700145424 -0.3487099441536606 -0.07537552904941758 -0.37062135558813114 -0.07822719450414582 -0.10652156362358331 0.02565832448741494
49.51 0.16409875960511147 0.03544435917200288 0.3258445065833013 0.13161351562297166 0.34003913127014207 0.13197674505486232 -0.12761933985585644 -0.07458242233123163
50.005 0.06719108422784746 -0.006830562678908556 -0.29906734455784867 -0.20965367777841604 -0.29779455208238753 -0.2076857441515467 -0.03348982766058046 -0.02147635193698685
50.5 0.03887417747506744 0.0924139249052796 0.23720417268636484 0.25743099536261876 0.2543238828479335 0.2601112337533081 -0.13147802528131364 0.009970978714093486
50.995 0.1288740976559346 0.07019250549753 -0.18869018105131946 -0.2935389227475958 -0.19752279580640467 -0.2937815370656136 -0.08827564828758076 -0.08105048826146559
51.49 0.07148141110712232 -0.02070954861615684 0.12223337132577056 0.3401862010336282 0.12278927641637366 0.33366967116032714 -0.043254397054674994 0.015470313815949491
51.985 0.0029061619922985784 0.04672689078297553 -0.05059267886041204 -0.35265300736437194 -0.062117173060341105 -0.35312995545351356 -0.13548892038295754 -0.015524125527492796
52.48 0.09696242142301771 0.0697021849758703 -0.010791205471025862 0.35553196530917996 -0.008279033569438994 0.3510113616697403 -0.049682582545033785 -0.06099195830436409
52.975 0.10008148821838384 -0.038529951829898615 0.08479910337864131 -0.3499995763456768 0.08957657736864846 -0.34254986376962415 -0.07179494751291735 0.0388816876802626
53.47 0.016540434622584893 -0.01689676608709194 -0.14797568948902717 0.3290063119281708 -0.1465504135913038 0.3266444440241796 -0.12462651714045166 -0.04019728120209645
53.965 0.08571319599828413 0.052911953774194144 0.2030412706121073 -0.29257508069242183 0.20869017483538657 -0.2834089248110938 -0.030026168260706428 -0.023930418206605304
54.46 0.14696158825293404 -0.030676579308475733 -0.2499329589052235 0.2423226129305509 -0.2678754135921134 0.23783079865157503 -0.10574086353016889 0.03935682543689366
54.955 0.06375504166361752 -0.0500734833418555 0.2925718777179617 -0.19417271028367936 0.29969195327455245 -0.1898606764533517 -0.10149140600540414 -0.05506242700969799
55.45 0.08638972673662165 0.05087577129388771 -0.32143066021852884 0.12574290200685623 -0.33376500467227593 0.1193210720031451 -0.034044623991859084 0.014118703131181643
55.945 0.16853503902820147 0.013151257757485216 0.324914925411459 -0.06074688833031465 0.3525565762642712 -0.055770439524920765 -0.1283393982462285 0.019157099463747787
56.44 0.10515177806751723 -0.041671479281892305 -0.3375640159831501 -0.0030041738472333253 -0.35069529129481286 -0.003087047268630212 -0.06990923006188315 -0.05257453563371091
56.935 0.06538896543278717 0.05314379637182322 0.3255726259239192 0.07844960057082115 0.3392233736573001 0.08070662291776887 -0.05504691951655246 0.040800440762466014
57.43 0.14985451636151217 0.06242344340505262 -0.29406025631546406 -0.1346851146167603 -0.32266034147701633 -0.14014151586232082 -0.13399267829469436 -0.010317104144752062
57.925 0.11965816448102132 -0.019180385744530452 0.270563744012682 0.1929374453005571 0.28394398717212826 0.19166681104294983 -0.04279839003931409 -0.02994323616839497
58.42 0.036169081923292073 0.035721780409214046 -0.2217744847078313 -0.2521736437081817 -0.232894650416681 -0.24701292386775295 -0.08756213028202303 0.05219882648820718
