!Created with skrf (http://scikit-rf.org).
# GHz S RI R 50.0 
!freq ReS11 ImS11 ReS21 ImS21 ReS12 ImS12 ReS22 ImS22
1.0 0.06264162110625329 -0.3699148388089492 0.6667681208431605 -0.4008564814869363 0.6557248527713762 -0.4807509214679235 -0.27482195632431483 -0.22105131463920044
1.0545 0.24104603612265962 0.07051246447241385 -0.8145535074682453 -0.14970863620544841 -0.8543538676227493 -0.13947644236126105 0.08678538051326087 0.05207275525282304
1.109 0.28724175772281973 0.20243646072954158 0.5444966908672715 0.5706563359294602 0.5984576654704743 0.633278283782225 0.02832752945007986 0.005011913166667401
1.1635 -0.23292250407319437 0.018916883406456704 0.038642418098507214 -0.8102850133932092 0.003334764397907092 -0.7957730748302791 -0.31008524818890143 0.19119665308632136
1.218 -0.0752947078734108 -0.06374638437950209 -0.5447937271276269 0.6418805689214104 -0.5483144560283972 0.6525638731245101 -0.13201676079342878 -0.09869920806123032
1.2725 0.3060146378376532 -0.2353457883136255 0.753698917892039 -0.08757425267356636 0.8043161172355436 -0.17881055884645655 -0.16747369307526042 -0.20638269263694148
1.327 0.1485817868344916 0.12154244145064365 -0.683101712432754 -0.4588408005134399 -0.6961408363272312 -0.4584792048445437 0.09584019671105132 0.13880222538272827
1.3815 0.07608689405405832 0.2837835534788105 0.2565514829567333 0.7433386853874246 0.2596806702118795 0.8096744970524458 -0.09016209105351695 0.05341177803238216
1.436 -0.11763893347243368 -0.16891632196884568 0.37114558513746676 -0.7105780051123288 0.3025211707476564 -0.7235383390557639 -0.3335957786954135 0.10497498159669841
1.4905 0.0005688738142517535 -0.14972187875173606 -0.7401808857541539 0.3452761450123354 -0.742925873142892 0.3613715850097842 -0.06610582417682613 -0.16958033202995929
1.545 0.3620088223517265 -0.0015188429121261056 0.7208826260405848 0.22042233756079987 0.8113995432209941 0.18035099642252167 -0.07186219386487254 -0.13059667983815737
1.5995 0.07285674783794227 0.11467421615596833 -0.4358450132578438 -0.6879235063657481 -0.44228107189959953 -0.6768700536279417 0.04014676043730506 0.20337674560721491
1.654 -0.11694663863987251 0.1815306112892015 -0.08552876371752918 0.7826067095878724 -0.10149782463528423 0.8109847701324862 -0.19865050758805394 0.03134221362437738
1.7085 0.05228808262989629 -0.2028427582093424 0.6184318680938922 -0.4907666196259657 0.5631818517901275 -0.5485288627066061 -0.3057443627324562 0.004051920332489052
1.763 0.12108413103868729 -0.15538068135526756 -0.7957396249733958 0.0076603707358564544 -0.8063389693498704 0.03286747026469737 0.016210354715702688 -0.17398479023883245
1.8175 0.2519321142899902 0.17166751446682765 0.5753160342732837 0.4929909524827097 0.6482731603730789 0.5110922291946869 -0.03171946280549661 -0.016659055777259825
1.872 0.022340230951168227 0.08364480459815644 -0.1179400520650921 -0.7953920676966676 -0.13446794778342555 -0.7801645826198781 -0.056307865499330846 0.220292316397288
1.9265 -0.15736794125227938 -0.012945202665620192 -0.41217011572191237 0.6674465938217657 -0.4053827319164429 0.6740120831805023 -0.2551878564776302 -0.03648939784117912
1.981 0.16313688781786076 -0.1330542618180935 0.7513644589714485 -0.20194370485131685 0.7412679094645092 -0.2747985474951166 -0.22578075919421142 -0.07777858277172928
2.0355 0.20433854076741656 -0.07221235478046002 -0.7137835298833886 -0.31030104377028167 -0.7404279474723033 -0.28984741674622844 0.07894513536164759 -0.11258462611834408
2.09 0.08333747096531742 0.20281993781260216 0.3300085070331075 0.6922078720603905 0.35691026826141514 0.720499073434378 -0.06131306324004682 0.08372409379808426
2.1445 -0.007012820840632953 0.03543778307277736 0.21414654689228643 -0.7644570109751317 0.18625236104151024 -0.756339884788736 -0.15909285069123708 0.1791302265646157
2.199 -0.051820867714270004 -0.14216056838147553 -0.6475818428808292 0.4262625186079412 -0.6221692107831798 0.44769493183778597 -0.2457296474161296 -0.11327308604825059
2.2535 0.1930173952749458 -0.04010667474928799 0.7628432091108825 0.11006600134823001 0.7875569731353482 0.0571398588325824 -0.11828998460267907 -0.10649419352663111
2.308 0.19702848603790196 0.034654827829465044 -0.5207002800576416 -0.5656641810832947 -0.5504695040662495 -0.5621953241427242 0.09343476886709778 -0.010385782683017068
2.3625 -0.02665010125230673 0.12593193517494908 0.017394101641562482 0.7718804053209675 0.024941246321522125 0.7767469251166216 -0.1341320176568619 0.12727415342823853
2.417 -0.0023270551872378873 -0.022197391840850636 0.5017427734310607 -0.6015326033352035 0.466245311989328 -0.6059937999280396 -0.22924358449539553 0.09096263351592651
2.4715 0.07775474226079558 -0.1466468688508211 -0.7549320322969085 0.12211644932603387 -0.7407392028919593 0.16314554326282404 -0.1799891082717029 -0.16831812785846112
2.526 0.17039547155167295 0.030982659088568582 0.6511727905794545 0.3998727590331394 0.6847763501198693 0.3765401695592639 -0.02865702894110622 -0.07318714330316782
2.5805 0.12142062696954331 0.08436005228364106 -0.24522584947120307 -0.7261589795845975 -0.26140726786806523 -0.7286152789889402 0.04497427898180113 0.09498614763808824
2.635 -0.04522649913290445 0.027855961850574505 -0.29870817876059513 0.7085902726538975 -0.28172323462673776 0.6997931174384375 -0.21117012756459128 0.1043196810248638
2.6895 0.04413398247800656 -0.057552322522948396 0.6914201482654151 -0.3385353569917202 0.659542014638467 -0.3614689866434196 -0.2432721054870634 -0.01003847947152697
2.744 0.13949065299331 -0.07934310458275627 -0.7327088092648314 -0.18917903581745726 -0.7413738862500261 -0.15042080526996268 -0.07807400508996842 -0.1756752524317192
2.7985 0.11982349796546962 0.06918797327546988 0.4343397005646207 0.6224665369564667 0.45925489595262153 0.6187345077856757 0.006675023867137774 0.0032030440727584624
2.853 0.06032149738029547 0.05837984755235191 0.07269907706805635 -0.7586997989775639 0.06390458625997152 -0.7521322615597201 -0.049420630974959856 0.1575127383324563
2.9075 -0.011523417643949894 -0.032404508793779194 -0.5548314331978305 0.5205157414558454 -0.5266396439260088 0.51781686813385 -0.2560915909004612 0.026746086063980032
2.962 0.09739027061778514 -0.03913277440296762 0.7579750810122451 -0.03037548565157919 0.7399384257753328 -0.06588457591713283 -0.20310193842599605 -0.0858018498213312
3.0165 0.1348794183359783 -0.02565037871024165 -0.5911365876284036 -0.46332184088753203 -0.608137897853742 -0.4413378569144528 0.02161263518807865 -0.12339288022791688
3.071 0.06067812449416444 0.06950160119248225 0.14612593551628594 0.7395959670049742 0.1558430542673685 0.7390493868052221 -0.02866774329086482 0.07959794371890674
3.1255 0.06337710542793037 0.015154637930000272 0.3722284437858985 -0.6567352266353882 0.35510475563456145 -0.6431721759054837 -0.1468859152220226 0.15797494934076287
3.18 0.030086294469091255 -0.05792040791880422 -0.7084876782389417 0.24853043655559043 -0.6781879580367213 0.25870608611101287 -0.2502287918915605 -0.07505857356292393
3.2345 0.10328311405534563 0.01620430561133213 0.6979683098899241 0.27133640173281004 0.7006314640307254 0.2395037920165578 -0.12834616735485496 -0.10756983216574414
3.289 0.12028604645708892 -0.012240065244470598 -0.3508511722394662 -0.6562920909468065 -0.3640662027983189 -0.6461384041974859 0.07674496385037666 -0.030166645145493602
3.3435 0.018425722733096218 0.02417356917850363 -0.164542986361206 0.7292037063629759 -0.16387417030596832 0.7191497583532009 -0.11824643253454542 0.11983707914554706
3.398 0.09522782876291659 0.022397883343746712 0.5970719953849536 -0.4444702503507334 0.5716838032524452 -0.43919803694780474 -0.20857363806420162 0.10701114307543393
3.4525 0.0716263470511723 -0.06130293331874693 -0.7394040098832929 -0.05782305790303619 -0.713692054263434 -0.03541336735344426 -0.1925754100468317 -0.16308399316465172
3.507 0.04623154708059988 0.04228253824340143 0.5261348189518654 0.523126440655743 0.5351820752755596 0.5100652991714008 -0.05451665912509978 -0.06400392703298532
3.5615 0.13037922060024257 -0.004695081036444917 -0.05436846968361107 -0.7332261651844879 -0.06454921669501075 -0.7248856020233411 0.0692165723420126 0.06255905706333319
3.616 0.03210755499917998 -0.04090507662546757 -0.44055290342470743 0.5922362666856424 -0.4331696702552047 0.566459747323396 -0.22062127647332042 0.09979804798817983
3.6705 0.08411852252968365 0.07197218442057315 0.7139068493092533 -0.1648628653092021 0.6941597361505614 -0.17175229805728945 -0.21566712284139647 0.0318202417558227
3.725 0.10723448898673416 -0.03926916331198967 -0.6438074750824686 -0.34505670810235534 -0.6309266471961154 -0.3142497281369094 -0.10601488800519399 -0.2056247949742677
3.7795 -0.011424062843287779 -0.011325139261908198 0.2655385101205659 0.6826200704193918 0.2603082511150963 0.6844223035485508 -0.020922599528508726 0.0321310383270306
3.834 0.13844297473177425 0.02955373100847766 0.2436923115199702 -0.6835524634625791 0.23289465160453787 -0.6786708825987373 0.01059809483647569 0.11482000137659248
3.8885 0.10469727535069076 -0.06490771653731939 -0.6298020604177934 0.35863213210497485 -0.6021749510867632 0.32895305068902453 -0.2956371174844861 0.033209215400144695
3.943 0.008380162187584958 0.08843924610028744 0.710696697778006 0.13723988473792184 0.7055430157226739 0.130205047639201 -0.16072891384705315 -0.035892203571300914
3.9975 0.11482795488248888 0.004853000593330363 -0.4475141216376431 -0.5683456622479599 -0.4478540358850506 -0.5350497956582876 -0.025144169804784643 -0.1900005690923019
4.052 0.01548103965004223 -0.11080415391320687 -0.0365892456448566 0.7161900205169708 -0.06022535305127879 0.7097722177577338 -0.05027496661367406 0.1354953736630516
4.1065 0.10966148248400055 0.07177933741095009 0.49490218860431806 -0.5208159037656486 0.4862338163967351 -0.5194592227520788 -0.06800260632046665 0.10724024001052072
4.161 0.17222727448889902 -0.004359498111997581 -0.7051018509829821 0.07841364002830024 -0.6638908360824616 0.06328353424511825 -0.31938237137462966 -0.04851930668123215
4.2155 -0.06571735963651765 0.016538748942425078 0.5830378965478412 0.4146448118894371 0.581654751550155 0.4173227348403824 -0.06060551262137308 -0.059610160105362
4.27 0.07900114117587054 0.03781846017809335 -0.18102603578033183 -0.6938489521723993 -0.1922841117232483 -0.6718542706154383 0.016678965905306126 -0.1291606956734296
4.3245 0.13764624023991667 -0.14848039415049738 -0.31526860633552045 0.6183766483744221 -0.33875743956437543 0.5938408530809323 -0.12509907316293953 0.19991218096371458
4.379 0.051180596827630556 0.07679075362345883 0.6595057441224834 -0.2710586274917128 0.654836667493861 -0.2674724673691594 -0.13038858620942856 0.039801280522861415
4.4335 0.1541338225694977 0.10517864159808547 -0.6676046550378318 -0.20185857666587334 -0.6286745374555565 -0.1971555272368668 -0.29507767316941125 -0.11414895155643646
4.488 -0.04760904610995849 -0.10473382609914454 0.3479591867362143 0.6095085394206797 0.3397715954264804 0.616553386138907 0.03800252891316192 -0.02294376110192513
4.5425 0.0239501286653016 0.014051622853427833 0.11327767534398424 -0.7025443184522702 0.10829539563996092 -0.6948767660191253 -0.0005794709250818175 -0.0509120329725179
4.597 0.25614282796850607 -0.0580514180118869 -0.5219254754452468 0.4255519428061462 -0.5281913932593081 0.3925986024788128 -0.20489125277363537 0.20803300741845543
4.6515 0.012561547256611677 0.03448902019416716 0.7075235891538734 0.02417470182479191 0.6968622235142471 0.0345809591609096 -0.14238012103191566 -0.06136028043052936
4.706 0.03116166495433838 0.16328518646555346 -0.5238605003824924 -0.44533583796854587 -0.5040754388405652 -0.43483762005185783 -0.23353630037824133 -0.1402432264178038
4.7605 0.06834979353494229 -0.1692467214455108 0.05910190140655626 0.6825272493084464 0.04714506660647745 0.6835997973865892 0.09472812248922215 0.05364305763954323
4.815 0.02074237234033622 -0.06000194174389822 0.3834947289321231 -0.5873039826045642 0.39829431264123455 -0.5772175093577385 -0.0763055223409586 0.005418632795824975
4.8695 0.25878879463834836 0.10954611257257296 -0.6344671598646695 0.1759193093383671 -0.6288394279407167 0.15342086274247393 -0.25886351144104924 0.17062835131143475
4.924 0.023633466475406154 -0.011469486511461114 0.6302982406613425 0.3101776795856542 0.6037110706503491 0.3163052528007909 -0.09999628437944257 -0.15135640363567385
4.9785 -0.11084430835458488 0.08335949572886757 -0.28985902794468493 -0.6138077154540305 -0.2823823831918207 -0.6176619727864556 -0.16162948198917143 -0.11288288862307266
5.033 0.19277535755621614 -0.11967335318068881 -0.22321913138993424 0.6338249326794901 -0.22783217329102243 0.625904512990799 0.0928449038005407 0.13066065498356122
5.0875 0.10113796165870885 -0.11030452272999282 0.5747143320346093 -0.3722526037159478 0.5953950508340812 -0.3361960795452332 -0.17681765722570694 0.007185827023247037
5.142 0.11884058767337856 0.22877973018857553 -0.644684950708832 -0.098042034106769 -0.6424088080317336 -0.10633088933632454 -0.26833421691203124 0.10584662264235369
5.1965 0.0567562488341664 -0.018052461502595384 0.4445051276383873 0.5329593488345946 0.41065578987988083 0.5207057899550319 -0.027555472923377067 -0.19663136986661373
5.251 -0.13366796389694133 -0.1026849508599692 -0.0023942495699221856 -0.6627603450964195 0.01845008663833514 -0.6874678880079308 -0.11389550461155536 -0.03218280700391974
5.3055 0.23293145832509532 0.0013847074614008515 -0.4561419795318951 0.4822105943825169 -0.4520831043633827 0.47826675895829573 0.04553530214185339 0.1753976593968162
5.36 0.20795357297746694 -0.061455541119021066 0.6572684720595328 -0.10742683207770455 0.657130992483846 -0.050085785356184194 -0.25530202176076977 -0.04247186118560451
5.4145 -0.07491634799094679 0.19387499406599187 -0.5427254222269638 -0.36077664918134145 -0.5538424166472171 -0.3673068304672808 -0.2264632788477327 0.039587171506584695
5.469 0.060079564378707616 0.0039577711854710115 0.18968013728446145 0.6598034182242175 0.16713964205831336 0.6310741855336942 0.040285513149849086 -0.1869161263978695
5.5235 0.015105259993279715 -0.24342435342504376 0.2705210209676193 -0.5808233072504045 0.32043239015878555 -0.598442256517571 -0.122061998404089 0.06571440204940479
5.578 0.1757397091581216 0.10166110608115515 -0.6109643626163037 0.2541567799385563 -0.6068577657642891 0.25833032135583867 -0.023646936444665766 0.17256460663781617
5.6325 0.23521785566450734 0.07507154461446343 0.6295222430938873 0.15917497194934116 0.5983724342882674 0.2112574672353062 -0.28298026916839875 -0.11039073308095156
5.687 -0.16997888354789437 0.015492240010870816 -0.3312454069766621 -0.5568121032895439 -0.34836500701809625 -0.5799169132993313 -0.1422942261334717 0.003908382340587464
5.7415 0.02659132787481283 0.00017877909188707936 -0.09272093759812751 0.6737476508658782 -0.09684580960044029 0.6442774121266296 0.07632579476879947 -0.13587715677826698
5.796 0.22381159127327466 -0.21091753292818416 0.47117401137389775 -0.40023846116677525 0.5298632149999121 -0.38590467865450995 -0.17842820197489712 0.13208146260208478
5.8505 0.07954825749811355 0.12240889470919564 -0.6637728019834329 -0.018793784640918434 -0.6671642206622589 -0.01488184510466489 -0.08653684024170664 0.11916679185462918
5.905 0.13045052219047734 0.19750128384770405 0.5052450620072074 0.3946819722668384 0.4597193205379579 0.4191791367821753 -0.26481227364987137 -0.16596977546814023
5.9595 -0.09340794414057246 -0.1647977183993556 -0.057568193319311095 -0.6378948615282515 -0.05861126282827202 -0.6740347619762865 -0.049172853491310634 0.0214307350976047
6.014 0.013178441190527029 -0.05557860959367871 -0.3549359710511518 0.5679369764986755 -0.35592315958820026 0.556245744030854 0.06563468253419558 -0.06619808620547672
6.0685 0.33399889248500214 -0.03000116860407707 0.5793715841086893 -0.1679459990969429 0.618661526299161 -0.1296916341823643 -0.24501642830680326 0.14630936362853936
6.123 0.016849523861754336 0.07822137920989657 -0.5977725072346409 -0.29112497096939205 -0.6016744642030323 -0.2980516634559238 -0.11230069659994413 0.03051019333004988
6.1775 -0.05135027401521619 0.19013734871237975 0.2918607981162628 0.5636176405086436 0.2619771637963013 0.5698162955904078 -0.21299181282019486 -0.1894573610508457
6.232 0.07823576413575711 -0.21647885480149118 0.21335082268815161 -0.5929528602381701 0.23270316159306925 -0.6199259514299482 0.00778846991177698 0.08075151070831821
6.2865 0.07146050493157562 -0.11452032238487724 -0.5456558969830404 0.36367511491434323 -0.5652628444319082 0.35744110589970984 0.0055649076459094275 -0.007562370608372398
6.341 0.270693713741938 0.17032459496206256 0.5944302777030308 0.08312786779829781 0.6059954210027138 0.12029636654012993 -0.28958585962803907 0.11638825725201209
6.3955 0.005372619777277912 0.030362950197792834 -0.4230913120212174 -0.5079971919642092 -0.41450777123706056 -0.5217943516927149 -0.08707573087914036 -0.05494641059131282
6.45 -0.16580373686878103 0.02876961092958261 0.021048742269485964 0.6296047255733908 0.009689174008597763 0.6411295392678867 -0.14841083978788522 -0.17078637592682774
6.5045 0.2112107605260954 -0.13481015864709808 0.4325857194461185 -0.44787214341888504 0.4564978310840317 -0.4569756318789423 0.012218538624793765 0.14421710508698934
6.559 0.17480477769993102 -0.09784327315783009 -0.6310000252948171 0.10565369105471623 -0.6615783919541729 0.07774967007009866 -0.08309072361766835 0.010431499729199161
6.6135 0.08217345463618791 0.25457586476676497 0.5102421953174007 0.32606075696771525 0.5123962729717882 0.3460209015553284 -0.3001117664215684 0.0616712539721017
6.668 0.009207717939985958 0.004036343382971497 -0.17725044549683028 -0.6313711675695645 -0.15678331927902275 -0.6362792458531058 -0.03010058985676338 -0.10182951259323172
6.7225 -0.10574985523358815 -0.16581051537763247 -0.24950170573318114 0.5650006900263508 -0.2688558760758643 0.5983117182203627 -0.09652054799604827 -0.10741573417995813
6.777 0.24281024878055968 -0.006771954612658662 0.574596711113774 -0.234319815978428 0.5918050152738835 -0.23314614513890194 -0.025829169417633913 0.18372522959634816
6.8315 0.2337849905031848 0.009105331504366976 -0.6060916652622611 -0.15643406266669566 -0.6215802852667668 -0.2084635299497307 -0.15911803377382844 -0.019218166065650445
6.886 -0.09807904055794046 0.1712358168872421 0.3265390949923737 0.518206657072659 0.33917890828490294 0.5300144063829368 -0.269925262529018 0.0015411466953049063
6.9405 0.0052643474555873395 -0.021871134832300673 0.09559360461348382 -0.6422371539272196 0.11284483206986991 -0.6360354118770101 0.02773518525962108 -0.100279349287628
6.995 0.07895020588825352 -0.23789564119271642 -0.45679075442120576 0.39573009651327357 -0.5057204081674553 0.424804109835154 -0.08682057863155217 -0.02329931248334603
7.0495 0.19062495181571054 0.08834738913591342 0.6224324680071547 0.01741216749661333 0.6335315303553578 0.019547441141777894 -0.08573566010432981 0.18391487327049527
7.104 0.1838829112930607 0.13483577019429938 -0.4845232873276916 -0.38585972032205856 -0.4695767198077563 -0.43528714686496145 -0.19499395741013104 -0.0736263345504844
7.1585 -0.14980768981877354 -0.004350398505578093 0.07314885006248775 0.6107683763942807 0.09328906284267945 0.636307889432891 -0.2039432974673443 -0.03976968246396546
7.213 0.01581807027798807 -0.06694251334437688 0.34704873041645984 -0.5388364156386164 0.3559176236157921 -0.5346660708310232 0.06126546346657742 -0.05834092794958508
7.2675 0.24351013037287084 -0.15076742135709587 -0.569585610658627 0.16737567657626098 -0.6320501683513879 0.16377328486262857 -0.11971596286699546 0.0446184904622462
7.322 0.11039505030206066 0.1224840186093403 0.564201860776405 0.2695191988657518 0.5756388892828248 0.27223324006490063 -0.1432655161572825 0.142793834900702
7.3765 0.04651578770409666 0.17879710117343592 -0.2798484845096352 -0.5509929811745679 -0.25295961432818787 -0.5765423551613613 -0.1841339845502812 -0.12313780230250494
