!Created with skrf (http://scikit-rf.org).
# GHz S RI R 50.0 
!freq ReS11 ImS11 ReS21 ImS21 ReS12 ImS12 ReS22 ImS22
1.0 0.3566841731191906 -0.2553250875024452 0.7727157922657533 -0.03186443669848482 0.849853873372385 -0.10595643765621779 -0.09157400068100471 -0.2605552659587736
1.0545 0.0602933930241992 0.25495249530062136 -0.6173330431145887 -0.5696769852824098 -0.6275836993678797 -0.5771628915688142 0.004523388898969764 0.2655248849069896
1.109 0.0306378144491199 0.26795228590078163 0.15708790533874414 0.8190429300864924 0.1326495057206256 0.8802820569544498 -0.09733995082520408 0.03415231197634295
1.1635 -0.1028694838032975 -0.32935162184323297 0.505021438713559 -0.6185226378826787 0.4321798005656242 -0.6720679575908646 -0.4039170998056562 -0.016957915751768884
1.218 0.11310042450760262 -0.0893256890385585 -0.8423207706985083 0.1728065998978979 -0.8520794564434787 0.17995591803061362 0.08380835734562347 -0.1087430859260977
1.2725 0.41866888397451685 0.10700517908830064 0.661588605388878 0.3698815450698254 0.7810143217947694 0.3921573491652533 -0.025316983912129356 -0.11420044104519489
1.327 -0.1282123755339691 0.08959906342742026 -0.2079014513486089 -0.8199390321231115 -0.22784546797279587 -0.7782252749986729 -0.1319256230325734 0.31081481839593994
1.3815 -0.17531460695828935 0.10152414573892651 -0.32123176874720044 0.7656890044214716 -0.36073124184749866 0.77549013179464 -0.18456314472363636 -0.10146163003052126
1.436 0.2584919228312201 -0.27690316751818234 0.7352085950387311 -0.24134712633530342 0.7326645391537691 -0.36274892002470666 -0.30094983118467067 -0.11364624892807872
1.4905 0.15031780234301922 -0.03418021143822855 -0.7890508344361368 -0.29596546290017656 -0.7850447904566941 -0.2929362866126366 0.18943185332001547 0.0014358984872439057
1.545 0.15045065507567723 0.3391533884035494 0.36880111915328445 0.6733018264199133 0.40605399480473825 0.7591460862577571 -0.11269655642408764 0.021783961502043894
1.5995 -0.0650114391792785 -0.11897761146542274 0.270382068541667 -0.7895195747146715 0.19175819066122823 -0.771934381566974 -0.2502843548787984 0.23832648637694437
1.654 -0.13436890459356013 -0.1567017909758631 -0.6812804226041345 0.44618081427521744 -0.686303029596324 0.4437266920978296 -0.126648041122324 -0.23780187989432916
1.7085 0.3716933597354884 0.025799135549065322 0.7443202575788576 0.17380297062212174 0.8366137078215967 0.10531188055248131 -0.15161143697396312 -0.08936210587271899
1.763 0.14948891694023572 0.021110912613705804 -0.5010978915636963 -0.65875141572448 -0.500668719810601 -0.6411490751619211 0.16371689843238074 0.14577767184032442
1.8175 -0.17727793848408682 0.21815311497836853 -0.06551393959808285 0.7788524972321724 -0.08569926390010453 0.8115591884669366 -0.2658978068681616 0.01815319799944708
1.872 0.11498503848247374 -0.13824182035038848 0.6364263334701133 -0.5123423954616549 0.5698975953456457 -0.568199978265034 -0.2708478395447601 0.0977217601346265
1.9265 0.09717312218865831 -0.24498133284763626 -0.7896036835416665 -0.0013190421941289146 -0.7949578267176571 0.024256207510975614 0.009869361936736945 -0.2725544102634531
1.981 0.17828441148551596 0.2494549455924287 0.5511010095319094 0.5444077881398692 0.6160765844192455 0.56709303945599 -0.09094473538405437 0.05419477619440073
2.0355 0.12043479555279724 0.06736277576938647 -0.07145981303768124 -0.8132232370510571 -0.09168596565606536 -0.8005807159762908 0.035124962774348886 0.21481305390089575
2.09 -0.2115905570453957 -0.11474253546727839 -0.49152464738142876 0.6059335658336007 -0.47118669644016425 0.6069968592508693 -0.3397558666777897 -0.09774857321440308
2.1445 0.18382362115222994 -0.007346046881625397 0.7985044997879376 -0.10230075739984802 0.8049236657431752 -0.16731247057879012 -0.16564785238736862 -0.008959505558695922
2.199 0.28028527316463364 -0.10543039773233095 -0.6506147527573 -0.41273580050202346 -0.6879703163487633 -0.38829492281709815 0.12078959554543567 -0.18580625209794582
2.2535 -0.08791410744762437 0.17906260486219772 0.17345364399905866 0.7685217508098442 0.17498376206642685 0.7745713003876639 -0.17974011556998942 0.173804883894472
2.308 0.06000132912670008 0.08853780382691497 0.37148487160937926 -0.7181932748896311 0.3501785580908214 -0.7271029583813751 -0.10052243699081669 0.15323258713695828
2.3625 0.04716881731564235 -0.2724981362149204 -0.7284224555907424 0.230358105377177 -0.6912616187131255 0.2781722505314352 -0.2953683880835383 -0.21819436412589793
2.417 0.09757378606939443 0.08207226136039371 0.7303378163412353 0.330808347927006 0.7543366796688413 0.32040957919848534 -0.015680912781703034 0.021007038591437825
2.4715 0.26256884837745365 0.1090494714823231 -0.33131650767756216 -0.6888179596366015 -0.3779799018915343 -0.7041834443680857 0.11943837234578258 -0.03968272670449953
2.526 -0.12216579023707602 -0.06926371665273041 -0.27563388934452543 0.738418856301244 -0.24721785964482504 0.7037392574406119 -0.31334204558443335 0.1650473345919361
2.5805 -0.010519059997512844 0.05743720345482853 0.6924116744135119 -0.40007257491518805 0.6922713306447225 -0.4150921983204864 -0.12986217816532833 0.004449941663320021
2.635 0.27373800519068886 -0.13344837172670856 -0.7264257017495129 -0.18699718721130187 -0.7428033570606125 -0.11167292222961535 -0.1745202548173264 -0.2634285843791456
2.6895 0.0016496363357058237 0.023301709796268125 0.4390177468941375 0.666852263658825 0.42401595430529193 0.6623259043691333 0.03340762575400238 0.16103968020491777
2.744 0.08214418884801941 0.20373234514972882 0.08978823778378187 -0.7635302060246055 0.07749296203419562 -0.7992925245045734 -0.006258986335172409 0.046697421983129137
2.7985 0.07099077102247486 -0.17629748194397893 -0.6182742866214805 0.4664987479493521 -0.5469656807149326 0.4670085622300688 -0.38405572086799894 0.061667659032097324
2.853 -0.0350985848230617 -0.0328700227878206 0.7895055279291946 0.039826992126280485 0.793259117780186 0.039395088114013335 -0.022612917713360384 -0.10079928916168415
2.9075 0.2581059249586257 0.10095033467946608 -0.5231238005388567 -0.5383994688146617 -0.5841542167063936 -0.5074299537994792 -0.05690656906157676 -0.189484892614748
2.962 0.04243874354019387 -0.08117912118985146 0.011981521458690098 0.7854778386496228 0.003124524597362537 0.7452211345849805 -0.05038993669070858 0.27042740168570756
3.0165 -0.081677922488734 0.10415169791969678 0.495245300220578 -0.5934355045647242 0.5029642213129708 -0.6045432175151693 -0.14512023213035685 -0.012188984119966757
3.071 0.21801543519174532 -0.04932279663118472 -0.7577946811382041 0.07514258465949422 -0.7128049964885094 0.12937219004409042 -0.34914211476964235 -0.05861787064511991
3.1255 0.029535065135648905 -0.11723054506108684 0.6291067099028269 0.4539963761860526 0.6207287396937157 0.4515550587152273 0.11855780332955172 -0.0694033950054766
3.18 0.06259638119443037 0.18202560879910867 -0.1612086611199567 -0.7423796795218522 -0.1939651017654588 -0.7612840434020562 -0.05249283822966894 -0.04188251273636965
3.2345 0.16185468289432492 -0.06312736449898178 -0.3965031193111112 0.6558917284390541 -0.36630357048740003 0.6214879082504052 -0.17934516971140027 0.26753278805345315
3.289 -0.07620861405120839 -0.06995263568076751 0.7362656734742746 -0.22215112633069672 0.7232168137913201 -0.22062787958894622 -0.17015029800109419 -0.15327637409878175
3.3435 0.15238008097487726 0.11713668106500451 -0.6852631668585077 -0.32679172531098005 -0.6961496624529122 -0.2796782949456029 -0.2262467479896411 -0.10986038855862279
3.398 0.14636318080184388 -0.11324634118267295 0.27930836324658154 0.7049324944776784 0.2770272798016227 0.6903489154853127 0.16926441484941712 0.05903351742624352
3.4525 -0.07312513191151389 0.04754151393338729 0.2675472409871372 -0.7175095595735999 0.2729012433946829 -0.7128823039775433 -0.17688037260384726 0.03669783726263972
3.507 0.18797085991100987 0.07277266519775098 -0.6701836899713729 0.345443573415817 -0.6339903163647274 0.34804101401717286 -0.26015233229726964 0.16704619820301714
3.5615 0.05804178596533748 -0.14155271938405642 0.7291257628080041 0.20993478886221575 0.7052515317011726 0.18782234772996384 -0.07435164647637027 -0.24740995866753057
3.616 -0.024040590893881348 0.10513473882736732 -0.40944252508088624 -0.6405939336033147 -0.42124781065645683 -0.6414143377667741 -0.10637299040712277 -0.03002579454992265
3.6705 0.21694849048905027 -0.008561036398159758 -0.13649387560817441 0.7324108586729745 -0.12312850667739814 0.7229825109762215 0.0978540970126837 0.1737959786849468
3.725 -0.001017093426015828 -0.10580559482450227 0.6075346017574712 -0.45568080737076294 0.5874608032565597 -0.42152384029689516 -0.2981346350862499 -0.023711720869680517
3.7795 0.053470216695154095 0.16088560802666035 -0.7463857542793055 -0.06044554071584847 -0.7404812152221357 -0.0454864887251272 -0.2254931464222437 0.03560815091744519
3.834 0.16569804342167838 -0.07291131876884016 0.4984007876240356 0.5580964801887415 0.49893932260086005 0.5182686430800271 0.054128106178214175 -0.22716131650060903
3.8885 -0.06625220512266279 -0.07359197639768855 0.0011292353421200475 -0.7527515799087672 0.029841970921172356 -0.7483752289515062 -0.1165893830083874 0.1136040441362814
3.943 0.16787122863673065 0.11650571770337688 -0.5014490976522107 0.5441447690951975 -0.48836315472649117 0.5497054546089144 -0.03814378290085332 0.18555048058180648
3.9975 0.1485642734949023 -0.08565997540797092 0.7423242310483754 -0.06465233281294182 0.6888301187152549 -0.054528993163435575 -0.31699103344286494 -0.14626041015070695
4.052 -0.1040303885321759 0.062311642723765444 -0.5896692710910634 -0.451277285664083 -0.5960694446026151 -0.46286296597867066 -0.09327427028604145 -0.012329312069564176
4.1065 0.15975779914918883 0.03066657395511932 0.12711197592754375 0.7334021757672576 0.15302469614686226 0.7099775888071157 0.11605631026117968 -0.11028887403365817
4.161 0.1000884817678469 -0.17442486663674345 0.3928518382544862 -0.6162845340171849 0.41547598704158234 -0.5731172150669425 -0.23547112370530374 0.17336282351885587
4.2155 0.029605237713845642 0.14898970743245735 -0.7141499804179865 0.18886528041137327 -0.717192639800229 0.19675248288327155 -0.1293926457638106 0.07961343427194242
4.27 0.17136212300709575 0.054365422955403205 0.6598413855789407 0.327069477383796 0.6160601007290716 0.29797332843347774 -0.23573927720151439 -0.23366486148171903
4.3245 -0.07711551196401387 -0.1433176608227315 -0.23974862833823668 -0.6881433890892856 -0.21917847549494857 -0.707555963721215 0.016005450770258757 0.07686718951657676
4.379 0.08738468259081623 0.06539312024452258 -0.28294686682534764 0.6879747878446671 -0.26500351066946165 0.6890406147684787 0.05624003867254405 0.012913827505623471
4.4335 0.26307309829425735 -0.049794624929099945 0.6386742986869102 -0.30980481426383655 0.6211537269104234 -0.2624636128659769 -0.3392606043530738 0.1148781133405352
4.488 -0.07811995753300499 0.04658884100581852 -0.6999260608580236 -0.2315531349371662 -0.7009307042601187 -0.23550619968431602 -0.09060552341235072 -0.05565364279100461
4.5425 0.041664699968032674 0.11982605057437441 0.3885931972326186 0.6241212444163107 0.38098554642760196 0.5918009887499205 -0.11253509712855037 -0.2230817375033527
4.597 0.13210509141023297 -0.2149661748539833 0.1672503874825963 -0.6848733185131076 0.19885942082574729 -0.6786998755942663 -0.002925268617667975 0.2084612950685855
4.6515 0.04283213923737853 0.025262141684330153 -0.606048341605014 0.4274067374202584 -0.6068917728734232 0.4196487380711349 -0.08458488344959716 0.02946404402214927
4.706 0.21612591973394651 0.16616033598999705 0.6953072981900689 0.06648562789845126 0.6625322504138239 0.0840213141081775 -0.35930449396322095 0.002120153447777398
4.7605 -0.04700385764150758 -0.10109627395081473 -0.45130737171457863 -0.5698157219375252 -0.4425069717027698 -0.572284320428809 0.04005228311585319 -0.09412905848664198
4.815 -0.06962611296952165 0.005911192491583383 -0.007986647120274817 0.7312932296785285 -0.012216667164548852 0.7268872377159048 -0.04537556261417226 -0.10942242289902321
4.8695 0.29951209303331355 -0.05874829592234825 0.4907937212023824 -0.47734645585975266 0.5046410401160383 -0.45664213390471237 -0.11231262862200742 0.2616270574576797
4.924 0.0637420473497912 -0.00922293642335967 -0.7343356199026915 0.035628150310029034 -0.7196706279555307 0.007971258211563225 -0.16937411469212257 -0.0768683465197294
4.9785 -0.02088159241915967 0.22381520176603692 0.552520542251433 0.4265247325851304 0.5383258052481283 0.42701785583942686 -0.2817874004120612 -0.08645925656750142
5.033 0.09138116573392928 -0.15248089331127698 -0.06832775231119312 -0.7120985572442063 -0.06170236945616587 -0.7006734888586803 0.13780813505383246 -0.010394713863685137
5.0875 0.008284038085618835 -0.14982413859503022 -0.39407742865707795 0.5965889128620432 -0.4292372657095409 0.5851879303872556 -0.10713420932031391 0.00949425722405582
5.142 0.2462348303409869 0.17295368813885723 0.6609829068356189 -0.14521121208316223 0.6611695378559831 -0.13371470666222368 -0.21757644436671955 0.21037287463450116
5.1965 0.08557723457528155 0.008628550964769333 -0.6327794806068254 -0.3566999551304623 -0.588994578065997 -0.368114135079308 -0.12933719490181209 -0.19649000390801613
5.251 -0.18862034114630516 0.014664005862244747 0.22405826386924646 0.6560452099214168 0.2199761457508173 0.6788510205566158 -0.15671665506002483 -0.07463018426198177
5.3055 0.20570258688789747 -0.06814288277706869 0.3176481065731266 -0.6273519507356448 0.31062435824988055 -0.6171830994377149 0.1262494274821341 0.11179756385412656
5.36 0.19622065589468118 -0.13676530522706853 -0.631900668036107 0.2856188722027249 -0.6598259496551937 0.23077241691628997 -0.23753004256453125 0.015154209717040134
5.4145 0.005844516584110057 0.24439626143361404 0.6383470475048277 0.2348394903091742 0.6485428993365137 0.23711612555748424 -0.24286261262037637 0.09435767420743699
5.469 0.058802315240018416 0.034629044694190134 -0.3427572036892971 -0.6334869787144553 -0.3041246602053792 -0.6088567662374204 -0.016029061577477917 -0.2318246926932659
5.5235 -0.06253344315768125 -0.23965131302170073 -0.17393191073556075 0.6510169691412581 -0.21523974629332188 0.6843496467414534 -0.09955125787772107 0.0415822652512608
5.578 0.19674790267379746 0.06673231315720218 0.5974784292563751 -0.36007386149881193 0.5890979080869109 -0.36245737412536655 0.02302923755065717 0.1743626480370861
5.6325 0.2685021445707674 0.05130974988148426 -0.67151511054457 -0.08579491007931028 -0.649905173106606 -0.14940725440466376 -0.3055347742072307 -0.07970222894799135
5.687 -0.17957699055276027 0.05826436333797992 0.40123989677959193 0.5512159959096626 0.42254950615102177 0.5701888066474263 -0.15818643695056628 0.0026289479395724172
5.7415 0.013195860317900321 0.004729490232502408 0.05037950420047779 -0.7131925646019426 0.057578124696375216 -0.6807090944624582 0.0777765955984283 -0.16247709662711707
5.796 0.2231444598099344 -0.23567731762302896 -0.48073761053226277 0.4354672250636945 -0.5451353490768995 0.42418274302819925 -0.16995980169660854 0.14448809397311582
5.8505 0.08604661915820258 0.13184302586633867 0.6995703086109387 0.015821685482571644 0.7018320270006879 0.010931447444998892 -0.0893318243133525 0.12785911943659825
5.905 0.12450318856411986 0.21603698449844247 -0.5225436081908226 -0.4253905817045069 -0.4729566278860831 -0.4496986811008306 -0.2722946592005468 -0.18214494238768159
5.9595 -0.09577370047831218 -0.19401221528653378 0.02359229318482783 0.6706009905047157 0.022444399511617617 0.711365348601666 -0.03602236027453443 0.024468770239553943
6.014 0.02759249714668422 -0.06759169219724256 0.4221417733070268 -0.5656536608486454 0.42113226785174046 -0.5544269112741734 0.07950388578040724 -0.044847250569657555
6.0685 0.3581658688089982 0.01563070405010655 -0.6219234308292111 0.11290262041313755 -0.6543524035991332 0.0644314284481797 -0.2799775378482653 0.14113058972426754
6.123 -0.022727113587660573 0.07872889942598817 0.5795157079659572 0.39349091619905346 0.5844342808660459 0.40020281042849315 -0.11674739641540764 0.008554755619192438
6.1775 -0.10802216323485041 0.15596287150165375 -0.20690134124660775 -0.6400435520639303 -0.17892818974298463 -0.6378705523105554 -0.1720262756664577 -0.21865794710459022
6.232 0.15882027866789908 -0.23561435872185152 -0.33827001922300726 0.5593438508004595 -0.37048432124656194 0.5846050648987438 0.006968859612100375 0.1356196752101503
6.2865 0.11733474422058851 -0.09160272956022113 0.6475607114494589 -0.24498866873660957 0.6683176886997669 -0.23127336354672207 -0.019612465968526074 0.025371249235998608
6.341 0.20247891115868727 0.26189134361375016 -0.5863674771363009 -0.23332235380023117 -0.5826062417181884 -0.27030674688244904 -0.338956245150906 0.05816089301129323
6.3955 -0.0337511704080019 -0.03373634605557219 0.26898996281542603 0.6416692478482937 0.26099074119523047 0.6520601867664715 -0.031979063349705836 -0.0774204831530722
6.45 -0.16028607829746414 -0.09632079772276957 0.18269264551425696 -0.6389336218609931 0.19797619336531252 -0.6570822251752029 -0.07900066530383713 -0.1609514633657909
6.5045 0.31226121865080614 -0.04296021870721093 -0.5736603553160077 0.28839166113269527 -0.60225743148822 0.2846053239658012 -0.05713387906697715 0.22462965943969335
6.559 0.19155982790655723 -0.012374503201231513 0.6664715399138652 0.13516348275153128 0.6752197792671096 0.18128627050206117 -0.12955487973842694 -0.019532544253549913
6.6135 -0.10111267993072823 0.24357800313718023 -0.3672825335007222 -0.5226136861764922 -0.37059111092058306 -0.5375873288467293 -0.3118768536761142 -0.03833353361561828
6.668 0.044915005864889335 -0.0957255237932523 -0.12065208300637707 0.6763847455597068 -0.1337027638501483 0.6734687031497371 0.07888418617497488 -0.05356896191710693
6.7225 0.05019179656905912 -0.25769091625660284 0.4910267548872156 -0.4186358294814931 0.5459987516682346 -0.4397147569695361 -0.07464895856526571 -0.046170707379123294
6.777 0.22661280040671813 0.1796560444886828 -0.6408604245978033 -0.059468678135750845 -0.6501245851851036 -0.06462359783408299 -0.15957631283358095 0.22634515328949695
6.8315 0.15536635424463968 0.10586767007921198 0.4881816150824602 0.4638741698707778 0.454226495046185 0.5088206780182148 -0.15064991885010173 -0.12894468358491162
6.886 -0.22287133885298746 -0.045315741191223065 -0.008361851224675153 -0.6379094469835906 -0.027705134701592495 -0.6762700108913731 -0.21717542946972185 -0.07849781302663511
6.9405 0.12524037412825756 -0.06809935396380265 -0.4601763472900526 0.5010124807902473 -0.46126772893285384 0.4904670039343254 0.12063352893691316 0.04402194214395699
6.995 0.2879291714121577 -0.14597063825572323 0.6200903059844111 -0.08636012604817717 0.6889086346958716 -0.04952255836413541 -0.1682786801263302 0.015470083388754432
7.0495 -0.006018199129864931 0.2128846323298709 -0.5137905069797701 -0.40242389136225626 -0.5302355962701276 -0.3943622419155723 -0.22277563978474393 0.14855441887971838
7.104 0.020203417584128233 0.13817961440519444 0.16199782938348795 0.6519034575211279 0.11394893920152871 0.6559824609974216 -0.07814580270306067 -0.20164880920723915
7.1585 -0.019097450009578743 -0.27682381830087877 0.3436971601584423 -0.5219944300451169 0.3671099602069354 -0.588652944024886 -0.125843649444117 -0.019367743070962753
7.213 0.1476675840457197 -0.00023493908210189297 -0.6518574419233045 0.17679761635484761 -0.6461212636181827 0.17606613905457905 0.06952923395346174 0.1331317015390709
7.2675 0.31035219701327016 0.11517547815254586 0.5649992686009218 0.2513117325120685 0.5795812170630035 0.32217376563810224 -0.2629871549282947 -0.026780959563270465
7.322 -0.14017403838538817 0.027828485075685395 -0.2069060111993912 -0.625269476280041 -0.244462581088296 -0.6323960400310681 -0.19936888804425026 0.04899124726756076
7.3765 -0.08429690585171762 0.02551790584015564 -0.2206631544809543 0.6318762064452312 -0.24062787770339908 0.615367583146898 0.018746835804454534 -0.19032800267684527
