!Created with skrf (http://scikit-rf.org).
# GHz S RI R 50.0 
!freq ReS11 ImS11 ReS21 ImS21 ReS12 ImS12 ReS22 ImS22
1.0 0.3015463212892677 -0.30582243522849933 0.7667731915759719 -0.11013477051649324 0.8233997506910266 -0.1903758910857228 -0.12270268157343259 -0.27366383602173716
1.495 0.09814827377830035 -0.11069636068451096 -0.8398453181107958 -0.0009478064324455238 -0.8399310298908965 0.0026580389401424497 0.12205140121972198 -0.1241197245505772
1.99 0.29415658990467347 0.040901718273133006 0.759856990719178 0.1522978821782129 0.8244759053332205 0.08439716714488552 -0.15402288930752564 -0.05215104908740076
2.485 0.24978182013180245 -0.1705646035149051 -0.719314254176591 -0.2255759032781472 -0.7408415087492175 -0.16624118838035506 -0.06309447922972111 -0.28234136331220516
2.98 -0.007384281604797347 -0.04566920726270216 0.710276946922378 0.3328766693003931 0.7065630407148024 0.3376619421089571 0.05232495948090597 -0.050516584874753766
3.475 0.1245644476630065 0.12533392779530178 -0.6356276666714569 -0.4076991173560396 -0.6495178739866957 -0.36782172917036887 -0.19815767043474275 -0.12439944147092544
3.97 0.1318911665477261 -0.07348403977098326 0.5597863242435914 0.49260005313439525 0.5495246035452408 0.4539557494797309 0.0017457269336013954 -0.24305487078120724
4.465 -0.1254108910423694 -0.029056357436313386 -0.47211818460886185 -0.5515181887837215 -0.4751455742712628 -0.5676875852906681 -0.038442977988744756 -0.015853786479347726
4.96 -0.03508812795027084 0.1532465561750852 0.4131817397118378 0.5795654244047458 0.39628911217145846 0.5657168171764941 -0.18810751954961383 -0.1843766664052988
5.455 0.0309595034489586 -0.03813825288818549 -0.293075363994697 -0.6532237136730178 -0.2688586778113256 -0.6355044459785143 0.0335684637804433 -0.16748898604938184
5.95 -0.1808482505490961 -0.06693150134040698 0.17271454737306682 0.6463194785221615 0.18464925624559617 0.6828054263288444 -0.12351900113740866 -0.020324519611492946
6.445 -0.12163741795324753 0.11424459416931769 -0.12430416119896333 -0.6580839088345516 -0.09962730052895398 -0.6528826627115687 -0.1424223777451657 -0.211587805212781
6.94 -0.001440456502793229 -0.05141602535073702 -0.02394040879242352 0.6818400717677082 -0.03795589200883453 0.6846433439929949 0.0134552355120689 -0.08318079993393254
7.435 -0.15516022065542381 -0.12181317664455646 0.12748237556713615 -0.6227531836298281 0.10394683792347545 -0.6691224964856443 -0.1887901745680863 -0.05594903418147721
7.93 -0.12302408860826931 0.05393409787480018 -0.1772392911694436 0.6181798913972659 -0.19455756713343003 0.6214638380033284 -0.08834031839548408 -0.19904071687858296
8.425 0.03758232596747905 -0.05707193335811308 0.309809919731205 -0.5786113880074834 0.30847664433297833 -0.6009645767428278 -0.051167493182080005 -0.024222508983162253
8.92 -0.07219174410125807 -0.13838333448993215 -0.37832290271769436 0.5028982021587574 -0.34650628276429 0.5449480481410205 -0.20913841758822133 -0.10365956728580888
9.415 -0.059273867873374096 0.03237376167106248 0.43145061321997813 -0.4699169911511996 0.43712933492834427 -0.4742242988088596 -0.05444264162931543 -0.1520894407373758
9.91 0.11493035188008391 -0.01720146392692755 -0.4999152531862691 0.3905066477802553 -0.5002845548715449 0.4189789871265953 -0.13319685027601938 -0.0051442492262409375
10.405 0.03238331047365624 -0.0972251809309823 0.5399524686564791 -0.31548048734161255 0.5142882794068158 -0.3369956057051027 -0.19398848259765572 -0.1431957230091362
10.9 0.02451021766749288 0.06825403652390544 -0.5725331010304854 0.24447736230254283 -0.5785566621277005 0.24489278884532117 -0.054667188691443824 -0.0890306187622294
11.395 0.18592724811247896 0.056085072293577 0.5792640027594854 -0.1635812163015574 0.5857646485760797 -0.1742977580744404 -0.19851666491493752 -0.024373122133526354
11.89 0.11641156986456704 -0.027757094099907495 -0.6034015261802039 0.07950320336761758 -0.5830380250278209 0.0817189730472564 -0.15444556948018104 -0.16084503388567745
12.385 0.07106620421052896 0.12076475756626398 0.5913810747656029 0.014704429417083454 0.6048086517054226 0.01724567311126909 -0.08928652476480287 -0.034193422900458036
12.88 0.21145076867549212 0.12279615988490282 -0.55561247266732 -0.07908283205242876 -0.564510542341509 -0.07938822222699311 -0.22952830680488187 -0.06801645707941195
13.375 0.14176689631330885 0.027709946528961128 0.5537662338158486 0.1696467594145594 0.5429945270349269 0.179294679576264 -0.10925399701124901 -0.14164869982427516
13.87 0.06052699341316228 0.15084638749995133 -0.49900198014828095 -0.2594290458334443 -0.5176517500988383 -0.2574432748409587 -0.14360059896627553 -0.0029309970142476407
14.365 0.18551910901677088 0.15834819615515122 0.44686222073599646 0.298229914538984 0.4533877719555866 0.3078675466239182 -0.21973996735885784 -0.11244738386290437
14.86 0.12444124850431967 0.041503767051928674 -0.4127521173227778 -0.38447356795275633 -0.40448054553343055 -0.397513580704258 -0.08081010194201134 -0.0901255030887865
15.355 0.019865056193923595 0.1330478668341769 0.3266018260536162 0.4441382599836771 0.3487810211278305 0.43563015511348985 -0.19577863123378475 -0.0018345258375302774
15.85 0.14394744066562942 0.14725372946274215 -0.27056326972016087 -0.4629900596659735 -0.2678766660966379 -0.47033944154808904 -0.17667821205281978 -0.13497538350054988
16.345 0.10413080238404922 0.0015498591943072827 0.20071101407200181 0.5197410841001171 0.1975883304207242 0.5286897663204335 -0.08920929495056522 -0.027313018178250267
16.84 -0.00789146764580104 0.06370501305146932 -0.11364518536281432 -0.5397956400966829 -0.1276389263988456 -0.5251034099780839 -0.23129349771941948 -0.02633977267087552
17.335 0.11836072239541406 0.09571228019842185 0.050862300565190824 0.541042912289028 0.03930061596064396 0.54377741274627 -0.12993287285935004 -0.12576199686069106
17.83 0.11524309849864421 -0.06973777743033903 0.03268978599175577 -0.5431667239986643 0.03421641269330441 -0.5566210098115687 -0.12710293638312675 0.02501633809408592
18.325 -0.0068001323416797994 -0.032419675523801476 -0.09904709452059088 0.5314580233777269 -0.09938565676753633 0.5184392006458594 -0.23619511324923215 -0.0641291872619584
18.82 0.1155064448696194 0.031723878792971595 0.17530609998131846 -0.5060751172704201 0.18858636213223354 -0.5134363107810117 -0.09228692117332742 -0.07991063179957232
19.315 0.15284556927042664 -0.12536608484445658 -0.23717750233685378 0.44899210764404246 -0.24034363857433166 0.4744808412041966 -0.18572115785550206 0.04770162173664881
19.81 0.01832679407629123 -0.10490285927876083 0.2883023852862053 -0.425168579667718 0.2968820459493006 -0.4163387543644164 -0.21474242687996814 -0.0955531229900271
20.305 0.1283155839269205 0.002146085906783863 -0.36078355631351167 0.36726455478573433 -0.3719736316524633 0.3859035612524619 -0.08338599907251461 -0.01831669275442333
20.8 0.19691162623330938 -0.12811272082699457 0.384182263675762 -0.28286970081359775 0.3898676160208699 -0.31803134436887165 -0.23251973791523592 0.0330967561908957
21.295 0.053472563626659426 -0.1300777801198517 -0.42457572204890415 0.24931347334554257 -0.4374065836490037 0.24622408416048722 -0.17137648206978984 -0.10751666573854197
21.79 0.13027870346871379 0.014968499016214136 0.4717216590519985 -0.16463968563222425 0.4746277843514142 -0.1909885344913618 -0.11081635707871239 0.03776448711058511
22.285 0.22289019183575648 -0.08631972197302079 -0.4618563513176789 0.08389839916544393 -0.46200021560666343 0.11198751293555587 -0.25569923072508693 -0.00679008741487893
22.78 0.0732728719493597 -0.12077654236037257 0.48744734245500987 -0.032753250227177844 0.4911611795596713 -0.031202792530649334 -0.12543693123672425 -0.09072283431373815
23.275 0.0961506062499569 0.046746747064913566 -0.4932746486871629 -0.053789883232967475 -0.4854852326809053 -0.03084764996294562 -0.15393990772370644 0.07013713571965154
23.77 0.20755918991494735 -0.02784532482887409 0.4594297229205867 0.12034879009787296 0.44973597363527856 0.10462800996550861 -0.2457640311955385 -0.05229667292231266
24.265 0.06047243586669249 -0.09696312677230323 -0.45321634484792145 -0.179906674446147 -0.45316416469214454 -0.18603538532257152 -0.09078015505467985 -0.04526137329511487
24.76 0.026433565661408663 0.06939020727747353 0.42589214728627706 0.24049963009807748 0.4105773902005183 0.23027256228006748 -0.19889562825016152 0.07087558676245892
25.255 0.15159198709709337 0.026060008598780802 -0.38343156346132046 -0.29007080717484207 -0.3602870671024069 -0.2943679683775782 -0.20720794860924865 -0.08484292748557169
25.75 0.027858800221821755 -0.07988171515246417 0.3317067695200463 0.34618707243389624 0.3314130657644436 0.356407224441835 -0.08390825088795698 0.0130244472630829
26.245 -0.045506988889843746 0.06844912171314253 -0.2821653573875841 -0.3683143630665856 -0.26544477743847744 -0.376925457208143 -0.2324472216779142 0.04555061593025988
26.74 0.09145990828753284 0.05729742788548375 0.23370505050297358 0.4102584413110426 0.20537789006027676 0.4254440938887076 -0.15520969861170644 -0.08596192941214909
27.235 0.01055407793295296 -0.08191523333822999 -0.14235656918410255 -0.43665297466548686 -0.15504694331499264 -0.45470276801069 -0.1068060270112508 0.06460783578537956
27.73 -0.08581356776236233 0.034151989013779034 0.0926699297183131 0.4304289091768937 0.0813577516286275 0.4467973131174366 -0.24075153301316626 0.007085160561458978
28.225 0.05223444828787725 0.05916031873879094 -0.03348216702948335 -0.45664994749095944 -0.016323899874224307 -0.47565347687242077 -0.10730578306688088 -0.05492595950260405
28.72 0.025385467794605376 -0.0939341188236314 -0.06337934945854284 0.4392149508874328 -0.0396890286869223 0.4614889813741128 -0.14696350529273627 0.09098491146596492
29.215 -0.08230858369325823 -0.010200187511687647 0.10768285975559716 -0.420476070939603 0.1113104134791546 -0.43619618863398124 -0.22292010916149682 -0.02895854261203523
29.71 0.045026017975544085 0.04956898870168726 -0.17166564572948598 0.4144870917943717 -0.17269396631477474 0.4325952357642477 -0.08124924926524596 -0.0029914078170819015
30.205 0.06633163223160866 -0.08836190857447934 0.24577716127145124 -0.36830792749211866 0.21908877465038293 -0.38115837927115176 -0.18914518098845515 0.0866019969413805
30.7 -0.044662016061421825 -0.03594650816492988 -0.28189236482764846 0.3354263073287088 -0.2791918154813104 0.34291973148327876 -0.18472055820357872 -0.047882576600041374
31.195 0.06546688868047132 0.057676398461640264 0.331681551546972 -0.3017403868711002 0.32309142301031774 -0.31063574046269665 -0.08779291353797118 0.04930585899542213
31.69 0.1197791590328885 -0.05635319086535787 -0.3698971633355729 0.24304011650663898 -0.347023523225241 0.2388374918254263 -0.21722434344450076 0.0563571464323138
32.185 0.010246274638303823 -0.030895465605900296 0.3986606992309728 -0.19409931228410604 0.3947829823764602 -0.18950845813410802 -0.1396131771902511 -0.042642415621850005
32.68 0.0896055177350792 0.08185752651333703 -0.41395064378594904 0.1363545769550599 -0.4066294989848258 0.13459073759292592 -0.11632305568400739 0.08311625303034514
33.175 0.15915888005673584 -0.00767528831260162 0.4192384404476374 -0.08057884481806721 0.41113415901846995 -0.059299604905242984 -0.2171799924934358 0.01495825505144394
33.67 0.05386838043899748 -0.00724399691174318 -0.4362096575769607 0.016058188200035368 -0.4324354803395809 0.0037978201318805633 -0.1016622606734729 -0.013843800888576242
34.165 0.0968631109768708 0.10835307703598436 0.4112265941673402 0.04733036586298978 0.4127278170890785 0.05796590219486007 -0.15402965553827014 0.08991826967074659
34.66 0.1711923939486563 0.0344502584529067 -0.3974700599954052 -0.09228619302888491 -0.40027444293360726 -0.1252359652196281 -0.19120734067902842 -0.017057603052655454
35.155 0.06792001804202963 0.012336458568728293 0.38536043338737547 0.16752954113156307 0.3926861331568838 0.17802889229717925 -0.0869266533033836 0.027385773521542364
35.65 0.07915209708954431 0.11754999343429187 -0.33763222984464186 -0.21532793611064788 -0.3461626307997152 -0.22754545173884652 -0.18279993198456285 0.07103919770659023
36.145 0.15877874039036197 0.05789406998862259 0.30868189234224824 0.2541856511241949 0.31840360359692416 0.28343733340214994 -0.14701259291495417 -0.02756754405195383
36.64 0.05960210025327068 0.010556406737612498 -0.2664408388440429 -0.31475196619071927 -0.2781940596806106 -0.31989469662992703 -0.09555733217861233 0.06643991379443029
37.135 0.0521757348744183 0.09968420135609206 0.21093780554227243 0.3418450821797 0.21903533380648033 0.35027212149055226 -0.18986816331624348 0.03801769901714521
37.63 0.13459247048001438 0.0496211726526476 -0.16773648375454892 -0.3660904668065801 -0.17992200587928794 -0.3848361496121572 -0.10165389295829266 -0.011877881335998392
38.125 0.05381604781866717 -0.018172005031664502 0.107431163946129 0.4006567186573048 0.1193106248120541 0.3941560835792533 -0.11852022810693842 0.08524845682325904
38.62 0.03751743161943024 0.060946461751618775 -0.05331040608171737 -0.40476939453023375 -0.05808532860568355 -0.40697307833089585 -0.17199465372823114 0.006312653396088461
39.115 0.12686624976928484 0.017946978103260028 -0.0010088063232556695 0.40636051538245305 0.01038721505529673 0.4134330734369495 -0.07397256957091375 0.02328166213237088
39.61 0.06278891913418792 -0.06333559969617449 0.057238892462109295 -0.4020501736247345 0.0550373658074927 -0.3930619987313662 -0.15224554917031077 0.08217511763695748
40.105 0.03590815573265698 0.011157877803199765 -0.1074996141684494 0.39158942733317886 -0.1096262273816031 0.38653605956424913 -0.13972315147023476 -0.011778050461778237
40.6 0.13458263691724065 -0.01386478390996722 0.16139170885302714 -0.35842239706615714 0.1584986424785521 -0.3609558904491765 -0.07584648805406607 0.06368701343853889
41.095 0.08460667511178714 -0.09789072371004431 -0.2043808259656112 0.3258632899136369 -0.21207249801393435 0.31993180279747474 -0.17328157929299465 0.057229445754678
41.59 0.04565320757032825 -0.020938413366699944 0.24931647672221363 -0.30163120494124274 0.25487082566014646 -0.2972261467076302 -0.09971317423469428 -0.00973365777116318
42.085 0.14926860608922884 -0.019406298559991975 -0.29101405552098414 0.24302584404875532 -0.28986444963529107 0.24505650908640042 -0.0973547684165627 0.08901503281084938
42.58 0.10905843350161464 -0.10366499433681509 0.30907321300593243 -0.19741878632376256 0.32665242192253624 -0.1949435343640313 -0.17116722362619136 0.02136466074235521
43.075 0.05264624474320743 -0.026642754648232243 -0.34746457473419284 0.15538491019803968 -0.3550714870966986 0.1558212128399172 -0.0673991709404103 0.012480052258918812
43.57 0.15443677349743754 0.001376697522039036 0.36108934818723304 -0.08692603423370414 0.3638491053322364 -0.08983081579443705 -0.13171580113750456 0.09218200823774061
44.065 0.12661155926316894 -0.08947227321256457 -0.36253143910796193 0.04051565262854003 -0.38281555166424247 0.03737672661501441 -0.14568585714464927 -0.010884798565245823
44.56 0.04633920457102825 -0.018222241071315665 0.3773620229981975 0.012333287367425373 0.38155719509817304 0.009684848005888704 -0.05440064364100241 0.04434474132983216
45.055 0.13499523221659873 0.03355988140977253 -0.3682382870338253 -0.07262984211813792 -0.3696139139799548 -0.07459169945474366 -0.15966326115608218 0.07026038284195232
45.55 0.12452089665473108 -0.06472488693567616 0.35188074200118297 0.11855558011815104 0.3655363600414863 0.11914912587688302 -0.10762431494656986 -0.026304823075384128
46.045 0.020209721583006757 -0.010995656480302323 -0.33948344517449286 -0.16678095195703785 -0.338202115878357 -0.16815361831541556 -0.06583217212752249 0.0756950799413718
46.54 0.09316999759855134 0.06265208307463413 0.31226637022285536 0.20766962947999487 0.306471280358138 0.21912704479843212 -0.16860505775070742 0.03386143148716816
47.035 0.10661467484558332 -0.03994284364460099 -0.2772786061935448 -0.24951682778268644 -0.2851232565023976 -0.2536569189639307 -0.06449265149092785 -0.017112467662949327
47.53 -0.013692226010143738 -0.014626240298127962 0.23314332010113653 0.2808950921148863 0.23167439447349028 0.28603069844685364 -0.09252701384706191 0.0908863327173332
48.025 0.046903370696132624 0.07743114001085659 -0.19868179691199664 -0.3001228221793904 -0.19140116853944658 -0.3185137429288402 -0.15189754421367532 -0.003931247715290734
48.52 0.08907030814147766 -0.02489208747968284 0.14284918809214536 0.3344265338319613 0.15170643296785363 0.33632045135477173 -0.036347068399383675 0.011510895782905477
49.015 -0.02751226560349094 -0.03587800591150954 -0.08396670048187267 -0.33932683419514714 -0.08563228822511469 -0.3477471996772941 -0.12385840882064293 0.08411251137862416
49.51 0.013418505211489134 0.06999342275721306 0.048310914136197244 0.3449487117108864 0.04591337109246779 0.361162436055368 -0.1197023013989012 -0.029833706451518463
50.005 0.09083565122033753 -0.020423184617579776 0.017524593681916976 -0.3527454542983444 0.0070011840077274625 -0.35139322798126094 -0.03470967438576616 0.05012646766908443
50.5 -0.014546355367630768 -0.06116103546109648 -0.0726110051873746 0.3332932434582231 -0.06796673649491379 0.34169756333088525 -0.14809061036685664 0.05952626546510986
50.995 0.0009378138296490853 0.050933541043921164 0.111080271931097 -0.3262665274706037 0.1086109076244065 -0.33690434596656654 -0.0808751284881085 -0.035211340572655986
51.49 0.104844893368754 -0.010752482979419557 -0.17060421645769147 0.308365415739918 -0.1595272750090453 0.3029789027852047 -0.055570593258891264 0.07872804302224344
51.985 0.01964927318244724 -0.07470274452469286 0.21003108501172077 -0.27075717199103205 0.20929153233238273 -0.2768980666691534 -0.15543219007509482 0.02216850825141212
52.48 0.00897609898077807 0.041401833500252325 -0.24301500738200116 0.24958321898626176 -0.23868346556298492 0.2502061475568217 -0.04948565295729814 -0.020034108189737772
52.975 0.12673892942696788 0.01389370681284598 0.2784470631560051 -0.21063854959908324 0.27686280936536684 -0.1992433617217309 -0.08980769772993002 0.08605776679745446
53.47 0.06551596696617842 -0.06618725092237408 -0.30565863012262906 0.16893407346489234 -0.3069501062902141 0.16422627945492407 -0.13894786601172496 -0.014337403485152792
53.965 0.02616494203563005 0.03926223342463432 0.3227107709068644 -0.12748020912902477 0.32210383620005617 -0.12240798471603853 -0.030562904999368246 0.010631199074025974
54.46 0.14305407389623065 0.04721174291199457 -0.3297437627931166 0.08156286580615321 -0.338947720174368 0.06224382800538492 -0.12320648411352322 0.07109188969880056
54.955 0.10449155207286341 -0.04391142648726249 0.33770384979038176 -0.03523583302817034 0.34866632153398 -0.025343390478544787 -0.11004342140566377 -0.03847355789026677
55.45 0.037766750331096145 0.04352122912835305 -0.3377036760321847 -0.01982958037991442 -0.3410386237744405 -0.02719440079933945 -0.03718169411909255 0.04149701129234618
55.945 0.13790213640787694 0.07533714613797957 0.3186633546848275 0.06117896182620346 0.33613192986581275 0.08082034221388303 -0.14138571159042632 0.03861685073738501
56.44 0.12249118352839929 -0.01935467404076886 -0.31269676978472283 -0.10705918759844382 -0.3241127400598202 -0.11522194155145056 -0.07199047815456888 -0.040893583617748204
56.935 0.035258544297864916 0.03985014746265246 0.28719870918854046 0.1622409009327408 0.2975770910736858 0.1665911598924643 -0.060235470839088395 0.06030278469298576
57.43 0.11595267991024409 0.08933553143070819 -0.25241736516808916 -0.1909681565568793 -0.2740922094868982 -0.2040294356211311 -0.1377298235484937 0.00045747938188423366
57.925 0.12314295579154468 -0.005647210454137437 0.22803729858794602 0.2305613879744504 0.24270975553516 0.23246382996222523 -0.043144916101103936 -0.022654377441555268
58.42 0.027996939215234492 0.0229119306850924 -0.1847999248294411 -0.2704227530142961 -0.19583209544745644 -0.26714998514060995 -0.09097617249867235 0.060509243606404535
