!Created with skrf (http://scikit-rf.org).
# GHz S RI R 50.0 
!freq ReS11 ImS11 ReS21 ImS21 ReS12 ImS12 ReS22 ImS22
1.0 0.06274171123600601 -0.3701846260826973 0.6670188992744361 -0.4010314856182187 0.6558412390348219 -0.48095723235858656 -0.2743137195743976 -0.22062041462352996
1.2475 0.23666860190711705 0.24800579953856863 0.4695165911095746 0.6228305127810313 0.5136779530940246 0.6929457148736667 -0.010327771500344083 0.021006112544773494
1.495 -0.07128471562160384 -0.12084150411867262 -0.6530813946138009 0.4895629790960118 -0.6548683979631529 0.5008956854283365 -0.12787501242589341 -0.1560097167963358
1.7425 0.13173847675669462 0.08312363194634022 -0.49581357037127455 -0.6334076376975173 -0.5063268829208196 -0.6279987440548361 0.08958070157093367 0.1428452686935149
1.99 0.044362975693578006 -0.12836648350631102 0.6214540387527746 -0.48952160282812535 0.5727890371395343 -0.5299404576655721 -0.2734781669457414 0.026026928605492414
2.2375 0.1599923625322567 0.13684435908054526 0.5098726002504964 0.5714989748056153 0.5522847388206901 0.5789322755147752 -0.013639245134274763 0.01886843176604166
2.485 -0.05459212371950159 -0.0765818759832294 -0.5568248646823275 0.5324353572435612 -0.5262133294848816 0.5392850404915935 -0.2728990607257145 -0.014477743118104161
2.7325 0.16772370109375878 0.005612944343501476 -0.549878152849847 -0.5205904604618676 -0.5767662964480371 -0.5062839141000723 0.05481956809050772 -0.07791848212796543
2.98 0.03894375463439608 -0.002386578548124459 0.503318314711828 -0.5710368235470502 0.47590610131865047 -0.5632735812897494 -0.21065729681861595 0.11485688889411537
3.2275 0.09922403590893739 0.03413497809674887 0.5804053821013685 0.47136134196121643 0.596914311402272 0.45050707604987905 -0.054589453946426315 -0.08702425794223954
3.475 0.018733719550516455 -0.022235037882997563 -0.4462953735990587 0.5948934533113269 -0.4348278498701398 0.5732495725070897 -0.22103521454939734 0.09022729510645684
3.7225 0.10994760904481271 -0.03684423175208884 -0.6024206176307674 -0.41522097127827395 -0.5941370082873471 -0.382644158348591 -0.06728080325135521 -0.2007368072299596
3.97 0.12941266862836653 0.05357607353179287 0.384141524184937 -0.6102506093831211 0.37464152742129814 -0.6082106065164878 -0.03128478935471784 0.11993644096371964
4.2175 -0.05972956756614762 0.03248706060949215 0.6173054832567864 0.360283018300141 0.6166211674067102 0.3622925589602218 -0.0786326470667431 -0.062277488043904816
4.465 0.17103751253390903 -0.15008554257803258 -0.3260465418851243 0.6028841760845047 -0.34925078784392466 0.5805382691060397 -0.1026462198510237 0.21333624062100368
4.7125 0.10255401473997411 0.18207326678060978 -0.6221417048475235 -0.27538046700457214 -0.5944626071682487 -0.2745232621991135 -0.2962204706323322 -0.07916376753174688
4.96 -0.023945343890582466 -0.09786990489863749 0.26466989984912864 -0.6387664997085316 0.2883311994633147 -0.6352668054462356 -0.08092928504280011 -0.012782144139802583
5.2075 0.11472001332695535 0.010767725140615853 0.6440953570097878 0.24715239727104318 0.6035991945661944 0.26975990427155633 -0.1713603566441422 -0.16786690758033423
5.455 0.14280898991420618 -0.043569693906216005 -0.24603090832834934 0.63248573042139 -0.2369666211072839 0.6147373263620269 0.12931999193578375 0.01603798819287734
5.7025 -0.00707449148783426 0.17389161949019807 -0.6189680843109173 -0.22031243079968255 -0.6304279848303488 -0.21694656178685112 -0.15902451291560782 0.09855698393847179
5.95 0.03826162444004857 -0.25125543980804466 0.2015699238940158 -0.5925599505299436 0.23265832241894152 -0.6292286016015042 -0.04861513006113932 0.09216246504807254
6.1975 0.25846702628674556 0.18333564524366971 0.5892764946858972 0.13763869433102888 0.5896284418387115 0.18300924437261676 -0.32179432380218376 0.049168993851603095
6.445 -0.14674844288660674 -0.05429822860105841 -0.12053779774064437 0.6227890776194723 -0.13432026772391736 0.6357938362116068 -0.09039978493585912 -0.15944747157573647
6.6925 0.21175511263168675 -0.01746001253535838 -0.6272008936236961 -0.10515760957988093 -0.6424575711345901 -0.15021913774254458 -0.1348220480956355 -0.009320817041906525
6.94 0.007488601913012475 -0.027306065775979858 0.11046678193733515 -0.639345856229795 0.12714358738976947 -0.6330940857485547 0.03225848279402721 -0.09630378136878343
7.1875 0.1637460922922596 0.09428958024079946 0.6173422343959395 0.09870413664009414 0.627488221432586 0.10032224331418164 -0.09558972675664419 0.17034391335374963
7.435 -0.09590212310698124 -0.08655672925299486 -0.08460874519290067 0.6102065454387681 -0.06967057429321163 0.6439887923239658 -0.15055862655740526 -0.040789614563406636
7.6825 0.27277533071630017 -0.0023719392016219813 -0.5897809739900524 -0.04616681367359543 -0.6344322260819113 -0.06766379861786102 -0.1485877698029823 0.08570598039126538
7.93 -0.08756890080108584 0.07641977610470435 0.01476272418251286 -0.6134391348008663 0.01966181774758045 -0.6262758125332379 -0.16792211331642531 -0.12811615860708145
8.1775 0.1792984406794245 -0.07867117667115452 0.6091225774121208 0.00402527366376444 0.6422004384388235 0.004466982584330463 -0.015897480430886766 0.05105527790767957
8.425 -0.021318229542842022 0.06210448782893478 0.014183295931577647 0.6177623026149921 0.02173171621630529 0.6302670813352292 -0.16853766969396067 -0.026628805631900638
8.6725 0.17515071045602684 -0.07619763982893546 -0.5997962611728209 0.025181388459488297 -0.6345905368291533 0.0385493339726402 -0.05048504763835861 0.05023059711150894
8.92 0.00647720436617829 0.11645521643936316 -0.060631836600712724 -0.5980522419311737 -0.06550077324881141 -0.610277023528667 -0.22398860531148987 -0.03341355304433344
9.1675 0.07694130660495582 -0.10891927026539758 0.5952421280922412 -0.07884164423548597 0.6157181888490051 -0.09964143605430253 -0.0058303220767381495 -0.05851731627505976
9.415 0.10040300379583719 0.04588078392571834 0.10776449687721683 0.5950947164359256 0.11745619569844906 0.6101744889306372 -0.1308982634626616 0.03670321744228264
9.6625 0.09206201591356855 -2.143932578578815e-06 -0.592354731226039 0.12123883177715394 -0.6074342440351457 0.12850537688707112 -0.01615081114306662 0.013815396069881565
9.91 0.0033127505330588012 0.03245346310771656 -0.13898074250211223 -0.5850370612398466 -0.1426518547108184 -0.5693835948963749 -0.21201850735762987 0.12051084140909699
10.1575 0.12007386089427154 -0.10002241494592656 0.5670545211876317 -0.15325654391391244 0.5643040083898833 -0.1931292832499415 -0.16462541659846372 -0.09138547988975035
10.405 0.12285050018136538 0.10273954586299826 0.18607872004782838 0.5535753750509219 0.1936206780888837 0.57093923774371 -0.15404708332637035 -0.009105630414752198
10.6525 -0.029215118290384753 -0.006496181647810721 -0.5526070524862956 0.2052705574928518 -0.54364557705539 0.20999706523242248 -0.04731767975401058 -0.15122338920352132
10.9 0.1152002617393721 -0.0983398206621187 -0.21603224079243197 -0.5376968456301533 -0.23385432300760098 -0.5320510480523014 0.013787477290815859 0.1032028526650148
11.1475 0.1586400155546718 0.09980656952844481 0.5155340761115218 -0.23871333879935777 0.5330788214297582 -0.25295041560333176 -0.12703866525618612 0.03178206192128434
11.395 -0.07212547289435131 0.0023454361650494023 0.2595473812023032 0.5071857419837477 0.23784588867386125 0.5175072942689419 -0.13403885225273943 0.13007344983846192
11.6425 0.1604322382930887 -0.0917973343073692 -0.4884794033915202 0.2751288758489452 -0.47127701701564945 0.2699910547478379 -0.2727916740405083 -0.06760458475680899
11.89 0.08095279339565363 0.07668454958471231 -0.3012402848259919 -0.4820703030855195 -0.30745974401205645 -0.4828345805692538 -0.057844673917553914 -0.07362227489312995
12.1375 0.057083358361310704 0.01352384150635069 0.4790956343823418 -0.30718893592158336 0.4791902277050739 -0.2992725339123813 -0.12216012991158658 -0.07454999260192638
12.385 0.008834437017145149 -0.05929440996382518 0.3072366347347952 0.46832164813056115 0.30792101343594 0.45822053248159883 0.05312558104409574 0.02096852688161865
12.6325 0.217413100268993 0.0003979185172366002 -0.43504230833816715 0.31014843864719854 -0.4364700844137815 0.3270002875931581 -0.17203156884209522 0.10597215716638644
12.88 -0.060203130287737036 0.09947569487308629 -0.33604096200025557 -0.41660290808938405 -0.3425303962599788 -0.4395415716446808 -0.09968665249170693 0.00010871321597662634
13.1275 0.13376790186441442 -0.14050717939749588 0.400839989332763 -0.34600030762349826 0.4139612033590725 -0.33603833690305995 -0.22149294949147585 0.02788128910424918
13.375 0.06979732520675612 0.1137798774730652 0.37204827550499975 0.3883607554131289 0.3687628079365465 0.39294623211543606 -0.07128478661988025 -0.12033594662803714
13.6225 0.08604784842770569 -0.08118401516217884 -0.3885835373709261 0.3733977290013491 -0.39309299184883306 0.3755244187095708 -0.09636159407964247 0.06076289562365788
13.87 0.04440304025134932 0.09265665043405691 -0.3800919501333583 -0.37087511514212007 -0.3849879264309436 -0.37586921769371684 -0.08433378759878073 -0.052014452030480975
14.1175 0.08369424386112911 -0.1206004676597912 0.3550980698551279 -0.37917202840467207 0.3629905884618859 -0.3868076890669047 -0.12273541436989921 0.09632892856259208
14.365 0.1114531556133193 0.11301531614296415 0.39771493921059187 0.3278708614034315 0.4026305080299168 0.3367009347307646 -0.15976464058711423 -0.08966420495711588
14.6125 0.02359400569941693 -0.07855133429213038 -0.32354998573600885 0.4108733836421133 -0.32996167668176246 0.4153270279689793 -0.05047245383590364 0.03441184075713893
14.86 0.10167225448445594 0.06922563333999722 -0.42043827564176656 -0.31083358405483597 -0.4244683586008534 -0.31469545138593513 -0.12428464927172553 -0.040408479824572595
15.1075 0.051581877879221937 -0.1033256352023595 0.307397399325315 -0.41784124081873025 0.30859811152999833 -0.4235653464935465 -0.04307796465902041 0.09137672595605004
15.355 0.15250831675980317 0.11902023138202145 0.41846647565130973 0.27814806091123145 0.4268843560249578 0.2716235400219629 -0.22919833137702217 0.012283341791367527
15.6025 -0.06865875409926973 -0.06894158781335763 -0.2638781933131707 0.42961736244082743 -0.2649585978477423 0.45417988434643647 -0.10001010619617581 -0.030516751521755578
15.85 0.20603206396306536 -0.02734572271816835 -0.4375638222503915 -0.23655804595085556 -0.44694401802718636 -0.25609869058175844 -0.17656195023530274 -0.06689863829557895
16.0975 0.02527867115403689 0.07209741668912784 0.22495548060775286 -0.4626849117533736 0.23111390946067215 -0.45516642628267034 0.025748307851195355 -0.06288064672197273
16.345 0.052235570006319135 -0.016847326349714125 0.4691041264129527 0.2218827784575354 0.46864699156178496 0.21588918035384252 -0.09225814080222407 0.0889127111381649
16.5925 0.07539718394902649 -0.06522853508558443 -0.21397319490675282 0.4671298592396293 -0.21733991492340277 0.47616350495483895 -0.07677723337331674 0.04305308847361598
16.84 0.15766466092433223 0.06866949742040221 -0.4645445159831024 -0.18988717037611233 -0.4541699449924351 -0.192936706837279 -0.22587659425374035 0.08838140808596429
17.0875 -0.05124273898190926 0.016531904161349687 0.17125836753795742 -0.47449833738180447 0.1524234787664502 -0.4764526679422793 -0.17184524269616844 -0.11306802137002851
17.335 0.1351592884589911 -0.09740525104724533 0.4736455234982846 0.15094663464570365 0.49520842395158726 0.15538075131524146 -0.09960923963494377 -0.029358395926350523
17.5825 0.11977858804797342 0.0825615013369922 -0.12711864385058572 0.48382626979803967 -0.1431481763071031 0.4876585096652297 -0.0404223139093389 -0.09103389321274553
17.83 -0.010063476681330388 0.012300365158269835 -0.4927521675397287 -0.11464967270500911 -0.4864822796448247 -0.11999408499535337 -0.02081684116577331 0.1068826137994028
18.0775 0.10139062013271032 -0.08550309167879694 0.09766232131993895 -0.48789721790879004 0.09789689304443498 -0.4981194143727051 -0.16294399063388457 0.03295687413145884
18.325 0.12415772332197779 0.07096446011822535 0.48924440725662244 0.06999066700729115 0.49691504365173855 0.09461540841049668 -0.13356446658929735 0.05536915015424802
18.5725 0.010280058147363992 -0.010222482699768004 -0.05349493451685981 0.4959145289642839 -0.06127406513680058 0.48553709857116 -0.20748694381909732 -0.0639539020486766
18.82 0.09163314301794763 -0.012822221140585744 -0.4956033006046065 -0.03746651048277702 -0.5040879412718763 -0.037634815411562605 -0.03785574867652792 -0.046836107571535716
19.0675 0.0876802094092304 -0.02355645044034154 0.02332562625195892 -0.48996876779047455 0.028472174384358864 -0.5025177209060182 -0.12142962363504095 0.001681478425058079
19.315 0.0847139644960547 0.0653711945109458 0.4829154654081509 0.002267612859665702 0.4991974813742903 0.01148308290578104 -0.04221696068358009 0.014070205709030779
19.5625 0.019399041648675255 -0.0629310715473585 0.014692468134357279 0.47831016877575183 0.009873550610693766 0.48965536053083186 -0.17764914931619694 0.052248257851790235
19.81 0.14421221860000322 0.03181458107047032 -0.4713394798599216 0.03828037502567429 -0.4915236387144594 0.03502895471813311 -0.09645907010919587 -0.05892687061646429
20.0575 0.0143315196873327 -0.023481695824410398 -0.0514208175306711 -0.4747704992837331 -0.04816503333910432 -0.4867149313069128 -0.11974019886119266 0.027215561957971625
20.305 0.14236419689735358 0.036877627062710173 0.46463339507643436 -0.06260802351422802 0.4845102448715694 -0.06756358565180648 -0.0705872473758017 -0.042553092959057834
20.5525 -0.03214623063174505 -0.027641489969978037 0.07300070373176128 0.4592358710650914 0.07643301166961994 0.47116004144400714 -0.1137400649232645 0.09362568558929996
20.8 0.19605457334620682 -0.02761426840111272 -0.4393132229767052 0.08971054820500735 -0.4602835464217163 0.10595540341728422 -0.1721458413074152 -0.038535309631233194
21.0475 -0.007512368878199944 0.08133855005207452 -0.11614479376655651 -0.4388659879043356 -0.11685624212814587 -0.4644716037867441 -0.12126146798849853 0.007679574280915995
21.295 0.09515829659977626 -0.07094143131297115 0.4385200909022272 -0.12743436560044996 0.44741100222206687 -0.1276100849285846 -0.12610392139411736 -0.09916726181288985
21.5425 0.06269256552086216 0.01135726904963005 0.13715002914032934 0.44225867091171805 0.146551054674519 0.4394665156113897 0.004489329879896994 0.022522497969038643
21.79 0.14387515669818995 0.015773513467033592 -0.43408772054572325 0.1365505667757532 -0.4369935498428237 0.1622924898854935 -0.12076416215918671 0.04195724127884792
22.0375 -0.049325573222467715 0.03967818387037312 -0.14432965530559166 -0.4245303209574302 -0.15805369913354653 -0.4322964283096502 -0.09153239446057529 0.07999509490441756
22.285 0.16462120505009337 -0.12468782055268805 0.40328387377883984 -0.1526852525598137 0.4002318250551076 -0.17272786799490958 -0.2448880605376327 0.008554317292589125
22.5325 0.08555609599450334 0.1487371336923471 0.18399387250416843 0.3925615666885856 0.20596981765399244 0.40339674112398266 -0.10597532406334749 -0.08895817466099493
22.78 -0.00729606092829054 -0.08117117782842627 -0.39839886590891704 0.19932300403319872 -0.4073466783067836 0.20330330759543974 -0.11918374576874538 -0.046398022728186224
23.0275 0.13010644083737993 -0.0061934163422067735 -0.2124078036566437 -0.3988077304737723 -0.20869461864558544 -0.39153392422953026 0.012428777511155524 -0.037844963923694255
23.275 0.0983300849944899 0.01821487649233594 0.3989307315690034 -0.21860869406296793 0.37884643719853933 -0.22536346225519896 -0.10199066681228548 0.1137100963718456
23.5225 0.01606167450400005 0.04566763920478742 0.22600436667990886 0.3899073219752647 0.2389473113822438 0.3819293200069402 -0.12892086535215658 0.014631308525876265
23.77 0.08398476945662108 -0.09830242716420273 -0.3763362389107597 0.2334904484306499 -0.3671774122136745 0.23313799284332895 -0.1907030621189722 0.047878033064051785
24.0175 0.1371789104414594 0.07546128661703862 -0.2549076809516705 -0.3594600975779791 -0.25822824921560383 -0.34547251226453074 -0.14392420543131526 -0.10913163678522482
24.265 -0.0032168025610715073 -0.004040690729666246 0.3561756083180407 -0.2733630335480716 0.3534221063633236 -0.27514632001404926 -0.06198538757822633 0.004119402810585532
24.5125 0.10303479708082251 -0.039203366720591604 0.28438277180535354 0.3455350109397119 0.27732344546397425 0.34503863510977134 -0.08691359217177715 -0.0368699372265932
24.76 0.0949599358489534 0.02209732429354464 -0.3334963613029763 0.2981590464433558 -0.3324250378997857 0.28411109230437964 -0.0677975382720039 0.07934940795409952
25.0075 0.048167484872658546 0.01307850585694921 -0.31101779878586083 -0.3213017612243035 -0.3004949938383479 -0.3164324685322991 -0.18015067257186468 -0.008356726734161846
25.255 0.07955631769557799 -0.018879858479670743 0.3068858184482609 -0.3216039193754373 0.3119228363481463 -0.31175604518381395 -0.08637339952080884 0.00017366433125860924
25.5025 0.06608918948148058 0.003922195175421209 0.3334183614609534 0.293326321713063 0.32084757465404457 0.29785480783038304 -0.14670004868128136 -0.02788208790391555
25.75 0.10586439748427265 -0.008785490772831013 -0.2777211624603549 0.3398898553740332 -0.28967983570564854 0.332832986250339 -0.040124936817437035 0.0060723938516340946
25.9975 0.038949358662302626 0.04021093930402731 -0.3495701989023135 -0.26020646098886974 -0.3376821035513304 -0.27303499076495436 -0.16143048281483335 0.04374290295793345
26.245 0.0791078284312987 -0.05578613110234911 0.24341881632475748 -0.3546508136238259 0.25926796510500094 -0.3542015314013343 -0.10883979691910574 -0.022426965881785162
26.4925 0.09312261667080232 0.0314555558466546 0.3649902509830759 0.22583452991888797 0.3575116881475792 0.2501484390731601 -0.16301432001664362 -0.0064793391488068616
26.74 0.07973134729972521 -0.001850246735175618 -0.2171365506463169 0.3713957200981503 -0.2308652683884321 0.3658255447765197 -0.05849700662984241 -0.07864045586294158
26.9875 0.020493418956859993 0.02267611271079458 -0.37257730550091583 -0.20790301399473632 -0.37661990053748207 -0.21711736728964193 -0.0652991203655864 0.05348583199845601
27.235 0.12896333363384258 -0.08839163799309184 0.1941370485124655 -0.3627663916450692 0.20984840652329656 -0.38587091533385465 -0.09263547948678072 0.018483346792469928
27.4825 0.09032276157638995 0.12883080641501274 0.365458656864499 0.16834154346764177 0.376551662570964 0.1970387202809481 -0.15303154209281486 0.08770143068672037
27.73 -0.01824056303806707 -0.09121322489880594 -0.15471601991280584 0.371132089256166 -0.16443657841140305 0.3848390988248557 -0.19922083991289244 -0.056023082161168074
27.9775 0.17126501267858013 0.007388353937414689 -0.3779839796492174 -0.13600919411222495 -0.4038233797191563 -0.15716264392286722 -0.10062392409543514 -0.04286827894535106
28.225 0.041515435778331576 0.028461067411570375 0.13285911517378043 -0.39168299463391487 0.15077940414589094 -0.4013672820115286 -0.08618021770544698 -0.07414441455419522
28.4725 0.0509263715645341 0.019276015663163868 0.3915420157259621 0.13291387794466802 0.3986379040833315 0.13132760364507345 -0.0015622634622457102 0.04119190633761711
28.72 0.07228567982328465 -0.08922881141938949 -0.12855314061799394 0.3822868417894097 -0.11241087682171386 0.40666892769191737 -0.13907463265413714 0.0696422469596222
28.9675 0.1573994435425687 0.09240340884918702 -0.3745345216626547 -0.10543160228036784 -0.4102011852185812 -0.1085531298289394 -0.12759178616215258 0.04097253774982089
29.215 -0.05802340077524008 -0.021379222857532083 0.08946481911382027 -0.38146080183883313 0.08731576068506783 -0.3966725018890661 -0.2110111357462572 -0.01298580173129219
29.4625 0.17122824548595997 -0.05379452967845371 0.3846290926428642 0.07218545245676795 0.41046054499315804 0.06127704413711999 -0.08587180510490992 -0.08748401253026654
29.71 0.04512461814049501 0.06337628141791667 -0.05974699299520964 0.39969598383477656 -0.05709197990909319 0.4170432681572021 -0.08929428758208802 -0.0029786577711457467
