!Created with skrf (http://scikit-rf.org).
# GHz S RI R 50.0 
!freq ReS11 ImS11 ReS21 ImS21 ReS12 ImS12 ReS22 ImS22
1.0 0.358002953029826 -0.2562540683975635 0.7730862842998895 -0.03262578917264493 0.8505123862736174 -0.10498420599188742 -0.0915990962930523 -0.2630893093914931
1.495 0.13045424281664406 -0.092606112310283 -0.8308640741773865 -0.13097140510614427 -0.8284201683036587 -0.1314992789021956 0.16421514091301184 -0.08602824818676486
1.99 0.270301066750151 0.12753502171733436 0.7205554447787053 0.3014062273737734 0.7940484986645602 0.26969305254602954 -0.10366525855169746 -0.017620855241476264
2.485 0.3105165415892162 -0.07373907460249066 -0.6402239188187255 -0.3946463903989803 -0.6900382920665741 -0.35266051438627116 0.012634783248426693 -0.2470131113007527
2.98 0.02339381000154496 -0.07871847206720156 0.5746207014723136 0.537560312898519 0.5608688701681288 0.5389807269896926 0.12202577388516186 0.026355710536302465
3.475 0.03843186349658394 0.1391346965321473 -0.4543151004235452 -0.6118250917459166 -0.47810197311517827 -0.6029534034629669 -0.11666055910077032 -0.073103342368064
3.97 0.17741859461323065 -0.02070670798926043 0.31491310199664807 0.6781645720435038 0.331506403190186 0.6414807455564873 0.10635682469158546 -0.17024333213436835
4.465 -0.035975248605842385 -0.18487261376024955 -0.16365173542005015 -0.703375050173549 -0.1420093903327866 -0.7210182010203164 0.04156478355726022 0.09332655196519175
4.96 -0.1150101617818856 0.0007138937248383125 0.06532600828299487 0.717820788467378 0.06063179829826369 0.719928495365197 -0.08615268826009304 -0.11542224937126652
5.455 0.112768870576919 -0.06312479042662394 0.114977334237134 -0.7077273285769388 0.1111100841096473 -0.6823561097990992 0.14548190850684303 -0.052533237088366665
5.95 0.05011138251860391 -0.2797374050908129 -0.24381938899623043 0.6094776402001956 -0.2813744446705386 0.6470356762593659 -0.04645634845813841 0.10405549212583215
6.445 -0.09498427830232017 -0.15347246582727128 0.32488172965125495 -0.5867754799676109 0.3438224239485329 -0.6045772081223819 -0.03012980378022607 -0.12724985034465683
6.94 0.13967311372596516 -0.06955973607299541 -0.47400604280960107 0.48622689740417724 -0.47655405660908945 0.477803333365134 0.11785860445325744 0.06053636537876379
7.435 0.19825546366418278 -0.24950300556943614 0.5159740536032413 -0.33864918196349103 0.5782811598736813 -0.37887404615165854 -0.110205494492993 0.06338677980368095
7.93 0.015062867738670346 -0.1986930149937342 -0.5795148487972879 0.27631029412087066 -0.6081028809314442 0.2959054199817641 0.030205819223938203 -0.10114375213470743
8.425 0.14959680923950056 0.002399414209747895 0.6450524488038427 -0.12499019748070585 0.6500903882843883 -0.12158074143569261 0.04339665070900676 0.13056249247204657
8.92 0.2688397298419687 -0.11239791163824515 -0.6097209146307435 -0.005449543756872801 -0.6758175287311357 0.018486263380665297 -0.128391815233774 -0.00019427809902595363
9.415 0.07539417304756457 -0.15228764500643166 0.6248857968555696 0.10844144129339917 0.6455265302409878 0.08868311968598339 0.07594304283155721 -0.04371040282336224
9.91 0.05944832472614111 0.07496538537190924 -0.5988533520481932 -0.23669519070683873 -0.5927834866253382 -0.24893625029479075 -0.04082072514523403 0.14811583195622002
10.405 0.20919317771791981 0.023489394293501307 0.5231834708721975 0.330764824693355 0.5606326922309086 0.3262915385875589 -0.09629472175629614 -0.05228509368654157
10.9 0.05255749348087503 -0.11566849369688566 -0.44898712288266646 -0.4295077026308276 -0.4621795415267358 -0.4162121142654123 0.08781953948138024 0.039926007688051414
11.395 -0.0786300642965196 0.05013848467714115 0.36855981830574847 0.4902415026835159 0.3457240786323221 0.511206960851522 -0.10716081227363891 0.12341486031830154
11.89 0.07998221489871574 0.07167884212935227 -0.27239905306872236 -0.5505375465447623 -0.28261068151305946 -0.5514320092215659 -0.037222068910141834 -0.06401947086716088
12.385 0.03498823122271443 -0.13755759826248812 0.12057908837494971 0.581461167838008 0.1324003163470351 0.5731027834833798 0.049248193911631204 0.12224508870076284
12.88 -0.1358783180380915 -0.0678334286639452 -0.03351332170681189 -0.5705952991064711 -0.0060180623020691 -0.5961763088967461 -0.14575308804072606 0.0783496013702203
13.375 -0.0008077794613875863 0.028884242029165764 -0.07587214108949412 0.5882629106779836 -0.07669014572435942 0.5854216161423935 0.015381167049659673 -0.030712964779494287
13.87 0.09170992660613694 -0.16247881117057558 0.22510501746131842 -0.518142300777696 0.21763975599387714 -0.5191136683853269 -0.02803372077840327 0.1682234032025059
14.365 -0.06969479345626252 -0.17674992136981646 -0.2889803234138097 0.45969422129536275 -0.318860219297852 0.4851544962068158 -0.15124467040167552 0.027018680617165322
14.86 0.0011196938305319901 -0.01777795434342406 0.38990437957437346 -0.4205737503211829 0.3858246743804735 -0.4182503447875999 0.03306109081920971 0.03476115848473375
15.355 0.17444992837996434 -0.11262679629837788 -0.4688715911042446 0.28913001795730436 -0.4648115763403471 0.29315283923689117 -0.11506667112933958 0.1685197610357288
15.85 0.045842250846859195 -0.1945676408960022 0.49772301861460916 -0.20731633729881718 0.5279561056019408 -0.2229662081133335 -0.12400795476659211 -0.0134963452897079
16.345 0.013599881592342771 -0.007845139242096405 -0.5531117912053412 0.11953595210327633 -0.543105768125483 0.11857340691497108 0.011474191143968072 0.0995178977905697
16.84 0.18755292793046072 0.0040286796798324745 0.5478947219410478 0.007424334500814256 0.5477179576637167 0.017632136411304296 -0.17562584354338906 0.12114540869388073
17.335 0.10965521363292474 -0.12410805936787993 -0.5359020362934599 -0.10106378732629506 -0.5606082221244413 -0.10013120109687011 -0.07989544644980072 -0.02538365884762322
17.83 -0.027895388026659206 0.017701849157751377 0.5168637819395622 0.1993519484530781 0.5058926417855444 0.20593666462994392 -0.04019514620224204 0.14372130583144904
18.325 0.10355442199780365 0.10397786148266837 -0.46065812498345005 -0.277687924941833 -0.44878349216907865 -0.3095792624518215 -0.19808539559918445 0.05979101520526462
18.82 0.09790771267062187 -0.050891195272176115 0.3939760548653399 0.373008381214559 0.4087825919593203 0.37788091664624496 -0.03205993163423226 0.0009628719173931247
19.315 -0.08364054109865547 -0.015991192699503887 -0.301482256282645 -0.42794217848708527 -0.29735215843793383 -0.43703925045091313 -0.1076455786899551 0.15780237993253338
19.81 -0.011156974932427694 0.11629911880891665 0.23391470280697543 0.46097672266566614 0.21179069941475417 0.49397808733136456 -0.17976683165672516 0.0056916336439277685
20.305 0.07085181028412092 -0.032634760161520365 -0.11311626519548544 -0.5131022338722713 -0.13124837748091026 -0.5195730148452838 -0.019256053183629527 0.05480011349472076
20.8 -0.08079792955909881 -0.10252223023909149 0.0009498824364285706 0.4936488068769447 0.003300676809239393 0.506342425601259 -0.17202004980773275 0.13769525297979782
21.295 -0.07498919943495046 0.044523378241785004 0.0704991922623477 -0.49416030119848414 0.08791407635213597 -0.5174177281904679 -0.138123044878105 -0.020518968444165578
21.79 0.0829637460582816 -0.03585794874399308 -0.19775889265731986 0.47178993594493007 -0.17352582388925622 0.47654012482711666 -0.04606758225150174 0.10883727603056999
22.285 0.00432157008170397 -0.16202537180122223 0.28036953064240433 -0.3934344547125142 0.27117851517239455 -0.40308344279975056 -0.21566614401703033 0.08814627376979572
22.78 -0.05904853674172933 -0.02690890214173884 -0.3421064729715851 0.35643667336140206 -0.34982239293582357 0.36844084587407205 -0.10057605753032912 -0.016928832241437028
23.275 0.11465600388480225 0.0020488655764021443 0.4241249349200164 -0.27243939282288526 0.39749639261657205 -0.2766773643765409 -0.1041243712618002 0.13736897512552898
23.77 0.10409707547074969 -0.13169418106060293 -0.4539118590740839 0.17400485647022718 -0.4454370313499385 0.1760487063247316 -0.22679274845904862 0.02661878116685397
24.265 -0.019661737106751582 -0.040645262800322456 0.4873377396676928 -0.10051918213652591 0.4898025214902727 -0.10397617494272328 -0.0746912314354815 0.010543848087187778
24.76 0.09870774337588191 0.07913090952486342 -0.4938315589193363 0.005369947830859455 -0.4691361876299987 -0.0011883925363006726 -0.17112974525004196 0.12844987045367043
25.255 0.1456037222172142 -0.03751394473403505 0.48013236497144346 0.08737115470967576 0.47004865426168846 0.1056353283608103 -0.20342362228045308 -0.026332993602655102
25.75 -0.010422208747026483 -0.025412644079992244 -0.45520411677930606 -0.18173751824454693 -0.455233530959078 -0.1855386396474505 -0.07133590615198697 0.04930319324314409
26.245 0.023509625398387017 0.1297500618439065 0.40148083641342014 0.2436837666535096 0.3831787594992161 0.26428188927115415 -0.21574691536541787 0.08562113721120333
26.74 0.12100467189955418 0.04525754538807277 -0.35325191688920116 -0.31926132899063003 -0.3366914316702487 -0.34876373876576333 -0.15492491279478826 -0.05075557745061076
27.235 -0.019026003882966595 -0.03823311740786907 0.26168952169237647 0.39108957714548714 0.2727153527856567 0.4021754274925529 -0.09649269758880874 0.0850858220720377
27.73 -0.060957794492975 0.09543270383605965 -0.18625836408267935 -0.4080103169624322 -0.17387591373649422 -0.4305983361196861 -0.23290743859185187 0.030600338040956018
28.225 0.06924081302282967 0.0674624798954447 0.10730507225083691 0.4487587316816338 0.09562805792202622 0.47479010290520235 -0.10841613309050316 -0.039456969385880884
28.72 0.00501566844582018 -0.08166248928193554 0.015711313364131292 -0.45445778064026027 -0.009888056379574987 -0.4671592232112971 -0.142446908458883 0.09999694887069258
29.215 -0.08757391729965316 0.0073959612296020435 -0.08427596102467025 0.4307807620167398 -0.08809928743478493 0.4487997372512526 -0.22138784686525056 -0.022278386294354566
29.71 0.04566687074873581 0.05211931514094535 0.16954305907231962 -0.42184611648648734 0.16969497714299026 -0.44081418094237523 -0.08301314400324454 -0.00208024542697664
30.205 0.07540358757901551 -0.09449176435797425 -0.26889786532207527 0.36184119222397654 -0.23643221308852333 0.3772610671587598 -0.19368246611098738 0.08419225552867254
30.7 -0.040995358292696085 -0.05904187987949461 0.3204581470414786 -0.3107448951248304 0.31100735442232874 -0.31740934005719584 -0.18789201735323766 -0.05891018753415996
31.195 0.05111053581671882 0.05902299095642569 -0.3794184973166514 0.2538416454424019 -0.3693811550967727 0.2626296670868864 -0.09250226472119912 0.03780094034850172
31.69 0.1413566729311497 -0.03847451371327231 0.4174105976222478 -0.16539973072695036 0.3914436713046424 -0.17000815401566327 -0.22906085710983126 0.03871064757076699
32.185 0.0258300789632307 -0.06295787606049204 -0.44277370980006414 0.08861409977697923 -0.4311127904056635 0.08281328850237399 -0.14251288520192118 -0.07118224174691981
32.68 0.03653800205068274 0.08630862919000779 0.44601185122088255 -0.004560966963674086 0.4397802039008288 -0.004964271964954959 -0.12521074697561346 0.06072927004320044
33.175 0.15677164110044473 0.051764660603135185 -0.4287348757323808 -0.07002891896920542 -0.4086519992768559 -0.08241107322337686 -0.23094600404208473 -0.019939438866401794
33.67 0.06140242953248432 -0.02948616036570056 0.4080128749203238 0.16121013614008303 0.3999521277589648 0.1758364004911401 -0.10298782682449795 -0.05775331604145132
34.165 -0.010620798844892134 0.09301014075932088 -0.35458186003076975 -0.23202277539400695 -0.3564245322868394 -0.24003046005675976 -0.16337343948366945 0.05735410803362753
34.66 0.10567991859399876 0.1127204658822623 0.3073220064593224 0.2796785255218684 0.290335708635412 0.3018622457517144 -0.2026759367039215 -0.06856934015260759
35.155 0.06542992677376286 -0.012803123371750541 -0.23774210556203784 -0.35437788468398235 -0.23400548835556292 -0.37175186658478376 -0.08191098812375247 -0.022792441128018853
35.65 -0.05463242969458763 0.04170595551670295 0.1470186438122152 0.3802958767176732 0.16000426373431953 0.3934223511030606 -0.19567372764799967 0.03111782938054567
36.145 0.039578585402562656 0.11296145943361757 -0.08799224066952246 -0.39635700844428207 -0.07407979884292872 -0.41637926043268253 -0.15655752602853976 -0.09240031282400775
36.64 0.07696925669434339 -0.019846717452286618 -0.011143620874450417 0.4200340165691424 -0.007220771567516529 0.4394516415590409 -0.08882852160888634 0.01611310456933414
37.135 -0.04320848140199999 -0.035658377437747996 0.0965923177198784 -0.3955534575550646 0.08025317991989914 -0.4110337562074635 -0.20864226097403446 -0.008686881228320646
37.63 0.008334495621608146 0.07324971914363342 -0.1585131483587762 0.38015603092512507 -0.1669595593048091 0.3903684284051478 -0.10874279595586823 -0.08526507309848434
38.125 0.11511070083091514 -0.010911186301987999 0.24213913044459182 -0.3406423055054753 0.2347196312691111 -0.3567608506588599 -0.12033753959101011 0.03820676574959267
38.62 0.027053148876504427 -0.07437385472453806 -0.3029874703056157 0.2832981407901195 -0.28297594906405743 0.2932142549378559 -0.20082244143350372 -0.053617354503521834
39.115 0.01726804511152895 0.047851596654444405 0.34607173013990755 -0.22775056424651202 0.3515402509412219 -0.23224046524278985 -0.07777198822822196 -0.056987813113258484
39.61 0.14737737470723336 0.03826711410974522 -0.3761934812757871 0.15592812336158177 -0.3750657106255936 0.16448808375231425 -0.15791703608861843 0.03118405298796744
40.105 0.1021650684181823 -0.05388465816191001 0.39841987569204473 -0.08454664023216225 0.3876263915357359 -0.08350752554679709 -0.16730002462524607 -0.08914294418229238
40.6 0.026123370519427477 0.04674404445430142 -0.4063033091914565 0.000553227343634029 -0.40709932345463157 -0.0006830260248509712 -0.06994042440113543 -0.021181431328664707
41.095 0.13094533918033197 0.1003652375069271 0.38107765969693724 0.06722532606903309 0.3871845556420575 0.06958338669213157 -0.18528768467189252 0.0006289712708146793
41.59 0.13115140248670643 -0.0032036911157448207 -0.3676755640224996 -0.14163531303518273 -0.35663405154241157 -0.1484621950785089 -0.11876093803516594 -0.10087695271586261
42.085 0.010218645208695433 0.03417758944622632 0.32050695090568804 0.2222063462954162 0.3262163365869994 0.22724578500420015 -0.08178745803264995 0.008591285370203856
42.58 0.06896713995334534 0.1281547900904814 -0.26491128082553334 -0.263610457250285 -0.272775868169843 -0.2708436619506638 -0.1848674571463966 -0.04110134639755137
43.075 0.12237519435243198 0.03340208047762639 0.21497205097277813 0.3190254317897663 0.20449575911931145 0.3259555034106939 -0.0728338628037213 -0.08401966076535876
43.57 0.0011763319578463728 -0.003896052355845826 -0.1290990491537501 -0.36179972811387123 -0.14062967365396395 -0.36883274079976847 -0.11029547098901651 0.02207232561848756
44.065 0.008093552792495256 0.09691714345521021 0.06497943878507878 0.368624340284949 0.06973986057616711 0.3745306283594534 -0.16031234911944348 -0.07499162221614925
44.56 0.10657078603114516 0.040184217054835304 0.006669237574524535 -0.38661650942933456 0.017097338574027447 -0.38906787809201543 -0.04680265833467454 -0.04635496168797727
45.055 0.03365942558646145 -0.04980757116728878 -0.09389750760281061 0.373928315495943 -0.08748397994350032 0.38270925686914553 -0.14121113301351026 0.014314635364280952
45.55 -0.00494206951348349 0.0393353969340027 0.15547157022870473 -0.3473323688297082 0.14961954349800405 -0.35100564051011546 -0.12021300689053255 -0.09184597041290724
46.045 0.11434652786520563 0.04447557586919473 -0.21767630449590705 0.31396532407560424 -0.2305031562398112 0.317283681649728 -0.050624519100978586 -0.004911261641421064
46.54 0.1032697658238282 -0.061345142776950926 0.27465760621730095 -0.2643077311152081 0.2774634963561547 -0.2730438699671125 -0.158537927386254 -0.012320061256596
47.035 0.024048318761266688 -0.0009222413680499419 -0.3198766646618211 0.21128496623923837 -0.3176484193711667 0.20918122866225855 -0.0800197094751444 -0.08670682222846013
47.53 0.1186705541244303 0.06784270055617667 0.3430070447665446 -0.1401520327495912 0.36213354267890285 -0.14032720415369773 -0.07571055946320035 0.022032974827782534
48.025 0.15793286308002438 -0.023233872795950967 -0.357087236162261 0.07548579792480284 -0.36928611582782844 0.07828722990600871 -0.15570008107500685 -0.047716777204122145
48.52 0.05803972244741315 -0.008224567992477106 0.3713630097980779 -0.00027979913719769 0.37397773019668057 0.002729856585261422 -0.04731239044225564 -0.05948775386376205
49.015 0.09159655101760408 0.09687008724403658 -0.3478442793427526 -0.07513200350717424 -0.37052733508893293 -0.07936684451065147 -0.10651817782207963 0.02583875449568864
49.51 0.163848524549803 0.035430346649411824 0.3265084958974464 0.13207909095576098 0.33949171441716863 0.13238201800259847 -0.12913906036207698 -0.07539660325320564
50.005 0.06641692118727688 -0.006550300327096532 -0.2975649318579925 -0.2103375345379693 -0.3004544037590948 -0.20839668274922254 -0.03503688201269158 -0.022298838070144798
50.5 0.03922610756155718 0.09407428273212673 0.2372852830496494 0.25628937442515987 0.2543102720517188 0.26032049308489985 -0.13167863173485572 0.010149784282819273
50.995 0.12992247650644734 0.07072947722728025 -0.1898487491680115 -0.2934134071292316 -0.1978732359877798 -0.2940136205265052 -0.08721813829952157 -0.08036159375388185
51.49 0.07103600560247883 -0.02037056440325882 0.12148468814266121 0.3403952605236792 0.12202454837558194 0.3357373578831447 -0.04331649976773237 0.015508709318275398
51.985 0.0028522521891663865 0.045488382949114774 -0.050067984539272886 -0.3523030581285836 -0.06372505051594089 -0.35266076492270176 -0.13982147264993508 -0.016016548010575418
52.48 0.09633984096117294 0.06895246598436876 -0.010124515524748502 0.35522980090494743 -0.009121429117555433 0.3507834636552413 -0.05027748335343345 -0.06167598638197466
52.975 0.09952593635357675 -0.03834135770653793 0.0833191624271709 -0.35071760257442547 0.09108426774338171 -0.3437717399669111 -0.07209548602093466 0.038910450235407
53.47 0.014788719032686692 -0.015118621064453502 -0.14703736765723432 0.32571573705541207 -0.14582719920283638 0.325684983643697 -0.12682919820561764 -0.040552695765660896
53.965 0.08525357899786758 0.05260505467815262 0.20251425783069293 -0.2932994249222104 0.2083134886526613 -0.28395451845403374 -0.0310432615732312 -0.024899998068123673
54.46 0.14575050861526478 -0.030498345256826275 -0.24919464439954458 0.24093009235108298 -0.26920053062412963 0.23780907307191726 -0.10761277408517432 0.04027706258290049
54.955 0.06298645726302143 -0.04874455973894296 0.2917450466510975 -0.19293346755141713 0.300791497243732 -0.19080089747824364 -0.10356166486058481 -0.056493987895965575
55.45 0.08378691225119075 0.04918316015779356 -0.32188071579008937 0.1259399288498764 -0.33166207715525436 0.1197393936550941 -0.036057620267899444 0.015016767026123016
55.945 0.1707654492730064 0.013050703669320433 0.32477055351582723 -0.06018908520062382 0.35292788261423996 -0.05649160724263658 -0.1276974781457446 0.018814399454193186
56.44 0.10472837147714374 -0.04179048711675715 -0.3367155285765307 -0.0025362967541389973 -0.3528626456365535 -0.0032228461572868156 -0.06928826608780181 -0.05217601179872184
56.935 0.0656584720955941 0.05309871794964851 0.3271396222251527 0.07968001479269309 0.3398307644531374 0.0815022567824376 -0.05704762741575952 0.0419306103975556
57.43 0.15146801826932396 0.062405540936407274 -0.2943512530769199 -0.13288049233719176 -0.32142469745772245 -0.1386033967300741 -0.13082654251102607 -0.009816970503224198
57.925 0.11697266188765212 -0.018979116663650663 0.27049993218234714 0.19399319198055523 0.28539250577203534 0.1931332442752667 -0.0427545865089114 -0.030059876313293137
58.42 0.035896755504206006 0.035558903876312976 -0.22086599092131934 -0.2511391334338051 -0.23267074346185665 -0.2502740837765578 -0.0864542542198644 0.05181779541865864
