!Created with skrf (http://scikit-rf.org).
# GHz S RI R 50.0 
!freq ReS11 ImS11 ReS21 ImS21 ReS12 ImS12 ReS22 ImS22
1.0 0.3080603225147598 -0.3022646208247225 0.7646805536694513 -0.10947450006214278 0.8226660085944498 -0.19431133039835816 -0.13299597013329606 -0.26847616746829933
1.0545 0.11389335707013855 0.23592447144383058 -0.6770566408569866 -0.4931307571876591 -0.6928501507313527 -0.5025198835738843 0.04059711380466143 0.2314295694174823
1.109 0.08988879839926066 0.28000821640364193 0.2518335798604198 0.7828640159948735 0.2406748443404678 0.8544571505058314 -0.06861726060282836 0.04090618327863686
1.1635 -0.16417725957520696 -0.2765923911025113 0.4240713052563503 -0.6799885066252757 0.3492480156596529 -0.71254842716469 -0.403837681928889 0.032909282953966265
1.218 0.07255944298972386 -0.10425785974372244 -0.8079751147648035 0.2851093828725767 -0.8173724113355307 0.29341017593211277 0.040524953548945856 -0.13068821062806477
1.2725 0.4317319382902141 0.02853927990748873 0.6989789122972729 0.28127156393440633 0.8207234566984437 0.27202210590096665 -0.0430889829049871 -0.15011413984188346
1.327 -0.07867906411757555 0.12977357349369698 -0.32761197033011263 -0.7760542089273504 -0.33459606538589837 -0.741990708052184 -0.06983835657071802 0.30582015130917706
1.3815 -0.1492273551200035 0.1700237328326545 -0.19737164124084122 0.7961024554350097 -0.23970688565223944 0.8212637611942949 -0.18560132619355646 -0.06013713351798912
1.436 0.17758870039414118 -0.30596637652130476 0.6940264755037209 -0.3509534814355361 0.6602522548549717 -0.46154863520910483 -0.3350012200991652 -0.07457296061132711
1.4905 0.1372912703219337 -0.07641002229722935 -0.8218296967009833 -0.16170779480456723 -0.8207291788762954 -0.15980725970273052 0.16499502166263985 -0.06549471000415923
1.545 0.23614712938558396 0.30222385101462 0.4654306499151815 0.5990920854172952 0.5334754770105201 0.6741277516853112 -0.08245876749066863 -0.00038447725573771777
1.5995 -0.07636469630482066 -0.055531711287887205 0.12188883925641533 -0.8248887412161635 0.06283148489228135 -0.7905763412258964 -0.19290262080633466 0.27239198546857174
1.654 -0.1827138502066238 -0.0912834007352211 -0.5842112530315936 0.5582732477688058 -0.5964897639686546 0.5559134943312873 -0.18013654143716512 -0.20036525469572528
1.7085 0.3509024996676286 -0.061987718208251594 0.7649498966803088 0.04043492079158639 0.8264554760987612 -0.05521944402498823 -0.1971772713047067 -0.09664187203595766
1.763 0.17230119451184736 -0.015985623966010283 -0.6129576140089814 -0.5442232035350167 -0.612657895823763 -0.5322980619842037 0.19045620484553577 0.06563535696741436
1.8175 -0.09196618294663556 0.2819075923003801 0.0865201112807308 0.7678382615684156 0.07790814180213634 0.8184661835998833 -0.22044715501296952 0.052523117285754
1.872 0.05882960253501963 -0.11696641310981964 0.5165449149454049 -0.6358001398553561 0.44295909241153514 -0.6613518382923055 -0.25338693950559416 0.15584622659939637
1.9265 0.01253254332564274 -0.250878674936205 -0.769375408096417 0.15997735686897033 -0.7649915364924121 0.18237050027925447 -0.07709146869443445 -0.27633209103265044
1.981 0.24493529214359466 0.18283140259713723 0.6483548129292652 0.4158488763238753 0.7278997304032044 0.4100484182831455 -0.08703191366866472 0.004545695333710101
2.0355 0.16187000173284458 0.059218413329367184 -0.24856659356389532 -0.7675078208656341 -0.263022802635946 -0.7567772772541813 0.10493486994411218 0.1683381071593858
2.09 -0.22635789795215755 -0.003656096985218834 -0.3399522971381884 0.6997688123228576 -0.3322924169320277 0.6986800783462733 -0.3314405916527682 -0.016901401683260056
2.1445 0.14431599796331504 -0.04005454190700149 0.7524836566873684 -0.2869506537157935 0.7313609797615133 -0.3470698769666557 -0.20393412940156122 0.02487519990726278
2.199 0.23459112513863922 -0.17825964843258651 -0.722892776201147 -0.2515920532539276 -0.7498852886352573 -0.21347434786225689 0.04448586275913311 -0.2483300133445011
2.2535 0.003689589146940567 0.2061691307425364 0.35444171620486176 0.6994073589823031 0.36903343851706855 0.7157149713831384 -0.10718323141649298 0.14748157194892123
2.308 0.09395848117495434 0.11058570037182834 0.17488789087085993 -0.7790405851691413 0.15672584195037673 -0.785655223727311 -0.03391261901938923 0.17089508548699148
2.3625 -0.054434953023995994 -0.23330202309095974 -0.6494860935170896 0.40801152127845264 -0.6025336263348178 0.43043897662159897 -0.3460981425567331 -0.1338460381828382
2.417 0.10798421659358044 0.043197760044294264 0.7877836203804732 0.12650345068097743 0.8075500119920063 0.09958059511414903 -0.06661347489464019 -0.02132034150451273
2.4715 0.2943252546167646 0.028625621134654753 -0.4908229377270174 -0.5739112868478362 -0.5451190559814679 -0.5662974797570639 0.1039576169190741 -0.1318279227755676
2.526 -0.10807776991657199 0.01900523683356169 -0.059314962396334624 0.784999283522007 -0.05460871153004418 0.7562519892807166 -0.22191079944460754 0.20802995918262446
2.5805 0.0010653260061998884 0.09369350804445024 0.5457596426027307 -0.5734785308391268 0.5415090992464029 -0.5877564491926351 -0.12888083682542095 0.06255991054925164
2.635 0.1936261779870179 -0.1959012546229014 -0.7527895362370732 0.019424730370329588 -0.7294988651567297 0.08923004628846444 -0.26983531817776396 -0.22039830314363873
2.6895 0.02939797835545468 0.024679890169809836 0.6116807054755089 0.5054951359153408 0.6103664867393387 0.5071775113116807 0.04869089680950172 0.05994475213555855
2.744 0.16581135643629322 0.18196954347669472 -0.13311758374765936 -0.7461929828471026 -0.16792757077536632 -0.7750146209359834 0.047440254212192404 -0.0035008097770039444
2.7985 0.004779776418514713 -0.13414675187306957 -0.4491409613730492 0.6353780987652832 -0.39834162675041057 0.603669417474287 -0.32764469666967 0.15972713323891446
2.853 -0.049942030806047207 0.006093857917840621 0.7564490605013358 -0.2049145283325164 0.7589159942375866 -0.21049095118125075 -0.10343383894488971 -0.07834374794650491
2.9075 0.27045522405972167 0.008014334051541882 -0.6588709144093892 -0.35435755078087555 -0.692452819561375 -0.2916024803600466 -0.1464872583370941 -0.22000850319534931
2.962 0.03507102899004549 -0.058389634664992564 0.26354046060792913 0.7365786366132822 0.2442335522910708 0.7174793379256239 0.049322522567444106 0.19071472061005074
3.0165 -0.017867626248124786 0.1588537284483913 0.27384521190997657 -0.7146857579622256 0.2735768833798969 -0.7364960248800273 -0.09251147301664067 0.031341958301994925
3.071 0.16528089410649427 -0.09029534473081244 -0.6928522210137417 0.3191212834489718 -0.6294714401472922 0.33563986696167064 -0.36017986056115114 0.05082949509716779
3.1255 -0.011980370247893989 -0.09402267459907773 0.7425784412174761 0.21536679756577934 0.735720189061343 0.21072893743678725 0.01700301523286834 -0.14046661918422723
3.18 0.1412913276894057 0.15098045784524447 -0.39790695264125764 -0.6398423513356482 -0.4444116890741256 -0.6308458592430762 -0.06024890884743748 -0.11479023250817222
3.2345 0.12934939046966187 -0.07789951480183124 -0.14449521443533472 0.7517391073922484 -0.14083602126388858 0.7152718803979484 -0.047399587201617625 0.2650131436128231
3.289 -0.0830731108857643 0.005727524501724953 0.6063323089584223 -0.46580625599824305 0.6015590404223506 -0.4615913800153679 -0.2005883666735039 -0.055870374109989525
3.3435 0.17828973298030054 0.061953820893944404 -0.7514915840408842 -0.06319118563401505 -0.7291501134113784 -0.018013664022006128 -0.2987933460832765 -0.052370757735469536
3.398 0.09165436102243671 -0.12539074728141125 0.5142373281760463 0.5555930178341111 0.5100008015326879 0.5407871918710003 0.13137816889626897 -0.08532814605803433
3.4525 -0.022867247016844373 0.09894152253110775 -0.017282381998642956 -0.7591794797944896 -0.02242679112992278 -0.7674533461859733 -0.09543841952427104 0.021410280170971758
3.507 0.1937410864204554 0.015338017006761547 -0.49185687235637016 0.5647169140093173 -0.46573335644430075 0.5470262094621943 -0.164183892298529 0.2378092343397957
3.5615 0.0029691542689427863 -0.1069818047895242 0.7525824401068029 -0.0832340612498951 0.7221389752450328 -0.08592877641257905 -0.1960677691859485 -0.18160585474362043
3.616 0.03985899511883484 0.12603696543923953 -0.6191857725230454 -0.4297281461601263 -0.6292788336033063 -0.40907218395338246 -0.16850391361943506 -0.07360991492708785
3.6705 0.18041293040743508 -0.06536011919244757 0.15634654527289837 0.726807244631859 0.16688674500619644 0.7125558416284142 0.1561425815296652 0.035278276502290436
3.725 -0.030734571197032285 -0.05657747986641048 0.3741330543311882 -0.6578821024753442 0.3811703309588698 -0.6305619649574352 -0.2200484432931865 0.06869844276622307
3.7795 0.13196723293790077 0.13128734525931435 -0.7002180607024244 0.23820236080540327 -0.6828963834911783 0.24469001221925202 -0.22355840459632575 0.12798456136682848
3.834 0.11694596716178994 -0.08762485771268876 0.681778447158003 0.3068419615167628 0.6540838162334194 0.27525626485059623 -0.10202561425230508 -0.25113891054140874
3.8885 -0.07504965223979383 0.010366966466146493 -0.30959775088737057 -0.6814309118298005 -0.301744432484624 -0.6899150556544278 -0.07034675856936881 0.021078579692471077
3.943 0.1888849763655913 0.038073366358454284 -0.2314606747287373 0.6995820138937912 -0.21483842177841936 0.6974135457299462 0.07687499041098889 0.13272912670301698
3.9975 0.10395154860384377 -0.10817842092937659 0.6426220770779355 -0.3696733084565599 0.6156010865771915 -0.3289515054936907 -0.3195364196830696 0.0036337641548375593
4.052 -0.018024843636767658 0.13632240822279648 -0.7210383436570723 -0.15271571577453624 -0.7232514187037585 -0.1482737742344147 -0.17485696467659356 0.005095287131921734
4.1065 0.14109824574612953 -0.00044009789624087093 0.4315903326344966 0.6027157435723006 0.43261649779384653 0.5625967549589134 0.010899160331667131 -0.22357399381607995
4.161 -0.004088913069540624 -0.15037939077538545 0.08495182379580868 -0.7274959743272379 0.11941591121343137 -0.7185143580239317 -0.09088056858369804 0.1493206368636183
4.2155 0.11737064829708187 0.10745026007864292 -0.5531865174615117 0.48316219205894484 -0.5455888777940189 0.4886156647943476 -0.0540050609590932 0.1327675226734395
4.27 0.19370056781437517 0.00043204043562440153 0.7281713570913494 -0.0014002545997036221 0.6782486628598028 0.011820388209288615 -0.3294821088965612 -0.10488228982343323
4.3245 -0.10649105109412513 -0.005447073594509844 -0.5311061638140662 -0.5022692395789138 -0.5314175217833136 -0.5142532171047093 -0.04748359060334538 -0.032946246261603016
4.379 0.08556180830043217 0.04049105887798372 0.06840157606658444 0.7365362880154911 0.08598330111534887 0.7164739662802556 0.06369599912726094 -0.11187070702367194
4.4335 0.18286969245684656 -0.15308083698095373 0.42933093214048307 -0.5643688287531163 0.45067366788557334 -0.5263104697925065 -0.1969903722552515 0.20055539749090406
4.488 0.023656831581651536 0.0977723210835481 -0.7210754958151703 0.1306099078187467 -0.719510372763937 0.12892294851587657 -0.13721592268887942 0.02978608253635157
4.5425 0.12112870413168227 0.12995198180057174 0.6274453683369492 0.35754460398640137 0.5898523601088176 0.34055887920323924 -0.25421776112550915 -0.18331002781958325
4.597 -0.02425507494753167 -0.16329885627333435 -0.18506180523871682 -0.690678693233939 -0.16954963982757174 -0.7034316735700084 0.0524479216721575 0.04511162415938175
4.6515 0.04355645956261271 -0.0013720443544773717 -0.31458298019390524 0.6647049497401467 -0.31161170926780163 0.6599298289855424 0.005117245750828058 0.005775934923144417
4.706 0.27824131219952114 0.020307040685540515 0.6373694151149113 -0.26773398546741783 0.6312796830506926 -0.2302882577232682 -0.29389796178629096 0.1521718296592321
4.7605 -0.02536758635203568 0.02495670237654065 -0.6822933341151556 -0.25996067971427794 -0.6691126046848431 -0.26508018156609503 -0.1086727218860019 -0.09472568323249664
4.815 -0.04222338512142176 0.11085429348515559 0.3569892602094751 0.6239056798208451 0.34595606999643375 0.6092384281140883 -0.1374526310496265 -0.17601288325953174
4.8695 0.157226103432149 -0.17647534931285966 0.19262999292657318 -0.6696580601621092 0.21202048471161739 -0.6663901517735538 0.04682816593794141 0.1620690091105421
4.924 0.08277981957485445 -0.046336809111841404 -0.60170399236966 0.4060811660689757 -0.6109495252147925 0.38279517391879336 -0.1234487723558845 0.029430882934514346
4.9785 0.16924532436131443 0.20144265843879605 0.6800077387766824 0.08712735601060685 0.661380459470424 0.1041656692432068 -0.3198928120156851 0.047963505481986336
5.033 -0.0060316596988254255 -0.05202573763774977 -0.44496082135053205 -0.5685872614325544 -0.4264739739867801 -0.5623822539557062 0.000290638417922159 -0.14398276303144672
5.0875 -0.09815703522992848 -0.06290149624292099 -0.01929853177179739 0.7089957767185838 -0.0348601758460674 0.7176116293972802 -0.0653432378163517 -0.07419421798125116
5.142 0.26891716218707606 -0.03234195624933373 0.49591978377432117 -0.47116780865700797 0.5049599016599684 -0.4594960903187148 -0.04505350314738759 0.22493175904850346
5.1965 0.14444751262392275 -0.01121938599196432 -0.7108601368235556 0.04528272236046848 -0.6989297953734739 0.0032400668150123877 -0.2109370450509961 -0.052870854811552806
5.251 -0.05926380165413895 0.20068837410276852 0.5374585946581764 0.42463698393750715 0.5342492224339613 0.43324937084836224 -0.25504337182844644 -0.04506599095735984
5.3055 0.05625253517910087 -0.0866472500092852 -0.08846762319576133 -0.7075426162391256 -0.08014249715317062 -0.6893859169009671 0.09781900379029619 -0.0874850852042417
5.36 0.04543253673784218 -0.19913031784966914 -0.3740489378643092 0.578727249046385 -0.4194134539429565 0.5760766766296589 -0.10487799017489485 0.04405250901590923
5.4145 0.2130286853180422 0.14170099073912287 0.6611322843399836 -0.15527148508307714 0.6640204363057494 -0.14843865156070385 -0.15134158545596366 0.19373114989763918
5.469 0.13150487876871264 0.07700521149506659 -0.62911518982393 -0.3146361675168397 -0.5856796152227532 -0.3401091916896071 -0.2004310095266705 -0.1618729858717453
5.5235 -0.17645773453116195 -0.013317859405994512 0.22942166586289775 0.6410582215423699 0.23091602522516663 0.6673193946149435 -0.1366154597523757 -0.05609518245537081
5.578 0.11956351549758562 -0.070374264641809 0.28100362853234434 -0.6443611648716352 0.2773652519695964 -0.6315227987651698 0.1132333741820673 0.02182458759009015
5.6325 0.24051978418021205 -0.13264552858923212 -0.597952714954905 0.2980891184283374 -0.6379837991252698 0.254208892030693 -0.21585945711165405 0.07704621478838695
5.687 0.0366953927580073 0.19535340722430883 0.6491041843795958 0.20624688398061927 0.6566513078619068 0.21024447526223117 -0.1990992204088359 0.09042483255842156
5.7415 0.027602035298294095 0.1109531326031397 -0.3801420697594108 -0.5876558166665641 -0.3376902719013216 -0.5799892689794791 -0.11376417998682406 -0.21796089580160688
5.796 -0.04475559178351712 -0.22452853542951437 -0.14279160031102234 0.6500379974685777 -0.16966680167313725 0.6872184278927667 -0.05654814221766277 0.03292821134798973
5.8505 0.1548809618366153 -0.018779053554532157 0.5621950098576728 -0.4067981947757629 0.5620382965203721 -0.4027231463157735 0.03673792442077254 0.1054275007490362
5.905 0.28698250057478514 0.076984883525651 -0.6534618175175272 -0.04131481638297669 -0.654191296497241 -0.09959107944943216 -0.29728820764252695 0.014933185748859924
5.9595 -0.10640075371806894 0.07822332946524707 0.4464463342564649 0.5170258327063509 0.45690295628462047 0.527952738289384 -0.15025510969463923 -0.014616295882335354
6.014 -0.06582628908843638 0.02050060237410912 -0.02071996727124942 -0.6936076625472708 -0.0031593857992773195 -0.6776286452377864 -0.014504315892874693 -0.18414361479053462
6.0685 0.1994651486326156 -0.21739452510997007 -0.4455465204086985 0.46778634416515363 -0.4964122591271813 0.4757405340480997 -0.08122514024936293 0.13973172338519801
6.123 0.14654667660678503 0.04356705031091623 0.68494152575944 -0.06458769010908808 0.6937262965267951 -0.053333074145222294 -0.07865182659824328 0.09808225857767075
6.1775 0.12334778901408136 0.23310942970270956 -0.5405800812897736 -0.3659873080563878 -0.5142938481920398 -0.40003254529130056 -0.2991934581482157 -0.08106811674187028
6.232 -0.08542466432122808 -0.10111766094070793 0.10582307465562518 0.668203831664684 0.10756622984414872 0.6905343611236258 -0.03991071805751949 -0.03977866802841567
6.2865 -0.027074066874584263 -0.12145992039811025 0.3381576147672727 -0.5911254172757787 0.35286182983177194 -0.5927575011263796 0.024820256200730858 -0.08247299098477431
6.341 0.3202591248717365 -0.013723378937212823 -0.6095668245070242 0.17479881643698159 -0.6467364518804534 0.1498760110062856 -0.1744357518016935 0.17848852899631848
6.3955 0.09488269931324772 0.08587724135696762 0.6197666049184865 0.2921643583514166 0.6172784825846245 0.3157280076799593 -0.14499822017597588 0.006555914534946176
6.45 -0.1068818700763911 0.1692172319350679 -0.2708700188248923 -0.5975002018964273 -0.2547982027219003 -0.609125208548652 -0.2275938147956438 -0.14633544293743697
6.5045 0.06650421181299243 -0.17870042950926693 -0.253353929319042 0.6156610139592154 -0.26787869143913007 0.6348941346982535 0.039893851396219 0.030000912392306095
6.559 0.12702879972585168 -0.1623959685630065 0.5810725311631093 -0.32294284903939435 0.6183461607073861 -0.31753279474086205 -0.031697830887505635 0.014790167558478262
6.6135 0.22002980196614114 0.1965125403507241 -0.6154260731825895 -0.15758801922318297 -0.6251441057391262 -0.18471082430581112 -0.25618293625514577 0.13169606163878905
6.668 0.02244560238231381 0.07874460126214863 0.3805182843478766 0.5667151958162758 0.35958582191520394 0.5833376197031965 -0.11530007216127128 -0.09484263203959076
6.7225 -0.16811983025439173 -0.07042912323367222 0.08959950224685578 -0.6442165698460974 0.09429686493795662 -0.6717764102446548 -0.12607245424046826 -0.1339424799194485
6.777 0.2047075548723671 -0.10323652737286346 -0.5236372483861002 0.3938855958035981 -0.5443670846149223 0.3988955414390271 0.030435365192370126 0.1284966112890604
6.8315 0.24706810364806306 -0.04674498275616104 0.6507766690635554 0.01723552423266934 0.6849483133638593 0.058952718166611316 -0.13854390316053097 0.02909099630433773
6.886 -0.011193476153019164 0.22596550656795192 -0.44938714189628887 -0.45752057607155766 -0.45611083042169276 -0.46974659103597294 -0.2741667971470384 0.03905717293862917
6.9405 -0.02464718423694943 0.012849687434493773 0.03230720640659638 0.6771656522043338 0.010559835233421343 0.6769742407394604 -0.024543347810148594 -0.13126840959236372
6.995 0.010101086875954042 -0.23975943395128993 0.4088414067392891 -0.48802038671570946 0.44455415500567536 -0.5277282094192438 -0.06949411443264111 -0.04445355632235773
7.0495 0.22365028194288392 0.04061625349651478 -0.6479395864676688 0.07500192486181019 -0.6615945074558902 0.07076953019412607 -0.050442121939932194 0.1791541905912536
7.104 0.21327530134162562 0.12294343634885321 0.5465638006966365 0.3405633247539087 0.5422330315754188 0.39524094559999723 -0.2084725745357358 -0.040412989689404745
7.1585 -0.15653074449849855 0.04653840757281706 -0.1397771696778852 -0.6306603746181454 -0.1606986021089523 -0.6505497040690709 -0.21654451276484835 -0.03910948404595937
7.213 -0.0022661033166011656 -0.07094867890680015 -0.31999673128037137 0.5885708338460556 -0.33076399911250126 0.5846885363460032 0.0558545045732494 -0.08248208303346251
7.2675 0.2374972628404084 -0.17651710553985428 0.5868040082699242 -0.20155373953895256 0.6524193337159857 -0.2046666103367959 -0.10422282974460458 0.0508723504164564
7.322 0.12680129714726995 0.13431923029082268 -0.5978461418035316 -0.2651495880180596 -0.6078375251216999 -0.26905095004504764 -0.1418527369000271 0.15079109058741486
7.3765 0.045939880338303735 0.18990392637237968 0.2952270049445204 0.5754091494000253 0.26539766703907364 0.6021758633020526 -0.19648623605290155 -0.12913039344947752
