!Created with skrf (http://scikit-rf.org).
# GHz S RI R 50.0 
!freq ReS11 ImS11 ReS21 ImS21 ReS12 ImS12 ReS22 ImS22
1.0 0.3566203664666505 -0.25538720276370247 0.7729823802702944 -0.03185651160842016 0.8503834804911559 -0.10606383848160925 -0.09164319524959715 -0.26087828423500736
1.2475 -0.060816434665636236 0.24952058935500832 0.00020102078249270705 0.8266612042059315 -0.03912658144244974 0.8748424132809856 -0.1487037762064255 -0.006374919041822162
1.495 0.13079037195111784 -0.09479821771276047 -0.8295866573436345 -0.13012094460139248 -0.8276913000724714 -0.12857485608050165 0.16408848992520333 -0.08820919511141159
1.7425 -0.014810445373580772 -0.07266895388952255 0.24712544076396953 -0.7982816713206992 0.17954551823277595 -0.7766604610413648 -0.19222318697404056 0.25034537466167045
1.99 0.268321812203192 0.1276351660097486 0.7185282357062333 0.30099139822391435 0.7938045191127782 0.2677604259103415 -0.1025266681670226 -0.01570244200017886
2.2375 -0.20532924937600724 -0.05696701384519111 -0.36382606891141434 0.6919748618355058 -0.33959975985791857 0.6800262530411741 -0.3558213067892203 0.025123874252246388
2.485 0.31036316706361927 -0.07164691329057314 -0.6397598170288602 -0.39453470432982307 -0.690454274488739 -0.35068897204635413 0.008820552946076757 -0.24498556666014468
2.7325 -0.025572793332911705 0.13998561148617994 0.45876686344192774 -0.6353057771766698 0.4654451028633654 -0.6536558657349901 -0.1065791466403318 0.042772205540059935
2.98 0.025263866238903237 -0.08079526489974016 0.5741237874750849 0.5350237362796562 0.5612157977608846 0.5356932444098605 0.12140121244039104 0.02280753051674244
3.2275 0.176315514929403 -0.04654383994986033 -0.5770892042268818 0.503557255455625 -0.5268305199677933 0.4875077245907853 -0.28420030818129327 0.19979625057851377
3.475 0.034951787210671936 0.1378445057640947 -0.454551209424651 -0.610394245727246 -0.47893748344931003 -0.601600686966224 -0.11755062472448831 -0.06953742839683516
3.7225 0.009736460619418266 -0.1115921413562636 0.6534494106385355 -0.38497973184215695 0.6245168172033965 -0.35442828159562856 -0.30103990003586373 -0.05796450105829082
3.97 0.178016965473641 -0.016671014356006986 0.3166220875292482 0.6737994066190698 0.3334847521791665 0.6394191838076698 0.10178482207313731 -0.17334731411425133
4.2175 0.04573704581054317 0.1468411352766215 -0.6954596443011619 0.250984760574543 -0.6948949335501349 0.25910403585989034 -0.11706351703778138 0.09277063649900052
4.465 -0.032111489421044685 -0.1840121738292466 -0.16531340408591275 -0.7022159608483021 -0.14302634285849014 -0.7176444484102428 0.04562780951809331 0.09117439059111358
4.7125 0.2774880992358043 0.10373153344593786 0.6821088863488138 -0.12404379290753684 0.6593133200033395 -0.09216319825659472 -0.34222952141212165 0.10657887131695927
4.96 -0.11820876079206234 -0.002457738465955395 0.0679393327886944 0.7152140563934821 0.057767058446505426 0.7205260413747477 -0.08826217480592422 -0.10968533467992528
5.2075 0.15360226086548975 -0.026071162325612535 -0.7177757399508246 -0.010329133111504983 -0.6962684008601013 -0.05820888449099805 -0.223841740669135 -0.10080119057383528
5.455 0.10677316341317218 -0.05663283019410887 0.10864605285413045 -0.7075711556822437 0.10477319202093914 -0.6813094233979629 0.14287674346901358 -0.0591469587903957
5.7025 0.019952864236126643 0.19238997495928584 0.667086144368563 0.17594952195324937 0.6768284833633785 0.1703172937262515 -0.15996494967752814 0.11837663339189466
5.95 0.054481184001867494 -0.2774470378567321 -0.24065642468885867 0.6088129057762385 -0.2777836898299768 0.6474779659785306 -0.04157126703348908 0.10660602601744586
6.1975 0.21301510153739173 0.24856536288184733 -0.5882524987627492 -0.24602739548816366 -0.5748270696206824 -0.2901378691013739 -0.34798549913564203 0.0005150244532028295
6.445 -0.09625465432854055 -0.15816312993038975 0.32109567895934615 -0.5870116099231413 0.34366987733819154 -0.6022590387688969 -0.03666952496307335 -0.12398005845685517
6.6925 0.16123204496920346 0.06842133897799564 0.5596655148866441 0.38612610784954765 0.5385252714673244 0.43276814525159785 -0.14489647954259058 -0.09199708034734312
6.94 0.13243171120761638 -0.067538328976244 -0.471167477634322 0.4899229170640464 -0.4716674617219327 0.47967721897619775 0.11934691519037706 0.051875777105309794
7.1875 -0.07494166124148335 0.1537109035087981 -0.41958707580974736 -0.5059003169169066 -0.44516333997702234 -0.49838806761502846 -0.21555772904453577 0.11321635083481141
7.435 0.20154369442782058 -0.24378268779210882 0.5141673726378552 -0.3381039804506819 0.5730436234165972 -0.3815589311896983 -0.10830761664783944 0.07011173170782968
7.6825 0.05829389168366262 0.276678911348043 0.32931424889811134 0.5225188118864438 0.31170061928182663 0.5564719160177773 -0.30350078199918806 -0.08607309950402262
7.93 0.017342404245308394 -0.20524709718046713 -0.5760666252678285 0.2774921199182234 -0.6038821159173839 0.29934091382405265 0.021993247275267004 -0.1053323323966401
8.1775 0.11517933356520847 0.08041293145984317 -0.22493284651863957 -0.6179886130043786 -0.21244889146111426 -0.6491595109692311 -0.09699354047592744 -0.03998875787384205
8.425 0.14041710429082835 0.00046722032010663983 0.6435455135079642 -0.13057015965004193 0.6474015257836957 -0.12621604318012705 0.05022213371953872 0.12381820791678684
8.6725 -0.10273856336808043 0.018853406066498223 0.05335406620167926 0.6420159575421188 0.09489065710758968 0.634355946885879 -0.2659387135052523 0.07666204523316254
8.92 0.26944304381659906 -0.10592725331682169 -0.6084385553094843 -0.004527183452230901 -0.6720032677526799 0.02099642728320884 -0.12982728182551947 0.007475720181268859
9.1675 -0.0446437231721011 0.18293655498978043 0.033375952318184424 -0.621758279998727 0.0438052459111266 -0.6323958021856038 -0.23259689669083797 -0.13347235464018375
9.415 0.08076629092027038 -0.15526677119672339 0.6224064859839423 0.1023931061782212 0.6453230698270603 0.08262861889121116 0.06917274407826383 -0.05182181371353346
9.6625 0.131073793374341 0.04624984731777348 -0.1629582321954316 0.6200734606369948 -0.1635947348592381 0.6424901364197256 -0.10095541881136394 0.022787365791180632
9.91 0.051691806190598114 0.06736116011027743 -0.5982949378824332 -0.2318440348378111 -0.5932223223309223 -0.24347031021825508 -0.030813321334300866 0.14568262302091278
10.1575 0.0051968016366355065 -0.09930957180567629 0.29293712535114463 -0.5617936408487851 0.25203588864358806 -0.5555652698534936 -0.2960173395558074 0.013380694599026485
10.405 0.2038887511013485 0.031380459397748306 0.524263815025293 0.3267041538235149 0.5617692415677764 0.32288738697009506 -0.10338214478209118 -0.04614885878244657
10.6525 -0.024583193596976072 0.06884494110408079 -0.37690234325636973 0.5023366838383123 -0.37454360646808427 0.4962763270750982 -0.15899889257051417 -0.13856343528283513
10.9 0.060903543326083324 -0.11257137275862414 -0.45308661215655927 -0.42638167392736626 -0.46546976908108645 -0.409613530247391 0.0851319861350461 0.02702446674184489
11.1475 0.19751452585719412 0.0615963577197137 0.45104081949279795 -0.4062389970939828 0.4587952958848513 -0.43043993421487003 -0.14448333432351843 0.05886151725786354
11.395 -0.08063748541734536 0.04103497354851098 0.36910556025700764 0.48823020786100624 0.34998001363724507 0.5081216918433386 -0.09883282772426562 0.12863710080208915
11.6425 0.16472444163100491 -0.10538995185417904 -0.5099876256411242 0.31609912657709127 -0.49015686794557445 0.3082125545740245 -0.2917576083766482 -0.06399720715996642
11.89 0.07166765931039515 0.07819950002871927 -0.2773830934783424 -0.54522628976134 -0.2839950901303503 -0.5480155971192937 -0.04777174200987709 -0.06196398512878531
12.1375 0.04748544667843809 0.028611838857974074 0.5753348055061419 -0.2084023480163809 0.5722358347614727 -0.1997590339424015 -0.10185359592466184 -0.11086944351441579
12.385 0.042508041979415524 -0.12914065186170232 0.12836183156776595 0.5806125201074187 0.13901571559165826 0.5698723372002995 0.054755851096434306 0.10881385087053039
12.6325 0.2117873238076716 0.14229854512525836 -0.5593942328112192 0.08225945200381618 -0.5814267943527768 0.1000703879361008 -0.2011149341086579 0.05163901771246163
12.88 -0.13284038501246848 -0.07676900792511879 -0.034478968368972115 -0.567324356640673 -0.00983052764209259 -0.5921560103265529 -0.14092696712451216 0.08718150278126768
13.1275 0.2523878067601187 -0.011861953788507724 0.5610536051439096 0.005472290671654888 0.5560044347107094 0.02229089084594627 -0.2463613688164655 -0.13303093947997433
13.375 -0.012534640674850618 0.03134415523632955 -0.0682984849984353 0.5848156087707317 -0.07041563247693734 0.5850153848609697 0.0036756236280221844 -0.03485930691675453
13.6225 0.07044225767292468 0.04246602025862811 -0.5683171324694806 -0.14836176056177003 -0.5670481843392087 -0.15444626632832165 -0.07194656386808507 -0.0637404262220007
13.87 0.0940606452003767 -0.15055586943034577 0.2194588727592076 -0.5205388752286421 0.20907591790585328 -0.5206134309549286 -0.015964385469786558 0.16297085274895565
14.1175 0.12816806163593894 0.20939212623408318 0.4831535768719988 0.2408415185145827 0.5101445259197537 0.2327159864603156 -0.23788260629640143 0.007741918232040837
14.365 -0.061869271079094595 -0.18456154335033775 -0.2861124778378094 0.4592636841970935 -0.31433365085016446 0.4830647801331729 -0.15315730471177827 0.03731995610406127
14.6125 0.2306659470912803 0.09003315004323757 -0.44318721393089905 -0.31197314195177844 -0.43370326214393395 -0.3321760471864355 -0.16960332060514896 -0.16754207400860785
14.86 -0.011006192434726331 -0.021058454408180726 0.3833809400264215 -0.4235550510409604 0.3806998600766636 -0.4217444860505635 0.02707111597610895 0.02268283417225265
15.1075 0.04476715874275878 0.027122364098262786 0.36803736661168873 0.4378501882521238 0.3725567227437435 0.44115559603844057 -0.07572423988084384 -0.014182363519780642
15.355 0.16881705783181894 -0.1000445218391145 -0.4639944210730151 0.29442083367605376 -0.4610651348361142 0.297591074926344 -0.09970002715037614 0.16797258631299888
15.6025 0.008842695452503293 0.18301917521040473 -0.25824573739258905 -0.47430426043702206 -0.28148033491415 -0.46815779836522653 -0.24343647955558909 -0.051439008973587275
15.85 0.0566641739455588 -0.1939093611423513 0.49283690912469846 -0.20898800573473453 0.5245304403064661 -0.22526294651698386 -0.1332210956223639 -0.0056738835401199976
16.0975 0.1590809977933227 0.12036199059561721 0.18271416976708577 0.5115386867446969 0.16603786166350448 0.5225160085118272 -0.09081610278975458 -0.1560225151897704
16.345 0.005880196606552705 -0.01948024267634188 -0.5486805831166989 0.12527437589916085 -0.5428553070716684 0.1243215767016699 0.013656247195593952 0.08497829116462349
16.5925 0.05510967221241291 -0.039584489220089385 -0.05799993798419557 -0.5596699754853506 -0.06403109039167144 -0.5657044487720442 -0.10874358708647426 0.01923631834866951
16.84 0.17650496495762358 0.012614645299379848 0.5487016993211122 -0.0004954947348628987 0.5443742221493726 0.011458345512280985 -0.16638097830040913 0.13179503059487854
17.0875 -0.043313316458034046 0.06773158952608524 -0.04523947990616381 0.5477479146750622 -0.027073729747746147 0.5379141363585243 -0.21697869517370397 -0.10599590902917425
17.335 0.12100096782892024 -0.1181464493408786 -0.5346949975305811 -0.09687439540998352 -0.5586802636094594 -0.09513431276911138 -0.09264176105092496 -0.024668837914245532
17.5825 0.12542402460063753 0.08985242357963834 0.1378536161547037 -0.5277831707503355 0.1560225110921573 -0.5313922369662707 -0.0387333480973874 -0.10722633343047325
17.83 -0.024877729075807337 0.002928111082354208 0.5152219155828303 0.19379686802850773 0.5069738642457776 0.19741302091917806 -0.029777845971756586 0.13250841562606364
18.0775 0.13767084294281773 -0.09090642395979649 -0.23908344637363174 0.48308091970361033 -0.24587504197522567 0.5006510429901574 -0.15371312511011895 0.01999927225539715
18.325 0.09161501588189667 0.10815212372565879 -0.46409341016075584 -0.2727796665685167 -0.44972490123355285 -0.3028679765639037 -0.19444412260937108 0.07308540613792716
18.5725 0.008907658582670376 -0.04640117264928387 0.3225768610150041 -0.43732605904588207 0.31352433312927996 -0.42754358412161336 -0.16695454676939364 -0.142332108771308
18.82 0.1066900247815981 -0.038437413531719936 0.39774995250333073 0.3645217870406664 0.41255098016056596 0.3731263721288631 -0.04589374565291492 -0.007375608500368087
19.0675 0.1364182661959672 0.07111728453662641 -0.3964362310984684 0.35196354377408523 -0.418404106445381 0.35723115872834804 -0.026897963485273735 -0.04522277118040678
19.315 -0.07441314111016936 -0.02624466617070333 -0.3049648756814797 -0.4244221093329623 -0.3033713571043446 -0.43119915515004453 -0.08987613943110573 0.152047367530701
19.5625 0.2307902242709118 -0.059029802983238955 0.42956726461238315 -0.25946007567365176 0.45698700417028537 -0.28213699538442966 -0.1894689752257767 -0.012971272915365189
19.81 -0.023757161239445105 0.11222677698924226 0.23646778707954275 0.4554287973435003 0.21563654696845733 0.4895182471299898 -0.1861204266746843 0.019283610550842312
20.0575 0.09826124850976263 -0.07891868808685264 -0.4863441514556667 0.1846169717317624 -0.48510682744993133 0.1791737861681375 -0.10439933546268608 -0.1518127755383872
20.305 0.07053106755069548 -0.014419379189148847 -0.12369746237630763 -0.5081934950814297 -0.13784996580299075 -0.5163513552242679 -0.023663278131888156 0.03913539112961224
20.5525 0.1298489733694455 0.09561465027786553 0.5045726364765796 -0.06090143929156446 0.5306295270777918 -0.06955325468274742 -0.048845302094324784 0.00015979722280622653
20.8 -0.06594896700749597 -0.10554199625159057 0.004193385708676735 0.49507795905947394 0.012229774833486619 0.5039823820871443 -0.15353448241368167 0.1421494699323141
21.0475 0.25855559415278717 0.03759899176970121 -0.4744431445977713 -0.02531639612352816 -0.5106635322471222 -0.009500327477951827 -0.19358275588409377 -0.06503859730022275
21.295 -0.08429367202177192 0.03520336301866374 0.06411784112301505 -0.4901030079262677 0.08195345941441806 -0.5134782681938069 -0.154482907423836 -0.013071799451424584
21.5425 0.14699854853125188 -0.04545133732137388 0.487567885658358 0.12123260272203688 0.4879103807916664 0.12215169750638646 -0.04376776599239601 -0.12995671956881621
21.79 0.07367307349132962 -0.019567311220702117 -0.18698693599203528 0.47277571149425485 -0.16610228624272785 0.47911107712359335 -0.04034886722406477 0.09336032398848283
22.0375 0.07101632665996822 0.11035784292498126 -0.43760077339547504 -0.23570893294464093 -0.46164733224696 -0.22646866111601596 -0.08786353801567376 0.01933903388139943
22.285 0.018025174995020155 -0.15620058932816477 0.2764706506930782 -0.39682353387537517 0.26456164517089903 -0.40802212975053426 -0.2036076165139353 0.10253103915954735
22.5325 0.20033974674752367 0.1189244563139006 0.37269111813437 0.2900200433985291 0.40017026552411195 0.2812288400839667 -0.16199700379680487 -0.11190186446580952
22.78 -0.06270547454460157 -0.04127135638724066 -0.33567917291835986 0.35780877037217756 -0.34416685151908494 0.3697361033698749 -0.11580103172727049 -0.018571797890802582
23.0275 0.14289046090275798 -0.018920711929689055 -0.3250339806778574 -0.37562399201856705 -0.32001666409671903 -0.37216551288649397 -0.0030097128049294862 -0.07811372195790883
23.275 0.09595617809028721 0.010067232426737186 0.4161808795337485 -0.2805044467899689 0.39320781299281854 -0.28408182253328773 -0.09011981242572362 0.12797884593657677
23.5225 0.004564888019862533 0.05714252833783151 0.2316561191525274 0.44096635902285936 0.24706060828981224 0.4332829521671246 -0.12304389457334551 0.012118188080949797
23.77 0.11454797085090505 -0.12020694279959167 -0.450653977731335 0.17979997417417118 -0.4400412399736298 0.1810059507599052 -0.22469105537763218 0.044800945823410716
24.0175 0.11150352293924556 0.12275014439982115 -0.1511223845302913 -0.4605251010633308 -0.16299960875115455 -0.4497361038770717 -0.10625265955797963 -0.13254872774960288
24.265 -0.013472404189861816 -0.056396141285085015 0.4828720730418564 -0.10625961774510677 0.4844079544126857 -0.10848909905589217 -0.08672291210859905 -0.0007233841781538192
24.5125 0.14125870113811667 -0.03324925579461063 0.058813503812725536 0.4889198050452572 0.045325608459179094 0.48457622996656624 0.002004873120416985 -0.016204738855248185
24.76 0.08071434550998755 0.07693442347229643 -0.4933360540661101 0.014079307756132692 -0.4717062507628639 0.0058498567632814455 -0.1503712055292024 0.12747250832729082
25.0075 0.00024223770597695907 -0.047448158036322644 0.036190350800429545 -0.4917904936657407 0.03694174518606738 -0.48870510396732186 -0.1442547158223032 -0.014450299042800551
25.255 0.15010110215598269 -0.021041270482117933 0.48000312843474424 0.07841312662698993 0.4666270207539259 0.09802074291203748 -0.20978510522105998 -0.010659897445380888
25.5025 0.0608568412686201 0.061674482348187384 -0.12309075053294014 0.47544697778727313 -0.12397809652535437 0.4606031871936447 -0.04746337056140055 -0.11805083996526625
25.75 0.005791575147988005 -0.033428857367193594 -0.45563978090215207 -0.17354345599480916 -0.4561072819124864 -0.17936670171151087 -0.07454797900221229 0.03269299603522976
25.9975 0.17443919760518772 -0.04548321324740843 0.21045801467846192 -0.4226450539477885 0.23654142150885435 -0.42643156894755685 -0.027772503262025117 0.03162579615864629
26.245 0.010542359057702259 0.11660712919135374 0.40466068712971537 0.23907231617531885 0.3892342200677233 0.2583403608048569 -0.19904160368659826 0.09636544423855348
26.4925 0.06954047488888235 -0.12154372617714347 -0.276822478360303 0.37803854823088884 -0.29566170930981467 0.3844564675330733 -0.14531649651068723 -0.050897994822075694
26.74 0.11657360861732241 0.06241593197425401 -0.35688666005416064 -0.30946597405994936 -0.33976148045665294 -0.3409028003043181 -0.17076760426373636 -0.04343683299420788
26.9875 0.0656230642328114 0.009660779440064951 0.3535166286915021 -0.3191641773358465 0.3616028602155607 -0.31061212014515965 -0.006258712710229755 -0.07538671555421124
27.235 0.0010179803663391124 -0.03463173878476014 0.2681202067465572 0.38432879634531847 0.2796683324694137 0.3961581401954723 -0.08801686537493571 0.06899430567232277
27.4825 0.2107650781970633 -0.006327131647775945 -0.3904876367900354 0.21848310785965208 -0.4294587139805085 0.22830359370769185 -0.07463979659653983 0.04774706535622453
27.73 -0.06567956703070796 0.07926224108295427 -0.18960925807487877 -0.4048682205008426 -0.1816527904010904 -0.4255355193538324 -0.22399557150194632 0.048700712444690826
27.9775 0.15541513964045997 -0.11285935506445008 0.41719152732920345 -0.1502360821980163 0.44876887737372767 -0.16172594351293043 -0.11851117815787102 -0.08178438084018862
28.225 0.05678019334554764 0.08127251513099745 0.11659844484650843 0.44164368462213427 0.10329979648545363 0.4696386063837318 -0.12504002335066644 -0.04321514587574173
28.4725 0.07893091836306176 0.0010300196247943838 -0.4584809888122571 0.05696097107599457 -0.467782782932817 0.057005113411798855 0.007688837662754929 -0.02432238874904012
28.72 0.02076879272343967 -0.06695055829043525 0.004033808463582209 -0.45451721831938846 -0.01883893083202281 -0.46933362395714084 -0.12495560001085804 0.09162921966584987
28.9675 0.19591306465813219 0.06561121030458307 0.4328518327185 0.043282856546490764 0.4753116010233929 0.035343716453568534 -0.11584044762167044 0.032372289259953564
29.215 -0.08313000781511046 -0.008903482430491043 -0.07984093098620115 0.43165945299171005 -0.07775093419702887 0.4470249700945198 -0.22360117558317097 -0.0013885725235757123
29.4625 0.19483102875290254 -0.050780515924449196 -0.4209714245857414 -0.11471141667177481 -0.4509218423944548 -0.10454372843576731 -0.07526845294130499 -0.0945637956143594
29.71 0.02724417077961124 0.05760987441682549 0.16010903161015702 -0.42420905200974024 0.16278941500459723 -0.44145847266516847 -0.0949535400868473 -0.016553079108246785
