!Created with skrf (http://scikit-rf.org).
# GHz S RI R 50.0 
!freq ReS11 ImS11 ReS21 ImS21 ReS12 ImS12 ReS22 ImS22
1.0 0.3081637635641616 -0.3024073929194991 0.7639536673435144 -0.10938487886078953 0.8224908401441986 -0.19424554243991882 -0.13266162059901832 -0.267723200302477
1.2475 -0.0004101931912843992 0.28288357133633346 0.11160062488320191 0.806802785169954 0.08295012052666106 0.8698502543073895 -0.12500114253831474 0.014874854983700031
1.495 0.09611513212618897 -0.12748622568777865 -0.8348239016674324 0.008038591360946732 -0.8368140602461377 0.009196313319480124 0.11890476769639309 -0.14102788251793336
1.7425 -0.015266983536578517 -0.0204356800519894 0.08343260952732598 -0.8290946676304951 0.03641975666138391 -0.7940075491904963 -0.12589697716144294 0.27477167940733455
1.99 0.27782704110443635 0.04442256990101582 0.7678086181446305 0.14391374198661303 0.8244937571838907 0.07972427325992966 -0.14090300664807415 -0.041646928600933886
2.2375 -0.19042984972212876 0.052669686263244864 -0.1832377172716171 0.7586105904704933 -0.17500578937780575 0.7494557100721079 -0.30571837067027785 0.09572304789905714
2.485 0.26143050854217587 -0.15767033654867071 -0.7180963802997294 -0.21745986851469756 -0.742975873902431 -0.15528421488078809 -0.08854124609150048 -0.27481139582959746
2.7325 0.037008645931940566 0.1751748551940987 0.24771934845040272 -0.7310928862490854 0.24560203535510405 -0.7572749806210393 -0.051098306681651724 0.07197018863664652
2.98 0.002032644981131346 -0.0683460991293378 0.7107679314179634 0.31933956588520546 0.7083622274943278 0.3201335754392337 0.05890284729032043 -0.07662974235382866
3.2275 0.14290724513159567 -0.0679677530171353 -0.3670316095338483 0.6702582924902555 -0.3408498622424568 0.6341909794828289 -0.1746969117620233 0.25986361257203117
3.475 0.09751918234847223 0.1240189359958693 -0.6424501818649637 -0.39636891194223695 -0.6551857359459317 -0.3631909396186772 -0.18849778528912825 -0.09955143621984977
3.7225 -0.023381096377995837 -0.06525303089599316 0.4438692734953022 -0.6107941788161322 0.4455110062502542 -0.5815052367069002 -0.24135378748649355 0.05100024832420892
3.97 0.14412125902687375 -0.044655203280641334 0.5707214585116641 0.478113908445245 0.5556960804802716 0.43690156510287437 -0.038489941301292525 -0.24807853816535536
4.2175 0.12552452950974924 0.09838926622484041 -0.5085365139503771 0.530034935128652 -0.49965188275555233 0.5355430918734351 -0.029637003749885073 0.12984956213387094
4.465 -0.09843014933180849 -0.04770223740581669 -0.48230913147367205 -0.5436829670320659 -0.48022368203927096 -0.5563436403747586 -0.014531888052987106 -0.038671808833898064
4.7125 0.2742811227881172 -0.06339171857935744 0.540004138900937 -0.42962156881967434 0.5519205417993464 -0.3954832849492238 -0.2109107728531812 0.21450686224693052
4.96 -0.06573836740651579 0.14184232703513422 0.42113724273433106 0.5674028520281124 0.40879639002848334 0.5631701019748938 -0.191200367103979 -0.14668975588371108
5.2075 0.13307847885524537 -0.11037167305476071 -0.6017417537503305 0.3704874391272715 -0.6252903860857936 0.33374941329665353 -0.16991817412176247 0.03169066415758168
5.455 0.0290570087619992 0.011464858754603166 -0.3211073702457716 -0.6390272332055544 -0.2910902187459976 -0.6193541962244417 -0.010249876729159906 -0.19374346589193725
5.7025 0.18970362308991948 0.07080956542641337 0.6415198259616441 -0.2493472902756165 0.6433599246123434 -0.24753058390170096 -0.04580027183938621 0.16784545003312473
5.95 -0.1414054683476856 -0.069495713970771 0.19094161893815034 0.6489334503228237 0.19832705360502575 0.6751297614786185 -0.08783234683619981 -0.03176601636500847
6.1975 0.3256606501978873 -0.011276953097829171 -0.6164680951658027 0.15265790617194547 -0.6544282911370577 0.1174836364321956 -0.2156547632278468 0.1535178742624143
6.445 -0.1480762986501149 0.08894304064466768 -0.13376756330125714 -0.6469831900614192 -0.12035328557774251 -0.6570284870437079 -0.16759055239355047 -0.17081956788151248
6.6925 0.21527136228219862 -0.08228914398303466 0.654672983555548 -0.07852363993673526 0.6907423908274519 -0.04750694319308784 -0.10274999471187815 0.03655651193045219
6.94 -0.02513739890034267 0.006415083532649278 0.016511654778983205 0.677545928624475 -0.004476466691829413 0.6780896924988994 -0.01901340567923295 -0.12891672757130465
7.1875 0.1935508577060838 0.07678969690829243 -0.6503370300756157 -0.0478193285604637 -0.6628670740503555 -0.05206162074414519 -0.07687910899751882 0.17451367048760796
7.435 -0.11283969674905385 -0.10256949681906356 0.10477174532186478 -0.637150773741596 0.08689581948286797 -0.672896248142002 -0.14454610015366162 -0.04587665554824761
7.6825 0.29862183842085654 0.04878688274833079 0.6016088286385544 0.12433008207738702 0.6435941431981016 0.1578527263891109 -0.18563262394902763 0.09650946277712628
7.93 -0.1362726470663871 0.014866575920124006 -0.16356142235395468 0.6186499984278586 -0.16580801002929252 0.632172840220662 -0.13718398203536217 -0.16550591945566742
8.1775 0.21225552943746517 -0.030826142100056048 -0.6013772972470531 -0.20886756205718032 -0.6345527687889299 -0.22772252100309892 -0.05888744316793514 0.0600137475331784
8.425 -0.00831155732035898 -0.012962451204577877 0.2692683186950958 -0.5957506107380094 0.2746288361271389 -0.6102021566971277 -0.062180812729356 -0.07777783950804203
8.6725 0.14724194981403538 0.07326765950102733 0.5575721387927393 0.31015073945629434 0.5694306731357939 0.31414594610490953 -0.10190294502127999 0.15414261903479687
8.92 -0.033803952956036075 -0.09943596235240129 -0.3540841380879385 0.5269390444332359 -0.3325860424788697 0.562861503729593 -0.17518215246491572 -0.07063883837282244
9.1675 0.2113865362317263 0.06606251973679741 -0.49791387191022235 -0.36855463174128467 -0.5276566291791339 -0.39006469634995766 -0.1336927862796881 0.06027633506716076
9.415 -0.05227789530455761 -0.014822326229828002 0.4101669535296709 -0.48447905003585645 0.4030400155355635 -0.49944368338146344 -0.11840188328116037 -0.13592386666270667
9.6625 0.1451045268126181 -0.01383336067681981 0.4522432038263027 0.44000118508896247 0.4723604365685082 0.4452393249970045 -0.04147811454097454 0.08651573047520339
9.91 0.055608224704520516 -0.00018201870261537988 -0.47541208597007895 0.42197441144320136 -0.47371486308276983 0.44084107747992635 -0.11896418577280285 -0.052072328271889436
10.1575 0.0722320812330264 0.033723160732625115 -0.3863304855042375 -0.49966804848616975 -0.3873067979814053 -0.5012325194671323 -0.10802646031166127 0.11742295339920761
10.405 0.06205488613303936 -0.04717886917182949 0.5229249937549539 -0.3481669981123052 0.5051448345246218 -0.3668976159015468 -0.1803909047788069 -0.0934242511771738
10.6525 0.10224864283047262 0.023221389508744784 0.31457088212153855 0.5384508312869443 0.3257991544028503 0.5456578120218495 -0.0774935375792836 0.05062997231970482
10.9 0.05747362918174973 0.01784155944809705 -0.5575989176490678 0.27772374881775835 -0.5523648668497411 0.2854671804456061 -0.12168932822709284 -0.09621566489753705
11.1475 0.052354506480334746 -0.044192403677526866 -0.23529605596881853 -0.5715211088671739 -0.23841599300270178 -0.5709269905798445 -0.04951618974356013 0.10232322483139035
11.395 0.13284170173102564 0.03956586712042184 0.5754313948474387 -0.19897581864433203 0.5761897123667339 -0.2074028293719316 -0.16632585886080087 -0.05458194860135561
11.6425 0.003919061979714641 -0.023226312478083374 0.15959356630058422 0.587948397082964 0.15152436195460056 0.5910272704178668 -0.09160437931134051 0.0771315191899796
11.89 0.13188464965479663 0.022822421874810365 -0.5894248390418159 0.11976349590504726 -0.5831197790392768 0.12061722844002686 -0.1644730862217473 -0.1002808257570992
12.1375 0.02660351018070274 -0.0467604333637345 -0.07231963943394502 -0.5960757164594449 -0.0727850003963776 -0.5974038362960276 -0.040976166101515984 0.06512715725298372
12.385 0.1321349334960149 0.07827198784826829 0.5875115930469021 -0.03294844964726353 0.593155304898553 -0.03385585778479185 -0.14402210790182976 -0.06009000188073262
12.6325 -0.010011745446021545 -0.09288363571533952 -0.014259317377088437 0.5842933689761856 -0.02127169563615852 0.5891100555881492 -0.07028128653536912 0.09731800334387052
12.88 0.17527648274581578 0.07884009804986745 -0.569322821110198 -0.04293532130405301 -0.5749089880895081 -0.046325873673386433 -0.1888016333602476 -0.07484827254484949
13.1275 -0.019042889443338044 -0.0675638169627503 0.08972083711361839 -0.5729433753671872 0.09820336949964677 -0.5779921366671267 -0.06227662170696066 0.048895349877353424
13.375 0.14157513825118961 0.07334568687630352 0.557967528094516 0.12772302867695656 0.5584978604755585 0.13413031460871236 -0.14310367287521955 -0.08496789429566891
13.6225 0.02329163528018023 -0.10435178382703668 -0.18098337020236147 0.5410901765598215 -0.18116157674114 0.5443600168305847 -0.0342814763257789 0.08894994632067134
13.87 0.1387910808419369 0.1293483161965136 -0.5149188375131669 -0.20647623460667028 -0.5276909787368601 -0.20735566487046056 -0.17771725888052162 -0.039776201005429244
14.1175 -0.01540887794414518 -0.130205487069171 0.24851193930304163 -0.4952959546822179 0.26067707230063386 -0.5088722573837883 -0.08754992736356519 0.07013423275841059
14.365 0.17313725154522594 0.09883549088096209 0.47701242441096137 0.26762645405360036 0.48145313201188605 0.27907908857670877 -0.1822641332895104 -0.09558419554291822
14.6125 -0.0009950550506497232 -0.07504870889123856 -0.3161836216952016 0.4624526435406754 -0.32126482263173906 0.46867678510392624 -0.028274101033073307 0.037851531927170126
14.86 0.10587556598490976 0.07894739293982796 -0.4344887864127556 -0.3485596018350404 -0.4385558023608362 -0.3533152465605207 -0.13246077559876873 -0.049923131702617585
15.1075 0.06897139874385068 -0.11157222662656575 0.3870272654727818 -0.39381631237767956 0.3887196613155163 -0.3994179153470824 -0.0539162292222812 0.10257366813896208
15.355 0.09701910416270304 0.1402190772496563 0.3657852204575667 0.39944600659097185 0.3774873061710934 0.39697248350721953 -0.20658235510548592 -0.03833932376873409
15.6025 0.014554601604108751 -0.1356420787249697 -0.42787260385321746 0.3332647857002481 -0.4411423200983727 0.3493057105601424 -0.08815847883971345 0.028207180586583117
15.85 0.15315446849362543 0.08693814305929097 -0.312829391529224 -0.44047121105901077 -0.3100934357831834 -0.45225679566983457 -0.1541808485018951 -0.0999137636577676
16.0975 0.022502588271950254 -0.038732395280989165 0.47671650266713655 -0.2818493220277907 0.4781119870675713 -0.2826534710699777 -0.003891161856626291 0.046773775918709494
16.345 0.06892754043348624 0.02597216390583699 0.24385078225319265 0.4977775375048482 0.24924067145152623 0.4979915820101379 -0.1411994850486319 -0.006109442050594928
16.5925 0.11670518128154643 -0.05677519130472846 -0.5104117414534082 0.19874394361765313 -0.5164759900655553 0.19647687900594646 -0.08606418283152274 0.09361357928453139
16.84 0.04693367728335532 0.09664619806390384 -0.1696215864049609 -0.5163131950631646 -0.17380550726919675 -0.5070680797701219 -0.22133460623529844 -0.05248520279992147
17.0875 0.04933688398821205 -0.09722762192247661 0.5271759428163066 -0.13143871459935166 0.5393486618398794 -0.14327214084776357 -0.06721940596146667 -0.013762391694284478
17.335 0.13785754210702625 0.04187095404433653 0.10337454621110372 0.5309754942708593 0.094970150939926 0.5414477292854523 -0.1209267910935318 -0.0790877888086478
17.5825 0.024919705056293012 0.030357343902683655 -0.5411585075941135 0.0666241216041208 -0.5424479452522168 0.0566210806235157 0.002338486568606196 0.06530192571294298
17.83 0.0625201505443761 -0.06568061564202678 -0.02531671678596914 -0.5401328772788182 -0.028593741396284077 -0.5434857155702052 -0.1710993748168576 0.029450546626888296
18.0775 0.1383750077707768 0.03883268589433459 0.5347457191026466 0.004655265121206109 0.5488922704894038 0.02527253800099518 -0.11426216113718496 0.06010485145213141
18.325 0.012532332088158944 0.014998848744019116 -0.039762364174894274 0.5371431117806407 -0.0478294217021603 0.5242350015119706 -0.21789167574687177 -0.07295655961042152
18.5725 0.07493016732881567 -0.0362708370370005 -0.5300460669359346 -0.07971042050654888 -0.5390695168178019 -0.0766655891975122 -0.03189836302720555 -0.041044872860511665
18.82 0.1365404045548315 -0.007097719824694522 0.11778929764728521 -0.5138148032334005 0.12723484078092492 -0.5308024163352142 -0.09990301324286534 -0.036180627778176086
19.0675 0.002414242437267953 0.0887177565737626 0.499894110033721 0.14946428344253995 0.5051587972085987 0.1668284242340405 -0.012886493080819066 0.08649630827938437
19.315 0.09159681620408891 -0.14149520953139608 -0.1817244904315885 0.4744776510850185 -0.18105753976693156 0.4898682006650227 -0.20966871239695445 0.04291235811823203
19.5625 0.12850036427448594 0.12549909926472044 -0.46479892968218545 -0.19531237784147032 -0.48590653167010767 -0.2282337384471273 -0.12492032919684551 0.009859586163344604
19.81 0.003594436354895834 -0.0614091947347653 0.2362982184421618 -0.45691127366874806 0.2514139059356394 -0.4493017453989596 -0.19494089595347713 -0.08813938937270496
20.0575 0.08721293584588602 0.009438835985122544 0.43674915392058916 0.2747024969695342 0.4445856136430515 0.2741007074733713 0.007688007329056723 -0.04167359432567334
20.305 0.14574887085806973 -0.023662371120800288 -0.31167632762653386 0.3988329191499805 -0.31589064328749267 0.42418628835946925 -0.10018297159910419 0.01674641047830019
20.5525 -0.03512579568598129 0.09743197486069324 -0.3672766394751118 -0.3325918680577547 -0.3794923227055074 -0.348504431593426 -0.044842822683537314 0.09295607790431361
20.8 0.14392145518073718 -0.16281340401005495 0.34457738976274493 -0.32804666586962516 0.3445909934133864 -0.35257713693921766 -0.24158885540311775 0.029969986133839006
21.0475 0.08782467648354718 0.16686920953647405 0.3222265313026709 0.3533206574539685 0.3458952412263958 0.3841250976522373 -0.11369835114670493 -0.04152563013607711
21.295 0.01925252402476689 -0.10288492372377199 -0.39072732571183094 0.29914060050316754 -0.40321938683611225 0.29634649335972735 -0.1594349317335137 -0.08828571483901293
21.5425 0.09204958093422182 0.023241019074998058 -0.2674511215027756 -0.42124964114115654 -0.27287383102043034 -0.4143269960993289 0.03433701273128583 -0.016630318681012408
21.79 0.14446087147795098 -0.0009673564681017525 0.4418573816595497 -0.21686232851674905 0.4381227244581644 -0.2460883685642765 -0.12267252060612102 0.06243378496002229
22.0375 -0.058995651693882975 0.05502076596184479 0.1779177086038336 0.4505817719625521 0.19247636624811235 0.4581334077626323 -0.08385800618484465 0.08097408110515865
22.285 0.18818597464257264 -0.13019155520127773 -0.44077844924472015 0.14015746663103723 -0.44046437425687246 0.16344516179042962 -0.25705375122464397 -0.0021314650542882214
22.5325 0.04382504791574127 0.1612492811772559 -0.13171093554079438 -0.451554529755336 -0.15102980440401273 -0.46806595059007083 -0.08418984310550748 -0.07916365058580116
22.78 0.03626743209819481 -0.10728762985766827 0.47325267937815857 -0.09584007227561087 0.48109312995763126 -0.09562887485162301 -0.12072938812596205 -0.06737168846953934
23.0275 0.1106180545368155 0.013505099089948156 0.05826843963346263 0.48792510914768134 0.05889081862026513 0.473364788712356 0.03615637757165461 0.02224407115049898
23.275 0.11084572762607664 0.04096309043684928 -0.48957244139934086 0.011770350227906094 -0.476927330235794 0.03484966371930863 -0.15847319116621675 0.08710181851881826
23.5225 -0.040165443330551685 -0.014256120342441909 0.028072253689224187 -0.484279303737537 0.017163272752059092 -0.4857865964514951 -0.11993119703798683 0.049993600608803
23.77 0.19370214169621974 -0.0642527050740788 0.46630162194998964 0.05568230149576375 0.4561195573117681 0.04523604155278806 -0.24480836686553278 -0.0387869884564627
24.0175 0.025336165756496807 0.11776120738583329 -0.07526434782382578 0.4714954763142956 -0.062036729730323356 0.4722970609657873 -0.04508365966636371 -0.09208115146438532
24.265 0.03347991115477159 -0.08831257170993448 -0.4699404868098079 -0.1139338863322397 -0.4703137649960767 -0.11683157077646861 -0.092374419583624 -0.027978235194842955
24.5125 0.1492220543176434 -0.00143793430052817 0.14471003099673813 -0.4583805906050099 0.15581910939672255 -0.444931914934551 0.011228775926780891 0.05706310826709931
24.76 0.04403909106337125 0.0784447810046817 0.4500116414242576 0.1756800933320536 0.4305701711084262 0.16931628482200323 -0.19508795558076425 0.08680673940356756
25.0075 0.0263556864111025 -0.07895307254711349 -0.20833337067495192 0.4329481419811772 -0.21378396491796925 0.430946139409453 -0.1376129544501835 0.003938208514314729
25.255 0.1567653713054169 0.009773549512250434 -0.4152077148670067 -0.2299684559114547 -0.3935674013489097 -0.23888111118722635 -0.21135530916098258 -0.0642094181623658
25.5025 0.03899984930479162 0.06121868271639364 0.26014093999502225 -0.4022617064241149 0.2558621452729234 -0.39187989098269066 -0.01122424836760926 -0.082240149340271
25.75 0.016916293865184673 -0.06652163619743649 0.3754354839864076 0.29124057243544743 0.3766375215952704 0.29960883725217574 -0.08290682983319263 0.02063683397074086
25.9975 0.19211640226550983 -0.0029593231453268094 -0.3036834769217674 0.34437890003518346 -0.3315349953287788 0.3371828056843487 -0.03215807401417346 0.07067253415706984
26.245 -0.027447765414671473 0.0880935201155274 -0.3305136977393512 -0.3208200916853165 -0.3127802657749339 -0.3317121424815232 -0.2207288256011213 0.06663152138730072
26.4925 0.10354306850996284 -0.11350206548377034 0.3403559164914009 -0.30491797895972206 0.3637140354995467 -0.30629213029469304 -0.13582135653993943 -0.04323732709179575
26.74 0.10141184707726146 0.0630664090343852 0.28791776818072523 0.3623846700464881 0.2637528074374723 0.38549419700870113 -0.16617811092440452 -0.0671291560934358
26.9875 0.06294135440413806 0.017825765768937008 -0.39085128080890885 0.2530326418033856 -0.3957510825429487 0.24464132485913062 0.007079371528830183 -0.054606471487533184
27.235 0.008360843455960887 -0.05738096805524803 -0.2092876183201215 -0.40664698866952065 -0.22053047106672777 -0.4199387104300756 -0.09436451631404552 0.06415174926421731
27.4825 0.20999116902526974 0.01873876367719614 0.3984446504589842 -0.1729808242063347 0.43953347842647383 -0.17680225899287103 -0.08012357419801425 0.059892998703679555
27.73 -0.07197174017583413 0.05999016860874564 0.1549025172964113 0.4088532952968419 0.14655324590680238 0.42718933624064775 -0.22711266824211254 0.03683473619378785
27.9775 0.16021686772164648 -0.10317785657723427 -0.41460218799476073 0.127368043391785 -0.4467065767985595 0.136387802346423 -0.11712752683197793 -0.08016584132025076
28.225 0.05551736572848293 0.0772303126618533 -0.1041326168528679 -0.43455904148232205 -0.09063516455608006 -0.4609397925869128 -0.12272931765869459 -0.045133730927020485
28.4725 0.0780117423292035 0.00010533415048768804 0.44729792594921103 -0.05776642137766251 0.4570357019854669 -0.05813030304323302 0.00420771346432096 -0.02348366801583643
28.72 0.021900689476901693 -0.060310757019496196 0.011063988017519628 0.44488183614243026 0.03277013319101217 0.4581090842946617 -0.12157305726127465 0.09065949989202321
28.9675 0.19409509252230353 0.05061586863499682 -0.4267829710167913 -0.01739189852101739 -0.4658556937089983 -0.006093159539887167 -0.11539811695604917 0.0268973085800268
29.215 -0.07423019075387476 0.011624847816277857 0.041389624125933194 -0.42802869831134355 0.03882059422883189 -0.44335197857778524 -0.2144560791931644 0.009087347199532712
29.4625 0.18042768164631062 -0.06648294614091184 0.4223277877598961 0.06653875146733701 0.4483317131666867 0.05237382538992872 -0.08740527023805665 -0.09682059411122454
29.71 0.03631798459218091 0.06489134778851405 -0.09668780744336153 0.4309096240892469 -0.09628306850076733 0.4506272255693894 -0.0953618535022614 -0.006955891137519195
