!Created with skrf (http://scikit-rf.org).
# GHz S RI R 50.0 
!freq ReS11 ImS11 ReS21 ImS21 ReS12 ImS12 ReS22 ImS22
1.0 0.35519363242828506 -0.2556178996198017 0.7730421304416778 -0.03355151290230193 0.8485937808740218 -0.1089797692392774 -0.0895191428852752 -0.2610213292749132
1.495 0.1319553762670668 -0.0934332859619564 -0.8298365619378384 -0.1265120811908453 -0.8305686576594757 -0.1291458382849533 0.16413788608212476 -0.08577748114301514
1.99 0.27039908586729844 0.12687555739443526 0.7203790818533232 0.30269881568008955 0.793203776048832 0.2668102475483132 -0.10341373526938967 -0.01769142578545961
2.485 0.30831814981054867 -0.0741691098296819 -0.6400370621961321 -0.39387471353985315 -0.6907660819224303 -0.35058312622565385 0.012154417423081995 -0.24650002183954464
2.98 0.022670859003388957 -0.07689233013391059 0.5735974527261789 0.5342536766777448 0.5625728735405848 0.5357188602334845 0.11993957968126605 0.025586454019194536
3.475 0.03826844082585576 0.1375068128680079 -0.4545939326854597 -0.6119542596860116 -0.47846494849337967 -0.6009528607172574 -0.11733944608055381 -0.07333308963985233
3.97 0.17759472540051532 -0.021473849294121383 0.3172700696801922 0.6755174956492421 0.33238740234004566 0.6388867811680106 0.10499818826063664 -0.1697828682051758
4.465 -0.03738985203032257 -0.1828998727888296 -0.16761476931147293 -0.7018675611927456 -0.14338175423904592 -0.7164374356414116 0.04108653493189842 0.09237511333278282
4.96 -0.11459282988486753 0.00232893313742898 0.06859185525235166 0.7147486152434569 0.05859474427453943 0.7200605328978154 -0.08623785870417969 -0.11501423635639892
5.455 0.1120802099147053 -0.06287499462638865 0.11053851515882646 -0.7066952859255424 0.1062371133562212 -0.681998059297506 0.1455715983380434 -0.053285678033478265
5.95 0.04736611152079293 -0.27812055380269435 -0.23870720280832788 0.6080862139779384 -0.27679389837162544 0.6480068381685422 -0.047336179200775416 0.10396552037605944
6.445 -0.09631671811572494 -0.15124801807116048 0.3209193776959175 -0.5883639333214284 0.3413964311749085 -0.602610502398031 -0.030833067384822107 -0.1295332062139268
6.94 0.13920910840868758 -0.07030128818424224 -0.46991112293536325 0.48771164254992855 -0.4734106644014061 0.47834206123571993 0.11707793008792103 0.058956861993703466
7.435 0.1960604475735127 -0.24929181595261748 0.5118497996635794 -0.336832375360306 0.5720593188321195 -0.3812176177658875 -0.11350143096010754 0.06449188317213914
7.93 0.012153284413047938 -0.19682360832533136 -0.5767999625568362 0.28032381930970873 -0.6034900671908713 0.3004867932348247 0.029413830379111362 -0.10285477865252451
8.425 0.149513734346569 0.0019678811731997786 0.6425792693893772 -0.12885984920422217 0.6466940432720198 -0.12671751232433637 0.04434239842813874 0.13089383889985576
8.92 0.26751480251871573 -0.11530766324252377 -0.6068213033831353 -0.004356523490400693 -0.6712938900453954 0.02326187345836024 -0.12910800881449583 -0.0013252456878046755
9.415 0.07312722901582235 -0.15306560281400372 0.6255177150175355 0.10297406462330116 0.6452681686022802 0.08096841728268282 0.07564233827524819 -0.045358844469312806
9.91 0.05913346889308519 0.07323054812242465 -0.5985740640390185 -0.23305326803415702 -0.5945464934961984 -0.24323364294551003 -0.04036138701200957 0.14501987554336288
10.405 0.20822475186129777 0.022177614972565804 0.5255259303748823 0.32442846961299054 0.5625648775644263 0.3211522553925627 -0.09494631191443313 -0.05317018465962442
10.9 0.05019199655173034 -0.11350571192668148 -0.4543194813724268 -0.4271765385197763 -0.4658190607368099 -0.4118670169468909 0.0860365704562599 0.03696017821712576
11.395 -0.07523127171598705 0.0508298545214298 0.3704324771324329 0.4863749189066393 0.3505077371305327 0.5076387486623185 -0.10592661589007485 0.12122458467685951
11.89 0.07981345904165311 0.06995355080909392 -0.2778495556866955 -0.5450261776666654 -0.28546154447486055 -0.5466183985487905 -0.03823370490080018 -0.06639096434274806
12.385 0.03289370848109124 -0.13622527177355134 0.12777345626642322 0.5805366722989397 0.13804656955151087 0.5702312359168797 0.04880536441958515 0.12016700658453244
12.88 -0.1366956501803131 -0.06419957494706731 -0.03704504230271308 -0.5683152677489159 -0.01430367590765258 -0.5924494944498073 -0.14487640563392098 0.07653825902066194
13.375 2.744319432678203e-05 0.031045835087819124 -0.068704657093369 0.5852766875475661 -0.0692185363067011 0.5828673270776716 0.014081891525387033 -0.02931929164283954
13.87 0.08873279785807563 -0.16117547492987466 0.2188070694577933 -0.5199241437136678 0.21137760921927778 -0.5196373514411141 -0.027330551206190882 0.16765858213857143
14.365 -0.07284887218154162 -0.17426650557362897 -0.28200432044220436 0.46533884758550426 -0.3111810714331353 0.4844451763819615 -0.15010849280526212 0.025813102731601367
14.86 0.0009724180956583636 -0.015951105616656424 0.38643664637818925 -0.4245163180435983 0.38011339340797184 -0.42109063899758653 0.033960862781186575 0.033324320210451015
15.355 0.16937183690356722 -0.11266911500108526 -0.4628276139060152 0.29388525960803363 -0.4621837535304942 0.29637393275025276 -0.11158153436273988 0.16360225091623942
15.85 0.04119519995637246 -0.19089590007377588 0.49278465865548327 -0.21178061151989783 0.5212298657911655 -0.22802511740575762 -0.12334724155947273 -0.014395162844464876
16.345 0.014119190993211907 -0.0066572997335477965 -0.5489864507729714 0.12598248086953245 -0.5414137332893473 0.12424233859863722 0.012428751301345598 0.09696134472048598
16.84 0.18525475542279204 0.0015530384248292812 0.5458280416268152 -8.395392882211007e-05 0.5445333716441275 0.011596227364431916 -0.17568045542522392 0.12205240125992696
17.335 0.10656319213375862 -0.12330350139427658 -0.5336384879299951 -0.09534657983432454 -0.5586378035773323 -0.09254276750131793 -0.07699000795078094 -0.02559937527529521
17.83 -0.024916483255407827 0.018661605851998515 0.5167218148993377 0.19251855122515557 0.5054786474420775 0.19704964117485904 -0.03900171546954571 0.14301757688630934
18.325 0.1057501220337145 0.10259502289023818 -0.4641853982091388 -0.27220095340371514 -0.4552096405263802 -0.3016140181084629 -0.19542105026624584 0.05885090302641621
18.82 0.09589840622976915 -0.050734689594682046 0.39735460583250737 0.36450913133735924 0.4136936712130301 0.3705464584202778 -0.03341328678643716 0.0003220635616465081
19.315 -0.08392160748391142 -0.011651939687300716 -0.30685854575657123 -0.4209062082973037 -0.3009255606029501 -0.42811294814268386 -0.1048862745511824 0.15606995585335015
19.81 -0.007429375993974823 0.11727543801371368 0.23810229252056656 0.45672914731249875 0.2184883161907885 0.4903161640023177 -0.17830521221579815 0.006072468990108476
20.305 0.06845876951185721 -0.031300069502593474 -0.12262818301384995 -0.5077278520301116 -0.13731139095617834 -0.5121703759122367 -0.017828094790334155 0.05465875529135563
20.8 -0.08241174415831165 -0.09813220790529992 0.0073097282204274494 0.4932478502795528 0.012370700142445196 0.5058773522409007 -0.1683684515089554 0.13651910341411846
21.295 -0.07184469557263494 0.04858996084207401 0.061510924519179624 -0.49325641793990516 0.07768894659688483 -0.5150922932376509 -0.13917013841588652 -0.020722103287113856
21.79 0.08179243478240324 -0.035585697557461986 -0.18771565184029593 0.4718407658403342 -0.165118361372635 0.47597090940170844 -0.044239718019135184 0.1089579475598421
22.285 0.00013958775626767873 -0.15858800992262367 0.2734685220500225 -0.39787610130472106 0.26451936266275705 -0.4073135129219486 -0.21190845044375672 0.0884999325910663
22.78 -0.059752767556048685 -0.02288208080385871 -0.33386779683923945 0.3613938826675929 -0.3414692869709312 0.37265465849985663 -0.09830073531314301 -0.01633168469802591
23.275 0.11145993534144594 0.0005715826019161355 0.416099480084272 -0.280238459230751 0.3896665310355065 -0.27993057299151386 -0.10318113210113936 0.13812333283518183
23.77 0.09918920910022591 -0.13139292511480394 -0.4492803791128448 0.18189346497076922 -0.4407899910930397 0.18261799933783857 -0.22353781154933383 0.02870894192245674
24.265 -0.020693800643924554 -0.038208951104846824 0.48349235661560336 -0.10820515379893443 0.48265389638065664 -0.11182316341990182 -0.07236637968215939 0.011587201553389277
24.76 0.10032881406654688 0.07693504663216766 -0.4930988712385201 0.01494890613333651 -0.4666674936033927 0.006567129194156814 -0.1662452380430583 0.1275053738206508
25.255 0.14442585508189287 -0.039393660497004095 0.4805566303991532 0.07778345229440987 0.47006031467212156 0.09579710208269294 -0.19962935055204067 -0.024489726568575287
25.75 -0.009871922032158194 -0.021369843246799778 -0.4545454994726971 -0.17159081364917556 -0.4561404122567617 -0.17739184293903196 -0.070973138417285 0.05119592754831511
26.245 0.028171704063878353 0.12955333302612568 0.40350794880527613 0.23592551591265376 0.3880159903100071 0.2569205952814272 -0.2134115743381681 0.08670603587302304
26.74 0.12046976219756143 0.042843222751203607 -0.3578439006606331 -0.31139764986985946 -0.3425298888747875 -0.3405008424804883 -0.15271968629094224 -0.048778566186568784
27.235 -0.01890868809108853 -0.03353109148941894 0.2663299993536796 0.3819007654374035 0.2800231960277328 0.39308833841681445 -0.09406792767677931 0.08467874788904498
27.73 -0.05491560239277639 0.09861633694636177 -0.1928570509169081 -0.40206012662868806 -0.18268543288363415 -0.4258486462407161 -0.23211078214389677 0.03169540526447384
28.225 0.07192423079613972 0.06689446379075505 0.11573505586863857 0.44327880279489124 0.10599228499534724 0.4717073422224293 -0.10531292201625905 -0.03687517566815042
28.72 0.002867750509547046 -0.07621808542605812 0.0039267375142495575 -0.4503908420076604 -0.01958745569699357 -0.46338974648296455 -0.1416913029654769 0.10161781898473764
29.215 -0.0847125006718383 0.013923966916966218 -0.07276488567984041 0.43107405922720227 -0.07660076887833656 0.44809216111860384 -0.2208942832974176 -0.01968769946219928
29.71 0.04874741797307056 0.053511337338191946 0.16152127202093966 -0.42380955588214175 0.15984175315849572 -0.4439003278172336 -0.08411909891701182 -0.0005623645766430818
30.205 0.0700060676193551 -0.09152954304295352 -0.2572585388475311 0.3679420039321664 -0.22634688300147812 0.37995650337258235 -0.19146832165671665 0.08526267908693737
30.7 -0.04257255661280162 -0.05331487970230635 0.3106512082177401 -0.31490294498037225 0.30399062992033643 -0.32279547079582177 -0.18748123459156427 -0.05580066355051795
31.195 0.05304174457843016 0.058191365172371966 -0.37014329169129045 0.2619906668260561 -0.36377315426528695 0.26955978769779093 -0.0913790153623552 0.039071990115414235
31.69 0.14043381762913337 -0.04087378892883756 0.4111909629613148 -0.1746409067698686 0.38534182022514013 -0.1789957892386689 -0.2280799121310375 0.04022500389887444
32.185 0.024078005545062148 -0.06004647392769285 -0.4384016660484699 0.09663442802094992 -0.4251255514418448 0.09466889932948569 -0.14450332163745594 -0.06866733307028702
32.68 0.04200919331517291 0.08772510181862701 0.44063472642967905 -0.01658673935813555 0.4363420740755451 -0.016435416983646728 -0.12517666354949464 0.0626423213287867
33.175 0.15893645287478492 0.047335545810968785 -0.42807685306002563 -0.06015672341570394 -0.40687888207017037 -0.07294625137512688 -0.22849597962511795 -0.016191363176265565
33.67 0.05969649772861005 -0.027955027400165203 0.4127242016922135 0.15078546939991289 0.4034293039353295 0.16457694963953423 -0.10277541767485582 -0.05432408182894874
34.165 -0.004669052812944218 0.09470136519737735 -0.3573153199896421 -0.2208681728454628 -0.3611869355187554 -0.22976471457428171 -0.16332056928382266 0.05956850417221741
34.66 0.1114311425718222 0.11052812583515476 0.311043354862479 0.26932632895605 0.2964886076587236 0.29284519426767996 -0.20333646419950052 -0.06576422291048652
35.155 0.06611082211968315 -0.012131604251271228 -0.2446185983641098 -0.34604030085454546 -0.24219109402657427 -0.3626385381482967 -0.08071771764779845 -0.01970545129401442
35.65 -0.04850572782596181 0.04606613990686805 0.15855923969431918 0.37380370673381874 0.16829317519354467 0.3850354591101182 -0.195735819165748 0.03400691671305679
36.145 0.045402606204020535 0.11276732170186599 -0.09949158654716497 -0.39427241298449567 -0.08491432760400437 -0.4121623076621779 -0.15604732684846165 -0.08885377771342755
36.64 0.07517739235040374 -0.019438308475289604 0.0012173835905644119 0.4193506272211441 0.004911681688755467 0.43502893411282484 -0.08994793772908044 0.017754047700390085
37.135 -0.04129590694609853 -0.027289129942398717 0.08476171325873726 -0.3954778364503611 0.06825306367488485 -0.40989800325610115 -0.21110973046160444 -0.006480962935019908
37.63 0.013244400127652942 0.07754924725457663 -0.1472021789765427 0.381244001752122 -0.154714239153288 0.3927848459021499 -0.10900952090580698 -0.08139188292267857
38.125 0.1144661740904568 -0.012276607512072593 0.2314402632429061 -0.3456888826186236 0.2233957392409062 -0.3614008232205167 -0.12166082960699211 0.038978439830736844
38.62 0.023520429398942996 -0.07036492582949071 -0.29001120686293264 0.2889744871724267 -0.2722550408815935 0.2967518140744482 -0.20212503123128428 -0.05152491125221031
39.115 0.02072757834358247 0.04998853177368424 0.33733321390145826 -0.23884720153065325 0.3387383949178172 -0.240483840289819 -0.07827104148325695 -0.05379391190497387
39.61 0.14829547271897273 0.033640302410924465 -0.3683400435805175 0.16648642805896993 -0.36828632176519754 0.17601658368970638 -0.1604375911366286 0.032711569726891765
40.105 0.0992130968545353 -0.05456147959193687 0.39427220011056335 -0.09532102162677243 0.3814731046618619 -0.09527612895349168 -0.16863488220614287 -0.0863473818780945
40.6 0.029341866237815043 0.04763869610988443 -0.4014854379892877 0.012132474649252514 -0.4050982684135986 0.009948268115045796 -0.07177446188277893 -0.01934953993315479
41.095 0.1349330567002172 0.09427532378239586 0.3792431240026524 0.05596880404495331 0.38841958534674714 0.05629400037616987 -0.18578181921935552 0.0014600900699566642
41.59 0.13052951753524503 -0.005826296238986857 -0.36775250907433765 -0.12886878971351015 -0.3577642677730276 -0.13608923740832338 -0.12205459562858804 -0.09872619425411286
42.085 0.014305286612652129 0.039423117682823965 0.32572129625537594 0.2108535813736008 0.33259373512133916 0.2143654426263437 -0.08643860475446284 0.00949502845358166
42.58 0.07475613081002022 0.12268405553531155 -0.2706963679565463 -0.2516207665256605 -0.2779095189441624 -0.25966418505166516 -0.18542482867255367 -0.040276522759679405
43.075 0.12088109986859888 0.02968492751645543 0.2236806479814264 0.3103245101584633 0.21397119606250029 0.3179714562572119 -0.07580174138760248 -0.08299226310077096
43.57 0.0017738052993264601 0.0009131654522704207 -0.14054542603711934 -0.3539606277597516 -0.15108571730524342 -0.36266627586729927 -0.11308609205728513 0.02201444804099075
44.065 0.015439782585902328 0.10010547038419412 0.07577967093506485 0.36474157032531046 0.08145973464294101 0.36975516557869703 -0.16242193192863189 -0.07469945553407624
44.56 0.10931650021475253 0.03778154613678466 -0.005467723546127926 -0.3805592606417697 0.004043562658578502 -0.38741752630010495 -0.05027947096358162 -0.04597988731814158
45.055 0.03145548768146226 -0.04635139576417584 -0.08218582392775668 0.37454580645308405 -0.07270898134419722 0.3837527507579572 -0.14379344466577432 0.014501341632040681
45.55 -0.000939595636298208 0.04389487818396009 0.14210439576061906 -0.3512764000939757 0.1397066310210583 -0.353836916779036 -0.12364273045684089 -0.0906260145307783
46.045 0.11650444727829443 0.04136335069361042 -0.20673295874447836 0.32097189116588243 -0.21799555473549997 0.32286990193810644 -0.05226743041877551 -0.00552068888912786
46.54 0.09821517745641924 -0.061997515117975674 0.2639070241176456 -0.273549301681529 0.2637715185572223 -0.2795602292753953 -0.15944591155645457 -0.01199557516344301
47.035 0.028196493307502422 0.0023565986032506587 -0.3090568879859902 0.22091344583660938 -0.30807314046781387 0.2188037372949562 -0.08247934488065681 -0.08481658405227846
47.53 0.12235463682065767 0.06297070323126963 0.33675326805496414 -0.1528337185831774 0.35425800875671015 -0.15226207214116447 -0.07660804745645161 0.02044187580364313
48.025 0.15446024330395713 -0.02819556606753736 -0.3516332623789129 0.08761571207815562 -0.36304337454658425 0.09049332198535669 -0.1584621289224382 -0.047205371712985715
48.52 0.056516118674969064 -0.0065728481671479535 0.3694739401047751 -0.012416956898270475 0.372178645103289 -0.011971049762305383 -0.05054160510618 -0.05972869373855731
49.015 0.09920297211531591 0.09356882898416524 -0.3476269050924758 -0.06182516096666398 -0.3684615687170451 -0.06337573557106557 -0.10862487422687503 0.023911273200803176
49.51 0.16447908231757524 0.02815338097385747 0.328103814036324 0.11917084016934895 0.341015973747419 0.12058107186285145 -0.13094124745217484 -0.07519949132695483
50.005 0.06760775390123325 -0.005704346956231135 -0.3009084072846095 -0.19674952019489778 -0.3051651612882491 -0.1950953599374109 -0.03750448324509149 -0.0228168513879507
50.5 0.04658124714701318 0.09347390002442492 0.24453406738075864 0.24708977661781353 0.2633000538048765 0.2493016526706768 -0.13051699821276735 0.008414598826381488
50.995 0.1347368947799293 0.06556890310093441 -0.19809179463574128 -0.28645556671399075 -0.20681628981056238 -0.2839805622591142 -0.08834033699160074 -0.07932296143297987
51.49 0.07008983924069845 -0.019584137297747696 0.1338516733423151 0.3332906772810583 0.13658941135750532 0.3290963510600092 -0.04594340220203003 0.013224377718902364
51.985 0.00820084268118225 0.05126915177899715 -0.06430719382104848 -0.3476856095511252 -0.07569047021134814 -0.3460087108180362 -0.13927182154970197 -0.01720658278484259
52.48 0.10029181859067168 0.06531530372152493 0.003602398265434864 0.35138070691730006 0.004790840721799069 0.3490979438968765 -0.052919724346470326 -0.06233202204956965
52.975 0.09607303102713415 -0.03936747920698408 0.06923921444311093 -0.3523286654158772 0.07668704474542079 -0.34538454657257495 -0.07346568743527972 0.03607158693780672
53.47 0.017195269607076992 -0.011965440380869025 -0.13280471254786827 0.3295462386912728 -0.13132855529089296 0.32680195247026533 -0.12905924646992115 -0.042658561998842784
53.965 0.0880735737762318 0.0493028169883325 0.18988460911836924 -0.2980373377173652 0.19506634325281963 -0.28989208355288854 -0.03279651250864477 -0.02612883270862058
54.46 0.13943799140567759 -0.034867396250547175 -0.23804589033703077 0.25036031425734684 -0.2555438404690635 0.24779547626829815 -0.10635272914089057 0.03615973058841986
54.955 0.0584841450774487 -0.046584129236805945 0.28067675469132236 -0.2031013934870426 0.28794374973282094 -0.1995062462831902 -0.10260300439028298 -0.05651228909720677
55.45 0.08954601455566069 0.04798364511975951 -0.31270826786983286 0.1384169425926853 -0.32526261421052394 0.132030721257441 -0.03711794510660783 0.012092302809291865
55.945 0.16732417720746975 0.00505186710544192 0.3185239977524306 -0.0742500128322808 0.34785020258049426 -0.070415675921811 -0.1291727094817921 0.015898879964398874
56.44 0.10151882309878903 -0.0432865151560353 -0.3318117910143402 0.011424862897323931 -0.3503101592262016 0.0092282564001459 -0.07163310439612068 -0.05470195089000084
56.935 0.07124522116968114 0.052764380158602915 0.32595058009697614 0.06435840028579361 0.34362018459614563 0.06757654808016439 -0.057472726226882195 0.03858297804796511
57.43 0.15276223180332488 0.054366882565598226 -0.29718639145348763 -0.11964970482260755 -0.323651175329081 -0.12301668476617797 -0.13084478052251033 -0.012389363876202805
57.925 0.11386893975951645 -0.021955809849189455 0.2761471898100655 0.179675701511306 0.2898234549696701 0.17785315332782933 -0.043752300251665946 -0.031367945105143076
58.42 0.04036801286535258 0.038297362024298544 -0.23223117454800146 -0.24055909971489575 -0.24198073584782095 -0.2356933614903238 -0.0870025915625627 0.04820283826919426
