!Created with skrf (http://scikit-rf.org).
# GHz S RI R 50.0 
!freq ReS11 ImS11 ReS21 ImS21 ReS12 ImS12 ReS22 ImS22
1.0 0.299660553244518 -0.3086744024568617 0.7637053422916339 -0.11396382435990966 0.8192613409755605 -0.19579478626700858 -0.12536604583194028 -0.2748000387802337
1.495 0.09746609645074225 -0.11259322621178913 -0.8380861341051523 0.005543761636968261 -0.8384165552785581 0.010298180145717803 0.11918505211448417 -0.12534372247895295
1.99 0.2931884338631255 0.03729483754925378 0.7609917317447908 0.1446109220711694 0.8212767230552286 0.07498377963190829 -0.15551120006789815 -0.0526429032030168
2.485 0.24366690191640938 -0.174021065064702 -0.7211595789931642 -0.21507848876667127 -0.7388860924663071 -0.15817856612542064 -0.06610793406764681 -0.2797143628957994
2.98 -0.007620333385303794 -0.04153199111353562 0.7124417080077031 0.32013545151505574 0.7104859530358715 0.32358964196289586 0.04784513288232925 -0.05326058094733595
3.475 0.12704454717562588 0.12044404172853304 -0.638661028632947 -0.39329066111942684 -0.650874797127197 -0.3523052842080628 -0.20372663442325362 -0.12320307994496874
3.97 0.12875416226512695 -0.07552589463944666 0.5682361947209672 0.47917396150552266 0.55528230947282 0.44266664677222267 -0.005272277939010243 -0.2422493332316483
4.465 -0.12483732128435591 -0.018489136320802683 -0.48320078788177856 -0.5368475817662309 -0.4857626753003971 -0.554461639489744 -0.04521678303459936 -0.017677211339906684
4.96 -0.025765831804017078 0.15598466552578413 0.43090474508502224 0.5631285552304639 0.4072517100008931 0.551607171042523 -0.1948101145098301 -0.18277688041298013
5.455 0.028418864315278142 -0.03368405161348013 -0.31247261295445816 -0.6401235292991069 -0.2871534771996667 -0.6244768910167254 0.024320612551837727 -0.1678384838853133
5.95 -0.18371592505685652 -0.0485544663114596 0.1963148969256639 0.6364478153308757 0.20968713189434013 0.6676067988319475 -0.13379338002006766 -0.02233755873592346
6.445 -0.11056037982573362 0.12578166891944118 -0.1478907310047941 -0.6481661477547807 -0.12132217379299379 -0.6482476100845077 -0.1498824036551721 -0.21057890070045074
6.94 -0.005282932118988426 -0.04167890248398705 0.00459203283394613 0.6776059851096333 -0.009067511871887618 0.6820923822960819 0.0025957325890379203 -0.08443105534146118
7.435 -0.16297304733148574 -0.10018165472385342 0.09972365403653954 -0.6230990577527132 0.07539424491979363 -0.6647262145377223 -0.1977607523661873 -0.05621384265325335
7.93 -0.11483885542757491 0.06997319223513009 -0.14994766280036434 0.6232369575922907 -0.16761827476946128 0.6249702533280651 -0.0975844471039763 -0.19658387007430272
8.425 0.0322549380790905 -0.054313947096238394 0.27475422438522373 -0.5902016168784245 0.2781871310658204 -0.6141749264884403 -0.06360460612630929 -0.02387785101929723
8.92 -0.08458785161386198 -0.12031820977066726 -0.34891709003269405 0.5170639297948825 -0.3182791664844194 0.5542734295084113 -0.21805127665177962 -0.1013497995385607
9.415 -0.049285157784888886 0.04387026868109308 0.40021941228729985 -0.4885231245605215 0.4091611959296616 -0.49345110188921987 -0.06395971932485707 -0.14758588501690625
9.91 0.11049974169710816 -0.022113554697306918 -0.4749775349351654 0.4165567671714287 -0.46833435327816725 0.443978015375212 -0.14454563096060355 -0.002008038392955769
10.405 0.020002331627850454 -0.0866575493288694 0.5175180380873473 -0.3449576357102768 0.49208716681814985 -0.3610718718290317 -0.2025691917090696 -0.13997689461546728
10.9 0.03524946712545949 0.07210721687523527 -0.553665506782871 0.27868024309148576 -0.5583465011206058 0.279502670965947 -0.06669919106345101 -0.08348110597911297
11.395 0.18953841992402032 0.038483932704742235 0.5634227899144281 -0.19838446835287973 0.5667430737906388 -0.2113214037088054 -0.2131177989717419 -0.019427799888672694
11.89 0.10943030019182574 -0.03124646629499433 -0.5922514264973576 0.120869703197562 -0.5712787216020951 0.11843949783804211 -0.1619475822215492 -0.1526071212745764
12.385 0.0893681024744923 0.11916728068596041 0.5857455545357536 -0.025959502759500864 0.6007692911691288 -0.029664156996077298 -0.10333157825125673 -0.02509029572698782
12.88 0.22384224828378788 0.09656244434143692 -0.5540693086845507 -0.039737956790026535 -0.5648762449807884 -0.037855135519924206 -0.24126400498014128 -0.06227479752284415
13.375 0.1437665388874786 0.016623371343129238 0.5622432563844841 0.1259001491103673 0.5510068721761037 0.1398189523173225 -0.11679847903588568 -0.1318279046601054
13.87 0.08495930737367653 0.15109385355185873 -0.5108533320639977 -0.2170134423182413 -0.5334631664698567 -0.2118779426000568 -0.15598223379286758 0.008222428392099676
14.365 0.20841829267520484 0.1324223347713829 0.4652336712635207 0.25816306440347236 0.469959156836362 0.2703615303902157 -0.22764392956752946 -0.10492407726052143
14.86 0.12550520982642646 0.02952216910921663 -0.4379713568060564 -0.3466250635041224 -0.43397594086366387 -0.35883089919206657 -0.09130422865186023 -0.08020108477692961
15.355 0.04399962011519652 0.14077963411714323 0.3598932561102973 0.4090673040922366 0.37887479218571735 0.3975013683275833 -0.2092413234087691 0.008734947462768162
15.85 0.16995218867115272 0.1299870364827106 -0.30595740566468316 -0.4315874062920706 -0.30370648598848604 -0.4421233082293736 -0.18710946132412698 -0.12868485792850973
16.345 0.1044992210073624 -0.007125732619463026 0.24550832686782775 0.49654389335183924 0.2470028911081143 0.5059383737437773 -0.09706523080368318 -0.014067721418130945
16.84 0.004869969507255733 0.07776411231403514 -0.1651366028951833 -0.5189286162526943 -0.17524470352084298 -0.5056338466843467 -0.24431942893596237 -0.01580337892924751
17.335 0.1372323147893395 0.08455211500738388 0.1017266172133406 0.5264702771820141 0.09109920738611928 0.5349323309547036 -0.1338900382102746 -0.11416447515864095
17.83 0.1012641726966906 -0.07978907026775159 -0.021767617867674005 -0.5377873160813165 -0.02479485141147237 -0.5491240221578222 -0.1342281356182421 0.03962583633607003
18.325 -0.011799573625279348 -0.011585349989782938 -0.04243536654080888 0.5332571109428372 -0.04742194607675739 0.5179434272456183 -0.24660505936659813 -0.05279195558295653
18.82 0.12111360543974288 0.025001325264152503 0.11762929958393696 -0.5153310538634889 0.13024424606890472 -0.5263307366580555 -0.09690419818033313 -0.06981528059279332
19.315 0.12577603443409224 -0.1395698158252833 -0.18445280118527174 0.4696404142682555 -0.1832346803847218 0.49286152061012195 -0.1882527044728295 0.06296923278205682
19.81 -0.006050333799557924 -0.08926306563272167 0.2351846500156296 -0.45227989376872607 0.24849315741476188 -0.4416006595685977 -0.22196838149360057 -0.08432618710689331
20.305 0.12497691520277959 -0.005959378882878996 -0.31241636601072825 0.4025367888875139 -0.31889283554374537 0.4213169064118715 -0.0879730062054853 -0.005337735122087351
20.8 0.1675885382272104 -0.15168282430662883 0.3485552702147307 -0.3237631591330882 0.34689758185519226 -0.3518361104864313 -0.23587302534054252 0.05012477104948843
21.295 0.020876699912492646 -0.1202715328641535 -0.3866914382665297 0.2942965904268248 -0.4005082883253379 0.2930891956255854 -0.17749308518781007 -0.09470782984408885
21.79 0.12610283257751964 0.00429469837543796 0.44326964105434474 -0.21864135062880724 0.4403849974763128 -0.2442831587877887 -0.1085731960849561 0.05351140874710715
22.285 0.1971501600523124 -0.1175144244598565 -0.44158405352112096 0.13864699850183657 -0.44064042298165185 0.16368651065939138 -0.25822752305099944 0.011843868152048716
22.78 0.04260060054949911 -0.11809375790655044 0.472938358910765 -0.09506245341899154 0.47980780251795724 -0.09243056910155974 -0.12829678533671895 -0.07570168981004796
23.275 0.10245309698428537 0.03984000417696151 -0.4917315705376686 0.012983382271681065 -0.4778863705798753 0.033934651005617614 -0.15172743117018472 0.08796169933857874
23.77 0.1925465019831139 -0.0577760781431059 0.46723386431493563 0.05564734663244665 0.45369483849137476 0.044578693942142644 -0.24916002242363636 -0.03507194085712493
24.265 0.03651229965749499 -0.08974831869158345 -0.46796858616995424 -0.11374625886907688 -0.47014952655945375 -0.11775520077095934 -0.09236484148039611 -0.031046847395358772
24.76 0.04569705940683986 0.07923840597913247 0.4492529380973452 0.17439935299046208 0.4299652834211995 0.1704219672552074 -0.1960943238737716 0.08852551758847202
25.255 0.15599061041821588 0.0062063463219711144 -0.41514280525033265 -0.23019669364294026 -0.3934119139201512 -0.2388339065902132 -0.2083616886866586 -0.06602527765430442
25.75 0.0111866161958431 -0.06202299057974144 0.37399959890612017 0.2908351603189671 0.3786791047233653 0.29972462767190455 -0.08330873656222117 0.0269132526009565
26.245 -0.020177445878093805 0.09513413107884683 -0.33020639897959164 -0.31899618303857113 -0.31070289084462843 -0.3299910006829932 -0.22685942006204693 0.06182160581750365
26.74 0.10442926026030679 0.05186169181818595 0.287885607562763 0.3618862022424476 0.26528889051985705 0.38556155790592345 -0.15593833706403729 -0.06928648917515197
27.235 -0.005820614468218835 -0.05439554202596001 -0.20985833597968265 -0.4057206422609553 -0.22013794420261848 -0.41766887449384554 -0.09910611306128318 0.07511887672640295
27.73 -0.06563199839164569 0.0783402345766567 0.1586296446085629 0.40712550133834 0.14610955788535412 0.4236499408153545 -0.23401243576613576 0.023421123778095083
28.225 0.06887471233707157 0.06350202564137965 -0.10322339973221259 -0.4368300873390748 -0.09408111552800277 -0.46333372082089047 -0.10560848510111819 -0.03992737524998841
28.72 0.002099241289632793 -0.06751563884648504 0.011253787999418908 0.4426766796093147 0.033645222775092735 0.45319835008337656 -0.13598989603043324 0.10065080939808202
29.215 -0.07391673694739484 0.03774128210789043 0.03409167546869225 -0.4265810606717624 0.038418089785323704 -0.44608281897002444 -0.2134810569476271 -0.012277923048903462
29.71 0.059647195549172534 0.05436534726342597 -0.09634260031556464 0.43149452224005536 -0.09177992462022318 0.45005217984159657 -0.07794610195406423 0.009997943734402003
30.205 0.03854613166353901 -0.07573794571759428 0.17714395076382877 -0.40076512175395007 0.1491607309927519 -0.4066518962341039 -0.17907510510245417 0.0976197492410011
30.7 -0.04687617912918823 0.005250481761241785 -0.2174666264421116 0.37615583356535826 -0.21211326001185765 0.3839845847748349 -0.17200186386162394 -0.030018850812082352
31.195 0.08217009715960426 0.05347598830016335 0.2693378907515319 -0.35148944770209284 0.2568005286053168 -0.35572352252181316 -0.07867086847928914 0.060434768030685905
31.69 0.09432183247932063 -0.06317546245603751 -0.3172502855257398 0.30343187967308344 -0.29818088347382066 0.29427614941349217 -0.20108905655276876 0.06739717083661792
32.185 0.009019134031577383 -0.004824785384663584 0.35172467798542817 -0.2617656704839395 0.3475192393184385 -0.257170543151002 -0.1267288962377563 -0.024581139516787903
32.68 0.1170066928439231 0.06541647945163506 -0.37691678052227573 0.20831008030616135 -0.36862984022365924 0.20271303019580633 -0.10613524612295712 0.09235202014301443
33.175 0.14769563582536377 -0.0358289176515323 0.3952798625529043 -0.15720066276040354 0.39019690430412907 -0.1338577674022357 -0.20156447492196375 0.028133055097149796
33.67 0.057367414143045775 0.003365653048670114 -0.41683741193237567 0.09722228980105517 -0.41753741636218605 0.08709885213629238 -0.09035777702348213 0.0027730658981531095
34.165 0.13441386073690356 0.08432120435079914 0.4055536339456015 -0.03415523247270497 0.4096244118960621 -0.02099168612927357 -0.14093209564669762 0.09685750930381985
34.66 0.17069964813313418 -0.004944291876000663 -0.40193403233547714 -0.0149834485255457 -0.41602035196033627 -0.0420420641312561 -0.17246646060895923 -0.00495038423220647
35.155 0.07622369374726183 0.01789895023680748 0.40319305048857934 0.08535248679709705 0.41429177046459403 0.09435198599484387 -0.07476769128330135 0.040863201331005725
35.65 0.12689533534586922 0.0996801492234806 -0.36954299532191254 -0.1397761333735591 -0.38138139223259837 -0.1535910649144062 -0.16979013896543216 0.07646848315441217
36.145 0.16818649729978585 0.016798735726230994 0.3505857853865778 0.18378793431051008 0.3681044406518596 0.20852015233352963 -0.1271668126737537 -0.016829991024581253
36.64 0.06667315683543201 0.01988411153280952 -0.32172509613141925 -0.25014066946639557 -0.33418689029634874 -0.2491432220442019 -0.08257275289272 0.07408694679422619
37.135 0.1007600028023215 0.09676949354756488 0.2735192340947212 0.2831031296588116 0.2866092202028384 0.29577872359502166 -0.17210843600044337 0.039792749928125086
37.63 0.14434064309268552 0.014923432048975994 -0.24059731568586287 -0.31733904033160176 -0.2571372615379159 -0.33305905217296056 -0.08178921105357113 -0.00377120814382677
38.125 0.04578293073129927 -0.00495439367746374 0.19191420450733393 0.3613503729345701 0.1970407966007195 0.35145006205799006 -0.10850544435487391 0.09057637138030163
38.62 0.07082347894405511 0.0696228062452685 -0.14031756483124797 -0.3762622837300645 -0.14673719964424325 -0.3797553842146133 -0.15369883210926383 0.005726006062054042
39.115 0.1269549585116218 -0.011717929538338171 0.08824888668928484 0.38958260762857494 0.10061227102702756 0.3922951713145793 -0.05555558344421275 0.02927837833415928
39.61 0.03226659877152914 -0.05022666263923579 -0.03515624900984877 -0.3976592996772748 -0.03269808718887203 -0.3928230638693815 -0.13787142430696991 0.08232093684625902
40.105 0.04872454832700453 0.031015943580011165 -0.014384444915358336 0.39787221667266554 -0.015748886787389237 0.3971056205216125 -0.11777068694356434 -0.01467770859443929
40.6 0.12234454795160109 -0.041073041708646084 0.07531445173352257 -0.3831950337263634 0.06824246449977747 -0.38210952783018687 -0.05537705470927918 0.06697977147948132
41.095 0.03431002320128701 -0.09115959511313639 -0.12027316469087827 0.3614448140649339 -0.1298391887181925 0.35830533099502304 -0.15867046513978456 0.055649815263755266
41.59 0.03797452654677442 0.0008709671307537958 0.1677864895360873 -0.34695929133715037 0.17333740447662 -0.3455833912071639 -0.07705853218998177 -0.014367656806536521
42.085 0.1334845767813214 -0.05053288210703012 -0.2194381768246108 0.29868135179121924 -0.22210794458570768 0.3016491353361915 -0.07784140477266614 0.09088841547145395
42.58 0.054396447449776925 -0.11241657334542374 0.24944537521752674 -0.26301500699094943 0.2666422392890975 -0.2655608422451063 -0.1562252622164763 0.01665892149617908
43.075 0.04058695016468457 -0.008658228999004014 -0.2934948875222338 0.23311555477925675 -0.2962998999813597 0.23419585282754318 -0.0445526336554998 0.007423568907828937
43.57 0.14557366446137399 -0.033540277539416394 0.32252752923620054 -0.16961572985256776 0.3260029225341404 -0.17252393477524658 -0.11480927121217463 0.09202497060567699
44.065 0.07662615957105359 -0.10694892885102372 -0.3376753207719478 0.1275481761689164 -0.35508962070559874 0.13447875611943536 -0.13149996440301098 -0.018138107731595163
44.56 0.03767339997093896 0.0005045458051717445 0.3659502357231922 -0.08300104748665503 0.3621133748676603 -0.0847524643449137 -0.034566548177836755 0.040501637172375315
45.055 0.14572206900685689 0.003312435313853728 -0.3683815616210738 0.02222573056461163 -0.3708048085780438 0.02057832389065429 -0.1434207020480629 0.0691530041324569
45.55 0.08698668152144134 -0.08312359528550389 0.3656541056831325 0.02369055048565724 0.3778380369227435 0.018189450927533178 -0.0924073696970635 -0.03618574604538273
46.045 0.0172211776919278 0.018686672031339904 -0.36670819058767085 -0.07147863449274162 -0.3627371764746665 -0.07450154656320515 -0.047398196565127206 0.07049704603976156
46.54 0.12289676074446727 0.04848897077713204 0.3463330932586971 0.11533856892771599 0.3506275511678595 0.12897950119106497 -0.15396371067213627 0.02963124055469109
47.035 0.08534069936808393 -0.051425409773245015 -0.3286974018972915 -0.1655124895038743 -0.33546325960861584 -0.16317116674154297 -0.052149011758440625 -0.031282232219528534
47.53 -0.009629393423052239 0.027859867591922532 0.29559239466900467 0.20487815782306776 0.2949915296890596 0.21318503999765853 -0.07543904793051034 0.08397105701599246
48.025 0.08824271281786096 0.08287522692133378 -0.2676822090805405 -0.23202364529217376 -0.2704810419445741 -0.24981462104975155 -0.1435484036382137 -0.012181693622714334
48.52 0.07994121603599227 -0.029138670620557115 0.22535523335046692 0.2759136728780573 0.23331523224603362 0.27684123977144576 -0.023912031869514752 -0.004912267787296655
49.015 -0.029402201575783746 0.018083813404015887 -0.1722777583892813 -0.29500225237920563 -0.1780646658766729 -0.3095793183986777 -0.10865410773793008 0.0763956518029236
49.51 0.05670535361276496 0.09199103070065023 0.14043577971364796 0.31056831226628834 0.1442460138552909 0.32670889595171954 -0.11344193536442107 -0.04248811016936698
50.005 0.08033278609475931 -0.021708026934438483 -0.08045680977044706 -0.3394277403188149 -0.08888566339661896 -0.3364805044154009 -0.021332547206256738 0.031178666807617425
50.5 -0.02785287973351692 -0.008264106034439783 0.023632188488921988 0.33422718694250303 0.03220035106325396 0.3453242709703309 -0.13461028031738367 0.04919726721361562
50.995 0.03755495524574425 0.08219416124368961 0.011044357391728146 -0.33842151667572906 0.0035095738380407143 -0.3451826994765998 -0.07190861391289985 -0.048548015772587355
51.49 0.09509833427971306 -0.020099842043307885 -0.07261510947247433 0.3382557952280979 -0.06713369578377971 0.3316260677155113 -0.040987723081611444 0.05900905068198331
51.985 -0.006319853686127846 -0.035300814232517595 0.11987918887214276 -0.31729505601992125 0.11498210860856051 -0.3241829963569363 -0.14260676941479156 0.011690540461535318
52.48 0.0384478672782654 0.06390349157021374 -0.15502702649386943 0.3061774036413233 -0.1499301895399439 0.3036381361133704 -0.04185611833729751 -0.03593538366020435
52.975 0.12238457043438608 -0.012362076469268882 0.2025645425883741 -0.2798650419400139 0.20269623411649945 -0.2690996128814874 -0.07754007514741025 0.07047146896817642
53.47 0.03697712313123429 -0.051032187711892954 -0.2361761640996372 0.2504070868867482 -0.237362112812517 0.2484129762181526 -0.13107285614879421 -0.02512786452960645
53.965 0.05623416842801421 0.0531825748982815 0.2648126723369183 -0.21513620035323588 0.26535091634853075 -0.20845212842901784 -0.027170985358660065 -0.0073685013568098885
54.46 0.14991004583744982 0.0026866472008663647 -0.28482459431760004 0.17286745901044018 -0.3001303235184266 0.16341864466884734 -0.11196116927851345 0.05507347802978521
54.955 0.07823986792514824 -0.04964656599760114 0.30576738483084764 -0.1358182239182894 0.31678992667933986 -0.13189153352792873 -0.10274328056870521 -0.048340759334054066
55.45 0.07113501337796548 0.048731822421956617 -0.321142266160185 0.08489322936369657 -0.3289393309602853 0.07945433494168584 -0.0338273598658214 0.020810429356318518
55.945 0.16000495713556256 0.02293083236035277 0.31366020870092165 -0.0408437006878418 0.34189881187866933 -0.03200606372776017 -0.13403011122885694 0.022154230274399316
56.44 0.1012972340579599 -0.037695523342977454 -0.3248566702481934 -0.0037551380469512097 -0.33803238736617575 -0.0054273193008187864 -0.0730912767420047 -0.05277384250208036
56.935 0.07199495321319285 0.049064416283743674 0.3164115624876536 0.05945731234712946 0.3297075213651137 0.06125588759791537 -0.05965409954170292 0.03861780324370036
57.43 0.1535992827737496 0.041219674618868316 -0.2954609525211065 -0.0975830791211895 -0.32182331708177153 -0.09891968202023976 -0.13481353563494491 -0.01612845659295071
57.925 0.10646289845524573 -0.026920905862418652 0.2884945276977916 0.14249848519355773 0.29756688745417625 0.13856029693366792 -0.04782204745863243 -0.03548852754502486
58.42 0.05826606692591296 0.04248635996083449 -0.25917570475580387 -0.19010690212380132 -0.2722619361482415 -0.18522360238561397 -0.09123166503132613 0.036906252177114234
