!Created with skrf (http://scikit-rf.org).
# GHz S RI R 50.0 
!freq ReS11 ImS11 ReS21 ImS21 ReS12 ImS12 ReS22 ImS22
1.0 0.513635516990205 -0.7177033279894816 0.0018636165870650385 1.1758546172750835e-06 0.0014125117911418885 1.5943354426619113e-06 0.2949582071147763 0.7992157444675693
1.495 -0.8129559975760624 -0.15716826065235123 0.000609620972541612 4.680270177781357e-07 0.00013744198525997688 2.4828085991971265e-07 -0.8559014548800303 -0.12487388343571244
1.99 0.25672824255369586 0.7937320578661643 -0.0002655513923320237 -1.7850991177007987e-07 -0.0008946705126102708 7.28318257864341e-07 0.5439676647637163 -0.566165086768663
2.485 0.7597831079481875 -0.3447198385322748 -0.00024458933448493115 5.119536930732347e-08 0.0007271950751941752 -1.3253862277065315e-07 -0.24283452220186658 0.763990352121457
2.98 -0.5063020497111281 -0.5879452090327475 -0.0002524688573764258 4.616577528523303e-09 -0.00024011176432690078 3.4304598282021247e-07 -0.6334742749415067 -0.5002925413008077
3.475 -0.21045650338067648 0.7420279858831162 -4.684184475006643e-05 -1.6894841939629384e-07 -0.000852822445059633 -2.996385625975463e-06 0.7100507658225187 -0.008489663836556909
3.97 0.7955835613665474 0.05930709028501486 0.0002707656070345865 6.975619609040638e-07 0.00026646728823818543 2.2735868569460705e-07 -0.6050627288411385 0.49374293451421486
4.465 -0.06266325114199953 -0.7498287265952875 -0.0006209678816412675 -6.342358022540046e-07 -0.0001716063510734271 1.260780806423021e-07 -0.24290180532206596 -0.7020781335783983
4.96 -0.5691423723852803 0.43928795138463256 0.0008761820107427872 2.4066389517563686e-06 -0.00039491433458882616 2.412646792154043e-09 0.4821107043187519 0.48009112357196415
5.455 0.6345285108849988 0.4187555529602757 0.0007394571393685803 -3.1842933123391464e-07 -0.00023344358327441253 7.086256792260679e-07 -0.7523579399925384 0.12045360802627901
5.95 0.34595494959285206 -0.6526893482681583 -0.0003440359528908625 -8.810621495582204e-07 -0.0029292216847377297 -1.0484032405197454e-05 0.2109812548833533 -0.6447302895795302
6.445 -0.6755372645036051 -0.013609532612603795 -9.127144074132889e-05 3.301046187452704e-08 0.0008564651563928389 1.8309081141667603e-07 0.044350090240192264 0.6774123487726901
6.94 0.3186710925391351 0.6449528200477962 0.0013944235673734881 -3.1599611556349952e-06 0.001210398176917687 2.4939783635599296e-06 -0.69061236377666 -0.2496365154607946
7.435 0.6202657187395624 -0.38264634716579543 -0.0009803499072587982 9.152381088673389e-07 0.0016028315788172759 2.65101165682742e-06 0.5373330406191799 -0.2945721623078447
7.93 -0.5052209445524187 -0.42091811610869323 -0.00023691670458987418 -5.417159312051682e-07 0.0009967545222182063 1.0200732758365246e-06 -0.36600854484315615 0.5860271795422295
8.425 -0.0780815822385652 0.6662344258829095 0.000698433905561907 3.91164104243846e-07 0.0002537806636319438 -7.855015733742626e-09 -0.43987315127716636 -0.530865470057628
8.92 0.7121885180244985 -0.03442407057874253 -0.001010625170648127 -2.4705554256538053e-06 -9.361577443534794e-05 -2.130296458073043e-07 0.5522127456504798 0.18123971854618484
9.415 -0.15132157566907242 -0.6355775379074283 0.0010199802210173535 1.2228280560601509e-06 -0.00017781593368633824 -5.083061355745603e-07 -0.621108651523642 0.30940557873917346
9.91 -0.42260895622702555 0.46447432478353307 -0.0011543842627896935 -1.0965033838809269e-06 -0.0004183558923917209 2.6632983187680563e-08 -0.06035803507082016 -0.6278255933354203
10.405 0.6188088283194336 0.2989689116177162 -0.000755908683406143 1.4057802814023086e-07 0.000522471622149684 2.2138043956998185e-06 0.26677443497710274 0.5236426001288711
10.9 0.22757924849107167 -0.6177629940120519 -0.0005515774869916355 -1.4203189975766193e-07 -0.0017256315969717143 5.109941583237344e-06 -0.6811038242021362 -0.029352649579097865
11.395 -0.5871640400934266 0.09117178806374139 -0.0008841518589367628 -1.2345914769264673e-06 0.0008337244380495492 1.3791550165447999e-06 0.3179846440021648 -0.46612032016812066
11.89 0.3715271391227318 0.5404386052530997 -7.251290360699553e-05 -7.832448078094081e-08 -0.0016818053243426037 6.312668397003661e-07 -0.1273637383927241 0.5978592342382021
12.385 0.5130370068084352 -0.41432673132714626 -0.0005927027864169461 -8.516987647544571e-07 0.0005547446964588491 1.3155943476221494e-06 -0.5566043244587922 -0.3432443417850938
12.88 -0.5012770045408205 -0.29283324358433477 0.0006004137430270587 -1.0168174178497544e-06 -0.00018189678110193166 5.79965773802797e-07 0.5105556300851417 -0.09137917243407027
13.375 0.02677546155631763 0.6138559914748416 0.0019988811694122916 1.962309764037761e-06 -0.0023640058793592306 2.468649744405296e-06 -0.45133619195646335 0.4441501051953872
13.87 0.6452816268914354 -0.11528820812491343 5.469654425991805e-06 -4.4415381105208856e-09 -9.070045022685257e-05 2.409560057954189e-07 -0.27523527657318647 -0.5411085364500168
14.365 -0.21949301738041868 -0.5421128051217643 0.00046209729052716723 1.731044125451586e-06 0.00011562705538640775 -1.3363995893071533e-07 0.40691706526778915 0.3089633356518186
14.86 -0.3104052311217706 0.48128124297992925 0.0014900009289697765 8.041979119325757e-07 -9.66320676597793e-05 6.494773962077352e-08 -0.6170500223306072 0.16322663189953596
15.355 0.6026152670395776 0.2006321302397727 0.0008038086482180578 -7.210217032251875e-07 5.512557265537085e-05 -6.490928509686185e-09 0.08453419823206935 -0.5390937137643552
15.85 0.12684168975409138 -0.5848129162139869 0.0018813267622767456 -4.084679118769717e-06 0.0013494471617848548 1.0326478584270001e-06 0.09213154381151786 0.5277940568167965
16.345 -0.5062893388957809 0.1766755399140746 -0.0016704478213799322 9.536865334781978e-08 0.00010629807890485428 -1.1302499145661351e-07 -0.6048201348937652 -0.15080690113707174
16.84 0.41216475787129425 0.44945391831274434 -0.0015025969293264876 -7.47398708257423e-07 0.0005527840801591371 5.016042426766013e-07 0.37703805621655834 -0.3015683968368053
17.335 0.4182949230758693 -0.44051284139513297 -0.001491959832173333 1.0762161730936739e-06 -0.00037815235396685483 -8.448585933869507e-07 -0.2573948179846938 0.5120927260107144
17.83 -0.49034564848115253 -0.18493963555506282 -0.0007218654419927931 1.367320203862589e-06 0.0014104261924064046 5.143455772471383e-07 -0.42702578462695556 -0.4076209856652691
18.325 0.11401185813771118 0.5637558436701803 -0.00045259403585536085 -3.1828360929987436e-07 -0.0006774791181190845 -9.487756642821236e-07 0.44525349831785416 0.07242473874356124
18.82 0.5827986445594794 -0.18071720370782002 0.00074556226725915 -7.791336945794731e-08 -0.0007365876462704447 2.402502528196214e-07 -0.5033084370502278 0.3131448914672196
19.315 -0.2726808883824347 -0.45391591203031906 -0.0015030408660832008 1.2673483392929182e-06 -0.00022962303837804123 -2.6420642073228828e-08 -0.12979776992996597 -0.5224046798534873
19.81 -0.20881185920437134 0.4882723249995575 -0.0010244273329997888 1.6545592175205502e-06 -0.0010535529730412553 1.318316248351663e-06 0.26298987030711757 0.3882442412402887
20.305 0.5868223152411078 0.11338156019767844 -0.0002863050986518394 -5.615348670127327e-07 -0.0006042089444366081 -2.6206996084364114e-07 -0.5943716081621688 0.0313589556483711
20.8 0.04254288257962281 -0.5456469602007916 -0.0003270653149098695 -9.560460594118104e-07 -0.00039551670266578705 -7.871929310610512e-07 0.19499836830892547 -0.42983248073024044
21.295 -0.4312711011645379 0.24158927419299467 -0.000488590130652409 -1.4026839460489493e-06 -0.0007277610106121558 2.9377700858565518e-06 -0.05449625487151512 0.5037142047678445
21.79 0.4452380376705513 0.369816641407053 -0.001380598262935626 -1.747308728639251e-06 -0.00029182582522943525 2.7586192924799596e-08 -0.5188067482502758 -0.2469640597905429
22.285 0.33156640712608626 -0.4532461620916004 -0.00039792628845945077 1.2556227962916351e-06 -8.464090954972934e-06 -1.2269753511679644e-08 0.39527138620699154 -0.14340176387643522
22.78 -0.46955417728374454 -0.08934024893375747 -0.001148753629082648 -2.2548476234612616e-06 -0.0011701458893146935 2.8952979385237924e-06 -0.3525219271682936 0.415429693427654
23.275 0.18378284106144246 0.5107314703171809 0.0011494217073597008 1.4476628947944874e-07 -0.00036389234479701016 -5.044918403783704e-07 -0.30112213055765075 -0.441208758923967
23.77 0.5198572886302939 -0.23583104938790084 -0.00045597263112519216 -2.904916958387761e-07 -0.0006221452798939776 1.1042037956973445e-06 0.3606004586657644 0.199318341632585
24.265 -0.3097401453926452 -0.3680980720964767 0.0004037470226935999 9.308450469919473e-08 -0.000493046965915627 8.141565840474478e-07 -0.5289232440639977 0.19390971181641145
24.76 -0.11694344902492346 0.48855141238814065 0.0011389328002938675 -3.1693454470650954e-06 -0.0011502861777201452 -2.7760205107309884e-06 0.0007843028851154684 -0.4722903605136741
25.255 0.5649148429442006 0.03726270747954399 0.00045838254504877317 1.9313360248901552e-07 0.0013579603731182347 -1.263272781040012e-06 0.1251903792194855 0.4278656669846119
25.75 -0.03302998619310086 -0.5028906374445673 -0.00034296138240859483 5.420103135728965e-07 0.0003653617767593405 8.032865053757044e-07 -0.5514534761548281 -0.08074808133039522
26.245 -0.3582938908209891 0.2953073609228104 -0.000589789623038675 -1.008149626584736e-06 0.002749869667977118 1.7944975436005663e-06 0.26827606302379065 -0.3063293844823114
26.74 0.4649826252430212 0.29026913461006904 -0.0008243705319790507 5.077704486468307e-07 0.0020397958761206474 3.7550537247550787e-06 -0.17850796127075613 0.45629386872336897
27.235 0.252005168863659 -0.4593800822777948 -0.0005582955033572437 9.736796353513057e-08 0.000487634286064625 -5.4353115495753055e-08 -0.4237193686014244 -0.3170908578922095
27.73 -0.44013000196306795 -0.003297212012466327 -0.0007488112227926889 -1.2292373151625521e-06 0.0002453833554165297 3.673121247124173e-07 0.37149746755649726 -0.002641706852647652
28.225 0.24416421828294715 0.4560077330350347 -0.0004585686231783798 -2.647585515449671e-07 5.2488992513320746e-05 -1.552665233691181e-07 -0.41773319476107795 0.3167393802616758
28.72 0.4578597112791871 -0.28034601928708924 -0.0014192069538780886 -5.610374106777781e-06 0.0023090815877256335 -9.624155492432838e-07 -0.17857336649874442 -0.4452349463535277
29.215 -0.33754384287410394 -0.2877927332358579 -0.00045211392380010854 -1.0299394908685088e-06 -0.000695841407402616 -7.525490693263606e-07 0.2563375975121234 0.292331040228632
29.71 -0.03497048818638196 0.4753127974480311 -0.0017538306121042241 1.0223949176442294e-06 -0.0008573367577086677 -1.2245339813799254e-06 -0.5310182779156721 0.0780138109646001
30.205 0.5364238834465179 -0.030814529585287836 -0.001577448940167705 -9.14703217138571e-07 0.0003573520749012787 -3.0814647032856606e-07 0.10613848865117373 -0.40173626604858365
30.7 -0.09757527357895365 -0.4547306951845882 -0.0014202848122807444 -1.4464373329967057e-06 -0.00010693683916195444 -1.0092492714902985e-07 -0.004615401404415528 0.43348001691263566
31.195 -0.28171412761674774 0.33079601510846396 0.0006515461645516099 1.1301604873791346e-06 0.00044190566218656673 6.039334330566879e-07 -0.4927047321856417 -0.1725882846092429
31.69 0.4740873658614898 0.21670111452003887 -0.00011744558533596543 -1.876998449767337e-07 -0.0010016659672628786 -2.5075564424715323e-06 0.3069592680096351 -0.18030624127937417
32.185 0.1766888296339006 -0.4538380909317192 -0.0006093822497375207 1.161878098056027e-06 -0.0004860298231994021 1.8549325795185734e-08 -0.27473263230269346 0.3927933113938772
32.68 -0.40296060963031205 0.071083527058156 5.611386175713389e-05 1.5034504988738415e-07 -0.00021147392538662564 2.1625493853292294e-07 -0.32270301885703556 -0.3635508429044573
33.175 0.2945112394581556 0.40119805927815366 -0.00032291760075300755 8.11077375426518e-08 -0.0007880624264743743 -1.5924168982771929e-06 0.3207305573941455 0.11766222757313033
33.67 0.3968618702645504 -0.31534021265601253 0.0007733297393936877 8.968515694472579e-07 0.001172159086715277 -7.342721479584601e-07 -0.4592788559693228 0.21481560649504686
34.165 -0.352364035345698 -0.2077796317385022 -0.0005618636716403731 5.397022854896138e-07 -0.0007343058449083762 4.465508177036185e-07 -0.06403875853373608 -0.42268803878429745
34.66 0.03864350649843184 0.4548045242029073 -0.0006451336250064596 4.306553570082495e-07 -0.0019691874536567604 -1.338620984395865e-06 0.14535923905694995 0.3492026758453721
35.155 0.5035709397512256 -0.09226647990013924 0.0006093930462421944 7.954178895849704e-07 0.0012878516173270068 8.757935526844147e-07 -0.5089735285261638 -0.0228409166706468
35.65 -0.15324157982748063 -0.39934456605860263 -0.00027855492733834346 3.095466407621578e-07 -0.0009523808944984068 -9.637477070640413e-07 0.1880047637235701 -0.308442594382143
36.145 -0.2104691472683436 0.3593513893921493 -0.00019573414532393006 5.05521703906122e-07 0.0008000862120701522 -1.5215361699258182e-06 -0.11690959244835131 0.41185794218533567
36.64 0.47913511214363486 0.14899090095743453 0.0011978927520495397 2.812791693499167e-06 -0.001217714200106379 1.5485737619533098e-06 -0.4199108743748096 -0.24640755271490777
37.135 0.10594685909428089 -0.4431889818990979 -0.0020165498991520114 4.416968712786631e-06 -0.0011379746221611413 3.755778242557143e-07 0.3132467775744356 -0.057503346505822256
37.63 -0.3607207972715315 0.13459922533149907 -3.008751346551405e-05 6.334590716658168e-08 0.00041592397799252074 -5.668730608680619e-07 -0.3474952046200805 0.31336906097487316
38.125 0.33417216332650174 0.3442471228851019 0.0009820710367316617 -1.8949013137461291e-06 -0.0013893522798773558 1.900508323372801e-07 -0.2173280829775608 -0.38351735166936946
38.62 0.3345623781810356 -0.3441826995923275 0.0007779929313624152 -6.825985982989692e-07 0.0008168217218937671 9.61913963053402e-07 0.24729145813634745 0.21277185825131273
39.115 -0.35395124571632747 -0.13439117166292316 0.0012022024292275733 -3.7573280361441027e-07 0.0015285128251720462 1.12159399660169e-06 -0.4751417875684355 0.11562147137260496
39.61 0.10391280396696471 0.4301282109527319 -7.03851349750291e-05 -1.1385737433208424e-07 -0.0007882300812288336 5.87494364653251e-07 0.036814262268943236 -0.3739599796402386
40.105 0.4642107458476049 -0.14495463981600468 -0.00019879692050006354 3.5709762240310006e-07 -0.002284035517516736 5.181288307179009e-06 0.03532527298296133 0.37109720327903783
40.6 -0.19785866973840058 -0.3430003122831381 0.0014604703759362656 -2.4352601303977317e-06 -0.0005718775402213073 1.493641833525898e-06 -0.46907491440294924 -0.11413653006455378
41.095 -0.14001929722831996 0.37376252734774446 0.0018469971135468039 3.8837096826956394e-07 0.0015875393537771218 -2.5403598061121437e-06 0.23657862680456396 -0.20500435784708337
41.59 0.47772173451206945 0.08843718200862703 0.0018522572281114435 6.458321455671607e-06 -0.00025267726085746804 -6.438249081331587e-08 -0.21063809101374692 0.37062369824307273
42.085 0.04190504370546696 -0.42191554217288957 8.43642236190096e-05 -2.4143927723866095e-07 -0.002199059950160117 -2.3368776457688007e-06 -0.33674802710651836 -0.2998995478747747
42.58 -0.3128298132854731 0.18846481954859937 0.00134849299499029 -6.242715660491548e-06 -6.897083143905038e-05 1.8667011643671975e-08 0.28547940064413735 0.053931261456213485
43.075 0.365194760450309 0.28804682570863277 -0.00016118939179836969 -3.4450322084409716e-07 0.0008023695889465049 -1.102077577769417e-06 -0.39873038204259603 0.22979863665013683
43.57 0.26981132382113887 -0.3592022592474377 0.0021141087576402443 -1.276179841647997e-06 0.0006765258665115504 1.7146951886330426e-06 -0.11510630247906478 -0.37809931491068643
44.065 -0.34804001532422413 -0.062445684812637514 -8.877844264771821e-05 3.980733324872075e-09 0.0005270977813633427 -1.6159944195663377e-06 0.15877594994069352 0.27821395919799463
44.56 0.1609681339649386 0.39813854408401406 -0.0008748164318421655 -1.3959085189840315e-06 -0.00215335808505437 3.419239129695016e-06 -0.46969559618480977 0.021652431430220543
45.055 0.424070219850997 -0.1921496354194323 -4.7431969238716075e-05 5.6441439412921686e-08 0.0010931487525385304 2.0647917766712308e-06 0.11743951977732298 -0.30658244029697207
45.55 -0.23179080265198665 -0.28431420984039263 0.0029714809911249376 -9.747296830588283e-06 -0.0004958266520161305 1.92392412979191e-06 -0.0679562597152977 0.3700896252979524
46.045 -0.07422591005944805 0.38190911522382687 0.0001590326189833504 2.3035786967981745e-07 0.00038138619640123105 3.8563016023364535e-07 -0.41473120810460296 -0.18790150981449694
46.54 0.4670203560052897 0.02557166765828137 0.0015814891787168815 -3.006060320189919e-07 6.479344031983619e-05 1.9950430897710096e-07 0.2576788178421377 -0.10023066534448836
47.035 -0.018187935791490414 -0.3930458340322142 -0.0007399535613651043 4.54374390777879e-07 -0.002305909483742391 2.7214794675750234e-06 -0.2877387193960168 0.3084870965585652
47.53 -0.26269426718407723 0.23330710323977816 -0.0008042570629821405 -3.869778057525282e-06 -0.0005493095037177542 -3.163276220250492e-07 -0.2468293274945911 -0.330903952571097
48.025 0.38900683184395224 0.22998857824676797 0.0002865015537537476 8.377078230873145e-08 0.001070795914702712 1.222583711600702e-06 0.2323836973711081 0.14774294404737554
48.52 0.2091021107045058 -0.3682868771909761 0.00020589848307028883 -8.631932533897537e-08 0.0009009605664082683 -1.3268635274969918e-06 -0.4247730494438598 0.14256321073849146
49.015 -0.33161178814965 0.0016548128742220722 0.0011122258529498023 1.3833103878386478e-06 8.879743003158689e-05 8.350685053662375e-08 -0.02030281374557568 -0.3489291984941963
49.51 0.21195020588824084 0.3641885047659613 0.001973076691438818 -1.1182659682599935e-06 0.0005063542114544141 -8.210160227076525e-07 0.06490330772964581 0.315683475885858
50.005 0.37913109347434903 -0.231148072976085 -0.00010791796284951044 -1.745386834150515e-07 -0.000590120945829833 -2.663675522431655e-06 -0.44563509041986116 -0.063384507541862
50.5 -0.25441129341298785 -0.22321900294150374 -0.0011318083391474 -1.1699947391858495e-06 -0.0013429333860368981 -1.3274459372452957e-06 0.1750381559499863 -0.22305032272414183
50.995 -0.012819966236896529 0.3790325019919208 0.0001696493382041425 1.2918806776621603e-07 -0.00045696830606293913 2.873914487686051e-07 -0.15936028807890806 0.3456276077631411
51.49 0.44864226358846493 -0.028546148567113672 -0.0018269022333519784 6.4019099978582614e-06 0.0005280085392586956 -3.9355704282201827e-07 -0.34570398325248697 -0.24435674186344622
51.985 -0.07035443264627264 -0.36007913472300684 0.0005687234338958986 -5.2886597275351535e-08 -0.00025796258592106935 -7.779403449787203e-07 0.2471817223854348 0.001192864707687051
52.48 -0.20937472135973503 0.2668645260038436 -0.0003186454956754833 1.7166746776476082e-07 0.0002230382325636328 1.4938552674717463e-07 -0.3454322957301816 0.24041840071696313
52.975 0.4024625048973068 0.17405230703563923 -0.0005805251081929115 1.8185462049707666e-07 -0.0009440171115093225 2.838350279007661e-06 -0.15523260103094072 -0.3377539758061938
53.47 0.14990845646887183 -0.36934285627317437 8.621324785925617e-05 -2.8158279353253563e-07 -0.0013295340002754297 8.580083993387346e-07 0.16509611387401021 0.2190959205843892
53.965 -0.3101507714341756 0.06105732457450573 -0.0008541231154086865 4.4950130692474724e-07 0.0002563660242222953 -2.0960331029578863e-07 -0.43424934957399414 0.05830017275939363
54.46 0.25387010986849373 0.3251268664519784 -0.001134900761534754 9.900266584603588e-07 0.0006381058286420846 4.5085988571709937e-07 0.059807927167202325 -0.29890814674583494
54.955 0.33139870816146577 -0.26041084947239435 -0.0001406652409725564 -4.3035155006544536e-07 -8.098686585485553e-05 1.0892315139674428e-07 -0.02799953392666335 0.3286883577319863
55.45 -0.27041324485031654 -0.16359889501794017 0.0017242599918316692 -2.517055906026499e-06 0.0004397107108390461 -3.808102250411035e-07 -0.4046203279859863 -0.13715217457053974
55.945 0.04673303958141892 0.36882042774453366 0.0008302002360288578 -1.5842234279703277e-06 0.0003777627912315255 1.0000538451701204e-07 0.2077757867240746 -0.13226284749376677
