!Created with skrf (http://scikit-rf.org).
# GHz S RI R 50.0 
!freq ReS11 ImS11 ReS21 ImS21 ReS12 ImS12 ReS22 ImS22
1.0 0.5142926230531419 -0.7202795306590434 0.00015325418210853446 -1.160534633067689e-07 0.0006537955033812588 -1.6710543477737827e-06 0.29500533918331845 0.7983203453415074
1.495 -0.8137725782549541 -0.15547428810276231 -0.0003784587065106655 5.31037160657422e-07 0.0006300486741630485 -1.8836966153270574e-06 -0.8581289530626109 -0.12452619750936306
1.99 0.2540375261149247 0.7929069314737605 -0.0012297956813518294 -1.0679740847010741e-06 -0.001097566937475924 2.8460950931349574e-06 0.5426274284834819 -0.5646017293175569
2.485 0.7556862350918992 -0.34239436773615967 -0.0009413244458504291 1.0198607498138246e-06 -0.0005470985136505434 6.650103312235962e-07 -0.24349564329173162 0.7658761505149491
2.98 -0.5083023820703212 -0.5841025026292657 -0.00034394426166302073 4.116970426640547e-07 0.0008844906334810311 -1.09642154692756e-06 -0.6360381939595654 -0.49875590512147766
3.475 -0.20869920377674447 0.7419736275364912 -0.0008181095482585665 -4.356848492768395e-07 0.0008100802255584346 -2.801364448436664e-06 0.7097845069534827 -0.011647901212944565
3.97 0.7928916555208604 0.06265797950953828 0.0008484682635157657 3.1851724073786397e-07 0.0007212276505439609 1.0092370621685026e-07 -0.6026268508194983 0.4958949460859537
4.465 -0.06610702657239678 -0.74637373626562 -0.0009066479988652327 7.437224739848528e-08 -0.00046145965097327 1.0755439972149511e-07 -0.24506608719309214 -0.7041649524452248
4.96 -0.5669452549869481 0.4389241979598477 -0.0008819924250419829 -4.26668192805187e-07 -0.0010192661284556908 1.4223572998717453e-06 0.4798511502908399 0.4780536516178584
5.455 0.6355723600629714 0.41714938450908245 -0.00011879489754364218 1.1277411908784094e-07 -0.0004564474582041314 7.734632001341072e-07 -0.7513026202626866 0.12206680665135068
5.95 0.3440268117589179 -0.6511046378965005 -0.0020991745950610045 2.757030364577652e-06 -0.0005379995058111932 -4.185532169412267e-09 0.21049270512658683 -0.6435983801570283
6.445 -0.6757626565862332 -0.010366285771424271 -0.0008001255542523168 3.653441642007497e-07 0.00038171365514456446 1.1388635488468584e-06 0.04103498431532958 0.6780166867705983
6.94 0.3178724974363327 0.6439384044518298 -0.0014476315615346016 -4.970682961553645e-06 0.001215087865092504 2.370433209435859e-06 -0.6894920918113605 -0.25070436584958056
7.435 0.6191104004199117 -0.381814332405714 6.22696889869899e-05 -1.5905798116613922e-07 0.0002041370543168922 2.328605579212495e-07 0.5365461488624631 -0.2953275835258193
7.93 -0.5023057534027288 -0.419703173055019 0.0010327631738878517 -1.6365533506195272e-06 0.0011724324798759718 3.7424511852212046e-07 -0.3660014210027942 0.5857629222381254
8.425 -0.0770037996606005 0.6660872835218902 0.0027069759277307394 -3.956407804041363e-06 -0.0004339251467388776 9.406550955643534e-07 -0.4390411710136983 -0.5300455245580493
8.92 0.709598457115731 -0.03496492293136189 0.00034453719194471296 1.860510182647796e-07 0.0004151621710783784 1.0905322196110956e-06 0.5522739831260721 0.17949870269165047
9.415 -0.15247000697989357 -0.6331640483958252 0.0005514915144877369 1.6015096314528554e-07 -0.0007022727186445555 -1.7349400470485928e-06 -0.6182396722863408 0.3118588413519727
9.91 -0.421795342990613 0.46419043406890675 0.001116659586243882 -1.3270530598250235e-06 -0.0011160069091245362 -3.874870189465131e-07 -0.05998490496880803 -0.6247965904246239
10.405 0.6196120620311472 0.2985157297837387 -0.00014915132977132226 2.3594725668912374e-07 -0.0018898427331387377 -3.1011145244999565e-06 0.26703864583286646 0.5202547938717894
10.9 0.2242666325928556 -0.6159127847374499 0.0016569773227995078 -5.465202660019818e-06 -0.000253220286777353 -9.520402511289428e-08 -0.680055198557367 -0.02972196856379315
11.395 -0.5838474050215164 0.0907777548836335 0.0010733239482845355 -3.428694039425454e-07 7.654621467859842e-05 1.8023456405515294e-07 0.3164336904979761 -0.46730327498396945
11.89 0.37033385406680036 0.5406655554060156 0.000998144378978545 -5.070157270640687e-07 -3.196549020269911e-05 4.976047425689516e-08 -0.12633036958692254 0.5973930274262347
12.385 0.5125448917867489 -0.4160334637292843 -0.0010968851122814924 6.304580527519891e-07 -0.0011181060028285462 1.978421361397731e-06 -0.5563118666332465 -0.3402349202739575
12.88 -0.49910317995888975 -0.2924280298435588 0.0016726742873782738 1.805094733104482e-07 0.0010652181194016816 1.503162580005435e-06 0.5074406440482052 -0.09317189858913952
13.375 0.026461898894528425 0.6122260580643205 -0.00016270721862885748 -4.563854442043504e-07 -0.0018358746705453676 -1.1623652959095858e-06 -0.4483610390253378 0.4427681348243192
13.87 0.6423765519144172 -0.11555269907876538 9.735238031970566e-05 3.6194410010889023e-08 -0.0008332041003852534 1.6397208297607946e-06 -0.2762207475172613 -0.5385984571187008
14.365 -0.2182191715846376 -0.5396939969822627 0.00014518120184392114 7.732797920607979e-08 -0.0004572283157619585 8.546336070942409e-07 0.40562387014468354 0.30687188071036203
14.86 -0.307804954451301 0.4809934215304332 0.003275609905367164 -3.80510330114796e-06 0.00041510154913732407 -5.36802263931794e-07 -0.6150572387850434 0.16304087394793762
15.355 0.6037392245658493 0.20000073924344294 -0.0010948373558699797 -3.298384860739706e-06 0.000703238949430493 -5.215584045288318e-07 0.08387204209279452 -0.5357419993948306
15.85 0.12544984709009527 -0.5818121368896104 0.0008195884241464529 4.092209612208572e-08 -7.704208712581264e-05 2.1636955461929222e-08 0.09188529922786753 0.5271070811086206
16.345 -0.5063106578625127 0.17511618318271077 -0.00035577699590336875 -4.6230645720612274e-07 0.00020585898817682764 -6.135942851343271e-07 -0.6063924448287867 -0.14874444660305053
16.84 0.4105155033564296 0.4498593078920644 0.0005297768936387402 -9.495029439030524e-07 0.00017857863994110045 -4.090622370782526e-07 0.3761628339729265 -0.3006781562586503
17.335 0.41757902914187417 -0.43906921350760814 -7.137432057120834e-05 -2.4824372112326357e-07 0.0014646431044617464 -1.705599479720722e-06 -0.25481776520503635 0.5084578817033842
17.83 -0.4890659415899365 -0.18259895631180034 -0.0013453145600362594 -1.1641499818667099e-06 -0.00011235989315583914 1.1546666088649576e-07 -0.42814154404980137 -0.404675141090546
18.325 0.11498196453940109 0.560495510874414 -0.0011438327020863578 1.7960326739889208e-06 0.001821754259547546 -7.468500523726547e-07 0.44440216899196977 0.07158772715431841
18.82 0.580012636586988 -0.1793923495211597 0.0002614519608327825 -2.88973673835393e-07 -0.001858997373975181 2.6564050277178454e-06 -0.5025521251591719 0.3149285511329256
19.315 -0.2707439820050795 -0.4508882083494687 0.00012431855763679587 1.0985514136048666e-07 -0.0006643403949231162 -2.606022335774186e-06 -0.1279923110077982 -0.5187114545877329
19.81 -0.20576892918174675 0.48577109138812347 -0.0015953339397974688 2.6393050288692497e-06 0.00041523965598034684 -8.775347144890162e-07 0.26131994374785533 0.3852012462718816
20.305 0.585130202869134 0.11384088795683868 0.0007875465422279296 1.1044814734670708e-07 0.0007763921268588513 9.148961206256743e-07 -0.5933111797857038 0.03172360785018908
20.8 0.041971714045892304 -0.5431227166081414 0.0005805015389783994 -7.103640765161583e-07 0.0005807663755554113 -1.660566840747053e-06 0.19439002050206794 -0.42807891740601184
21.295 -0.43065525246247566 0.24150466042264565 0.0005641967036222621 9.912997815060157e-07 0.0006151971351900525 1.2085606501275138e-06 -0.05635536071066283 0.5034416747945883
21.79 0.44336367145845595 0.36759082375507734 0.000984447211510051 6.407911038236432e-07 -0.0006779797063665803 -3.3551701781603964e-06 -0.5176868118796311 -0.24641079482518255
22.285 0.3313953937223943 -0.4537560772098408 0.00208979129217636 1.1410030367550038e-06 0.000989050218361371 1.1542335900032951e-06 0.39405198821330173 -0.14367605013519844
22.78 -0.46695694377786 -0.08646597099007301 0.0004670963937753599 3.3377947682171055e-07 -0.0007723612208336588 -2.1895632802820484e-06 -0.3504346944736407 0.4159552002471986
23.275 0.1849759709064553 0.5067579094150965 -4.732601328672554e-05 1.372527368601877e-07 0.0006091150126811965 -6.063533900736934e-07 -0.30212511817645565 -0.4398194667796909
23.77 0.5196318949675304 -0.23610001164909697 -0.00044911136602521294 -6.056031783918081e-07 0.0004013467411806569 8.151024920767346e-07 0.35834221559131446 0.1983774244395552
24.265 -0.3100713407729293 -0.3681968792056369 0.0009468261890600516 3.6445952708108186e-07 0.001873898200038433 -3.299133800082576e-06 -0.5249133885103703 0.19214568147508285
24.76 -0.11437310142145998 0.4846330872974459 0.0014280149740015288 -2.469755363712984e-08 0.0005915027491471104 -1.50062356058052e-06 -0.00182765606554421 -0.4706086209635079
25.255 0.5642617241753303 0.03733789416537575 0.0028007738650223 -1.0252219448234337e-05 0.0003064592001711372 -7.524852333778321e-07 0.12435260786521755 0.42784225551023436
25.75 -0.03259681463530749 -0.4991115442628468 0.0007362544123783985 -1.627480784266166e-06 0.0005257462133650184 -1.9750340289378293e-06 -0.5510567906382059 -0.07886132916392255
26.245 -0.3536318607334741 0.2950009260557071 0.0018621925006562208 3.438508887788087e-06 -0.002141588263972293 -2.398697459193182e-06 0.265990263009274 -0.3072292441295701
26.74 0.46490219779316255 0.288703510169386 -0.001550170849015017 2.9012363293234444e-06 0.0006271021103438632 8.560386061364688e-07 -0.17694300694335455 0.4568434295802704
27.235 0.25185368541741404 -0.4566308927706003 0.0015194206141049044 -3.767208626747625e-06 0.0006171681074107916 -2.7572585127200916e-06 -0.42330939171122633 -0.3142762828079805
27.73 -0.43849189617751105 -0.002003583580732064 0.0012708501437280848 -6.780953509501506e-08 0.00019214038850593515 1.507011723678392e-07 0.37164218806198623 -0.002570130540665389
28.225 0.24393711993956022 0.4531982505523808 2.2531841236247957e-05 -2.3440400770728097e-09 0.0011813570531665118 8.93739443556247e-07 -0.4149857073794339 0.31528286895460605
28.72 0.45685207109808207 -0.2817618196114197 0.000719801994227657 -5.07535738196104e-07 -3.21629280813958e-06 6.97328496504032e-09 -0.17924906840551508 -0.44218998075370636
29.215 -0.33395892879242234 -0.2841879462762498 0.0007985477470914202 1.2730450563582457e-06 -0.0005642058793905246 1.327872820350258e-06 0.25475270324040805 0.28747327097586084
29.71 -0.0345048655879949 0.474549941053922 0.0008584641963045304 1.7408323361031846e-08 -0.0014728016644028827 2.230099771066322e-06 -0.5274835057018292 0.07872703925971232
30.205 0.5362067014313662 -0.029911901588388672 -0.0011174207192745592 -1.9217454949929973e-06 -0.0014178553933694756 -1.960770811055377e-06 0.10470727329281805 -0.39743734245932366
30.7 -0.10025469781929129 -0.4500824567865219 0.00039381096516354525 -6.325954836897819e-07 -8.922858071519646e-05 -8.316130110375357e-08 -0.003513917632122051 0.43259220353488115
31.195 -0.28010765412970445 0.3321457666535404 -0.0007152628300161711 1.4616912675856986e-07 -0.0012152549968852634 1.9014628637654965e-06 -0.49143404815675956 -0.1718463939840864
31.69 0.4763591926139874 0.21792796007984735 -0.001408010294196171 -6.594540726092333e-07 -0.001252253497381961 -8.326917313185877e-07 0.30591318139141166 -0.18205099013174303
32.185 0.1755460905321628 -0.4535230666084097 0.00032493327696138526 -3.654687701992619e-07 0.0005092095408194842 5.827852015026532e-07 -0.27249092070530073 0.3906114669428773
32.68 -0.4019985028933137 0.07176255051711797 0.0002986755234921189 -4.9051860024194526e-08 -0.00045749785369144264 1.1775801682682022e-06 -0.3217393893566298 -0.36041275049980925
33.175 0.29418145479867425 0.3990144402650523 0.0003219553024855845 -1.1028315625648045e-06 0.001649987966620072 -1.7459488459484797e-06 0.31875036242718213 0.1171011617888916
33.67 0.3947411130239915 -0.3167077539979909 -0.000170073813909697 -2.7150786071125753e-07 -0.0004631916297072544 3.853248701005149e-07 -0.4566612805806492 0.21435936484140863
34.165 -0.34884112546195406 -0.20800778360949324 -0.0018273317291714049 -1.33274818524162e-06 0.0011452766395554483 5.447106604646417e-07 -0.0639587941174286 -0.4191652472016829
34.66 0.039653674252161715 0.4527108427432537 -0.0007590419156144673 -2.4573678004704028e-06 -0.000644538944861389 2.925672147492246e-07 0.1462995978343785 0.34458778890811714
35.155 0.5021238012809238 -0.09100017203476415 0.002283962872711586 4.072908327251247e-06 8.610602822147098e-05 -4.275251530637431e-08 -0.506617669459349 -0.02255856623049558
35.65 -0.15234910802519555 -0.3983711672425057 -9.706221451771619e-05 -8.723302620835522e-08 0.000667586554581374 2.1137075163882853e-06 0.18271074822638075 -0.30668804164503954
36.145 -0.20782234778844025 0.35688709678346475 0.0018181401848955745 -5.3181690346249675e-06 -0.0006047037833839068 -3.5705814444528224e-07 -0.11432624596163851 0.40924534314818
36.64 0.4794807216043047 0.14819536537160938 0.00022466869031985865 -8.775136767453527e-07 -0.0009705410742086206 -3.0323996503978596e-06 -0.42033392459246854 -0.24660215226327334
37.135 0.10436854943174947 -0.4411323553987467 -0.0007055141803582923 -2.7981782252153805e-07 -0.0011377203844734442 2.682454930209997e-06 0.3087006754278892 -0.05819606770388985
37.63 -0.3591876825071292 0.13705966207193102 0.0005665211956889559 -1.878133113667642e-06 0.0009804693161408538 -1.3748336609855678e-06 -0.34584526534566035 0.31470372753511466
38.125 0.33425510083772103 0.34321693707093603 0.0005468299712175388 -8.952699044988174e-07 -0.00016339855262999226 1.7779453173559356e-07 -0.21696455711943813 -0.38150261699934457
38.62 0.33051950635592686 -0.3405074840146818 -0.0018775401628456359 -4.7287702467577394e-07 0.00024266742549588057 6.363675956998384e-07 0.24517070479362374 0.21001241882111435
39.115 -0.3530738375191228 -0.13169750441043962 0.0005520603955273734 -6.146035122262961e-07 0.000600867377237209 -9.423351965793094e-07 -0.4717680962601842 0.11517655787747723
39.61 0.10330158584952542 0.42957520818419015 -0.0007615880370873391 1.3417436299621807e-06 -0.0008776554259705597 -9.73106019983355e-08 0.035197848930367696 -0.3719883410361528
40.105 0.464566213418717 -0.14541905656887125 0.0003735375836899359 1.8998418506769127e-07 0.0007096275218502251 8.518820840838397e-08 0.035765564966259725 0.3712614383243022
40.6 -0.19609696644051916 -0.3401380595617729 -0.0012117498717472957 -8.883784534733778e-07 -0.0006081931117610986 -4.123369746538704e-07 -0.4691252769723474 -0.11186843183621833
41.095 -0.13960417770744996 0.37420562879252006 -0.0014408962347342593 -1.2930110681189396e-06 -0.0004291105310380105 -1.3662235125483282e-06 0.2347147426761256 -0.20629572668584978
41.59 0.4746351208263993 0.08462726472852097 -0.0002015013403057107 -7.06425167289564e-07 -0.0003351880056687923 7.094445157088609e-07 -0.21075674723250623 0.3672562587076658
42.085 0.03962069404280191 -0.4184695572768155 0.0002616093439371762 6.871762082868294e-07 -6.576085357412484e-05 4.381461598407285e-08 -0.33546460163567954 -0.2973340785190046
42.58 -0.31218536851438666 0.18832366935330866 -4.996700248861073e-05 6.435427585021825e-08 -0.00027856192168371034 1.9240877982307498e-08 0.28171812578892075 0.0513094311101883
43.075 0.364483299532463 0.2854551658539081 -0.00020383749587360773 1.7225817159933893e-07 0.0003444143171501126 4.8240042681675236e-08 -0.3963124657159211 0.22997013774133374
43.57 0.26852944900222236 -0.35733575509784854 0.0004505498643641653 -1.0049189682870706e-06 -0.0008809626458351837 -1.2650383591473802e-06 -0.11602452491088429 -0.3768501217232227
44.065 -0.3455766339985606 -0.06116211602866993 0.0008801197158381775 -4.274813557888089e-08 -0.0003359910626875557 -8.612081134491721e-08 0.1578948230023129 0.2761643219887356
44.56 0.1613162448967103 0.3973024207880982 -0.001036141068745257 3.960048457093339e-06 0.000860558146382536 4.898970820137652e-07 -0.46690875836299833 0.0218657814723278
45.055 0.4225952640927975 -0.1904321890546808 -0.0007136618149292027 -1.0767986838537107e-06 0.0012851888472725738 1.0852753110343115e-06 0.11477151799934397 -0.3056719887738313
45.55 -0.2312029861985631 -0.28142700767055934 0.0015952272199240764 -4.983702471833981e-07 0.0009477906611768783 -2.4533647901094773e-07 -0.06696760957187693 0.3675341760241756
46.045 -0.07130564864141653 0.37939998389079976 0.0007706529453270155 -5.727795932121174e-07 -0.0004840537921947914 4.4411399250009265e-07 -0.41249116780805306 -0.18613449091654666
46.54 0.462534779924171 0.02554721119482585 0.0006675097343546804 7.317610599127208e-07 0.0005660046147307944 4.370792669855852e-07 0.25484327709767396 -0.10066294089966273
47.035 -0.01984481027603713 -0.39029063759062205 0.0007988760737507279 2.0092836867689465e-06 -0.0012461651436802528 -2.1699619109399424e-06 -0.2861472149805993 0.3092553167495437
47.53 -0.2614054464150082 0.23269292514969783 -0.00013013155809516542 1.563803219100441e-07 0.0003865071047643678 -1.5882226748737676e-06 -0.2461112636763744 -0.32726145211748214
48.025 0.38633689349758465 0.22985439183693326 -0.0003780342849277985 4.677484520922115e-10 -0.0008515166053799224 -9.372558375403538e-07 0.23208442523490846 0.14512432280577028
48.52 0.2070384833846822 -0.36696636438288716 0.0005675167334963559 -3.7488500379952485e-07 -0.0015853216294932728 -1.5522259619970482e-06 -0.4236877156324312 0.14358812068722857
49.015 -0.33040393119831524 0.0034136645468511896 0.0008274738545314955 -5.37456389192436e-07 -0.0008449306333508912 7.800611491145326e-08 -0.021985643165902076 -0.3482834508897117
49.51 0.2105880004588865 0.36131440192429626 -0.0010331637185223626 2.0754013646507084e-06 -0.0005667125551641676 -7.066605172347711e-07 0.06439945663723785 0.3138599007850974
50.005 0.37562194277178723 -0.22867059758718988 -0.0009269876413804919 -5.4285089285727366e-08 -0.0009735314463893304 3.368130172238871e-07 -0.44384437958903766 -0.060765965384499784
50.5 -0.25551054343194324 -0.22178386411629566 0.001190808936852586 1.2691949005083432e-06 0.0004316616099094549 -9.891908189397565e-07 0.1720529237112301 -0.22092990149837444
50.995 -0.011251823661981481 0.37900171698868884 -0.00021339758449227643 -4.141337184363814e-07 -0.0007422914294659654 1.561934568122283e-07 -0.15790759359452822 0.34280078676248255
51.49 0.44594950089672986 -0.028594365395223066 -0.0014979127628096253 1.6508002461647443e-06 0.0007264414447976209 -1.1489351955542537e-06 -0.3438215974055513 -0.24191747114145706
51.985 -0.06916140338413783 -0.3564800565363996 0.00045968160873365054 4.4653833846301127e-07 -0.0012371783977475164 -7.201991823340635e-07 0.24578757730446224 0.0005759504003024617
52.48 -0.2072906115229551 0.26653516121792675 0.00042333767462852105 3.2422604574208047e-07 0.0007694143837444176 -9.026772287863818e-07 -0.3418401447651705 0.23949164143336837
52.975 0.39875463329722943 0.17218804899452783 -0.00130139580819393 2.9987416167510136e-07 -0.0009556181871543768 -1.3501742338756743e-06 -0.15603545107637923 -0.33656864535176645
53.47 0.14802130439076472 -0.3659563218772885 0.0013967895628082072 2.1139385296748567e-06 -0.0011071004686178227 1.660545132620434e-06 0.1631377399172293 0.2160047344414593
53.965 -0.3067128924087715 0.061043120379548135 -0.0008632617400503393 1.9548339155417388e-06 -0.0006437305459604353 -7.363791460213169e-07 -0.4295979241195161 0.06058981195694365
54.46 0.2549638135092173 0.321381609556875 0.00016116275070642488 -1.1842478510131245e-07 -0.00027539674754317126 -4.5364703744055e-07 0.056460853506679405 -0.29813665401882405
54.955 0.3297733267046381 -0.260221073767375 0.000790508405394461 -1.2845204575654524e-06 -0.002503689384111881 -2.3818144500882955e-06 -0.028205772001298923 0.3261451862327549
55.45 -0.26776685505211534 -0.16074527197630448 0.00023243801974994637 1.5587278663893e-07 -0.00026882258812000733 2.5122061236150123e-08 -0.4026528759098695 -0.1370435239732246
55.945 0.04806275191005044 0.3688715112171401 -0.002038341653880602 3.681252053237255e-06 0.0006971302150864939 3.2090698064540224e-07 0.20513205860232825 -0.13346926916477397
