!Created with skrf (http://scikit-rf.org).
# GHz S RI R 50.0 
!freq ReS11 ImS11 ReS21 ImS21 ReS12 ImS12 ReS22 ImS22
1.0 0.5144265957759295 -0.7201522009657199 -0.00014218375878911137 -1.7938150629232113e-08 0.00033931787913221375 -2.344654388152474e-09 0.2956959026539092 0.7980247265520376
1.2475 0.48210389036771134 0.7257703453240465 -6.306453910646656e-05 5.580316049761842e-10 -0.000585406007737235 -7.28196133581631e-08 -0.6053215344909018 0.6223611669041264
1.495 -0.812912180230843 -0.1572771306552283 -0.0004290979820334751 -3.583659977099723e-08 -0.0004836545407026426 2.90773615883961e-08 -0.8574723290215621 -0.12449079239046354
1.7425 0.662051584250789 -0.5404292333966457 -0.00043982690216214933 7.866321868540485e-08 0.0008015906091347453 -1.527718090232902e-07 -0.3631786253937653 -0.7526386493124969
1.99 0.2553566878919954 0.7941555516042076 6.824942951467647e-05 9.876322347838221e-09 0.00029315265581062925 -7.828825826726618e-09 0.5438605509690277 -0.5654559889550339
2.2375 -0.6880878621842571 -0.4011041191478464 -0.0009645964151294131 -4.32685715659321e-09 -0.0001399065826153982 -4.276163796907162e-09 0.6230269182077502 0.4478922780428708
2.485 0.7584061126888338 -0.3446213317948186 0.00017780231805146235 1.0961752453181453e-08 -0.00032813579287461125 -5.291619959985313e-08 -0.24389916380343363 0.7647811435001519
2.7325 0.019518964372991016 0.8011362475833865 -0.0004879966142421989 8.494896962837484e-09 -9.996696016668026e-06 8.028266202439154e-10 -0.7935636994847479 0.21544870086918713
2.98 -0.5067184206506482 -0.5861925582360525 -0.0004895589132502121 2.7180942929879217e-08 0.0005009546896188361 -5.949750906231778e-08 -0.6336710139861852 -0.4992909081341586
3.2275 0.8019589197821074 -0.1403988439878085 0.0009576219746902782 2.9638357155525362e-08 0.00025617155108210136 -4.668930512009274e-08 0.13854388141309024 -0.7421226442482134
3.475 -0.2092499943724772 0.7406680746232662 -0.0002957817474189181 -2.203660062928639e-08 -8.987316481803354e-05 6.20492660878467e-10 0.7099765641987953 -0.010089260181227926
3.7225 -0.2913589276333574 -0.7025236699408658 -0.0001970054154104991 -1.9851682344403354e-08 0.0005946877950228292 -9.764777314664755e-08 0.15210781090039302 0.7232566911215614
3.97 0.7929551990268834 0.061651531031033026 0.0006841332066517381 -6.260498052602913e-08 -0.00033603354519957766 3.972288781807225e-08 -0.6039996842132458 0.49337094782968033
4.2175 -0.41139403610125586 0.616806655494447 -9.20342941560698e-05 -9.39140239211615e-10 7.968567248600404e-05 -9.942205016721317e-09 -0.7608403154770033 -0.19145894397906363
4.465 -0.06477514503482248 -0.7474489044546396 -0.00014426618319585773 -1.3199398388007553e-08 0.000524953102109186 3.6137033500115035e-08 -0.24455238397354362 -0.7043438793952375
4.7125 0.7364774925703259 0.2512694739971325 -5.277955181997969e-05 -1.711343696395645e-10 0.0004762906235759082 3.584201437991828e-08 0.5407268772896024 -0.4150864043239932
4.96 -0.5660375328189945 0.4367362318151941 -0.0003054876648944216 -3.631946493865151e-08 -7.427275964671058e-05 -4.478606083127348e-09 0.48015881469150223 0.47925260845634304
5.2075 0.1525079151257716 -0.7263322231699919 -0.0004099838343484237 4.079203563257766e-08 0.00048413417474348395 -1.6394973954328432e-09 -0.3098039447600232 0.6647936856675207
5.455 0.6338699133364536 0.4182688518957724 0.00023723549151033463 -3.114000596622596e-08 0.00014896294703468045 6.438808444229424e-09 -0.7509171824832281 0.12176557311901216
5.7025 -0.6568361909206571 0.219036906031589 -0.0003527476488131864 4.781206337622948e-08 0.0001547811137751363 7.563162602237368e-09 -0.529299668339961 -0.5168385285729704
5.95 0.34501695510532326 -0.6507970744143028 -0.0004173374252594462 -3.5920471920713314e-08 -0.0003696031228620858 2.4023834963486254e-08 0.211029574004855 -0.6418547284801065
6.1975 0.4914450074699713 0.5523509507060305 0.00011305561615185355 6.644551267642589e-09 4.370054121820198e-05 -7.446142852635955e-11 0.6262417546032768 0.09483311856438409
6.445 -0.6744225453991001 -0.012872482047241826 0.00028272412567195997 -7.660340853414183e-08 0.0006374148416241317 -2.4403274169552376e-09 0.04306281992046024 0.6782843247995076
6.6925 0.5021542507861669 -0.5316085055542158 3.315148456405645e-05 4.839417997351005e-09 0.0004071403732233872 1.228688256402429e-08 -0.6125574278898814 0.39550611932833457
6.94 0.3177227755131026 0.6441415625468704 0.00034094731616728704 -1.0800510215485871e-08 -4.6860277886053085e-05 -2.173440658466133e-09 -0.6879952010697636 -0.2500934020085548
7.1875 -0.6194796904584307 -0.23344520353013898 0.0005705966141593466 -1.4207316140457196e-08 -0.0001615819523061325 1.056148956668915e-08 -0.14605427138605873 -0.6648944771594598
7.435 0.61784192023321 -0.38176176569755405 0.0005484755750500464 -1.1686518856565335e-08 -0.0003432958275243063 2.8207825705367243e-08 0.5369091114169054 -0.2933006494305173
7.6825 0.12349426464759371 0.6846526995828797 0.00025087634163171806 3.4627937507286246e-08 -0.0009959489397965596 1.0811444767285272e-07 0.3659423085934464 0.5048879036008409
7.93 -0.5027118165855254 -0.4204978156058797 0.0008994018871868183 1.7087360384059207e-07 -9.270423032499477e-05 3.007725046477838e-09 -0.365378875851612 0.5838413704599914
8.1775 0.6873825887570882 -0.21240069812994586 0.0008218257080239696 -1.923903876131246e-07 -0.00025006875691131454 6.361545494873961e-09 -0.7164210879761473 0.041472246408119494
8.425 -0.07650224455594291 0.6668747250421837 0.00044370474835208885 -3.099785780141051e-08 -4.642730255796273e-05 8.307062547407866e-09 -0.43795949152918623 -0.5307352936264309
8.6725 -0.33958891474345493 -0.5572083649834986 7.405249552843163e-05 -2.3672215974555586e-09 0.0003879293169680606 3.500559655468237e-08 0.2702414087139217 -0.5519528581895011
8.92 0.7098195880915219 -0.03514851784756764 0.00024622783910991747 -7.146284440234534e-10 4.1942779230466935e-05 8.205742898209116e-09 0.5496998791941107 0.18021738673784582
9.1675 -0.26506477719800753 0.5924035933982861 -0.0005927071085233908 7.156618122476853e-08 -0.0010139813861764174 5.8053354593912024e-08 -0.048349116226708906 0.6369330769743904
9.415 -0.15075687402987006 -0.6345909462679786 -7.793634471693828e-06 6.917211013075545e-10 0.00018631557858395217 -7.939993841233355e-09 -0.6188843724321261 0.31043521467897955
9.6625 0.6854199174004224 0.13875712751607625 0.00025995388278081893 -7.702381172091857e-09 -0.0010313197695714707 -3.1498672744855804e-08 -0.6200753314371154 -0.29991227427530354
9.91 -0.4230285490445213 0.46239374110896325 0.00028699892490674213 -1.855135462046236e-08 0.00017662989906999942 -3.606266488172749e-08 -0.05986084415208549 -0.6259399071460481
10.1575 0.04357271009819653 -0.652434711749125 -5.883097649831829e-05 -9.976523808946341e-09 -0.00012049055637479027 5.4879886985466476e-09 0.5259928747771737 -0.18636634212754724
10.405 0.6177052414201887 0.29897971422807623 0.0003091975299778141 3.383192487304389e-08 -0.0008553997143971543 -4.954616861447711e-09 0.26517555602668497 0.521215922811704
10.6525 -0.5344702171288541 0.28995425778793904 1.735509286524772e-05 1.54956555037884e-10 -5.5734223326294976e-05 6.157092401300385e-10 -0.41181491261706094 0.5109170819441552
10.9 0.22694410665109557 -0.6159796547193407 -2.6670715417228507e-05 2.80210624208726e-10 -0.0003777879671692974 -4.113431653573348e-08 -0.6805886074037845 -0.02982877339303288
11.1475 0.511892730315031 0.4366756984206621 -0.0014954884899794265 1.2612247615258407e-07 0.00034236165691021975 -2.2914889636905502e-08 -0.3536642436775944 -0.5387550926303758
11.395 -0.5855899554541568 0.09210631021986876 -0.00017627117645799492 1.5463200597297143e-08 -0.0003094313690061716 -3.0161289393058774e-08 0.3171732250152963 -0.465807649803038
11.6425 0.38632849219671817 -0.5335050917316576 0.00010804506157482898 -5.804553544866229e-09 0.00046975909015085156 -7.10891828397717e-08 0.4768106655997219 0.25085650474584603
11.89 0.37039945451380385 0.539428631197359 0.00017726172813743238 -8.385540393780936e-10 0.00046981934290585 -4.196610907562869e-08 -0.12743619813950519 0.5967126452053448
12.1375 -0.5724957878197848 -0.10942932021397586 -8.334454301228605e-05 -2.1121579261389904e-08 -0.0001810147843229711 2.1677894850395327e-09 -0.6209297276887709 0.23293950589760146
12.385 0.5119593355241454 -0.414546549915274 0.00026811611937938105 1.2915994649671089e-08 0.00035020518834909557 -2.3091112168841414e-08 -0.5554994459903089 -0.34285759596251913
12.6325 0.2045860662746039 0.6001321227709537 0.00010427344359354288 8.490012545442922e-09 7.966752662528332e-05 -2.7926189120921016e-09 0.017111501288786024 -0.5827861153673904
12.88 -0.4988874895887526 -0.2930811431366139 8.705966182240175e-05 -1.3855232814290297e-08 -0.0003129420940001666 -1.2710384603423773e-08 0.5068523630401867 -0.0902963728151844
13.1275 0.597685743433983 -0.27072563827745133 -0.0003697455115926657 -2.5120720314174053e-08 -5.599938034885449e-05 -1.1424303777568176e-08 0.1743000169807625 0.529383762003697
13.375 0.02660487544696917 0.6127036947717839 -0.00013555658315329437 -1.0439553330744705e-08 0.00037789014878771227 -1.3804096252963636e-09 -0.4502426957181815 0.44269952684966185
13.6225 -0.3749121543953915 -0.44002844958663084 0.00018630250077578044 -5.152000594257265e-09 -0.0001170512368055903 -1.8213463531439553e-08 -0.6441392095686433 -0.09369614169612814
13.87 0.6435678147624174 -0.11379754994925297 0.0002819893084053392 1.6396333423824562e-08 -5.64181275450892e-05 -1.1655199467190242e-08 -0.27406348610281905 -0.5394340613292243
14.1175 -0.14938966589623387 0.571101511059047 3.884424871007269e-05 2.480550483863634e-09 0.000903551006631422 -3.8161529511500274e-08 0.35245375775123794 -0.38173050660953595
14.365 -0.21794054771636256 -0.5401141161393219 0.0001345555960830788 -6.477431910882086e-09 1.561967950770124e-05 -2.765133294396618e-10 0.4043924579441689 0.308280175281783
14.6125 0.6452201615202476 0.04692366429986742 -0.000614818998321637 1.1979319900118833e-07 0.00021618761334111608 -7.549294683848314e-10 -0.1961192026214586 0.5538045510218816
14.86 -0.30773453213243446 0.480084048059924 0.0002799765112552861 -2.0133166129132078e-08 -0.0008121022997775794 8.393498801482036e-08 -0.6161808712207538 0.16077478734293763
15.1075 -0.04486516202101796 -0.5864830260384557 -0.0005837140521678289 -1.3638309665021653e-08 -0.0006101632522547167 4.479669701255663e-09 -0.4904569807030217 -0.37727229801073925
15.355 0.6050019804757907 0.20104590263982158 -0.0006449708916116049 -1.5598249635772837e-08 0.0006325864630699826 8.052533417313119e-08 0.08500164559778965 -0.5347834745946551
15.6025 -0.4308017351556549 0.34307694304023806 -1.8011135226214193e-05 -8.726794503260342e-11 -0.00021150108370056157 -1.7885262266565836e-08 0.47994874026120143 -0.004072136829092827
15.85 0.12777081680532748 -0.5812935733550152 -0.000164398980673703 2.110092331468212e-09 0.00032417326166233614 -8.58102513192674e-09 0.09068921720497504 0.5284128389446285
16.0975 0.5253150109469165 0.33843897405767615 0.0010569052901442104 -2.1335920666915905e-07 -4.446508714085647e-05 -3.6324508516284143e-09 -0.4794584092062153 0.3759872834811963
16.345 -0.5058896450061242 0.17487819764440415 0.0007862370203352127 -1.4620321029324803e-08 -0.00015259065783076125 1.95037518503931e-08 -0.6046986570386755 -0.15073923603966582
16.5925 0.2857696359609722 -0.5290320317508254 0.00013964218994089473 -1.0402016168918369e-08 -0.0009345029513210661 -8.411914399672888e-09 -0.19839910051743076 -0.5324889711183103
16.84 0.4117721262209395 0.4500900687959752 -0.0002567837560776457 -1.066856301161355e-08 0.0007922648998358666 6.096529002274063e-10 0.37573150764187374 -0.29891612194892575
17.0875 -0.5254580560997325 -0.007297009211446242 0.00017186253320449008 -1.8095172204915924e-08 -2.359921441916067e-06 -1.4677105713759608e-10 0.33191084944157884 0.3532665908757925
17.335 0.4189510494783515 -0.43872100042653356 0.00036361287503209477 -1.852069618670031e-09 0.00017288387109418133 5.399157045606512e-09 -0.2556127199597971 0.5089023545530538
17.5825 0.2708644317837956 0.5269209352796309 -0.0003952465381539867 1.1657285371240409e-08 2.5341659693374828e-05 -2.2150472064778227e-09 -0.6074580407432941 0.09386227155879186
17.83 -0.48747097964168834 -0.18399617836413462 0.00016531773758730843 -8.700550975186983e-09 -0.0009311463250194247 -1.4646141112283779e-08 -0.4265881475688933 -0.4051891025302003
18.0775 0.5173811229086189 -0.31780365065955374 -0.00024655767791245654 -2.201675144232351e-08 6.742776058454163e-05 1.015851819701095e-08 0.14447503463707617 -0.4829258305130009
18.325 0.11186811074959019 0.5601580585124158 0.001211004164833831 1.843301878969598e-07 -0.000627653161582075 6.32513209495736e-08 0.4452033123620095 0.07311024745277474
18.5725 -0.3986170963607012 -0.33730047438234295 0.000724901328391479 8.132527959959326e-08 -0.00022667254330543688 1.0905013035046979e-08 0.013856281540481087 0.5193449916493073
18.82 0.5803940829855248 -0.17942717110012887 0.00013914279806672341 4.0959915021052326e-10 0.0012949991732229312 -6.719958602909332e-08 -0.5026862372205627 0.3124415097699892
19.0675 -0.051915734779948534 0.5479299503350205 2.568687152626005e-05 1.7143184743702151e-09 0.0006283906338943751 4.295293014360662e-08 -0.5631991840272749 -0.2017789548499652
19.315 -0.27015646872276156 -0.4522241423767756 2.5002264953518366e-05 -1.434146712412426e-09 -4.430392430522338e-05 3.712037647145875e-09 -0.12765690122230036 -0.5200562823702363
19.5625 0.6028145666961133 -0.031727165633849044 -0.0004820180131090808 -4.563279404249282e-09 -0.0006745109989241324 -3.388741440576847e-08 0.38978874997771323 -0.2194000769417238
19.81 -0.20679906170811488 0.4874461078319088 0.0005888729057005711 8.544044189107568e-08 -0.0009193303320407031 -5.6881874248862216e-08 0.2607567935920061 0.3880566625029746
20.0575 -0.118750019390986 -0.5233543066920693 0.0003317395334652826 -2.3864475479307947e-09 -0.00075149299575035 6.71435603250077e-08 -0.3065706202208292 0.46141700010603204
20.305 0.5869804661269599 0.1149734788623293 2.2148793854694568e-05 -1.894365987123721e-09 0.0005633745097009725 -4.36338989869307e-08 -0.5931048468733966 0.031279877514087936
20.5525 -0.3373033842410892 0.38174353492122676 -5.707906743800807e-05 1.8738679575809586e-09 -0.00019639908283256043 4.446292750428497e-09 -0.3633313490590987 -0.4259807693292102
20.8 0.04193303492945407 -0.5427140592807107 0.0005503013594231272 -7.334168115513906e-08 -0.00013686905710512756 -2.0624129378416073e-08 0.19523858081424472 -0.4270356844741596
21.0475 0.5312948611222155 0.250974940575976 -2.799302350539996e-05 -1.6604457326039392e-10 -0.0003222970013791557 -1.726204117648671e-08 0.40372407849213393 0.14092122385961658
21.295 -0.429404670360738 0.2406866107855771 -0.0002590975129138381 2.5253610056854088e-09 -0.0003726314593763977 1.0598825880379104e-09 -0.056482461577499095 0.5036356559644891
21.5425 0.19621062719242433 -0.5183413307289957 -0.0005366507385766955 7.422800076206519e-08 -8.09867701526001e-05 -4.083215378811013e-09 -0.5190097562509118 0.25082286751865274
21.79 0.4420007278861312 0.3677278027290769 0.00039066523752085476 3.897495266755701e-08 0.0006830243412297586 -1.242752936610902e-07 -0.5187814833993917 -0.24669309468984735
22.0375 -0.47588296618910403 0.07877759145791409 0.00042532662672086093 1.6578638073423184e-08 -0.0003304025872291327 -2.7236194420074028e-08 -0.06078346393895159 -0.4981899498813743
22.285 0.332183870858021 -0.4522900589688617 0.0012165699844634442 1.892097162934805e-07 -0.00011486918620915523 -5.821571927224101e-10 0.39182940440266284 -0.1420251981138924
22.5325 0.3228989826770017 0.4554284319362692 -0.0006211585756663232 -2.99312362777578e-08 -0.00011329936855579239 -5.867338624758278e-10 0.19031883799479415 0.41169105706958087
22.78 -0.46686261362993464 -0.08825741373300491 0.0002713677855672585 -3.4031541421278843e-08 0.0002899494587155213 -2.2707909202732953e-08 -0.3508825004093814 0.4137475642887732
23.0275 0.4421265916145805 -0.35500135362160984 -0.00021729723449317865 -2.061317720447845e-09 0.000734647855793229 -3.870922865373566e-08 -0.5749588929692191 -0.026705671524591485
23.275 0.18354085293201652 0.5088004302010237 -2.7658326292424533e-07 3.2556077621149825e-11 -0.0005452367173886094 1.1601523421108954e-07 -0.30017598073862806 -0.4391511601970508
23.5225 -0.4092406569814115 -0.24223122337899097 0.0009161920581408388 1.2975070170785295e-07 0.0005291803160944012 -4.152692345680008e-08 0.23623114889225413 -0.36643992274960313
23.77 0.5192820651724936 -0.23433557727379084 5.297339345518493e-05 -1.071436307432144e-09 -0.0005352129366982406 -7.493633117074044e-08 0.35791491176645923 0.19994955519931895
24.0175 0.032669131136789195 0.5184279492352301 -0.00014736296314894022 -1.3475957232690895e-08 -5.520903363683803e-05 7.278959240703286e-10 -0.12053665165461133 0.4829342769391614
24.265 -0.309225363871252 -0.36872001674404403 0.0008514061301963854 9.024807367183027e-08 0.0004907066105988968 2.6200871263397646e-08 -0.5285070609413405 0.1909985677736531
24.5125 0.5606964463662885 -0.10020437987342283 0.0005687261667318076 -5.5932335019429134e-08 4.2125058536625756e-05 -9.094286180749375e-10 -0.4720059378004327 -0.28519106057749527
24.76 -0.11633105417959516 0.4846266083855658 -0.00014786480470270935 -1.2230502572137717e-08 -5.311242673070706e-05 1.5395844981312362e-09 0.000765626066635814 -0.47114640268522395
25.0075 -0.17863826982543055 -0.4553758660484335 0.0008332172468068386 3.0791391894552078e-09 0.00017646342704558736 -1.3958450941641493e-08 0.38585347737965797 -0.06914651285890185
25.255 0.5634881117386985 0.03831427586018738 -0.0006082090600560438 -1.856620930516485e-08 2.5864529546604763e-05 4.463427908729865e-11 0.12206242911178943 0.425583176355504
25.5025 -0.2501391352868107 0.4073115487048293 -0.0009112677826349512 -7.555402150377253e-08 0.0006668568728282831 7.945147409910497e-09 -0.3868744337968736 0.363846255033897
25.75 -0.03288482478048501 -0.49869962320609657 -0.0005177330372029366 -3.593695996892135e-08 -0.0006766001070658241 9.834588346083864e-08 -0.5506237283692854 -0.08024786492683442
25.9975 0.5311446944373107 0.1719383509299467 -0.0001474379888746614 1.1258022881111275e-09 0.00019580837629253203 7.541696756933463e-09 -0.23744347889473122 -0.44425667480776554
26.245 -0.35529430277267593 0.29242513918968827 -0.0007902849568702591 6.829115234284956e-09 0.0004329868742557571 4.5553578646631586e-08 0.268368412975125 -0.30433988596947603
26.4925 0.11482991925982614 -0.499294511697826 0.0007466780757254785 -3.6802371662368724e-08 -0.0004627181833709928 -2.3035729393182316e-08 0.30730780245206 0.24951004689792933
26.74 0.46310112948829363 0.2912953116289303 -0.00015886763471179333 -1.387000188262986e-08 0.0002918487930016089 -1.3287104564234218e-08 -0.17812175869151387 0.4556383420695937
26.9875 -0.4203295456269357 0.15066496436050836 0.0006097484138146478 5.871461228184557e-08 -0.0006866789223829896 3.918958955008714e-08 -0.5304220746731684 0.13284959388725937
27.235 0.2518668730683015 -0.45741056033702804 -0.0004003837200081159 -1.1308335029103347e-09 1.7898316751812666e-05 2.7563496894172496e-09 -0.42235554265954633 -0.31710210706285497
27.4825 0.3652930565105804 0.38824167889606204 -0.0004913430455128628 -5.603660887871008e-08 0.000734727393966005 -2.0999806857930056e-08 0.056659144604082015 -0.4365208809358931
27.73 -0.43903743169344556 -0.0037757009343847986 2.5297194345651634e-05 -3.96689235567538e-09 0.0001667947391431723 -1.1623384205997441e-09 0.37108307219447356 -0.0007961287802878752
27.9775 0.36808939053094675 -0.38127469372267225 0.00048496984115211495 -2.0477252401374658e-08 -0.0003563365101557917 -2.4859629867878785e-08 0.057091587956475266 0.43344068077567327
28.225 0.24338543920695999 0.4547500365741239 -0.0006348795532454263 -6.793284193215328e-08 0.00014170445747205455 2.17588342257698e-08 -0.4172550783561426 0.31403781547568993
