!Created with skrf (http://scikit-rf.org).
# GHz S RI R 50.0 
!freq ReS11 ImS11 ReS21 ImS21 ReS12 ImS12 ReS22 ImS22
1.0 0.5144969373817121 -0.719830998701432 -0.00014489701767392003 1.3910192442283993e-08 0.00041371611484402595 -2.9407983388342923e-08 0.29578664709810054 0.7982641073092246
1.0545 -0.826290947395043 0.21597460405270083 -0.000593214902331739 -5.057594210727985e-08 -0.00045219345420385035 -9.389529584723409e-09 -0.13186470204590306 -0.8512711525720169
1.109 0.7516009420989783 0.46395311013534024 -0.0004460356982531168 -1.815785173425618e-08 0.00023327121867704366 1.4596719261785835e-08 -0.6643691866956675 0.5720666084048324
1.1635 0.06289058044062533 -0.8645457922527887 -0.0006682976293584156 5.1959935161771937e-08 -0.0006125444163291395 -6.017139235367752e-08 0.7849112480181888 -0.24515996061414472
1.218 -0.5264413935657876 0.6677936969949155 -0.0014753680433211814 -1.2124630441031535e-07 0.0005049784096609871 -1.2530185933987558e-07 -0.8351279180954734 -0.26739113993997826
1.2725 0.8771752165609239 0.050179517199360514 0.00036668258957278107 2.4454156007190776e-08 -0.00013278842680254952 -9.737804447027057e-09 0.2878951381269803 0.782327187256218
1.327 -0.4224684499672345 -0.7340136289524001 0.00038744840080335365 1.1001037200641595e-08 -9.073075890598475e-05 1.0836064655010672e-08 -0.12874802712176553 -0.8357603192189136
1.3815 -0.05193317847007354 0.8512533448208094 -0.0002710847164281009 -1.9051274837323327e-08 -0.000276127078787654 -1.6307653319887503e-08 -0.6551530106066246 0.5624238666442051
1.436 0.7886781941461426 -0.36731431239165646 0.0004506902049002164 4.356455204907625e-08 0.00017124191526599397 -3.192618089758703e-08 0.7685124280411385 -0.2388165218067902
1.4905 -0.7616142970289776 -0.33016496711953175 -0.00019494064358309868 -2.8880830737371504e-08 0.0005546678203976465 4.5961153632882586e-08 -0.8235776711721406 -0.2645596152900514
1.545 0.40846340755902044 0.7528904485753307 0.0015785765517234204 -2.0780093130234522e-07 -0.0004223509969673118 -1.2067554789280647e-08 0.2810513656458559 0.7689737198242916
1.5995 0.49975727296713207 -0.6944621376736811 -0.0003411403425450917 -8.070827609900397e-09 -5.378015546161127e-05 2.017394303093026e-09 -0.126155058526084 -0.823014894843694
1.654 -0.795188630797702 0.20512269988977075 -0.00023461535816857756 2.797558152099699e-08 -0.0004318678122544446 1.4340742053612409e-08 -0.6479487284264114 0.5543767228701806
1.7085 0.7279361899434593 0.45163491955336366 -0.00038949376361575096 3.4245991762108916e-08 -0.0002905163870264193 -1.51312669986129e-08 0.7524405323237708 -0.23276884686382554
1.763 0.06420568782097036 -0.8354437960318106 0.0002848954894972399 6.493821315708017e-09 0.0009681402047116397 1.6009145290369572e-07 -0.8128078087683026 -0.26196125911098767
1.8175 -0.5103559881175269 0.6437804976102476 -0.00014296096991424102 9.396018349852358e-09 -9.857838771880684e-05 1.155220163064616e-08 0.2743553203640181 0.755992807688109
1.872 0.8530168143740773 0.05103209690268842 0.00010482999285446171 1.8493988125555313e-08 -0.00044703656647279504 3.026009098933408e-08 -0.12387883864541618 -0.8115709626874057
1.9265 -0.40532881189622644 -0.7108263490890274 -0.00045025000306337466 2.4028374120151927e-08 0.00028068479026302696 -3.609770002898325e-08 -0.640195578786198 0.5461428830920944
1.981 -0.05211611163411522 0.8242577239123601 0.0005184058469689618 7.941551316148839e-08 -0.0005663193698280666 2.637604923076309e-08 0.7401338359655324 -0.22752211894111918
2.0355 0.7686369376767349 -0.35543379192721775 0.0005109462831377451 9.619154695710416e-09 -0.0010684787867026356 -5.823315001497004e-11 -0.8040517971191031 -0.25999696862081834
2.09 -0.7342721200134907 -0.32158909118989454 0.00035094571921756465 1.4569439795479381e-08 0.0003715844651218294 1.6071450813445914e-08 0.26863225845638944 0.7451692320091926
2.1445 0.3954437579459247 0.7324632133361623 0.0004531187263583222 -4.10460228423979e-08 -0.00045262397092009793 -5.993844669961324e-08 -0.12116727032301858 -0.7989271259661554
2.199 0.48917284100397546 -0.6752234365212878 0.00033862759425298946 -3.9186231849445074e-08 -0.0006742782388361045 -3.660406960500392e-08 -0.6331715524441069 0.5384900697735951
2.2535 -0.7688177095158578 0.19563713784303757 -0.00029708209601305417 5.327643445458705e-09 0.0003942335003925508 1.1619619674986782e-08 0.7282250297142231 -0.22279020959398355
2.308 0.7096934540121073 0.4426840765693098 -0.0004910421790482504 -2.9084534308989016e-08 0.0003108057374640254 3.104238550312839e-08 -0.7942720437917394 -0.2577646597002445
2.3625 0.06559863041362234 -0.8125737762394127 0.0002481265296994227 -2.232134020470798e-09 -0.00046878958354853133 -2.0301384900106937e-08 0.26337505257191307 0.7356448450476912
2.417 -0.49598536915197516 0.6224563639994215 0.0005659267137259965 -3.406125523750251e-08 6.0617636412836085e-05 -1.8634800314581815e-09 -0.11919497849292121 -0.7896081724542577
2.4715 0.8335497712610753 0.051918209983359415 0.0010420369953804331 -2.1076013041112035e-08 0.0002032471743933287 -2.1008587187646703e-08 -0.6271083591374838 0.5317343297566084
2.526 -0.3912318407143022 -0.6928452550753561 0.0003165658986861837 -5.1360796926158874e-08 -0.0013406948010155856 1.7250352613013306e-07 0.7172146461118314 -0.21825356049475902
2.5805 -0.05253929580001098 0.802880608451106 -0.00035814436127091034 7.118029244005513e-08 7.213816401078e-05 -1.2012003800354256e-09 -0.7856833741964196 -0.25561885566378517
2.635 0.7524383784290232 -0.34536931299183343 0.0005581463300076133 5.040975852399088e-08 6.458537549635336e-06 -5.592114286555638e-10 0.2579010323560061 0.7257138456734407
2.6895 -0.7120061762672771 -0.31525080662274035 4.4068958310580676e-05 -5.8066817517831315e-09 -0.00046188068075774685 2.166817624270265e-09 -0.11703517725258934 -0.779405214643608
2.744 0.38445380693719394 0.716004911665496 0.00025186892427891207 -3.366702653658552e-08 0.00010366715097269574 -7.529462003104663e-09 -0.6211541637694398 0.5246902287199194
2.7985 0.4800689117894204 -0.6576826894304291 0.00047386516981170676 -2.138320751373161e-09 0.00016616883170892847 -7.773568907640054e-09 0.7057238424040723 -0.2135280944833914
2.853 -0.7476825800586534 0.18769626964558336 0.0005110599273940608 4.3928041364492986e-08 0.0006278172644289546 -3.9402088868966335e-08 -0.7786836493849427 -0.2543392945983819
2.9075 0.6933912851908333 0.43454353836047 -0.00013029955509540829 -1.3587758909538706e-08 0.0001983339870153082 1.678948218799333e-08 0.25307160002191786 0.7173470960037636
2.962 0.06673939662292025 -0.7915637771142227 -3.285256169165441e-05 3.6650396210338777e-09 -0.0009395743913340917 -1.8877525161868327e-07 -0.11520473975161637 -0.7702681073150079
3.0165 -0.48484204919142954 0.6050441709688081 3.2298331115469056e-05 1.9725971243150876e-10 -0.0003618777626965588 -2.7815662268880664e-08 -0.6159381594286284 0.5188237273079723
3.071 0.8158978388787367 0.05292041946704201 6.889755776326971e-05 -4.592782190725303e-09 -6.712813598009472e-05 -1.6776875957660042e-09 0.6971357436585177 -0.20989536867713673
3.1255 -0.37838347736658834 -0.6762608097159132 5.1297009844396864e-05 4.769856594010012e-09 0.00013817443406556382 -1.2022065056965863e-08 -0.7712015394534597 -0.25272833743174977
3.18 -0.0531303549039941 0.7832841079388091 0.0007965594478138091 2.768870871081281e-09 0.00040366764499131743 6.175616056716533e-11 0.24818597086286 0.7087289404825956
3.2345 0.7372879434147938 -0.3359844585461765 -7.055880246702557e-05 -1.7383845305693396e-09 -0.0001995210893808135 -1.7734958840380013e-08 -0.11302885291674225 -0.7609116584525696
3.289 -0.6919016278796543 -0.30915359001294956 -0.00043704376253498136 2.132023525084851e-09 -8.624728979178999e-05 -1.4614676065095266e-09 -0.6104006545765991 0.5125470425565117
3.3435 0.37533625350697963 0.7024486391514302 0.0009581870429701182 9.047834684624395e-09 0.0009638913009612631 1.1648790245946306e-08 0.6866580897134434 -0.20553327801757676
3.398 0.4726144682309809 -0.6431696402367453 0.00032444719563581273 -2.4295554617416905e-08 -0.000151265373142739 -1.3654961596246024e-08 -0.7640578935400504 -0.2512457010225048
3.4525 -0.7298256969429401 0.18052600388473955 0.00026385811120726915 -2.9719773509411247e-08 0.0005747953157671815 -2.9670517921134794e-08 0.24349439737219855 0.7000845209960518
3.507 0.6793480192830366 0.42783434576683016 -0.0001437846970281272 2.760822928837931e-10 -0.00044258756830757996 -6.954630850987435e-08 -0.11151865353574139 -0.7538781259527063
3.5615 0.06844804295421114 -0.775544173340241 0.000494547502294739 3.4455444258679384e-08 0.0006154108811832876 5.0055171636308645e-08 -0.6061370963015785 0.5073323933761891
3.616 -0.47439061091694423 0.5887756199879794 -2.3621410853448766e-05 -2.6653282763373035e-09 2.4348226316804596e-05 -2.686719291806999e-09 0.6777076101776613 -0.201676430929596
3.6705 0.8018108042806686 0.05411651739683987 0.00021872255282856672 -3.5906017396995083e-09 0.0006822001172189533 4.6631797668755403e-08 -0.7562715214381968 -0.24947487702345594
3.725 -0.3671949352230956 -0.6623868346260026 0.0014639833572538399 7.132017226983756e-08 3.418063453219395e-05 -6.267968293999582e-10 0.23946064215461005 0.6933850683372073
3.7795 -0.053741565502243745 0.7660990918307461 0.0003389745864881559 1.5668836889730148e-08 -0.00021831607957598214 7.999756077112479e-09 -0.1096492156343205 -0.7451083747961281
3.834 0.7258847412644867 -0.3280503627809842 -0.0003711641733947787 -2.113232803746582e-08 -0.0003345994503045757 3.03748296170424e-08 -0.6019498879825121 0.5021010224766196
3.8885 -0.6737450565587447 -0.3043169958559382 -0.0006674896345706819 -6.741779039993041e-08 -9.850089796679636e-05 3.780313908517963e-09 0.6692469486212212 -0.19814227694614453
3.943 0.3660515490906465 0.6887074520162881 -9.396651692070902e-05 -1.7802831677620183e-08 -0.0005184900419822073 -3.180092411175871e-09 -0.7503240213105729 -0.2482870431836546
3.9975 0.4657086623509962 -0.6292973727702431 -6.127189922097312e-06 3.213358098917806e-10 0.00037601109382327764 -2.2688802140622228e-08 0.23525715744151343 0.686039520618287
4.052 -0.712612456907577 0.17395617343766018 0.00026037582953606584 -3.2995637589248634e-08 0.001061925638347198 -1.4835290016646416e-08 -0.10791421300411823 -0.7376181471737459
4.1065 0.6650589024360224 0.42092306964821474 0.0006813492892360566 5.6308355551766084e-08 -0.0009317293711603191 4.01387702513956e-08 -0.5972564436978868 0.4967383385373289
4.161 0.06995333535691603 -0.7592450021084396 -0.00047964575650407407 6.705030122369345e-08 -0.0002586617083124645 2.6818623349231514e-08 0.6619932044816478 -0.1948243459770077
4.2155 -0.46529628924643596 0.5745322297188095 0.0003366563395723353 -4.6768585868097204e-08 0.00036609569619376945 4.5572784443889037e-08 -0.7436354275839655 -0.24676710847736763
4.27 0.7873402831789006 0.05513364741629413 -5.878035054633014e-05 -9.290166958755975e-09 0.0003245056638525959 2.8513662391435615e-08 0.23095780846313047 0.6787846646039206
4.3245 -0.3566278712997244 -0.6492015885384137 -0.0002639853331441448 2.4465753916637878e-09 0.0006998891047290873 -1.6359306101777645e-07 -0.10638311804404327 -0.7306803902433409
4.379 -0.054220263708894975 0.7502420877142372 -0.0011385677220422008 -9.425086872991794e-08 -0.0006388339432910662 -5.1620537123945554e-08 -0.5928689874648085 0.49166015602159685
4.4335 0.7133775351171174 -0.3200323005123805 0.0010796968677448994 4.598273790006265e-08 6.147133545243809e-05 5.629846486570614e-10 0.6543474603392208 -0.19140925833282754
4.488 -0.6581001392221482 -0.30039823466478693 -5.758840798446094e-05 4.987272782015095e-09 9.506338926977387e-05 1.7967528597259773e-09 -0.7384792631974058 -0.24590446689514836
4.5425 0.35812329946964344 0.6771086599961713 0.0003267019199948983 6.5873665709725365e-09 7.636817177766131e-05 1.062615995459709e-08 0.2272067704599896 0.6720386072658607
4.597 0.4593283288593653 -0.6165841425501334 0.000392142565612201 -1.352076697649072e-10 0.0005549803033332907 6.537598485528798e-08 -0.10485223438834516 -0.7239245905617822
4.6515 -0.6969822190292715 0.16766435618028647 2.4038409463899276e-05 5.675376118338276e-10 0.0006983688485671412 5.470643141711952e-08 -0.5895348808909849 0.4873351180961138
4.706 0.6536420100877143 0.41593584190479727 5.185462315853224e-05 6.799769658833789e-09 0.0005375348937177848 -4.3769786461374636e-08 0.6463356214200984 -0.1879330156978502
4.7605 0.07141653985995013 -0.7454769080912232 -0.0003010063536943524 2.350077228914183e-08 -0.0002809194781939485 -3.620320534441045e-08 -0.7323243317970883 -0.2446936357602945
4.815 -0.4574629259372275 0.5618298707666174 -1.3133615749219998e-05 -2.0328190499569636e-09 0.0004539544150149497 -1.5460918367029774e-08 0.22346068228085952 0.6658963622477678
4.8695 0.7747301628901043 0.05618185252598293 -0.0007505019800372033 8.767483439191773e-08 0.0001744558889278627 2.5392494793058425e-09 -0.10353397553853293 -0.7182205471354755
4.924 -0.347064241081754 -0.6382312081968342 0.00017549843325925376 -5.899798568738117e-09 0.00015083396726769512 1.8464629053325432e-09 -0.5854941252102401 0.4825497865166333
4.9785 -0.054862963348432804 0.7358901308118053 0.0010566850955819227 -9.659474846572774e-08 0.0006388957138079832 -8.946782966754107e-08 0.6396741278839267 -0.18504973575666137
5.033 0.7036499216302323 -0.3131243729590905 -0.00014910491309418365 -7.263219727654002e-09 -0.0005188592328236895 1.4519610568656555e-08 -0.7274653207222644 -0.24375091385923855
5.0875 -0.6438431122438649 -0.2967425227608178 0.0003350142964006509 1.6314644768039773e-08 0.0005372296404404815 4.5351949865961925e-08 0.2195414198736145 0.6597152229315503
5.142 0.3508324956784055 0.6668623221965968 1.8940957716810542e-05 2.019495508035252e-09 2.1403771021357364e-05 1.863711974341527e-09 -0.10202507992963687 -0.711720734020903
5.1965 0.45437764429000604 -0.605645276502283 -0.0007424534609124413 7.608480821576089e-09 -0.0001884362315489485 1.365715782034486e-08 -0.582425227550961 0.47847462092810633
5.251 -0.6838241175544034 0.1622745325094295 0.00044502841909886605 4.350440108220065e-09 0.00035107332707044086 -4.855829394995607e-08 0.6325814268782799 -0.18195526007214474
5.3055 0.6428388648186038 0.4109202586110811 -9.656053987760495e-05 1.4716135055971473e-09 -0.00032825337958132235 5.195143427291099e-08 -0.7218872050644716 -0.24259037586849003
5.36 0.07290149965445197 -0.7321091631100746 -0.0007947144508265751 -5.871425197485771e-08 -0.00030528029220759845 -9.663666037304898e-09 0.21622689008259385 0.6545906853982328
5.4145 -0.4498623165015595 0.5492068689818782 0.0006718525319901583 -3.282229102282451e-09 -0.0005167432841677015 2.033224019245354e-08 -0.10055260806841552 -0.7053371242526836
5.469 0.763219135561156 0.05729561628554201 -0.000632809451035591 5.048385089176426e-08 -0.0004745332588480794 3.5345024984634936e-08 -0.57949612032968 0.47441581652519443
5.5235 -0.3379628995428172 -0.6271738104165292 0.0002049488934845075 -2.1757210608314543e-08 -0.00047691470767671735 -2.1896717442130337e-08 0.6250155276634178 -0.178625963940454
5.578 -0.05560945800884097 0.7224151015721002 5.492655824969842e-05 1.7895784673308184e-09 -0.00034694928090177096 4.121244242859604e-08 -0.7170970041923949 -0.241901902069823
5.6325 0.6943045292464148 -0.3066136619827745 0.0005800678660637616 6.052684707891741e-08 0.0015737241648187596 -2.841097417709385e-07 0.21268800552776493 0.6490080909727223
5.687 -0.6301399637460642 -0.29349316634170586 0.00018065002112529165 2.059125589101266e-09 -0.0010971976353925884 -1.2287073048376364e-07 -0.0993016596819067 -0.7001599737159863
5.7415 0.3438688787841729 0.6569591494273377 0.00035691072463762437 3.729406515941229e-08 -0.00012896617926931413 9.714567920992546e-10 -0.5749854671377902 0.4693828147722281
5.796 0.4490230728071299 -0.5943021587589837 6.390788204596496e-05 -8.115862693330167e-09 0.00032320022822044167 5.506235240283881e-09 0.619940681462761 -0.17622995023135257
5.8505 -0.6704140107366594 0.15673314428906174 -0.0009335347027904742 6.312088639450607e-08 0.0003418074634454762 -1.773589868811111e-08 -0.7115471468696576 -0.24073957393778878
5.905 0.6317629206513988 0.4060080122458226 -0.00017354235261273307 -5.814624637712309e-09 -0.0006626920125972723 -3.2247896536063494e-08 0.2094265152336881 0.6436013278341516
5.9595 0.07447907936150423 -0.7195470783751544 -2.7726381195696677e-05 -9.695793018119204e-10 6.238881800335867e-05 -1.373002554618157e-10 -0.09816411006701875 -0.6950602054708728
6.014 -0.4425431246655273 0.5374632592737111 0.0002717416018377271 -2.0679659468195147e-08 -0.00047232146443595735 -2.402072974364139e-08 -0.5723708275706506 0.46566383165161457
6.0685 0.7531599465218167 0.05832767127547582 0.00017238179268963088 -1.4492398105808369e-08 -7.325776113176374e-05 1.4862187096583015e-09 0.6133772740850798 -0.1733175156882697
6.123 -0.32939079581783764 -0.6172654169238316 0.000722293884945018 -3.1414483317856284e-08 -0.0006160399502512521 4.592992645347546e-09 -0.7067464081981674 -0.23991946277572182
6.1775 -0.05621776885968871 0.7115580660884125 -0.0012889868355985894 1.0708280487827294e-07 -0.0003955012174823421 1.8676831673841088e-08 0.20609902449578135 0.6380833747075584
6.232 0.6856919812918686 -0.3005680697983733 0.0007136216963193946 7.747588210298684e-09 0.00027280227423891987 1.009493645361942e-08 -0.09671147283691137 -0.6885196450880076
6.2865 -0.6159751398923166 -0.28980415015819694 0.0004057659498253816 -1.8105521190522396e-08 -0.0005487294340649205 2.401557661163003e-09 -0.5689023421543711 0.4613867604031177
6.341 0.3372830741118438 0.6477292599389827 -0.0007083600976589726 -1.7367958683650814e-08 0.00040565795370439234 1.6858129439868993e-08 0.6072460656583313 -0.17064861322837588
6.3955 0.44435303695830847 -0.584239273691022 -0.00014982156171201684 6.98427173502885e-09 -0.000363629763069157 2.9787025317515504e-08 -0.7018377131039053 -0.23894100317954503
6.45 -0.658179225330165 0.15160488390517005 -0.0006326714464003296 1.6362142792695724e-08 0.0004570756583836875 -1.3853255588844065e-08 0.20300938091912066 0.6332945060591397
6.5045 0.6223649236807017 0.40184495945046095 0.0003951028050702865 4.015217005446075e-08 2.1083989212113347e-05 1.6130857058652912e-09 -0.09540891332836207 -0.6827907825418132
6.559 0.07599926545049458 -0.707747133967077 -9.51977778370676e-05 -1.2123782852937404e-08 0.00029981072647942996 -2.7898436474719615e-08 -0.5658209319671897 0.45748306908785247
6.6135 -0.43604130610917224 0.5268326947590438 -0.00017058057762321264 -2.326750708114647e-08 3.226010476574408e-05 -4.888030609410177e-10 0.6022971690446957 -0.1683144567934691
6.668 0.7413016516791351 0.059312894810899956 -0.00019542472806793198 -1.1883701160743113e-08 0.00023785562232771356 7.54275736391177e-09 -0.6972482631193473 -0.23812326988141616
6.7225 -0.32138496802447414 -0.6082391756757403 0.0003950232692320784 -9.364067152925529e-09 0.00024113963484176666 -4.4155383673537965e-09 0.19979510220324942 0.628252743613486
6.777 -0.056860727358362236 0.699529892108231 -0.0002992075203901628 2.867766255165502e-08 -0.0005617607208171215 -7.348774275767357e-08 -0.09399334482259397 -0.6769881815682482
6.8315 0.6764979750666322 -0.2942058929324912 -0.0003638414441774389 -2.3633595353965633e-09 -0.00016868031843440592 -5.038582747009005e-09 -0.5620602591691083 0.45308890796038953
6.886 -0.6045771393646433 -0.28717993787946083 0.00033356039440986924 -3.6512056866283254e-08 0.00032405396588997584 1.1490459978722486e-08 0.5964014100211968 -0.165654672942538
6.9405 0.33046769888150374 0.6380467037146098 -0.0009288521790149738 9.095044603513067e-08 -0.0003934095228141138 -6.43201735443725e-09 -0.6926971422487227 -0.23729030910668725
6.995 0.4401052701372848 -0.5745791127804041 -0.00023593815365866396 -3.1438777730279097e-08 0.0008283529376220078 6.394443254007331e-08 0.19679068062799634 0.6233653350248174
7.0495 -0.6477288237629693 0.14691751248936286 0.0010729781405476588 3.7143235236608426e-08 -0.00021781980761420897 3.8140223204534585e-08 -0.09298741068514943 -0.6732165111005383
