!Created with skrf (http://scikit-rf.org).
# GHz S RI R 50.0 
!freq ReS11 ImS11 ReS21 ImS21 ReS12 ImS12 ReS22 ImS22
1.0 0.5152519304889823 -0.7203434604286829 -0.0011620787468172031 1.7329851983709694e-06 0.0006311359786095717 -1.4497909016688159e-09 0.2952575317936728 0.79866376558058
1.495 -0.8130572147055644 -0.16034007611591064 0.000195737633165633 3.9478312884547805e-09 -0.0005082306602214353 -1.5569699582958476e-06 -0.8553273653228215 -0.12114489346013115
1.99 0.25732954601830776 0.7967341763373957 0.0009122254248952257 3.725116900744363e-07 0.00038484561194629293 2.3434726573751205e-07 0.5445580117166011 -0.5656116150367221
2.485 0.7577152936446441 -0.3479561253088796 -0.0009594809168200316 1.1079516746959674e-06 -0.0010161264646715838 1.2776870251965086e-06 -0.24466810008007003 0.7644301695254043
2.98 -0.5089526215768627 -0.5865470916911518 -0.0005190013043757998 5.131968205092825e-07 0.0014970591590626765 -2.506505772141943e-06 -0.6344431780798847 -0.5006510467122703
3.475 -0.20952818451208188 0.7402498006998524 0.0001183899150060733 3.721205054451224e-07 0.0005901571385488738 1.966402761526877e-06 0.7104955193988404 -0.008736694052443397
3.97 0.7947147544226278 0.06130146197452712 0.0018696600566602915 -2.3759870493230975e-06 0.00039736708655921496 -1.5197240320741065e-06 -0.6046706035366651 0.4936080661045699
4.465 -0.06601729603762256 -0.7489671452351573 0.00034142403755017386 1.4082402984631682e-06 0.000897132128614751 -2.946859531934188e-06 -0.2462521623538613 -0.7045399737467467
4.96 -0.5664551158064086 0.4399543622778932 0.0004933652738657128 -5.456314758941019e-07 0.0006813747155592155 -1.36881738579738e-06 0.4836447586923552 0.4805907297935138
5.455 0.6356023354179716 0.41860520632474557 0.0006589846971064835 1.2616509703336676e-06 0.0020199953711865157 -7.808182345406582e-06 -0.7512098546190452 0.12179414291763219
5.95 0.34577097015340663 -0.6519520228309641 0.0009406248672653173 4.816145924517526e-07 0.0005530540471834651 6.1655227753964e-07 0.21028478580685966 -0.6427814870627918
6.445 -0.6764556954117461 -0.011460379318026313 0.0008787258693613693 -2.1564656448011927e-06 0.0013156493132952247 -1.9649883218872464e-06 0.04494527971859041 0.6771752852315774
6.94 0.3181239438050092 0.6462057925209332 0.00036820864816892497 -2.3401139418528652e-07 0.0018037805609736554 3.035474680112253e-06 -0.6888734196278844 -0.25099629979802357
7.435 0.6168634561921648 -0.38321660499927895 -0.0008388875308926548 -8.176726035294218e-07 -0.0005492121443159031 1.4078087505529097e-07 0.5375920279564304 -0.29292344944952503
7.93 -0.5046346246162021 -0.4192557799981765 -0.001013849218806171 3.551364801034762e-06 0.0008037016535793313 1.7646919912918777e-06 -0.36760158319569625 0.584497220706873
8.425 -0.07715983403513132 0.668937526051872 -0.000989004532396 -6.346497751917042e-07 -0.00041237675631277873 1.964343130080412e-07 -0.44138973702865597 -0.5311954635207531
8.92 0.7120993498275556 -0.03383586881255278 0.0005764534887099386 3.4752890066335933e-07 0.0010929604603025886 -1.6097155496146772e-06 0.5521453132492951 0.18151587281602707
9.415 -0.15014039213183036 -0.6345698260285182 0.0008324488069010673 -1.3596778071981269e-06 -0.0017365100261701333 -2.962215669469871e-06 -0.6196565997565423 0.3116278682549579
9.91 -0.42477041838811863 0.4639789555232801 0.0009296188796355116 -5.257058053126573e-07 -0.001325704224472804 -2.905368015556932e-06 -0.057332284437643405 -0.6292081453222678
10.405 0.620249724793618 0.3005260629846992 -0.001404243499793364 9.417640498937094e-07 0.001115982986887139 1.809080659901015e-06 0.26734834668275276 0.5227529299295892
10.9 0.22848693028489137 -0.6165400926779089 -0.00020974541198676695 9.455466180134098e-08 0.0008468955175337485 1.3324477425581393e-06 -0.6809095925412803 -0.028717178594710242
11.395 -0.5861581527358033 0.09231788410259713 0.0018476804860777974 -7.382901779173039e-07 0.0007444740710391173 1.3371516572882865e-07 0.317520963008178 -0.46827135347294774
11.89 0.3693532168684053 0.5411699910795943 -0.00035842190367088307 -1.5419232923841206e-06 0.0006771409680593867 -2.3865979134960734e-06 -0.12732857721664392 0.5966696534281724
12.385 0.5142617617239353 -0.41115636683351064 -0.0008758319482876405 -6.78692540730464e-07 0.00037207677638082285 6.361814491566212e-07 -0.5572692255610289 -0.3430845219702478
12.88 -0.5022416013891357 -0.2951025941557123 -0.00017171877716341713 -1.4440600555437877e-07 -0.0004338769954393945 -1.1663818155375535e-06 0.5087997696177042 -0.08971085512346802
13.375 0.028104602066752048 0.6136458967564237 0.0010701829058056042 2.7022397300459846e-06 -4.081285092630621e-05 -2.003634446854217e-08 -0.45026869123446184 0.44339241595946466
13.87 0.6440024699599528 -0.11384082268797058 -0.001023982935204397 4.6038856837343135e-08 -0.0003355817366004132 -8.902651492858626e-07 -0.27519512279839825 -0.5396309004894518
14.365 -0.21843832844546698 -0.5424544572472997 -0.0006940720124946519 -1.732997596814991e-07 0.0006873367474544119 -9.015691410093599e-07 0.40583706730857666 0.30822935481153385
14.86 -0.3070831036506688 0.4798400514514777 0.001698990208020247 -2.127929718992727e-08 -0.0016787976612894706 -3.77128962444694e-07 -0.616305060791935 0.15977954862530172
15.355 0.6036397433357628 0.20073999717316662 0.00033475204607103166 -2.933955029878527e-07 -0.0008762758257556788 6.375003305618802e-07 0.08407829601560288 -0.5360738789634569
15.85 0.1261200052740154 -0.584160963710978 0.001002477470522089 7.35657711993826e-07 -0.0005089146870054863 -1.955159911026536e-06 0.09242216331054778 0.5290162479771534
16.345 -0.5077955764911666 0.17563118382174978 5.949641012665121e-05 -2.6041346066622605e-08 -0.0005791321778346912 7.333123047915777e-07 -0.6059601367658203 -0.14952867571205233
16.84 0.41418734655731765 0.45090276418331526 -0.0005279177990645528 -1.9824635258297685e-06 -0.0005177171071696383 6.908704905512748e-07 0.37821368049274073 -0.3007199662092797
17.335 0.4191944968849262 -0.4421249202785566 -0.0005584058143746498 -3.603619479022482e-07 0.0012730371843477982 -2.8614108594408785e-06 -0.2563831932069378 0.5122153383268975
17.83 -0.48928868787872476 -0.18453044262933746 0.0008163915502640442 1.0826808586811926e-06 0.001150807802071655 4.118048503523222e-06 -0.4298611845753908 -0.4054517506055809
18.325 0.11256430736836273 0.562818359846736 -0.0020084317859987598 -2.3714558591404073e-06 -0.0005843310274489136 9.388911973935535e-08 0.4470936748729392 0.07268116672338033
18.82 0.5822522441489668 -0.18273173603117002 -0.0018071738948199853 1.997116225437559e-06 -0.0008340601990636071 1.5916613326910271e-06 -0.5032555430980349 0.31371122122728795
19.315 -0.271892686791798 -0.4528584591629161 0.001208837609575016 -3.673234808875431e-07 4.877612230015824e-05 -1.19755108134684e-07 -0.12818058823986234 -0.5187221066865964
19.81 -0.2061000948750205 0.4901089702935015 0.0002254446811271302 -5.635426166345832e-08 -0.0006676590142721831 6.240726210567744e-07 0.26350277127419713 0.3878894959795278
20.305 0.5874137025322521 0.11398395193597319 8.474479171690806e-05 -2.0139579282750224e-08 0.0013555178301938515 -5.310755710485342e-07 -0.5943750697693025 0.03108197183692592
20.8 0.04143597388397456 -0.5433804154578572 3.5741806699104936e-06 4.700366965709632e-09 -0.001683111379373497 -3.201531345837992e-06 0.19493953583466192 -0.42969471468626785
21.295 -0.43208092091364536 0.24324648391110026 -0.00011604386111545524 1.0450832670028302e-07 0.0004947427112884117 -2.8617237263107777e-07 -0.05358704946637743 0.5054857419748996
21.79 0.44367162130334914 0.368912234819577 0.0003848935863351387 2.1407681162658698e-07 -0.0007616488036585197 1.6692484530160857e-06 -0.5202598093898104 -0.2461224533737736
22.285 0.33099736865786744 -0.45411899207201356 -0.0010486768774451158 2.6629035735226254e-06 -0.00036897917029937705 6.679289805652678e-07 0.3955858758863975 -0.14498109289864053
22.78 -0.4697674809494601 -0.08781779198669742 -0.00041196727146939054 1.1614087800213496e-07 0.0019152143488319821 2.138526989676225e-06 -0.35126196024229334 0.4172141139142096
23.275 0.1830846854947413 0.5101637754412033 -0.0006595406248065376 -1.1249572430054422e-06 0.0012999078592551346 5.928834798898767e-07 -0.3010970116772246 -0.4371718841444273
23.77 0.5201005986142366 -0.23691302164201833 -0.0009566012863316323 -2.7080724370399137e-06 -0.0007277079389352191 -2.4426426074913636e-06 0.359722690746739 0.1990950232562368
24.265 -0.3115251038486579 -0.36982696206634474 -0.0005761807593753565 6.369545720370376e-07 0.00015115217891573083 -6.25221853758701e-08 -0.5298533087911355 0.19192130626875104
24.76 -0.11601978242636002 0.4885373721659654 -0.001627666091661335 -8.135984814623411e-07 0.000547238666216948 3.321999181051998e-08 0.00010425450231674177 -0.4727579636997721
25.255 0.5665475779568356 0.03861531721806899 -0.0018064138305670502 -3.0506697477765623e-06 -0.0005985232422938948 9.192512071261257e-07 0.12447964807562993 0.42992733949850626
25.75 -0.033785908375870415 -0.5008294475154278 -0.00022458010268916763 -2.1451172135542726e-07 -0.0016790046629280683 -1.3839099887085332e-07 -0.5524287723566946 -0.07945348110887482
26.245 -0.35626207163621254 0.29375750487540747 0.0009120133401588335 -1.0747339587953455e-06 -0.00023852433337305843 -7.348550812920229e-09 0.2684004029393284 -0.3063821214511972
26.74 0.4629338829058615 0.2911174234485884 0.00012065201261768612 1.1469977111533324e-07 -0.00016228073064773478 -3.761298242150276e-07 -0.1775286756234049 0.45779331598384054
27.235 0.2510803718710821 -0.4578679656638964 -0.00031421936737188196 -9.146012189951405e-08 9.928884825519398e-05 -4.814867088757084e-07 -0.42267788793763517 -0.31853067909657373
27.73 -0.4407848333577423 -0.00273577853393499 0.0010060389145800745 -1.743775129314864e-06 -0.0007616833908715063 2.4367019820554875e-06 0.37009410028304496 -0.002079043017917483
28.225 0.24542323754771644 0.45614783504670064 -0.0006366604633235513 5.480712184222512e-07 0.002213744855554828 -3.9985708378016207e-07 -0.4178532311217773 0.31613343594520926
28.72 0.4577704710992779 -0.2800813575919092 -3.5781958276199354e-05 -1.4849405024746727e-08 -0.0010306645238226243 -1.3941958332716426e-06 -0.17975227115205658 -0.4448539670696885
29.215 -0.3365520348085016 -0.28893328144383734 -0.0012191181033663454 3.349895108846619e-07 0.00018257896961597635 1.9443420539457757e-07 0.257240282830888 0.2921477562036479
29.71 -0.037088249971918466 0.4755002217954139 5.720913105328691e-05 7.910375476292308e-08 -5.011801709808049e-05 -4.862980564265851e-08 -0.5301998327858028 0.08005184665309475
30.205 0.5367704033302186 -0.030853856043505618 -9.90005618547509e-05 1.0681048747636191e-07 -7.515636992726774e-05 -4.701400099100952e-08 0.1066062625808822 -0.4011599168611816
30.7 -0.09867452850691905 -0.4527035950926545 -0.00035968932939076093 -2.097962616886299e-07 -0.0001445104835045904 -3.487211303718828e-07 -0.0033986959964031286 0.4341660301437374
31.195 -0.2827004294816836 0.33223072078294336 0.0008895942218857466 -1.9547395931479996e-06 -0.0003939452952657742 -1.4038399581488875e-06 -0.49208640707487494 -0.17350303191742839
31.69 0.47750868520179596 0.21926073484453357 0.00021623134276991447 4.667455900964122e-07 0.0004573812929125628 2.9569381399819655e-07 0.30910001617587923 -0.18036128105427118
32.185 0.17587094331149278 -0.45422339536907735 -0.00037075265169315876 8.955306951231428e-08 0.0017675210765629812 3.3767886563801737e-06 -0.2732740852069828 0.3920380288685298
32.68 -0.40324898884179444 0.0711455983779611 -0.0005825631880796475 -6.672716914795453e-07 -0.0003976876148433161 -7.678128250725212e-07 -0.3212553967369732 -0.3622595826342978
33.175 0.29400294216782763 0.40144388018075383 0.00038407215608787576 -1.4484632548322167e-07 -0.00026403423043988187 -2.7619667607351755e-08 0.32203709941573894 0.11905500956813275
33.67 0.3948389023898353 -0.3157485833241028 -0.0002625608047916244 9.541474952474146e-07 -8.361201364087922e-05 -6.354166649779088e-08 -0.45906006299750624 0.2131406373786331
34.165 -0.3512477244383734 -0.20788175691420957 -0.001993029765246217 4.7135881682946755e-07 -0.00012134051684747451 1.6162277265725287e-07 -0.06436375049916314 -0.42149530557940373
34.66 0.03797412042935983 0.45650671606451615 0.0006985119927242967 5.906816958199979e-07 0.0012178733248185698 -6.25887691789256e-07 0.14468995276025784 0.3452257487699566
35.155 0.5023476410941209 -0.09074692436833369 -0.0019587269140349545 1.6141435542064075e-06 -0.0001358424987735218 9.732058689591089e-08 -0.5081119970759107 -0.02427381281631007
35.65 -0.15262791137558804 -0.400789466724324 -0.0008842716858791092 -7.465221488459225e-07 -0.0002475563502237165 -8.014926162563563e-07 0.18615999417621656 -0.30929214476800504
36.145 -0.21032360531150363 0.36090553104231293 -0.00044860185668892496 8.602431209078198e-07 -0.0007564768625101038 -2.540027668943609e-07 -0.1159986914812653 0.41341580769288094
36.64 0.48037369593982027 0.15229082990593545 0.0005751067262752357 6.356660402128988e-07 -0.00033593182839143675 -4.025196958480228e-07 -0.41950965791028877 -0.2482137702710665
37.135 0.1063718956973074 -0.4419913375289053 -0.0002369226376148302 1.2552360030299002e-07 -0.00237727845592628 1.2603329988730814e-06 0.3106836858056272 -0.05776331536973208
37.63 -0.3608299314713323 0.1344149994430645 -0.001218994698570456 1.0561261930851574e-07 -0.00035319575765606776 -5.17691353606624e-07 -0.34912461953497087 0.31454191945969734
38.125 0.33350405928100085 0.3456631796012277 -0.00035387912051771666 1.9235029468245254e-06 0.00034166049612188634 5.3529190938056044e-08 -0.21578167341075097 -0.383097756011291
38.62 0.332631037680894 -0.34097725906201265 2.487878135273184e-05 2.0511735773997333e-08 -0.0001969689841524952 -1.816789898799575e-07 0.24682021755632538 0.2138985414871212
39.115 -0.3548127270422742 -0.13349377222618614 0.0002080297369573347 8.644031582227226e-08 0.0009095822752466807 8.617205010458686e-07 -0.47654847876295 0.11639547927488214
39.61 0.10454944051881683 0.43172026786335216 -0.0002960687583042145 2.5877462482192363e-07 0.0010954962574659729 -5.972234560940691e-07 0.03773206650408708 -0.37591585834654156
40.105 0.4662137320593244 -0.1441548184454267 -0.0005914090616445133 -5.358446315137011e-07 0.0017867641157479528 -2.0233588808831897e-06 0.036007814399117787 0.371420201139669
40.6 -0.1972755657529613 -0.34551829530380523 0.0018866493057012647 -1.4697537340286706e-06 -2.6659022584552406e-05 -1.743524552783773e-08 -0.46905990253817614 -0.11346578037649566
41.095 -0.14086480258888567 0.37512108175423475 0.0004431013284458001 3.073000095507122e-07 -0.0017896476918911307 -5.179171791076943e-06 0.2365862880116002 -0.20493285021425203
41.59 0.4759542909065247 0.08688062688221086 -0.00038525738723314563 -8.946431579991545e-07 -0.00011947665317130447 -1.7811859825128938e-07 -0.21295138706766395 0.3674414680164051
42.085 0.04016689807374482 -0.4215693654088016 0.0014679284313251074 2.701767911077245e-06 0.002121876752464543 6.292521509966446e-07 -0.3360598919725656 -0.30027385126251965
42.58 -0.3120144629946509 0.1881527766676627 0.0003963378182818202 4.26247639998938e-09 7.098541035033936e-05 -1.1844892571478999e-07 0.2853119919494722 0.05354636398185745
43.075 0.36313274035272747 0.28582688521150046 -0.00013457657431028257 1.1199928823596376e-07 0.0010011870605560016 1.483095078645229e-06 -0.3975349786454261 0.23035860733729085
43.57 0.2692902612630058 -0.3601453044869313 -0.0017137172559704111 1.6173047719237477e-06 -0.0009502881412371389 5.674299892445304e-09 -0.11411898241284404 -0.37792430924952813
44.065 -0.3463526100247132 -0.0644137145985664 0.000943535667440814 -1.27705398515168e-06 -0.0019087294480423915 -6.367897748527932e-06 0.15824241956850493 0.27931725161920123
44.56 0.16192235175625605 0.40027934071834465 5.198744754640872e-05 3.8788634885302514e-09 0.0003430531368196759 -8.926807136325586e-07 -0.4683379742325169 0.022098882215082518
45.055 0.425510077537559 -0.19043130136060937 0.0008348970617264889 6.865482904585068e-07 0.001977299687214805 -3.439890432098445e-07 0.11714808405458561 -0.3060258670472728
45.55 -0.23110845286994647 -0.28429441196913174 0.0013194549029328314 7.560865420505147e-07 -0.0013242714726145863 -2.2153256388608547e-06 -0.06794863839506851 0.36862758141374935
46.045 -0.07398283441437069 0.38182109469312986 0.0002521082891934607 -2.899597028727053e-07 -0.00014952429487403917 -1.758224636584238e-07 -0.4130905777616263 -0.1897334805419203
46.54 0.4649413523866279 0.025140373145852924 1.7978655851746565e-05 5.502519698201161e-09 -0.00010617991899852233 1.3310238075313307e-07 0.2573759251296771 -0.09911272992873196
47.035 -0.01742855412064808 -0.3956130997389743 0.0002452530283105201 -7.738474346757998e-07 0.00048541503237555726 -9.403153433626481e-07 -0.2905324644903421 0.3105773708611579
47.53 -0.2636214646060117 0.23274058054328753 -0.0004776201672702307 1.9434326314802301e-07 -0.0017148947736011473 2.7427411799885624e-06 -0.24740498375424144 -0.33090957104938057
48.025 0.38755229101525246 0.23202439988411666 0.0005270224109004318 -4.849899514031482e-07 -0.0015637452569205968 4.358962144703124e-07 0.23408775968456802 0.1477358512186542
48.52 0.20975129651947294 -0.368732846337906 -0.0009387055275184014 -7.884332419543234e-07 -0.002680622010003125 2.909630817959747e-06 -0.4270095078902851 0.14268846909351915
49.015 -0.3324316113467675 0.00194538962452288 0.0002600754968290572 -1.6957622974676526e-07 0.0007165645435933302 -1.541522705543835e-06 -0.019824601312395867 -0.3498145806622516
49.51 0.210333585827744 0.36380395083798805 0.0002954063898093669 -4.4053808175680417e-07 -0.0004754788887364985 -1.949703105902187e-07 0.06416688850783471 0.3165398587588572
50.005 0.3792607605455811 -0.23049877757629633 -0.00119623873366158 -4.076056563744631e-06 -0.0008639030054124453 -2.10301664060404e-07 -0.4462082902150656 -0.06438824825565914
50.5 -0.25573234508808346 -0.22318056723786273 0.0004957826257919851 -9.084780592656743e-07 0.0018614605638774574 5.562513047374547e-07 0.17566574359434875 -0.22304827239970196
50.995 -0.011971513132155226 0.3782982667271496 0.0010649254936998212 1.6416553173589744e-07 -0.00012650359476895358 2.1183825721805643e-07 -0.15931055555130877 0.34479488837623734
51.49 0.4469645340542893 -0.028422826569406975 -0.0006537916500421523 6.89975863861265e-07 -0.0013604592320795572 -8.983944693742939e-07 -0.3444765352447021 -0.24389306765509486
51.985 -0.06980647041652673 -0.3587360707147667 -0.00010636681942352962 3.307822196200638e-07 -0.00024360138902964923 2.901400525715753e-07 0.24946765335880736 0.0015252005157601147
52.48 -0.2088051668433671 0.2664209054456187 -0.0006512719507607544 -3.935412391795374e-07 -0.0015508703592534187 -5.152139971548778e-06 -0.3422236664743217 0.23987521977811502
52.975 0.4012213435593125 0.17407158057704047 -0.0023970826143684715 -5.752165472878054e-06 0.0006282337965154174 8.585636947326748e-07 -0.15602579298476216 -0.33801502716553095
53.47 0.1499528514233099 -0.36688039117898397 -3.70760026740018e-05 1.49483682619075e-07 -0.0007308594671147668 7.664519350329541e-07 0.16413226605574235 0.21757413305967002
53.965 -0.3072302528008085 0.060250647154061615 0.0007500637654169108 -1.507424588883641e-07 -0.00028517731002983764 7.186031780841274e-08 -0.43326758172180224 0.05785118919548919
54.46 0.253240619893445 0.32230962388830836 -0.0006023490247198599 1.2748862987436908e-06 4.525953159522009e-05 4.1537846164239584e-08 0.05905693966674557 -0.2991067455115828
54.955 0.32968364878173334 -0.26070450010418894 -0.001148712403288499 -2.0305657987782483e-06 0.0019415986792848932 4.057379045880472e-06 -0.028273074460607204 0.32865614098725077
55.45 -0.27013574170257787 -0.16343373158581556 0.00034393303972085593 -4.949008671728134e-07 -0.0005668631402260607 1.3698845105731723e-06 -0.40379146669171356 -0.13745249405636967
55.945 0.045437395105644277 0.3691877052609415 0.000871059294304577 -6.75255595911538e-07 0.000950936097101225 -1.8773696167309877e-06 0.20729041498571196 -0.13177312831135174
