!Created with skrf (http://scikit-rf.org).
# GHz S RI R 50.0 
!freq ReS11 ImS11 ReS21 ImS21 ReS12 ImS12 ReS22 ImS22
1.0 0.1048534139007839 -0.05652777884762381 0.0 0.0 0.0 0.0 -0.16157929116651984 -0.07965646100437213
1.495 0.012014107474201903 -0.010439186085523237 0.0 0.0 0.0 0.0 -0.01992622733259199 0.0170037805821596
1.99 0.08423140555203282 0.06021030455836888 0.0 0.0 0.0 0.0 -0.18198408252102233 0.053221419974271544
2.485 0.1266435563448745 -0.027976321071103025 0.0 0.0 0.0 0.0 -0.10428582641379747 -0.08702120661915064
2.98 0.031216347498792523 -0.04025740333414351 0.0 0.0 0.0 0.0 -0.05335493757745722 0.0635793065961403
3.475 0.0506323874439167 0.052675745274609415 0.0 0.0 0.0 0.0 -0.19397704952255646 0.0005218432025394185
3.97 0.13017851334718897 0.005273130120951611 0.0 0.0 0.0 0.0 -0.05633404845450889 -0.061838110153926526
4.465 0.061344887410973166 -0.05427497626741905 0.0 0.0 0.0 0.0 -0.10371455737204278 0.08040819521949566
4.96 0.027580866270470034 0.02948080883547977 0.0 0.0 0.0 0.0 -0.17467202148921027 -0.046552851424467356
5.455 0.11610196392395909 0.03376723253973443 0.0 0.0 0.0 0.0 -0.03384309492483723 -0.015413595542814499
5.95 0.09257019192646442 -0.04995944446458117 0.0 0.0 0.0 0.0 -0.15117416155088145 0.06528704677849567
6.445 0.021229475889687655 -0.0011851861965418201 0.0 0.0 0.0 0.0 -0.13330540785773168 -0.07232506955611806
6.94 0.08990869869039686 0.04945554248862299 0.0 0.0 0.0 0.0 -0.04332398763422442 0.03293576596451438
7.435 0.11537312313861162 -0.030265698570633204 0.0 0.0 0.0 0.0 -0.17909565522635817 0.027225976803473963
7.93 0.0323341986340923 -0.029157696968355448 0.0 0.0 0.0 0.0 -0.08630317593859327 -0.06871075666301973
8.425 0.060410386037548745 0.04833811919820817 0.0 0.0 0.0 0.0 -0.07833381799941726 0.06433513792783561
8.92 0.12345850882716061 -0.002434292100528362 0.0 0.0 0.0 0.0 -0.1793003307653561 -0.017975115525948205
9.415 0.056088860010765955 -0.045752112596151806 0.0 0.0 0.0 0.0 -0.05186780769262907 -0.03857206706280613
9.91 0.03709323448486973 0.03171010502571379 0.0 0.0 0.0 0.0 -0.12304908529927955 0.06829054933748331
10.405 0.11533751911158843 0.024399095228156184 0.0 0.0 0.0 0.0 -0.1537061987783231 -0.0534046356771773
10.9 0.08402676522018489 -0.046518152056974335 0.0 0.0 0.0 0.0 -0.0428779826721566 0.0048873062050494576
11.395 0.027116464092958144 0.0057398715805413 0.0 0.0 0.0 0.0 -0.15968818389332284 0.045843859281266025
11.89 0.09447251343174509 0.04192287744673054 0.0 0.0 0.0 0.0 -0.11316551564265763 -0.0664106271286958
12.385 0.10701350528186866 -0.03231439274639464 0.0 0.0 0.0 0.0 -0.061368084732796986 0.04359435382721527
12.88 0.03299372059623329 -0.02063964667043587 0.0 0.0 0.0 0.0 -0.1753106393659151 0.007546339259975216
13.375 0.06808482442834504 0.04504605144166823 0.0 0.0 0.0 0.0 -0.0737899667484038 -0.05290081211789649
13.87 0.11812046130277462 -0.008577727203769387 0.0 0.0 0.0 0.0 -0.09807999786855683 0.06259723717743754
14.365 0.05191502561849459 -0.03882727482355085 0.0 0.0 0.0 0.0 -0.16557857707987583 -0.03135754340553786
14.86 0.044888014850450464 0.033390443389612376 0.0 0.0 0.0 0.0 -0.051027006662751034 -0.01916894211127552
15.355 0.11452073118540243 0.01667468308609514 0.0 0.0 0.0 0.0 -0.13734910297930525 0.056048074704964326
15.85 0.0769870900392656 -0.04341279165108808 0.0 0.0 0.0 0.0 -0.1354175494236409 -0.05631675996924224
16.345 0.03229137897447019 0.011365637985177972 0.0 0.0 0.0 0.0 -0.053257142837957745 0.020424667522576833
16.84 0.09806505842067456 0.035377839352239225 0.0 0.0 0.0 0.0 -0.16404035261292726 0.028388043394420946
17.335 0.09978780173528917 -0.0337170022821658 0.0 0.0 0.0 0.0 -0.09707588273491406 -0.058328842259831946
17.83 0.03395984571270498 -0.013360260789448512 0.0 0.0 0.0 0.0 -0.07822859678821818 0.04971667511112787
18.325 0.07453925279994864 0.04182800955350339 0.0 0.0 0.0 0.0 -0.16898072500209968 -0.008586479197296899
18.82 0.1131611021893526 -0.013628960996818255 0.0 0.0 0.0 0.0 -0.06578650422496181 -0.037294188051822254
19.315 0.04867683059519127 -0.03254807338026808 0.0 0.0 0.0 0.0 -0.11460404914906192 0.05779156623298633
19.81 0.05180320142150133 0.03438930321035552 0.0 0.0 0.0 0.0 -0.15146609343494807 -0.040523021095127926
20.305 0.11332229753667267 0.009937931872526857 0.0 0.0 0.0 0.0 -0.05380098856577835 -0.0023401163327227813
20.8 0.07098099342401074 -0.040204553013115346 0.0 0.0 0.0 0.0 -0.14749424226606198 0.042977133845146745
21.295 0.03725473095844324 0.015979930229479036 0.0 0.0 0.0 0.0 -0.1189995733197022 -0.05549244389197105
21.79 0.10079209264549321 0.029320454689119712 0.0 0.0 0.0 0.0 -0.06514598875614674 0.03190773949645072
22.285 0.0932483671022162 -0.034436638288600746 0.0 0.0 0.0 0.0 -0.16459970308097036 0.012409290027263188
22.78 0.035378297523877014 -0.006940826450760659 0.0 0.0 0.0 0.0 -0.08458301411681483 -0.04816714096004762
23.275 0.08005951260431173 0.03845405931111752 0.0 0.0 0.0 0.0 -0.09406593287116675 0.05178792378507757
23.77 0.10831175791304315 -0.01776944187056327 0.0 0.0 0.0 0.0 -0.16033167341878393 -0.021508635439029245
24.265 0.046282913168149836 -0.02663732043643098 0.0 0.0 0.0 0.0 -0.061895374357256915 -0.022017126981449177
24.76 0.0581069245378659 0.03471232690072952 0.0 0.0 0.0 0.0 -0.12810996361751667 0.05033741530278467
25.255 0.11167454520881176 0.003958805619347326 0.0 0.0 0.0 0.0 -0.13719240559957813 -0.04578842102693034
25.75 0.06582695314054832 -0.03677991592656099 0.0 0.0 0.0 0.0 -0.05968550432562765 0.011873848779017798
26.245 0.04215364387750971 0.019715661802673357 0.0 0.0 0.0 0.0 -0.15380174948575004 0.029437897821111222
26.74 0.10272826091478755 0.023586329654181823 0.0 0.0 0.0 0.0 -0.10463450609162224 -0.051375598974687145
27.235 0.08723680439783775 -0.03449711880117537 0.0 0.0 0.0 0.0 -0.07800193773349531 0.039549336866378765
27.73 0.03726461498378572 -0.0012341664736098485 0.0 0.0 0.0 0.0 -0.16182172669925296 -0.001854647627338655
28.225 0.08477237681910477 0.034870003500509436 0.0 0.0 0.0 0.0 -0.0756512227819318 -0.036505574606562584
28.72 0.1034944683282541 -0.021093692255886823 0.0 0.0 0.0 0.0 -0.10849391697296286 0.0502972358131476
29.215 0.04466578616443218 -0.02100555848845493 0.0 0.0 0.0 0.0 -0.1499244691551256 -0.031196232451643446
29.71 0.0638988272850414 0.03439812969817381 0.0 0.0 0.0 0.0 -0.0617336684848556 -0.007609545191308996
30.205 0.10958471849254196 -0.0013587757228140187 0.0 0.0 0.0 0.0 -0.13851882078367056 0.0408679344292926
30.7 0.06143885104142748 -0.03312600741972374 0.0 0.0 0.0 0.0 -0.12331281225293224 -0.04742756537136482
31.195 0.04702059050399292 0.02265108428682751 0.0 0.0 0.0 0.0 -0.06801294738686522 0.02322812450922136
31.69 0.10393407962027733 0.01812524889939217 0.0 0.0 0.0 0.0 -0.15653300616405494 0.016019692282387216
32.185 0.08169701005555009 -0.033941395751131406 0.0 0.0 0.0 0.0 -0.0926810835030458 -0.044542487202610365
32.68 0.03958903968560473 0.0038227509191842697 0.0 0.0 0.0 0.0 -0.09112143094783814 0.04354034609878173
33.175 0.0887445422680517 0.031085423824367627 0.0 0.0 0.0 0.0 -0.15624384836484217 -0.01402638739572919
33.67 0.09870331705388444 -0.023662355253728465 0.0 0.0 0.0 0.0 -0.07024923334294511 -0.02407335390930124
34.165 0.04376750390050132 -0.015635682465248803 0.0 0.0 0.0 0.0 -0.12104816895416122 0.04580083317679674
34.66 0.06921230628088479 0.033497772280625566 0.0 0.0 0.0 0.0 -0.13843784083337815 -0.0376091327338259
35.155 0.10709009034692477 -0.006056918889134318 0.0 0.0 0.0 0.0 -0.06482703317874373 0.005331171101362948
35.65 0.05776907246273244 -0.02927130770477436 0.0 0.0 0.0 0.0 -0.14575882252529135 0.030090740861646877
36.145 0.051840762699502975 0.024842307790796554 0.0 0.0 0.0 0.0 -0.11044618055399254 -0.04579319779306668
36.64 0.10446451347523264 0.012934990932493924 0.0 0.0 0.0 0.0 -0.07803619228507604 0.03152413582732659
37.135 0.07661620313826181 -0.03282150351708127 0.0 0.0 0.0 0.0 -0.1560113789987377 0.0033450548851107005
37.63 0.04230168094562448 0.008257608959616577 0.0 0.0 0.0 0.0 -0.08346172923762572 -0.035666157165547455
38.125 0.09201727704763397 0.027137992562697662 0.0 0.0 0.0 0.0 -0.10379449990270398 0.04416135635093253
38.62 0.09396450424723324 -0.0255222716702385 0.0 0.0 0.0 0.0 -0.14847764956523327 -0.023759160379901282
39.115 0.04353293012463648 -0.010542371303641163 0.0 0.0 0.0 0.0 -0.06823547535124098 -0.011629473691150803
39.61 0.07405181300517269 0.032068810021469205 0.0 0.0 0.0 0.0 -0.13132627631775298 0.03892290917469978
40.105 0.1042424719499177 -0.01015418075229288 0.0 0.0 0.0 0.0 -0.12658709954401795 -0.04079698594258746
40.6 0.05478597693097683 -0.025263785534445287 0.0 0.0 0.0 0.0 -0.07059796634887956 0.01627745558395369
41.095 0.056577879240822096 0.02633680729581021 0.0 0.0 0.0 0.0 -0.14985290095916826 0.018727266599692937
41.59 0.10437328766888229 0.008035116666589258 0.0 0.0 0.0 0.0 -0.09916974893580352 -0.04134628879909561
42.085 0.07200075628428503 -0.031195189851186977 0.0 0.0 0.0 0.0 -0.08898381001695593 0.036690702783138754
42.58 0.04534245609050051 0.012083230281430591 0.0 0.0 0.0 0.0 -0.15265152658442308 -0.00801020870889827
43.075 0.09462142045197557 0.023078812706940954 0.0 0.0 0.0 0.0 -0.07717902074602652 -0.025478847965462174
43.57 0.08931933758048116 -0.026715563865523293 0.0 0.0 0.0 0.0 -0.11537694734787728 0.041804415603298485
44.065 0.04390649281125025 -0.0057543443218929366 0.0 0.0 0.0 0.0 -0.1391887016835958 -0.030806048655819734
44.56 0.07840944375492356 0.030172927304784172 0.0 0.0 0.0 0.0 -0.06932742936994704 0.00010807453557705507
45.055 0.10110144470448865 -0.01365946468016067 0.0 0.0 0.0 0.0 -0.1390433005121164 0.030334592054381347
45.55 0.05246342462978282 -0.021160912629610173 0.0 0.0 0.0 0.0 -0.11507145239674164 -0.040936228811473366
46.045 0.06118613937649889 0.027179759634942374 0.0 0.0 0.0 0.0 -0.07838812043999753 0.024831746747427462
46.54 0.10371503417477038 0.0034546168660067643 0.0 0.0 0.0 0.0 -0.15094569107424768 0.007471273348176254
47.035 0.067864557868207 -0.029124312369260195 0.0 0.0 0.0 0.0 -0.08996000273480914 -0.03464931106137263
47.53 0.04864597401186452 0.015307472325310685 0.0 0.0 0.0 0.0 -0.10010724225658976 0.0388073753050573
48.025 0.0965847103927513 0.01896522500432632 0.0 0.0 0.0 0.0 -0.14695691257672475 -0.01756152755340916
48.52 0.08481570381904543 -0.0272841240883516 0.0 0.0 0.0 0.0 -0.07388045562057347 -0.014728987336955176
49.015 0.04483071467000259 -0.0013053882619831203 0.0 0.0 0.0 0.0 -0.1253321072596447 0.036962048707102055
49.51 0.08227331453508883 0.027874605607580115 0.0 0.0 0.0 0.0 -0.12906821713176714 -0.03505251157383042
50.005 0.09773076044366234 -0.01657913703504594 0.0 0.0 0.0 0.0 -0.07310732728536054 0.010513325545597012
50.5 0.050775458337769724 -0.0170242859467689 0.0 0.0 0.0 0.0 -0.14405416455122602 0.020724923053589858
50.995 0.06561656807026911 0.02741714947175566 0.0 0.0 0.0 0.0 -0.10453074660678113 -0.038336532974482036
51.49 0.10254625524204462 -0.0007746636581080495 0.0 0.0 0.0 0.0 -0.08749468535677007 0.030754973749528895
51.985 0.06422277024389039 -0.026673727169173232 0.0 0.0 0.0 0.0 -0.14930517127076415 -0.0030445843000906484
52.48 0.05214442604627968 0.017938419794019528 0.0 0.0 0.0 0.0 -0.08315564044498641 -0.026340780326033927
52.975 0.09793559480940003 0.01485674314602191 0.0 0.0 0.0 0.0 -0.11072111341998656 0.03810057209154666
53.47 0.08050322336416224 -0.027271868539261897 0.0 0.0 0.0 0.0 -0.13950226271725585 -0.024943981829512324
53.965 0.04624572885765554 0.0027706690508222283 0.0 0.0 0.0 0.0 -0.07344997332087448 -0.004136501288212728
54.46 0.085632153525754 0.025240106669086982 0.0 0.0 0.0 0.0 -0.13325559704344295 0.030202272430591145
54.955 0.09419606182980379 -0.01892093139493484 0.0 0.0 0.0 0.0 -0.11880005012781679 -0.03652955836058092
55.45 0.04969352053283368 -0.01291631566797836 0.0 0.0 0.0 0.0 -0.07904733232502925 0.01908895736815664
55.945 0.0698207481693567 0.027097229318219417 0.0 0.0 0.0 0.0 -0.1463587666630242 0.010769839660688212
56.44 0.10092559557717869 -0.004621851110631523 0.0 0.0 0.0 0.0 -0.09550861444066333 -0.03342901402494002
56.935 0.06108824105191342 -0.023910296185817696 0.0 0.0 0.0 0.0 -0.09721113740902973 0.033974683092438056
57.43 0.05576957696933682 0.019987209851075403 0.0 0.0 0.0 0.0 -0.1453108714650877 -0.012276555648951417
57.925 0.09870523220381783 0.010812475110055713 0.0 0.0 0.0 0.0 -0.07893665787260569 -0.017099280366503534
58.42 0.076430215293735 -0.0267257767612221 0.0 0.0 0.0 0.0 -0.120235565592616 0.03492473184868092
58.915 0.04808937543894204 0.006442975685935932 0.0 0.0 0.0 0.0 -0.13090756975927811 -0.02993014219547419
59.41 0.08847794169007829 0.022336550847562614 0.0 0.0 0.0 0.0 -0.0756179942801611 0.005649126418907619
59.905 0.09056321818896192 -0.020696150403569234 0.0 0.0 0.0 0.0 -0.13888793730186508 0.022137773494797192
60.4 0.04918505811380178 -0.008897961037318904 0.0 0.0 0.0 0.0 -0.1090260504808924 -0.03541321347208137
60.895 0.07375318653215673 0.026271063505403328 0.0 0.0 0.0 0.0 -0.08654530757946301 0.025489287664791964
61.39 0.09891368836007546 -0.00805940874277147 0.0 0.0 0.0 0.0 -0.14609613298850851 0.0011021630351698327
61.885 0.0584693694341853 -0.020901905474154714 0.0 0.0 0.0 0.0 -0.08842294071240211 -0.02674179074251893
62.38 0.059454291108922634 0.021469541705749606 0.0 0.0 0.0 0.0 -0.10686655550980935 0.034578340182658894
62.875 0.09892847034735308 0.006889332387369268 0.0 0.0 0.0 0.0 -0.13943364574911424 -0.019792196810472295
63.37 0.07264165528658312 -0.025696211524601355 0.0 0.0 0.0 0.0 -0.07731787727067005 -0.007602687272700022
63.865 0.05029765179591182 0.009685535147614659 0.0 0.0 0.0 0.0 -0.128179861669481 0.0297350062105291
64.36 0.09080744674911168 0.019231026341927727 0.0 0.0 0.0 0.0 -0.12180718926907788 -0.03243880007986577
64.855 0.08689698366850959 -0.021920876718185878 0.0 0.0 0.0 0.0 -0.07998498429756175 0.014084173149981331
65.35 0.04921295363238802 -0.005027066157516483 0.0 0.0 0.0 0.0 -0.14211754906737106 0.013393513121374394
65.845 0.07737288863349602 0.024992529201397034 0.0 0.0 0.0 0.0 -0.10031265352214618 -0.03201260771101258
66.34 0.09657272913324168 -0.011064651293428599 0.0 0.0 0.0 0.0 -0.0949650437900786 0.02953009425156925
66.835 0.056368850188698465 -0.01771647401486647 0.0 0.0 0.0 0.0 -0.1435306931056717 -0.007715687740671445
67.33 0.06313377946644581 0.022406393774452242 0.0 0.0 0.0 0.0 -0.08354544377410217 -0.01886680109375447
67.825 0.09864420432030459 0.0031407039544788964 0.0 0.0 0.0 0.0 -0.11585990574206485 0.032795764108727685
68.32 0.06917773883753227 -0.024236784390118893 0.0 0.0 0.0 0.0 -0.1322096498592166 -0.025286924144626046
68.815 0.052805378881580295 0.012478377924681632 0.0 0.0 0.0 0.0 -0.0781558105365036 0.001512606481686213
69.31 0.0926230766477387 0.015989717311303952 0.0 0.0 0.0 0.0 -0.13421719229946188 0.02305567398577101
69.805 0.08325985032858305 -0.022616558416873805 0.0 0.0 0.0 0.0 -0.11281667979586883 -0.03253480639951528
70.3 0.04973548177092783 -0.0013570848564423525 0.0 0.0 0.0 0.0 -0.08605422957165351 0.020756585559220275
70.795 0.08064442854663981 0.023317982422858125 0.0 0.0 0.0 0.0 -0.1429758072221555 0.004575238716507778
71.29 0.09396587379382847 -0.013620715926424701 0.0 0.0 0.0 0.0 -0.09312152979569789 -0.02674833613046016
71.785 0.05478299440913312 -0.014420962891795293 0.0 0.0 0.0 0.0 -0.10367630576677438 0.031186374233421268
72.28 0.06674665064756001 0.022824231731382212 0.0 0.0 0.0 0.0 -0.13903248125621534 -0.015215078667156285
72.775 0.0978953346432767 -0.00038456413144668047 0.0 0.0 0.0 0.0 -0.0809918722513975 -0.010421558523607136
73.27 0.0660728540325972 -0.022403922215891457 0.0 0.0 0.0 0.0 -0.12368724920573593 0.028974068124605318
73.765 0.05554699288499168 0.014808253781754557 0.0 0.0 0.0 0.0 -0.12421039410018352 -0.02859400902287941
74.26 0.09393328383984881 0.012677056810978023 0.0 0.0 0.0 0.0 -0.081167164153229 0.009688381794531927
74.755 0.07971104119787809 -0.022810171203310945 0.0 0.0 0.0 0.0 -0.13815115423800098 0.015447162568373595
75.25 0.05070661483821426 0.0020639099847473853 0.0 0.0 0.0 0.0 -0.10449988394622262 -0.030420051125971737
75.745 0.08353866785687046 0.021305713988043033 0.0 0.0 0.0 0.0 -0.09326968245082909 0.025400995236116858
76.24 0.09115652528210191 -0.01571715609353637 0.0 0.0 0.0 0.0 -0.14162542869115383 -0.0037595256516606565
76.735 0.05370145666004454 -0.011080404717202154 0.0 0.0 0.0 0.0 -0.08778688086515495 -0.02012298031204722
77.23 0.07023580318393986 0.02275487309919115 0.0 0.0 0.0 0.0 -0.11209126940897211 0.030579879135197805
77.725 0.09672845601065007 -0.0036429655253358067 0.0 0.0 0.0 0.0 -0.133052556180074 -0.021039674430278484
78.22 0.06335485957146404 -0.020256233660364907 0.0 0.0 0.0 0.0 -0.08072347197775406 -0.002009587498714962
78.715 0.058457399381703794 0.01666897613177968 0.0 0.0 0.0 0.0 -0.1299609809592521 0.023548036731452934
79.21 0.0947526546298765 0.009354916033764957 0.0 0.0 0.0 0.0 -0.11601062552372134 -0.02968729746102177
79.705 0.07630562179662868 -0.022534077973704415 0.0 0.0 0.0 0.0 -0.08595649814690266 0.016474014069512235
80.2 0.052076565443075415 0.005193987164501739 0.0 0.0 0.0 0.0 -0.1399246643644609 0.007473712379873321
80.695 0.08603321123472642 0.019015275671117805 0.0 0.0 0.0 0.0 -0.09733876265571849 -0.02641595710734301
81.19 0.08820755544629541 -0.017350253629345943 0.0 0.0 0.0 0.0 -0.1010550435857622 0.027902654353225552
81.685 0.05310726507322238 -0.007756975444675154 0.0 0.0 0.0 0.0 -0.13834324044505977 -0.011126898683980051
82.18 0.07354917642338987 0.02223511247410917 0.0 0.0 0.0 0.0 -0.08450144130242014 -0.012686238679355803
82.675 0.09519335930484886 -0.006596950502240298 0.0 0.0 0.0 0.0 -0.11969504939174996 0.027958723133537276
83.17 0.06104460922934028 -0.017853744274022403 0.0 0.0 0.0 0.0 -0.12609481514926027 -0.024958196632340474
83.665 0.06147284409464913 0.018061500022668535 0.0 0.0 0.0 0.0 -0.0825592931506842 0.005816850756470311
84.16 0.09510176662573104 0.0060818423649741955 0.0 0.0 0.0 0.0 -0.13442101667253167 0.017008394377418867
84.655 0.07309372449186005 -0.02182566330686687 0.0 0.0 0.0 0.0 -0.10815594029278065 -0.028676152081215472
85.15 0.053792489736042906 0.007997918333016763 0.0 0.0 0.0 0.0 -0.09204995799553466 0.021546557813046978
85.645 0.08811265225550219 0.016506731260828987 0.0 0.0 0.0 0.0 -0.13961218163940609 -0.00032685745356943424
86.14 0.08518049771489691 -0.01852310712545886 0.0 0.0 0.0 0.0 -0.09170840946362573 -0.020938479547540485
86.635 0.05297708563439149 -0.0045091297600306866 0.0 0.0 0.0 0.0 -0.10885081863724501 0.028291190585268817
87.13 0.0766403680502484 0.021306177395588714 0.0 0.0 0.0 0.0 -0.13349826151430239 -0.01713756885514047
87.625 0.0933424030171709 -0.009215386993563456 0.0 0.0 0.0 0.0 -0.08331243332378484 -0.0049975947120140035
88.12 0.059155687061163406 -0.01525705130956528 0.0 0.0 0.0 0.0 -0.1260690248585701 0.023671495847698183
88.615 0.06453176575435474 0.01899378869037326 0.0 0.0 0.0 0.0 -0.11868549143150334 -0.026870630356284876
89.11 0.09500686913415764 0.0029123581026928597 0.0 0.0 0.0 0.0 -0.08619784219482578 0.012588599657991474
89.605 0.07011988735895193 -0.020726797018490187 0.0 0.0 0.0 0.0 -0.13693834907675603 0.009869931558012909
90.1 0.05579929509319705 0.010447558476743562 0.0 0.0 0.0 0.0 -0.10113221642779033 -0.02579253991333154
90.595 0.08976864464966544 0.013839871786401848 0.0 0.0 0.0 0.0 -0.09893178281536273 0.024720620401646992
91.09 0.08213473935876457 -0.01924553461891015 0.0 0.0 0.0 0.0 -0.13740611307868594 -0.007470191069009761
91.585 0.053281670887226684 -0.0013908188566889757 0.0 0.0 0.0 0.0 -0.08785934740273316 -0.014467311434972608
92.08 0.07946912253279612 0.020013064968862154 0.0 0.0 0.0 0.0 -0.11614686175730186 0.02672584033865367
92.575 0.09122979489010023 -0.011473879472111554 0.0 0.0 0.0 0.0 -0.1275260478695721 -0.021512413785250716
93.07 0.057694329268542 -0.012526438695516014 0.0 0.0 0.0 0.0 -0.08412771486569975 0.002410328271915567
93.565 0.06757560466842147 0.019480508898114007 0.0 0.0 0.0 0.0 -0.1309064865112449 0.018138177501544565
