!Created with skrf (http://scikit-rf.org).
# GHz S RI R 50.0 
!freq ReS11 ImS11 ReS21 ImS21 ReS12 ImS12 ReS22 ImS22
1.0 0.10484559254989946 -0.056513663848762365 0.0 0.0 0.0 0.0 -0.16156529198944738 -0.0796346482690019
1.495 0.012042746083464291 -0.010434269632574544 0.0 0.0 0.0 0.0 -0.01997275974252726 0.016994887387535934
1.99 0.08422487302437343 0.060172103344262824 0.0 0.0 0.0 0.0 -0.18193465546783333 0.05318493892453502
2.485 0.12660210803582433 -0.02795448068406109 0.0 0.0 0.0 0.0 -0.1042911731216861 -0.08694549928008727
2.98 0.03125613457310369 -0.04021966771038038 0.0 0.0 0.0 0.0 -0.0534137930019113 0.06351334288743839
3.475 0.05065711184990681 0.05261985414547361 0.0 0.0 0.0 0.0 -0.1938814992071311 0.0005214093011739084
3.97 0.13011271899167595 0.005266867016515148 0.0 0.0 0.0 0.0 -0.056405018758646425 -0.061757127877954884
4.465 0.06136093705480174 -0.05420479989628466 0.0 0.0 0.0 0.0 -0.10372386012366358 0.08029389160667902
4.96 0.027645978867854935 0.029439451799992737 0.0 0.0 0.0 0.0 -0.17457482480316136 -0.046482236151525504
5.455 0.116039171126773 0.03371690207141435 0.0 0.0 0.0 0.0 -0.03397144794982834 -0.015387943023613813
5.95 0.09254035320424259 -0.04988007296180706 0.0 0.0 0.0 0.0 -0.15110325589892953 0.06517371222660619
6.445 0.02131894281193921 -0.0011830603166897082 0.0 0.0 0.0 0.0 -0.13326341822128165 -0.07219152772156279
6.94 0.08988039955705522 0.04936790651223346 0.0 0.0 0.0 0.0 -0.04345705936796611 0.032870307393005296
7.435 0.11529629203693598 -0.03020979591878762 0.0 0.0 0.0 0.0 -0.17895729294579935 0.02717124595149181
7.93 0.03241542817739203 -0.029100555718191968 0.0 0.0 0.0 0.0 -0.08635541475065693 -0.06856303938042664
8.425 0.06043783915169396 0.048240062085225244 0.0 0.0 0.0 0.0 -0.07840590115830728 0.06419070790229575
8.92 0.12335501536808996 -0.00242931924661789 0.0 0.0 0.0 0.0 -0.17914375234153465 -0.017934003684245112
9.415 0.05612766566864831 -0.045652098147751924 0.0 0.0 0.0 0.0 -0.05201045279232634 -0.03847852816948888
9.91 0.03717669862315506 0.031638341507020565 0.0 0.0 0.0 0.0 -0.1230180710404232 0.06812178085154617
10.405 0.11524180375400454 0.02434260702605605 0.0 0.0 0.0 0.0 -0.1535970814021838 -0.053269233218904005
10.9 0.08400244328219564 -0.04640687730436154 0.0 0.0 0.0 0.0 -0.04305916199658308 0.004874055550397394
11.395 0.027232627839154797 0.005725732530428768 0.0 0.0 0.0 0.0 -0.1595564444542852 0.04572104476848479
11.89 0.09442069923046807 0.04181698251018354 0.0 0.0 0.0 0.0 -0.11315858588126611 -0.06622572681185128
12.385 0.10692784386748255 -0.03223091045351606 0.0 0.0 0.0 0.0 -0.06151032208137069 0.043468242184705026
12.88 0.03310332958817823 -0.020584245701017478 0.0 0.0 0.0 0.0 -0.17512390204240078 0.007524717192124976
13.375 0.06810085819079657 0.04492312579209156 0.0 0.0 0.0 0.0 -0.07390155954334807 -0.052740928751914315
13.87 0.11799797822090242 -0.008554063514960877 0.0 0.0 0.0 0.0 -0.09811851882253463 0.062404621208514206
14.365 0.05197787819347091 -0.03871618806528378 0.0 0.0 0.0 0.0 -0.16540860519325357 -0.03126029987647991
14.86 0.04497298360433882 0.033292909207560936 0.0 0.0 0.0 0.0 -0.05122055498002446 -0.01910691266728826
15.355 0.11440095754043773 0.016625365860955296 0.0 0.0 0.0 0.0 -0.1372623609707843 0.055866160837374945
15.85 0.07697774369227307 -0.04328140709673586 0.0 0.0 0.0 0.0 -0.1353357892707351 -0.05613017320031425
16.345 0.03242068468081909 0.011330456177868778 0.0 0.0 0.0 0.0 -0.053454512242888524 0.02035430945196923
16.84 0.09798961477304023 0.03526703253751666 0.0 0.0 0.0 0.0 -0.16385816640171902 0.028291259381803758
17.335 0.09970539366444162 -0.03360967401609946 0.0 0.0 0.0 0.0 -0.09712412919534034 -0.05812312379653675
17.83 0.03409061390052452 -0.01331645528375947 0.0 0.0 0.0 0.0 -0.07834551715722897 0.04953745367371862
18.325 0.07453738748367165 0.04168972710808331 0.0 0.0 0.0 0.0 -0.16877165798291274 -0.008555508011453121
18.82 0.11303009035730527 -0.013583535366792554 0.0 0.0 0.0 0.0 -0.06595434761441867 -0.037155113924490425
19.315 0.048763304900866444 -0.03243653337237851 0.0 0.0 0.0 0.0 -0.1145893858105634 0.057574870280755704
19.81 0.051880258735838174 0.03426983514685568 0.0 0.0 0.0 0.0 -0.15131244864997798 -0.040369920859655344
20.305 0.11318472307616152 0.009903102752199758 0.0 0.0 0.0 0.0 -0.05402399428441094 -0.002331108730812737
20.8 0.07099149920383371 -0.04006110475893315 0.0 0.0 0.0 0.0 -0.14735119991002602 0.04281004858366208
21.295 0.03738821334419185 0.01592191856455643 0.0 0.0 0.0 0.0 -0.11896700591097316 -0.05527211060340485
21.79 0.1006941839309488 0.02921333332790362 0.0 0.0 0.0 0.0 -0.06533170743580895 0.03177765026006848
22.285 0.09317682960272435 -0.034309128504722064 0.0 0.0 0.0 0.0 -0.1643823861885536 0.012359346010608719
22.78 0.03552430091162307 -0.006914460850037844 0.0 0.0 0.0 0.0 -0.08469218732593586 -0.04796668210236278
23.275 0.08003639000773888 0.038307626579990615 0.0 0.0 0.0 0.0 -0.09413610858084895 0.051569991117870945
23.77 0.10817985786289917 -0.01770131479792663 0.0 0.0 0.0 0.0 -0.160123802595046 -0.021418238284361693
24.265 0.0463913953437296 -0.026532797010053896 0.0 0.0 0.0 0.0 -0.062107745088431476 -0.021921658721745552
24.76 0.05816982954827305 0.03457487144638986 0.0 0.0 0.0 0.0 -0.128034856664272 0.05011953277879416
25.255 0.11152465928939786 0.003942974164754656 0.0 0.0 0.0 0.0 -0.13707716882911633 -0.04558821845466712
25.75 0.06585981876919346 -0.03663101028840424 0.0 0.0 0.0 0.0 -0.059915379751360805 0.011820301064722457
26.245 0.042284378874152 0.019634760984430535 0.0 0.0 0.0 0.0 -0.15361021325348168 0.029306928800095135
26.74 0.10260998139982588 0.023489195938971336 0.0 0.0 0.0 0.0 -0.10466276323220687 -0.051141772276333215
27.235 0.08718142251634464 -0.03435334131155482 0.0 0.0 0.0 0.0 -0.07815367899811405 0.03936622128743342
27.73 0.03742039886186117 -0.0012288355630870446 0.0 0.0 0.0 0.0 -0.1615876762159714 -0.001845996178126687
28.225 0.0847264973669275 0.03472152080361974 0.0 0.0 0.0 0.0 -0.0758175776424696 -0.03633311819663549
28.72 0.10336782995422214 -0.021003308563940976 0.0 0.0 0.0 0.0 -0.10850483588214756 0.05005883685203753
29.215 0.04479379124564754 -0.020913713894739804 0.0 0.0 0.0 0.0 -0.14973916551773453 -0.031048184569920517
29.71 0.06394325459425693 0.034246845097457276 0.0 0.0 0.0 0.0 -0.06197348597285588 -0.007572521080540776
30.205 0.1094276707825182 -0.0013528726572539485 0.0 0.0 0.0 0.0 -0.13838455318044776 0.04066994423532052
30.7 0.06149500699041959 -0.032977434813183146 0.0 0.0 0.0 0.0 -0.12325172828691172 -0.047194720769674244
31.195 0.04714292215756423 0.02254842816777671 0.0 0.0 0.0 0.0 -0.06822770740649231 0.02311150260531846
31.69 0.1037982161300765 0.01804292486551748 0.0 0.0 0.0 0.0 -0.15630629430945744 0.015940335872956558
32.185 0.08166149590442327 -0.03378551053901595 0.0 0.0 0.0 0.0 -0.09277348364915752 -0.04431634686743365
32.68 0.03974942480785228 0.003805015547256998 0.0 0.0 0.0 0.0 -0.09122243217505649 0.043317172503509103
33.175 0.0886757200998284 0.030940257942436936 0.0 0.0 0.0 0.0 -0.15601271472413997 -0.013954816536204218
33.67 0.09858705811798299 -0.023551173698497713 0.0 0.0 0.0 0.0 -0.07046197541899712 -0.023947405565189685
34.165 0.04391189934377343 -0.015560875979363948 0.0 0.0 0.0 0.0 -0.12099487337036692 0.04556174057726241
34.66 0.06923532426931318 0.033336976411672846 0.0 0.0 0.0 0.0 -0.13829338878964173 -0.037411859992161324
35.155 0.10693078861574286 -0.006027856053449075 0.0 0.0 0.0 0.0 -0.06507442649730862 0.005302393275253148
35.65 0.057848262459859266 -0.029128237340700622 0.0 0.0 0.0 0.0 -0.14557318015712833 0.029930783305760125
36.145 0.05195001057305663 0.024719916977281414 0.0 0.0 0.0 0.0 -0.11044863539935576 -0.04554575174575221
36.64 0.10431436528444377 0.012871161773348726 0.0 0.0 0.0 0.0 -0.07821624293810246 0.031351135359384275
37.135 0.0766030407419673 -0.032657837134386275 0.0 0.0 0.0 0.0 -0.15576627109695723 0.003327014687366726
37.63 0.04246174660721238 0.008215991624754395 0.0 0.0 0.0 0.0 -0.08361434657531959 -0.03546787478339894
38.125 0.0919263368844852 0.02700089944221413 0.0 0.0 0.0 0.0 -0.10383393430924126 0.04391502587001543
38.62 0.09386289062876521 -0.02539253070700724 0.0 0.0 0.0 0.0 -0.14826864541033083 -0.02362690066500694
39.115 0.043690114398677767 -0.010487887583349042 0.0 0.0 0.0 0.0 -0.06847881414968648 -0.011563264583032154
39.61 0.07405161707649162 0.03190288962562516 0.0 0.0 0.0 0.0 -0.13121044189140244 0.038702506039084386
40.105 0.10408557376549715 -0.010101590058553279 0.0 0.0 0.0 0.0 -0.1264976290783795 -0.04056399494685299
40.6 0.05488699913538447 -0.025130814825905543 0.0 0.0 0.0 0.0 -0.07083254550525642 0.01618257670599458
41.095 0.05667021479542998 0.0261973754706733 0.0 0.0 0.0 0.0 -0.14962854825673375 0.018619535009356772
41.59 0.10421251696438588 0.007992500032366807 0.0 0.0 0.0 0.0 -0.09923867711344898 -0.0411038786259228
42.085 0.07201139002403714 -0.03102813459253056 0.0 0.0 0.0 0.0 -0.08911340632026012 0.03647356864732403
42.58 0.045497582221802994 0.012017916341066436 0.0 0.0 0.0 0.0 -0.15240648756224418 -0.0079630639373312
43.075 0.09450999441219568 0.02295396876884459 0.0 0.0 0.0 0.0 -0.07738181368915169 -0.025325826164011262
43.57 0.08923585722453321 -0.026570106267128028 0.0 0.0 0.0 0.0 -0.11535006016330882 0.0415537281889727
44.065 0.04407254942910008 -0.005722514714443362 0.0 0.0 0.0 0.0 -0.13901906996749167 -0.03062104354166076
44.56 0.07838519326801059 0.03000623917108884 0.0 0.0 0.0 0.0 -0.06958260498726518 0.0001072909312158053
45.055 0.10095131087462865 -0.013583867402423273 0.0 0.0 0.0 0.0 -0.13887227545988284 0.030150294681954633
45.55 0.05258430871695868 -0.02104206212838171 0.0 0.0 0.0 0.0 -0.11504605661962292 -0.04068452681734331
46.045 0.061258528508890485 0.027026484182736964 0.0 0.0 0.0 0.0 -0.07859095246453442 0.024676793104488278
46.54 0.10354753468712229 0.0034350600658100542 0.0 0.0 0.0 0.0 -0.15069864209987102 0.007425270149361545
47.035 0.06789951574562843 -0.028958221366657263 0.0 0.0 0.0 0.0 -0.09009208616925757 -0.03443126884917965
47.53 0.0487919019723646 0.015219491024338826 0.0 0.0 0.0 0.0 -0.10017549666159775 0.03856219336478352
48.025 0.09645508147076234 0.018856223345518862 0.0 0.0 0.0 0.0 -0.1467304611830865 -0.01745101024248385
48.52 0.08475309790349655 -0.027126250131440287 0.0 0.0 0.0 0.0 -0.07411865301585918 -0.01463442584480505
49.015 0.045001550371639554 -0.0012976687577323995 0.0 0.0 0.0 0.0 -0.12524000387959655 0.036725900076054876
49.51 0.08222501525136089 0.027711380096324168 0.0 0.0 0.0 0.0 -0.12895190701616205 -0.03482740545325502
50.005 0.09759139586758628 -0.016481815024056663 0.0 0.0 0.0 0.0 -0.07335460677859396 0.010444488095502816
50.5 0.05091361265849864 -0.01692297553009446 0.0 0.0 0.0 0.0 -0.14383987184020308 0.020590935257277124
50.995 0.06566673902568351 0.027253586424829467 0.0 0.0 0.0 0.0 -0.10457293422542493 -0.0380849621723632
51.49 0.10237603323153016 -0.0007701169400212204 0.0 0.0 0.0 0.0 -0.0876499002855649 0.030551215523349877
51.985 0.06428175986467316 -0.02651281236767625 0.0 0.0 0.0 0.0 -0.14905328411317365 -0.0030244812893276555
52.48 0.05227732155834054 0.017829513756162124 0.0 0.0 0.0 0.0 -0.08334191324595562 -0.026164385588628523
52.975 0.09779056412174114 0.014766578145876662 0.0 0.0 0.0 0.0 -0.11072252759237654 0.037845549030388635
53.47 0.08046350210027135 -0.027105204663255562 0.0 0.0 0.0 0.0 -0.13931147545503822 -0.024777157340769948
53.965 0.04641719951036193 0.0027536358165079 0.0 0.0 0.0 0.0 -0.07370569857374427 -0.004108405684998244
54.46 0.0855605602323094 0.025084357885080663 0.0 0.0 0.0 0.0 -0.1331046967094358 0.02999809947667213
54.955 0.09407105523202491 -0.018803816081722147 0.0 0.0 0.0 0.0 -0.11874666725194641 -0.03628046702015285
55.45 0.04984586424480943 -0.012835338129854575 0.0 0.0 0.0 0.0 -0.07926786861067554 0.018956900235166288
55.945 0.06984716669576167 0.02692716378152404 0.0 0.0 0.0 0.0 -0.14611647686727336 0.010696240005185135
56.44 0.10075666056785318 -0.004592905554004405 0.0 0.0 0.0 0.0 -0.09561618040507357 -0.03319654551618981
56.935 0.06117023563391964 -0.023758532868203095 0.0 0.0 0.0 0.0 -0.09730710016371281 0.03373728339647754
57.43 0.05588608745990122 0.019859717288753184 0.0 0.0 0.0 0.0 -0.145072371990653 -0.01219120104515238
57.925 0.09854799941629255 0.010743526424854459 0.0 0.0 0.0 0.0 -0.07916351685333502 -0.01697828138424245
58.42 0.07641467149465071 -0.02655415394263004 0.0 0.0 0.0 0.0 -0.12017010995421357 0.034678545150857006
58.915 0.04825740082189069 0.006401301709725581 0.0 0.0 0.0 0.0 -0.1307667592439405 -0.029718606015864
59.41 0.08838446915271188 0.02219199561133526 0.0 0.0 0.0 0.0 -0.0758720165693493 0.005608425725519252
59.905 0.09045568661253263 -0.02056171955365268 0.0 0.0 0.0 0.0 -0.138689147633661 0.02198027716157333
60.4 0.04934814483759252 -0.008839461086827167 0.0 0.0 0.0 0.0 -0.10904015141575178 -0.03515830445793236
60.895 0.07375502969215476 0.026098391623731492 0.0 0.0 0.0 0.0 -0.08672273940994618 0.02530398695796216
61.39 0.09874995266316872 -0.008006464264461877 0.0 0.0 0.0 0.0 -0.1458431479736793 0.001094326161196641
61.885 0.058572692022132465 -0.02076294573041459 0.0 0.0 0.0 0.0 -0.08858828817838471 -0.026545879489515558
62.38 0.05955159355140124 0.021326285046042337 0.0 0.0 0.0 0.0 -0.1068965762775289 0.03432485345501565
62.875 0.09876252230005989 0.006843353859664867 0.0 0.0 0.0 0.0 -0.1392257189902577 -0.019647457104167054
63.37 0.07265088238955814 -0.02552355109434262 0.0 0.0 0.0 0.0 -0.07756842506478422 -0.007546201416271461
63.865 0.05045831930802598 0.009620025696781675 0.0 0.0 0.0 0.0 -0.12805265800074395 0.02951530565796285
64.36 0.09069408334421174 0.01910101320273702 0.0 0.0 0.0 0.0 -0.121726817673389 -0.032197675861077996
64.855 0.0868095250859498 -0.021772054205449285 0.0 0.0 0.0 0.0 -0.08021845178332729 0.013977980819534922
65.35 0.04938308920656587 -0.004992528945392842 0.0 0.0 0.0 0.0 -0.141885228681987 0.013293680924479424
65.845 0.07735001318458072 0.024821150056087725 0.0 0.0 0.0 0.0 -0.1003934421879946 -0.03177056533915496
66.34 0.09641791607710531 -0.010988747385876858 0.0 0.0 0.0 0.0 -0.09508673998550767 0.029305562087376048
66.835 0.05649125976436499 -0.017593570926433155 0.0 0.0 0.0 0.0 -0.1432849920069034 -0.007657336597442152
67.33 0.06320961671323014 0.022250572080198833 0.0 0.0 0.0 0.0 -0.0837563402347756 -0.018721924981401156
67.825 0.09847320964475863 0.0031188203198728548 0.0 0.0 0.0 0.0 -0.11582250030994172 0.0325446062773576
68.32 0.06921165680127599 -0.024066990793636354 0.0 0.0 0.0 0.0 -0.13204715470159495 -0.025093137757287172
68.815 0.052955035725195665 0.012390465027795774 0.0 0.0 0.0 0.0 -0.07841140989605418 0.001500734446205361
69.31 0.09249229811323623 0.01587716639261355 0.0 0.0 0.0 0.0 -0.13403787010403567 0.022877798706090323
69.805 0.08319450643423094 -0.022456615037102445 0.0 0.0 0.0 0.0 -0.11280257433364778 -0.032281510803001394
70.3 0.04990883667492832 -0.0013473360655748084 0.0 0.0 0.0 0.0 -0.08625024100220975 0.020593324143233
70.795 0.0805973321087172 0.023151699383466895 0.0 0.0 0.0 0.0 -0.14272658428872564 0.0045396800207656894
71.29 0.09382343504141531 -0.013523471236943313 0.0 0.0 0.0 0.0 -0.09326298727681379 -0.02653681752882
71.785 0.054921775178883275 -0.014316906782557795 0.0 0.0 0.0 0.0 -0.1037341974295929 0.030939327186373232
72.28 0.06679935531245797 0.022659316172324123 0.0 0.0 0.0 0.0 -0.13881138627061418 -0.015094980242411937
72.775 0.0977230436309155 -0.0003818512690827341 0.0 0.0 0.0 0.0 -0.08123257361920345 -0.01033806047553292
73.27 0.06613074469738627 -0.022240783139632785 0.0 0.0 0.0 0.0 -0.12358599150699638 0.028743065607311675
73.765 0.05568232613376297 0.014699923908503474 0.0 0.0 0.0 0.0 -0.12410476700384417 -0.02836515111146668
74.26 0.09378796623143945 0.012584411000475504 0.0 0.0 0.0 0.0 -0.08140905726987935 0.009609731371189279
74.755 0.0796692716742315 -0.022642626076526066 0.0 0.0 0.0 0.0 -0.13793295604561462 0.015323117607524472
75.25 0.05087933082546053 0.0020486916996621963 0.0 0.0 0.0 0.0 -0.10455281408635052 -0.030172900370042558
75.745 0.08346844235712464 0.02114814559595428 0.0 0.0 0.0 0.0 -0.09341457910052015 0.02519329892518526
76.24 0.09102956784351746 -0.01560070241486878 0.0 0.0 0.0 0.0 -0.14137694096231734 -0.0037289258501014577
76.735 0.0538535104316033 -0.010997472465831208 0.0 0.0 0.0 0.0 -0.08797832276144245 -0.019957185032477686
77.23 0.07026430880476499 0.022584505702702824 0.0 0.0 0.0 0.0 -0.11208225636054142 0.030328310352434763
77.725 0.09655860579738472 -0.003615761808726544 0.0 0.0 0.0 0.0 -0.13287148102750074 -0.02086673373440434
78.22 0.06343541193421519 -0.02010332841015319 0.0 0.0 0.0 0.0 -0.08097610711030756 -0.001992913944606155
78.715 0.058575503386291604 0.016542692448981374 0.0 0.0 0.0 0.0 -0.12980400952169352 0.02335313793451825
79.21 0.09459598648780741 0.00928410382431365 0.0 0.0 0.0 0.0 -0.11596904197994969 -0.0294398934363127
79.705 0.0762882908122562 -0.02236260097549712 0.0 0.0 0.0 0.0 -0.0861673435492156 0.016335269931071355
80.2 0.05224485543092647 0.005154245423374593 0.0 0.0 0.0 0.0 -0.13968337338031078 0.00741143174763137
80.695 0.08594148885979896 0.01886977637611343 0.0 0.0 0.0 0.0 -0.0974544184714701 -0.02619271482934366
81.19 0.08809877907246819 -0.01721716433034739 0.0 0.0 0.0 0.0 -0.10113934248527784 0.027666188812613544
81.685 0.05326920582791404 -0.00769689350689601 0.0 0.0 0.0 0.0 -0.138112860969464 -0.011033007852163183
82.18 0.07355301609417739 0.022063008879544366 0.0 0.0 0.0 0.0 -0.08472845442700262 -0.012577713053619525
82.675 0.09502958488460216 -0.00654594292020507 0.0 0.0 0.0 0.0 -0.11962100302400296 0.02772049448555782
83.17 0.06114597432429147 -0.017714361478081194 0.0 0.0 0.0 0.0 -0.1259661635162405 -0.024745084597181083
83.665 0.061571274828192094 0.01792012022020861 0.0 0.0 0.0 0.0 -0.08280537456198984 0.005766462676692119
84.16 0.09493716088884849 0.006034252478249213 0.0 0.0 0.0 0.0 -0.13422026561300662 0.016862603158295023
84.655 0.07310109976410302 -0.0216539794975467 0.0 0.0 0.0 0.0 -0.10818079673911048 -0.02842800667815911
85.15 0.053952729809805186 0.007934682572620609 0.0 0.0 0.0 0.0 -0.092215156713132 0.02135878481984023
85.645 0.0880015445898501 0.016376322407619267 0.0 0.0 0.0 0.0 -0.13936494126236723 -0.0003239469583714944
86.14 0.08509214333758415 -0.01837632061376541 0.0 0.0 0.0 0.0 -0.0918777892083922 -0.02075496150033173
86.635 0.0531453349316274 -0.00447305120388357 0.0 0.0 0.0 0.0 -0.10886975080644579 0.02804332319899779
87.13 0.07661966104538556 0.02113603456043566 0.0 0.0 0.0 0.0 -0.13330187494192017 -0.016987724237429322
87.625 0.09318815483873945 -0.00914180824036582 0.0 0.0 0.0 0.0 -0.0835581037092127 -0.004953372946105171
88.12 0.05927554159589151 -0.015134117030703617 0.0 0.0 0.0 0.0 -0.12593643502966836 0.023463045018837076
88.615 0.06460858190116477 0.018840479712806023 0.0 0.0 0.0 0.0 -0.11861777404469231 -0.026632826410773202
89.11 0.09483787564922397 0.002888825866866526 0.0 0.0 0.0 0.0 -0.08641976062777565 0.012475981701945395
89.605 0.0701516517455874 -0.020558594341865192 0.0 0.0 0.0 0.0 -0.13670857582344711 0.009782501244318915
90.1 0.05594810747835897 0.010362396812495917 0.0 0.0 0.0 0.0 -0.10122097897431655 -0.025561370868043526
90.595 0.08964067595724962 0.013727183230538386 0.0 0.0 0.0 0.0 -0.09904049891840228 0.024498230378784097
91.09 0.08206854914968419 -0.019088273814715187 0.0 0.0 0.0 0.0 -0.13717020465182525 -0.007403300308189012
91.585 0.0534525524872809 -0.0013793143727950426 0.0 0.0 0.0 0.0 -0.08806952437855092 -0.014336165347084703
92.08 0.07942454969471383 0.019848474841132592 0.0 0.0 0.0 0.0 -0.11610051787605055 0.026484278934977755
92.575 0.09108826390375586 -0.011379463134816796 0.0 0.0 0.0 0.0 -0.1273769440578969 -0.021317846130006205
93.07 0.057829946770708976 -0.012422455930674524 0.0 0.0 0.0 0.0 -0.08437402908597626 0.0023881784021677166
93.565 0.06762939548201596 0.01931866009044028 0.0 0.0 0.0 0.0 -0.130725814737798 0.017973410911809522
