!Created with skrf (http://scikit-rf.org).
# GHz S RI R 50.0 
!freq ReS11 ImS11 ReS21 ImS21 ReS12 ImS12 ReS22 ImS22
1.0 0.3630091061161264 -0.24738240618370583 0.773441873577833 -0.02019860467043456 0.8534281200270589 -0.09241041505687675 -0.08539221057589284 -0.2585754710317084
1.2475 -0.06910948563484873 0.24296690599940546 -0.017041029307065247 0.8276111318266136 -0.05741834003274726 0.8730650488411213 -0.15128577259014553 -0.010057565275470073
1.495 0.13512962354526473 -0.08899411665433428 -0.8272459812435801 -0.150738392696613 -0.8258167667475509 -0.14940224033139454 0.16866387989010162 -0.07877238694006779
1.7425 -0.01293941785370465 -0.08015199937101791 0.27069250314050824 -0.7901423653972831 0.2007658298736205 -0.7726349185828473 -0.20133615533055926 0.2446889940574065
1.99 0.26327815225230783 0.1390892105783778 0.7096991539615116 0.32391576943221767 0.7857922326859833 0.29570717675379815 -0.09775868808823186 -0.010290631381625961
2.2375 -0.20367278215736478 -0.07389236466393538 -0.38874926245836683 0.6776235794872468 -0.3625225864256088 0.66740598817051 -0.3610750399838321 0.012958881296477178
2.485 0.3142144678851944 -0.05704506491667267 -0.6251596083684093 -0.4197272905426597 -0.678608912847859 -0.3799814730830784 0.021959216990172125 -0.23624507561979208
2.7325 -0.032863337768202314 0.1315194507499921 0.4882074474119572 -0.6158679149932259 0.4949363910123252 -0.6317471031572547 -0.11224683786781782 0.035339679314581644
2.98 0.02941329745524525 -0.08160816196001414 0.5478426056105646 0.5634739503826124 0.5335649682556313 0.5627887965205938 0.12415338390482622 0.04018690422992651
3.2275 0.17969301593738948 -0.04146191067154165 -0.6027997729754565 0.4725987197306499 -0.5500686684252353 0.46121171943827605 -0.2964001404648119 0.1851736541577665
3.475 0.0253329939281391 0.13618845447565367 -0.4200439377926779 -0.6369005323307634 -0.44355628786062684 -0.6315878334877553 -0.10867296502707496 -0.05984945090354424
3.7225 0.017542127429817346 -0.11550163028788325 0.6765329333669698 -0.3449256968442718 0.6448393145000115 -0.3178735652467541 -0.3018477101257097 -0.0767675509768378
3.97 0.17976226571931853 -0.010293628514894617 0.27301210168082957 0.694489789853345 0.2928632347945284 0.6626739937580187 0.1156889768730728 -0.15214338663659158
4.2175 0.031005168584397225 0.14640325681897087 -0.7115520527779478 0.20267911854326806 -0.7135330935151495 0.2106753284738553 -0.1257197660199883 0.08048721337258621
4.465 -0.012129789720221882 -0.19590505106448056 -0.11383118407616288 -0.7120185413348162 -0.08811333348483082 -0.72441577350041 0.042131338479568896 0.11316813778709453
4.7125 0.26248240389613137 0.1255933761628664 0.6906134443336337 -0.07356077196656667 0.6651559968971553 -0.0453322836551877 -0.35287825929989103 0.0822479463858082
4.96 -0.11164870027948272 -0.026175583779636857 0.00887828150072923 0.7210781394591375 -0.0035285424397172535 0.7259738799586893 -0.0786155192189448 -0.09541130930519033
5.2075 0.1476888281534385 -0.013132323472681538 -0.7171344464797772 -0.07231765988204478 -0.6877029778899716 -0.11595785748323847 -0.21834970909785434 -0.1225155532234866
5.455 0.12382175732223188 -0.057060088174988866 0.17314804951756146 -0.6948297882388597 0.1652577656685072 -0.6705321504109663 0.14824619969391958 -0.02690987866298549
5.7025 -0.013407404763294533 0.18953709340346386 0.6485710606237043 0.2377243298780481 0.6614713165980394 0.2336381061320066 -0.16911462621404824 0.10029047566098793
5.95 0.0989973191095404 -0.28027663458925456 -0.29641398503947675 0.5820595547868044 -0.34047534053793005 0.6133767860650382 -0.05191066450535664 0.12714266015715203
6.1975 0.17096474709234818 0.26779490291711444 -0.5647185288725516 -0.30314155790965003 -0.5459829609338448 -0.34292122605992276 -0.34749231521681095 -0.03134849669330284
6.445 -0.060759454254760696 -0.18026880957873584 0.38256685070011004 -0.5513285591054494 0.41004950856317557 -0.56580656897621 -0.027128264793981626 -0.10310065715022956
6.6925 0.13502162456027456 0.07843292470067083 0.5161985179659571 0.4487605468384147 0.48839789582251814 0.48983153715025635 -0.13378955324752587 -0.11121218867153793
6.94 0.15778648281835192 -0.054555541003041996 -0.5226336079552002 0.430141693088717 -0.5225701895075366 0.4231562748357391 0.11095634292437186 0.0882208086935062
7.1875 -0.11270718812452415 0.1257403565044589 -0.356429963550972 -0.5527953555280933 -0.38710080744666253 -0.5491574332743051 -0.2228441548321144 0.08879108049981485
7.435 0.2499133857980696 -0.2173539810532135 0.5463853629269039 -0.2747275205966924 0.6151136802749041 -0.30511903749050545 -0.12063141433772384 0.08592772478959466
7.6825 0.0024265841412649306 0.26837226702205946 0.265589019703645 0.5636194472537666 0.2441263612436262 0.5890872674723395 -0.2904562736023012 -0.11900238774590088
7.93 0.0630353938505573 -0.203333494630103 -0.6081715194405402 0.20172956204212766 -0.6424899401698205 0.21864100187285684 0.02829441898133527 -0.07461916051364458
8.1775 0.08893196571826581 0.07577335858456367 -0.13909416333242092 -0.6478455714317096 -0.1227066252499257 -0.6734436988200728 -0.0855892908611906 -0.05465883994864841
8.425 0.15176827184907782 0.02451814017245815 0.6549269853055781 -0.03957805964710837 0.6563504199572501 -0.03611217335877397 0.02875978252861409 0.15660258565662144
8.6725 -0.11294578426220744 -0.025065791180293062 -0.039731900876390315 0.6409406442079879 0.0079875782779613 0.6453480600978778 -0.26877965488419886 0.04530772380458636
8.92 0.2925572049056169 -0.060264560173290065 -0.5997635991123222 -0.0884044012848256 -0.6679538698479547 -0.08116993417944374 -0.139409716106622 0.021005553846703218
9.1675 -0.0832297533385578 0.14984541655348674 0.12573983747630257 -0.6128771982914274 0.1335283225568081 -0.6187232004356036 -0.20945490078568157 -0.16294693272198812
9.415 0.11369798975187789 -0.14364824109421176 0.6013361712793653 0.19606657671102093 0.6279519273339191 0.18213493954894328 0.06855564051545014 -0.013975810704162336
9.6625 0.11884616352709007 0.0473360187950669 -0.26033402965308783 0.5880551196203806 -0.26562320706838477 0.6100401952912612 -0.09360994662300458 0.008268843343322577
9.91 0.0393633049920428 0.07014019236752807 -0.5531807515153806 -0.3263315599303018 -0.542557817934453 -0.33440154293065444 -0.06112787030342316 0.17106290570582394
10.1575 0.025676969479640117 -0.11766705873910602 0.3810606266152901 -0.5033174526825941 0.3384606112822086 -0.5130862199286185 -0.2905291319515723 -0.024870266910521056
10.405 0.19667830032109201 0.06061390225393965 0.46296302841936593 0.4095336818400432 0.49799607076719177 0.41831958362478483 -0.10913196939387466 -0.029386658493150825
10.6525 -0.03903361642361133 0.047557195142370626 -0.4600189965859889 0.43008519148558133 -0.453916395380959 0.42578730253762537 -0.12748964203015134 -0.16064533085461286
10.9 0.08638863087782458 -0.11745009203057795 -0.3697579702746365 -0.4993607030952204 -0.38716443910638465 -0.486771185041958 0.06991872018604847 0.07104352733257148
11.1475 0.18214637289249266 0.0924618589971843 0.5168953515272859 -0.3201396197645746 0.5327441413081394 -0.34067157933489783 -0.14014154256642175 0.03884711790616528
11.395 -0.086425758468973 -0.0010687099190702654 0.2725231053640775 0.5494169831606367 0.24588115524811474 0.5591740055474373 -0.13404622646246145 0.1447941655465562
11.6425 0.18396497906520515 -0.07553905678967987 -0.5614524603798334 0.21647255242604035 -0.5405163779925831 0.21730450978452617 -0.26988811727069617 -0.1051337494242465
11.89 0.05954808328646041 0.06708255691970444 -0.16581131413368463 -0.5914006572108339 -0.17002282617768366 -0.5980576657405205 -0.05464607971869037 -0.037822866469838935
12.1375 0.0310369336466647 0.032740253666175785 0.6061883439349505 -0.08891641134282414 0.5994672783163518 -0.08253005148329973 -0.06536702563396977 -0.1233362183991697
12.385 0.0862757847867313 -0.14590814779520345 0.007594062597119154 0.5914037203367514 0.023211006930762078 0.5862199299626878 0.019598480573481607 0.1491338504180378
12.6325 0.16263578862584374 0.1865043286239984 -0.5649300430357345 -0.0299690779219321 -0.5961418271772634 -0.02143011495862986 -0.19139559843962572 0.02366089804524235
12.88 -0.09617715505632533 -0.14117268864938584 0.08424542498571858 -0.5632333904182582 0.11578173797579767 -0.5757751019785249 -0.17725655424990494 0.09365274248872849
13.1275 0.23786146411061293 0.04508222503664613 0.5524961713179903 0.1222448454853044 0.5412041980606752 0.1340689852618737 -0.20521897313157156 -0.1677192828372006
13.375 0.0007106907563360705 -0.0025369111678992134 -0.19830775017971547 0.557881489599368 -0.1999813075538842 0.5583702698776529 -0.010619496816932224 -0.0024989314657482276
13.6225 0.03535754817335573 0.04842433573917699 -0.5207280199803571 -0.2737931881027473 -0.5178081057681893 -0.27859028246762857 -0.03577877173947915 -0.06643538251252759
13.87 0.15880396404423758 -0.14531715393121603 0.3279156957152697 -0.45286666372996826 0.31676644633532974 -0.4593381773368 -0.06797719065550507 0.18780085349431833
14.1175 0.046158453491900564 0.22590516532338858 0.41832268472429873 0.34291277922361163 0.44984178732588004 0.34606810042938424 -0.2185935512277237 -0.024011457606696412
14.365 0.016261133401303998 -0.22058464906388975 -0.38172767243204947 0.3802414995601861 -0.418106922802918 0.3917457780827507 -0.1860701386417527 0.03500925415175859
14.6125 0.1794963286893069 0.13360366905982696 -0.3639088863263015 -0.4112009257949158 -0.3483055139508848 -0.4237822329228873 -0.1149111302712407 -0.1864019976724086
14.86 0.021312584246265417 -0.04235261828137435 0.4780609174533947 -0.3171715911225994 0.47525668848139513 -0.3189151156302425 -0.00152973189073176 0.055871517464295535
15.1075 0.012470832848148377 0.008987077814822787 0.24602329690758656 0.5172409041119561 0.24931668575115423 0.5206822154795557 -0.04416809706701837 -0.008881032062232076
15.355 0.2183409331106269 -0.05882099968902622 -0.5181439519468004 0.16960566621570808 -0.5145414560381963 0.17544782554818183 -0.1586342082384845 0.1720335496783322
15.6025 -0.0660414957157123 0.1490499253126045 -0.1318043044928189 -0.5247564937275733 -0.1588599381481536 -0.528116764513397 -0.21151732258340258 -0.0813921653873923
15.85 0.13349165468136626 -0.18437343065706838 0.5281512280413001 -0.07922243172534303 0.5630618516259551 -0.07906822846688635 -0.15999488329267658 -0.011890362719750686
16.0975 0.10564140864226089 0.13599017791866996 0.04548763607415674 0.5471788478884957 0.027352874971548244 0.5490570904358334 -0.03208559073276853 -0.1519781869870526
16.345 0.02549830866037725 -0.029064021056412773 -0.5650322241234645 -0.026384833039817424 -0.5575158953492985 -0.022650873842093276 -0.02861103737206645 0.11053613012880682
16.5925 0.05974353196864724 -0.05738325434894428 0.09712945533843073 -0.5544260122634291 0.09521138232339094 -0.5633397511179083 -0.08607552288417455 0.024583433277434733
16.84 0.17652156827253337 0.057203450889647414 0.5270825101554855 0.14672620204831924 0.5152335899382483 0.15389785335252978 -0.21826732294995696 0.11420167346950792
17.0875 -0.06845202865466977 0.016856605045965922 -0.1952547490808417 0.5140009856159579 -0.17207406901665895 0.5164315914456902 -0.17178064299825935 -0.12803685987306515
17.335 0.1631741458534288 -0.09377269597462237 -0.4867497642357772 -0.24005713989967561 -0.5086231474821581 -0.25180628867334454 -0.11110311141902286 -0.02668656427755157
17.5825 0.09254399847458382 0.10417771377441755 0.2821769158510093 -0.4697016247784431 0.29983972421909255 -0.46483616663097405 0.011902066596961323 -0.08312200398651441
17.83 -0.0234573879095723 -0.031414674422738396 0.43681720090961207 0.33446454449579266 0.4305870930217651 0.33241112472740225 -0.08306118315668432 0.14546415395762244
18.0775 0.16947881866676018 -0.06299743733520632 -0.3669748805828648 0.39255224469470984 -0.38609909059689074 0.40687490646234226 -0.1357994605764051 0.018439544102141735
18.325 0.050977872594904466 0.10735540390295716 -0.36601815690134715 -0.4000188096957646 -0.33868141420013215 -0.416891412306794 -0.2347009306576224 0.043856670318500275
18.5725 0.02786390919827229 -0.06121033308538887 0.44069965346342077 -0.3209333650155059 0.4288245230286611 -0.32175527066329923 -0.11136338913131646 -0.15223611716086774
18.82 0.12085935427730263 -0.03745501529158609 0.26734106054263346 0.46920827224870076 0.27819669569224864 0.4847921903301504 -0.06700301748612754 -0.001233135553662409
19.0675 0.10456574978199765 0.10923069338392687 -0.48450117530098646 0.21380917342874056 -0.5067534182163431 0.20805713972096093 0.009140494037487498 -0.012621313134269313
19.315 -0.053811203319073034 -0.10093695420875429 -0.15636535824248995 -0.4957270297692879 -0.15853211903659303 -0.5006729741965386 -0.15104876195188607 0.1490521449299702
19.5625 0.2425355726280342 0.020656822983196904 0.4871010279025045 -0.11733476181502453 0.5288661561199739 -0.1236358662545084 -0.16435792752367123 -0.0222177918614809
19.81 -0.057429414347318485 0.05083740399250762 0.07965035044856823 0.5128252535567419 0.04787338077040891 0.5264430497060718 -0.21415288201254562 -0.01402416494211119
20.0575 0.11560587097653122 -0.046382751177967065 -0.5232980776868722 0.017481123673675006 -0.5210956573365313 0.01781553290321359 -0.04139520736391282 -0.1419946014960865
20.305 0.095879706979845 -0.03549676168540331 0.053751917026310776 -0.5200143913860186 0.04038653688618484 -0.5370914712506194 -0.05640812256089811 0.049406551842241964
20.5525 0.06730201744985952 0.13464974381008632 0.49458441297528294 0.10865218602790569 0.5209945742199231 0.11416463298264992 -0.02581788006538505 0.034712203607755406
20.8 0.00682094267148202 -0.17577276826498453 -0.1593404837835871 0.46334063028712547 -0.14979640423049914 0.4785228680453381 -0.21383333443968452 0.11622998291241753
21.0475 0.21592926860617037 0.12867832622461206 -0.4432659977958102 -0.17751543114927198 -0.48556063569146934 -0.1841919918902836 -0.15586841664430498 -0.07396444106188181
21.295 -0.0692486028793912 -0.04880959000671734 0.23038027387786003 -0.4425332217238833 0.25217235777166047 -0.4498992438265152 -0.173152710634251 -0.045893453795069976
21.5425 0.13586300874108354 -0.0015408896597369811 0.41839439034264436 0.2849024026677989 0.41831359641892635 0.2815527281585138 0.016923506790128624 -0.0936420674308143
21.79 0.11337052859323593 -0.025373136801417527 -0.34338879756524415 0.3737892846702898 -0.32474531935716766 0.3944797832341928 -0.08759149189229762 0.0953917608168147
22.0375 -0.008648455955837254 0.10730169911762545 -0.32425311250093636 -0.37504721090483006 -0.3466403730783573 -0.37885138045013067 -0.07298560231464316 0.05143550710057937
22.285 0.1179211475853087 -0.173614334518098 0.39285509560345216 -0.27015842733875817 0.38276636488048754 -0.28812812660657616 -0.252427808109304 0.054153043728749364
22.5325 0.11718805233782657 0.171948081053063 0.25062384643759156 0.4050247994410311 0.27853957813677327 0.4133358539822724 -0.11099649015165979 -0.10795402576661098
22.78 -0.01328772466979037 -0.09978326634471293 -0.4455365436885483 0.21248394655984454 -0.4549924206351884 0.21493598033037023 -0.12806269170907478 -0.048232818898431166
23.0275 0.12781175237904546 0.007976562092721413 -0.16465816440227457 -0.4735324285315384 -0.16073732794453846 -0.4625571128234594 0.0393827009073289 -0.01856166020297524
23.275 0.11110356424073568 0.029276453251170995 0.4911655653991234 -0.1030042823702955 0.4717281739119904 -0.12170176356443674 -0.14385200366842046 0.11016733942972884
23.5225 -0.03801146853271694 0.010877398894709367 0.04612135170842299 0.4938514280680969 0.05940332544002572 0.495426700237953 -0.11394423415581115 0.03897512961418962
23.77 0.1830915511319397 -0.08574975260611056 -0.4815296530413273 -0.001388414945044282 -0.46946455680554916 0.006987989264294919 -0.2515880026530387 -0.018570575354140695
24.0175 0.038922103110555044 0.1286885042635436 0.03422534115553 -0.4865624296395851 0.01969557410044483 -0.4853221541492511 -0.05034403220267174 -0.10517389872332192
24.265 0.025584179125030335 -0.08978121386103113 0.4868326245107115 0.0889269374545456 0.48945623715823816 0.09164524077256904 -0.09435409060676873 -0.024584565270451865
24.5125 0.1511339525204998 -0.003270959774390759 -0.1360079574571271 0.4735441630288463 -0.14773517853253523 0.4592486389871921 0.01636687615176755 0.05343832498281464
24.76 0.04265578962044988 0.08000749641839465 -0.4599774366233162 -0.18209739138526398 -0.4391670056951015 -0.17496231270212273 -0.19946590988821858 0.08826259305424146
25.0075 0.02849723814980457 -0.08332862069426253 0.22956632357851653 -0.43597748217870747 0.23495215336831266 -0.4327669900920662 -0.13623941525366834 0.005863331529125915
25.255 0.1575787886448269 0.01629000569108116 0.4101189951201446 0.26423522580350745 0.3853649223153619 0.2699599763656739 -0.21229941484960976 -0.0755590034415863
25.5025 0.03192406898787676 0.06019134163614071 -0.30587784312909916 0.3840338341680808 -0.3006301511071273 0.37547008324521747 -0.0007779143611624606 -0.0702187800468773
25.75 0.024403632617710128 -0.08050520759261207 -0.3421522502198429 -0.3453030610504563 -0.34389682462758947 -0.35639327303054325 -0.08497531589236593 0.014460413949877887
25.9975 0.19706417390530623 0.024471530958107567 0.36197666310244336 -0.2996791330460446 0.38855685462563166 -0.28438294057644886 -0.039854497375097754 0.09423423423176311
26.245 -0.05297006924091932 0.05923575440288343 0.27108914799481343 0.3879878940405398 0.2527582741977901 0.3918186855670417 -0.2344757875574214 0.03997609890204084
26.4925 0.13628800609353678 -0.09726970464649627 -0.4080845119303031 0.22926519976528972 -0.4358467028858589 0.2228730344147857 -0.1296471700533907 -0.033927354809999095
26.74 0.08109849588807101 0.05937797128444478 -0.19273210129754728 -0.4361658052940136 -0.16304340081495677 -0.4473688606677558 -0.15278086803132426 -0.09690257382727438
26.9875 0.05573378489813386 0.03137466596925645 0.4583014441908376 -0.1346913791433815 0.46089437968053815 -0.12852226522124335 0.022867203239991654 -0.011724401658739628
27.235 0.035766064259381454 -0.10335830527247648 0.0710867751149266 0.4592821240298783 0.0806869520422165 0.4814284359045668 -0.10768168488768518 0.0501990269481953
27.4825 0.19565898212158175 0.09763515850754123 -0.4424983080251505 0.03244206033500582 -0.48070273343077063 0.013695145312816698 -0.10124249239178322 0.09373417243266546
27.73 -0.08977253717219004 -0.03338679532141766 0.005830952206008482 -0.4475006784510954 0.014453610929011032 -0.4612717516821757 -0.2406413926138043 -0.018935889289929005
27.9775 0.20032016013452927 -0.03393548558948438 0.44419993107980144 0.04414731044183293 0.4802874163558809 0.05635118177698742 -0.09504146122052932 -0.06063192216988918
28.225 0.029356535121533748 0.038436016064802715 -0.09701978264508498 0.4527859884447144 -0.1178891041768042 0.4635690462690459 -0.09947741558123964 -0.07992343867256113
28.4725 0.05249515930738171 0.028075313176336388 -0.4346277495186208 -0.15938439877170593 -0.4416110165811618 -0.15733120968315153 0.012461461448311464 0.049513559653260805
28.72 0.0938475429860286 -0.11428015891940088 0.20985298078897585 -0.3953170635075151 0.195588167771215 -0.43112654097749153 -0.15184023314895315 0.06126458630751244
28.9675 0.12205413319189443 0.15209470630522187 0.36688441487713425 0.23081778292425148 0.40039002930602685 0.25175891620219926 -0.14049224970121024 0.0608188078082471
29.215 -0.038176870811351134 -0.11809363877752461 -0.2668192337047106 0.34550129197621376 -0.26625971381966645 0.36314784226290936 -0.2170115351124298 -0.07351275749260439
29.4625 0.19026386768144585 0.03726655678676001 -0.326717458210924 -0.2951975552068884 -0.3563855321418594 -0.30690788952953774 -0.04589595262414562 -0.05544724708325263
29.71 0.023440043250711234 0.016488640144421668 0.34451404008632797 -0.3000494055327683 0.3532976372780152 -0.3115028555473061 -0.07256385700603879 -0.040318352208218264
