!Created with skrf (http://scikit-rf.org).
# GHz S RI R 50.0 
!freq ReS11 ImS11 ReS21 ImS21 ReS12 ImS12 ReS22 ImS22
1.0 0.36358077540640016 -0.24780292601805987 0.7727111068615676 -0.020155893586148076 0.8531878923292856 -0.09234046069003804 -0.08536843652186682 -0.2585435545885644
1.0545 0.052033631978111686 0.2574709305988619 -0.6084894548770753 -0.5813265919610606 -0.6166348743713341 -0.5873137160301918 -0.0014824691809729243 0.26904013266589466
1.109 0.02192938975376955 0.2645157250140106 0.14222203668795622 0.8230059361817047 0.11620128710578241 0.8841892092391722 -0.10042227496429176 0.032161652476499845
1.1635 -0.09244410080539733 -0.3349446529623261 0.5163765303990197 -0.6086825004997835 0.4447428533452857 -0.6657337282780165 -0.4028328705188867 -0.024448503918706642
1.218 0.11746243605351958 -0.08510175433074932 -0.8460769924636006 0.15566056231533965 -0.8553649587237094 0.16251888120233166 0.08994750871225914 -0.10463339154486001
1.2725 0.41436550014052165 0.11838596753814451 0.6565962766573821 0.3837267658626262 0.7736679206203669 0.410031459105669 -0.0237765112404941 -0.1093667956033666
1.327 -0.13543610223605473 0.08289446820604313 -0.18924553711533845 -0.8239576763072403 -0.2112358234112369 -0.7819156604346692 -0.14094210920190223 0.30955964028537986
1.3815 -0.17693742249814076 0.09033725203623229 -0.3396612171194355 0.7591927673656481 -0.37822292142144764 0.7675349759736525 -0.1823947258045107 -0.10701356524712632
1.436 0.2704494604516834 -0.27127276362840325 0.7393973767253391 -0.22441846487572162 0.7427915414576107 -0.34697921865795206 -0.29551095155725726 -0.11895444041424656
1.4905 0.1511949714135023 -0.02755283245598316 -0.7822355048467097 -0.3157692577806612 -0.777223883384764 -0.312059088002413 0.19064297138168926 0.011992298069886526
1.545 0.13622968136050642 0.3413928180636625 0.3531553234281412 0.6833144937777377 0.38620702587100325 0.7708621233842596 -0.11808368437553098 0.024172361522276503
1.5995 -0.06119379139679854 -0.12761418800878027 0.2916685058665488 -0.7812797465535235 0.21081227930085134 -0.7670497675257151 -0.2573159079292855 0.23116385200137632
1.654 -0.12444830734127314 -0.16409865550859096 -0.6946288769697936 0.42802217686749927 -0.6982934960431156 0.42581572718455424 -0.11777848503645248 -0.2421471164090374
1.7085 0.3733119676879975 0.03957398480915702 0.7400037878688749 0.19344368958925398 0.8346952073171932 0.12999398174034066 -0.1454239258764201 -0.0869410065720655
1.763 0.14381625357926467 0.02564099947730024 -0.48292613137374657 -0.6750790197125771 -0.4824867174941357 -0.6557712202386305 0.15717982383772136 0.15676765543311788
1.8175 -0.18735630429178726 0.20535637248150537 -0.08856413137076705 0.7780453898789623 -0.109556173358598 0.8080993486738717 -0.2704624044144471 0.01155604334012521
1.872 0.12395000537730515 -0.13929915694930514 0.6512777245730951 -0.49174101872986326 0.5881779300523814 -0.5524374347889491 -0.27229080459055477 0.08870543008811141
1.9265 0.10971340019503015 -0.2417299347451771 -0.7902198085269746 -0.025837168415268983 -0.7962267607279705 -0.00013088891185815982 0.022675775486324424 -0.26935807682765867
1.981 0.16625501321830038 0.25722009355452896 0.5338890133488436 0.5614949848893721 0.5966878040275788 0.5886610703841517 -0.09292700928477271 0.061049109938429665
2.0355 0.11296644090855243 0.06636474979637512 -0.04370987533223005 -0.8178411521411632 -0.06524857819555337 -0.802238543981584 0.02317850177558746 0.2200135499233744
2.09 -0.20401769214385262 -0.12982726045010481 -0.5127975745675387 0.5895486944655992 -0.49009702117607284 0.5909078667544728 -0.3368267364001147 -0.10947361395751555
2.1445 0.18757363236309813 -0.0009707948219698881 0.8021181437234643 -0.07413196363706302 0.813101809740694 -0.1386241286392263 -0.1597748709040766 -0.012510488365113264
2.199 0.2838427794992506 -0.09282362793034125 -0.6364270445310394 -0.43538970330249566 -0.6758180127383471 -0.4140328561027656 0.12884111832345896 -0.1725423553075881
2.2535 -0.10025967044355627 0.1713854116930084 0.1452735373723545 0.776025645810005 0.14555874889907142 0.77922555662841 -0.1905480495140294 0.17378247768753044
2.308 0.05597696502398061 0.08377576485318382 0.3990917463125611 -0.7036168932522852 0.378089102207165 -0.7146972859006301 -0.10905889636024532 0.14717845440540994
2.3625 0.06358574771219973 -0.273839837955215 -0.7369600773375512 0.20281326189436816 -0.7014762097739821 0.253636983605624 -0.2857856973234723 -0.22960588865115142
2.417 0.09423930906254832 0.0872375023705853 0.7170130279748994 0.3596241541795673 0.7400762560953034 0.3518809195443099 -0.010720815198473276 0.029670895754463474
2.4715 0.25344533148769616 0.11905587816876384 -0.304797995291771 -0.7028376098691388 -0.34950514773279895 -0.7215305788232268 0.11643555032554997 -0.025150786815682856
2.526 -0.12116434230441132 -0.08351402613648388 -0.3065594019178009 0.7262646098560925 -0.27363739493703626 0.6917915264990442 -0.3243754142355621 0.1548104964411406
2.5805 -0.010036835191193805 0.050016954273287784 0.7110052617820685 -0.3709182044200448 0.7105421515827464 -0.3855112355890043 -0.1267169376356378 -0.004047152329163438
2.635 0.2821907695470443 -0.12062949138570259 -0.7185538163461315 -0.21687788906031802 -0.7396561440048207 -0.14275037875054705 -0.15800687099486962 -0.26483117603069667
2.6895 -0.002248470424402053 0.021815417919163582 0.4092969165572194 0.6866565134204428 0.39257948200722037 0.6791789296421765 0.025943494841740015 0.1743797774341677
2.744 0.06891414861955457 0.20297871269032303 0.12388050284902659 -0.7604809285188252 0.11471960912306128 -0.7956078961242751 -0.016851359814768683 0.05114669870416597
2.7985 0.0824528398834009 -0.1784209793860388 -0.638857293676512 0.4377619667331507 -0.5662205367902439 0.443905887898329 -0.38678448745966443 0.044873136285137706
2.853 -0.03081667559526247 -0.037765274841523776 0.7872079884168577 0.07714114239464753 0.7892465900439045 0.07740818203804938 -0.009775632146519534 -0.09931790282101681
2.9075 0.25192356999652815 0.11390186296514757 -0.4984178404518074 -0.5623784853751427 -0.5617890600636213 -0.5378220350294335 -0.04534799543614838 -0.17971075000252038
2.962 0.043773960318496466 -0.08223203349583132 -0.026707981147799164 0.7859987758777345 -0.03206072266765296 0.7436910442643773 -0.06835787657186146 0.2751773209958674
3.0165 -0.08780331030941757 0.09270592427534333 0.5254340064178836 -0.5693842118941502 0.5327300062046546 -0.578288766444941 -0.1511533892211388 -0.021570612150633384
3.071 0.22292183783996772 -0.04054541166013967 -0.7606679415901915 0.03756119059087955 -0.7202156210614218 0.09592031985155258 -0.34127287054343747 -0.07389490707878625
3.1255 0.0367639163705094 -0.11799466060016024 0.6054708279848943 0.4858042930475076 0.5971238408244984 0.48357982883666406 0.1285344691843704 -0.05323470183542934
3.18 0.04959162676762061 0.18198981914856255 -0.12324966494583597 -0.7523433684530035 -0.15203900247843607 -0.7728691796514794 -0.05667407550144097 -0.0312686685903807
3.2345 0.16476815665136288 -0.05879509836432124 -0.43081819472188876 0.6346564817111258 -0.3970145060571675 0.602625030586518 -0.19859798035397094 0.26101629088087086
3.289 -0.071295906227287 -0.08111881963442756 0.747920269763352 -0.18201323558723628 0.7340572076179281 -0.18175346330369915 -0.1602300615207427 -0.16543309529718
3.3435 0.14529893892204493 0.12331969140803685 -0.6673740689977521 -0.36378475888944034 -0.6828601594236136 -0.3191351355849376 -0.21192829811536 -0.11361035977840571
3.398 0.1539851837365782 -0.10858074533368861 0.24033673244359194 0.7202434128180162 0.23801127867536598 0.7037270065112955 0.1648226446732937 0.08126287881254392
3.4525 -0.07718720307890804 0.03722317281315153 0.3084517687390423 -0.7024519521689107 0.3135679213756153 -0.694776627622546 -0.18910762512847537 0.03337881295041338
3.507 0.1822432954304132 0.07996543682982764 -0.6887349070782366 0.30701664217946373 -0.6543921765016554 0.314034403543052 -0.26827343073702986 0.15046567193464663
3.5615 0.06780589860288258 -0.1422911116851151 0.7160787301477155 0.25214117091951255 0.6941404645419259 0.22744731731977602 -0.05296294372718109 -0.24852556207956242
3.616 -0.031742973033721804 0.09851928447693975 -0.3712007273742157 -0.6646807150461702 -0.38087062409194083 -0.6679121525956104 -0.10122766701845665 -0.019512742686043975
3.6705 0.21827074740666794 0.0018511523508833185 -0.17963890231132967 0.7238956123754193 -0.16590127971508636 0.7138536294811714 0.08010712191263 0.1884856979206387
3.725 0.006536849822200722 -0.1104139983568999 0.6332963484650477 -0.41702280789081075 0.609447543853489 -0.38531043563576 -0.30326969297565276 -0.041535675430280944
3.7795 0.04034181986470697 0.15906206414870777 -0.7421693692326755 -0.1062949068286352 -0.7385996071931673 -0.09133185336365664 -0.22046180708280813 0.022517309526628993
3.834 0.17164693682085572 -0.06756649734070282 0.46304098641629193 0.5886919653201179 0.4673920942366682 0.5494378355853479 0.07438358246304157 -0.21278691338569483
3.8885 -0.05911118705052695 -0.08477350505023516 0.04919552168530852 -0.7514936223523802 0.07930323548954331 -0.7432407404223778 -0.1292559813010545 0.12191627935628424
3.943 0.1591305508298619 0.12560975528029442 -0.5360451866109064 0.5121226592974372 -0.5240845089760178 0.5186930162693683 -0.05789347610860889 0.18433889674309023
3.9975 0.15412666978296977 -0.07979853475915981 0.745914321189335 -0.01639393108692838 0.6909231796479084 -0.012504124746191001 -0.30646088801991217 -0.16665960226458343
4.052 -0.1099508347458588 0.04554220939362285 -0.5593981119936752 -0.49060573213614594 -0.5631573639269584 -0.5038790756270424 -0.08031877348312007 -0.008126864952480245
4.1065 0.1606798598947123 0.036517554405291294 0.07760310841143875 0.7410714068258167 0.10485696578514742 0.7216701853146414 0.12235127206080228 -0.08675981537666025
4.161 0.1159669710382645 -0.1696673446194756 0.43386484187087376 -0.5894333184858424 0.4497364158226438 -0.5409024106848764 -0.2550112763971541 0.16485912583989726
4.2155 0.014355641653691551 0.14711340953315685 -0.7261229533605611 0.13929237670890512 -0.7291529679249565 0.1463051058273406 -0.1345114028447888 0.06591780094119333
4.27 0.1642432399237921 0.06000803300335977 0.6377685093477725 0.3737435497628001 0.598092544145977 0.3392235939680999 -0.21278751691139566 -0.24424159153495442
4.3245 -0.06221639421881073 -0.15948051011903525 -0.1903933145739556 -0.7030442858734697 -0.16590120960003982 -0.7202602355251169 0.01507471975437529 0.09710435039202424
4.379 0.08485433352340162 0.06832683405692881 -0.3320568496460288 0.6662257286055175 -0.31622207572902883 0.669581159469469 0.043562516929910325 0.0287383295151138
4.4335 0.26636679241791245 -0.029622876436657262 0.6596350378998381 -0.26482927031331666 0.6366129274870496 -0.21998945281684773 -0.35208004709880636 0.09298025104268318
4.488 -0.08610993818643362 0.030682352884811064 -0.6806562886957674 -0.283028454778585 -0.6822200918304606 -0.2880120924419248 -0.07660818072663222 -0.06269506066905674
4.5425 0.03159554556771997 0.11078036648753854 0.3419156814383671 0.6538324699260163 0.3386527320446827 0.6224622875151296 -0.08973126189015866 -0.21707783955193197
4.597 0.15644637933176783 -0.20833994569254224 0.2167846543373925 -0.6701897048636491 0.24829844364502213 -0.6596839547005605 -0.023839394183226437 0.2238265855708221
4.6515 0.04060450475119804 0.028852126166025827 -0.6380317398763922 0.3798271575722221 -0.6385373261815027 0.371058034543632 -0.09698237934806306 0.02417550974586583
4.706 0.19497436699155296 0.18016521014630013 0.6907375206915235 0.11860817864200221 0.6576362093814231 0.1314752253207388 -0.3560745475464 -0.023285003865073577
4.7605 -0.038504702636503366 -0.11979727977509406 -0.40478414763201526 -0.6039791027375936 -0.3958293751077422 -0.6061149586866897 0.05936244538705694 -0.08065549157960288
4.815 -0.06286784801987359 -0.010395931513330523 -0.06672469114185411 0.7292710174801081 -0.07233233684972892 0.7262255253131672 -0.03969498274886065 -0.09274535604308726
4.8695 0.3065431350375661 -0.03131133264221681 0.5257358907695198 -0.4390177048446412 0.5363412936754918 -0.41569864396778067 -0.14088547573220445 0.2603622882759355
4.924 0.05700571742603789 -0.0061664885740500925 -0.7346282183425825 -0.024699274732377832 -0.7163858627486753 -0.0501257225384948 -0.16462925508120918 -0.09413086866329516
4.9785 -0.048416566678297884 0.21044341277101747 0.5189468294984053 0.472046093071743 0.5071812526795944 0.47223498238212164 -0.264347872006281 -0.10116777859109866
5.033 0.11264736915155535 -0.1553494698015651 -0.008963426830694995 -0.7127759723520926 -0.0035626857586181903 -0.702953070377851 0.14230596152149227 0.01930824849666264
5.0875 0.03011742401011605 -0.1506601591759129 -0.4439535384875869 0.5635695874731699 -0.4792408296316762 0.5462148049666091 -0.12221852062107336 0.015794907209990272
5.142 0.22382589781587256 0.19654477533365372 0.6726925177716243 -0.09201474752050527 0.6723807836074717 -0.0810763169288274 -0.23822364615622477 0.1928830703926156
5.1965 0.0758400033482793 0.0053090655043464665 -0.6004762933921263 -0.41133651751140526 -0.5562046377444956 -0.4157067847646808 -0.1047883960365449 -0.20564005390280013
5.251 -0.1871154073300416 -0.02160844543153874 0.16677535808353167 0.6731916689040007 0.1594741675680868 0.6994977893650828 -0.14080797506130296 -0.06842340716573728
5.3055 0.2204985899450898 -0.0508752085465911 0.36920271884017264 -0.5958082294871793 0.3625012186069937 -0.5883472340033107 0.11026884476506246 0.1394030287193373
5.36 0.2087072111502371 -0.11375182940367522 -0.6560503534903285 0.23106452036088135 -0.6749845427270976 0.17164196340386073 -0.2506003157177041 -0.0013745387912047467
5.4145 -0.030339846724718095 0.23674082979337144 0.6167754050333519 0.2902576656440386 0.6276692048114731 0.2932090242186078 -0.24386094987135365 0.07223715442304311
5.469 0.05506687794364932 0.022097151801503408 -0.28345274680318616 -0.6647065911736436 -0.2502434806954752 -0.6338788088401306 0.014096291576385133 -0.22111989142987085
5.5235 -0.025788833957526874 -0.2550072099874651 -0.2308931175910025 0.63283426913164 -0.27927944017792 0.6602428919154183 -0.10612664609717501 0.05737917232765571
5.578 0.19226028861228575 0.09131741499132372 0.6268001664341665 -0.30394043012811384 0.620459562191939 -0.30825835534777435 -0.0037843030818247025 0.18517415726975597
5.6325 0.2538823119352417 0.07773089153492208 -0.6656842125770102 -0.1466988207702495 -0.6341214994062456 -0.20503215723360374 -0.29891259156250527 -0.10656519472463885
5.687 -0.19006511267577653 0.01876834027509265 0.34752580946070494 0.5859609929596716 0.36774746097992567 0.6107745606581552 -0.14434540858544653 -0.003941613313439664
5.7415 0.023360244801920223 -0.009723623062268497 0.11988920261294728 -0.7058777088501277 0.1211990540835647 -0.6752213577492452 0.09608606821577832 -0.13572965586736058
5.796 0.25690590631468646 -0.2105007237811825 -0.5171526487662212 0.39035053043358686 -0.5796946944743385 0.3680920577657041 -0.19327189869298486 0.1437907082637947
5.8505 0.061957498811771886 0.14340710321757025 0.6943257201985656 0.08329852780645501 0.6990729328291488 0.07845850507086662 -0.10752150407581325 0.11733835427423066
5.905 0.08857686004871902 0.21524263964893886 -0.4818861005416284 -0.4755883499718831 -0.43265734160486136 -0.4929770579552806 -0.2476498370427829 -0.20242857361160746
5.9595 -0.06466623036331463 -0.2234789750275458 -0.04174066972694654 0.6671985836955875 -0.050605900785943146 0.7112208546518786 -0.026985983012062904 0.042013046459429784
6.014 0.048991436970530884 -0.06795948045222577 0.4770877412924263 -0.5200446536960908 0.4779942896714485 -0.5131880032526039 0.07521346580619531 -0.017193529236394844
6.0685 0.3516326154271683 0.0597923911488978 -0.6321644276066894 0.05544260109667779 -0.6559707480323805 0.002686996535359315 -0.30295690300702394 0.12052814144952503
6.123 -0.04610115481749956 0.06234566812812451 0.53546769207721 0.451040308754656 0.5413944774369512 0.4586726771483514 -0.11002996359867809 -0.0063712547422984985
6.1775 -0.1279821277941666 0.12051489876364196 -0.14139628622165273 -0.6629983452197719 -0.11688880504608004 -0.656748212203303 -0.14150867284808374 -0.22223032253108507
6.232 0.19964940853554555 -0.2221211428732649 -0.3899744628083303 0.5202874743902065 -0.4271158987990632 0.5402456979350266 -0.008489927667377266 0.16027008685149524
6.2865 0.13082803876126753 -0.07130234709412824 0.6712694919684745 -0.1767170758279032 0.6911577057833971 -0.15955676878261194 -0.03692054928229217 0.03177141910463712
6.341 0.1577455278007608 0.28145349981839424 -0.5632883355031786 -0.2912179522952917 -0.5549867752372369 -0.3252287286589745 -0.3444365891272943 0.026484956276086505
6.3955 -0.03324224137755843 -0.0628565178351614 0.19691992206699896 0.6666546476031425 0.18958103321658482 0.6765800885645112 -0.009002102155993083 -0.07305680252520262
6.45 -0.1344940347458274 -0.1333120775067738 0.2504966059050997 -0.6184580667279194 0.2692311451447182 -0.6365636074920743 -0.0591976869944601 -0.14413964322380127
6.5045 0.32302334206825334 -0.000266795570385524 -0.5978916754111654 0.22789172368621044 -0.625329562532237 0.21939533382715667 -0.08986993421276174 0.23352929695665595
6.559 0.18024622398574083 0.012782829642141119 0.6504764012941687 0.2070546722089703 0.6529212667511302 0.2544791594641722 -0.13652470867583344 -0.0354536441700369
6.6135 -0.143211979270407 0.2101486928372202 -0.3109174869164592 -0.5609799850207524 -0.31514448247893856 -0.5758233088422701 -0.30003816797207256 -0.06509141040061171
6.668 0.06898409111798004 -0.11048093207170896 -0.196303292779178 0.6577101709068461 -0.20709753884642276 0.6537482252997688 0.09481421451976328 -0.025084077157519702
6.7225 0.09654631503891883 -0.25128436422228645 0.5343437436494579 -0.36450238950974234 0.5950638005769798 -0.3754403742054874 -0.08058992340481667 -0.03005022854845388
6.777 0.19417792273233622 0.21191360921881522 -0.6300459870342191 -0.12765153477040234 -0.6400288874268597 -0.13267325459283008 -0.19143237778551372 0.21427661066650647
6.8315 0.125245608052981 0.11145991253288941 0.43492023466110297 0.519431840467006 0.39437944282406423 0.555192590983781 -0.13246023168350135 -0.14747356807358572
6.886 -0.21174575287305247 -0.10088796655329012 0.06323740801387787 -0.6356429965259169 0.04928394157757623 -0.6805656562130007 -0.19523344021722522 -0.0845148372528843
6.9405 0.15180860113873854 -0.05714841223593484 -0.5135697377530978 0.44270365777557097 -0.5134273103531852 0.43498649747505735 0.11322156609431942 0.08037453679534064
6.995 0.3079248428705654 -0.10232529566528234 0.6269575573505146 -0.018783299890933528 0.6873168903771464 0.031332622352260746 -0.18646172757386079 0.008592453131212433
7.0495 -0.05226365653483862 0.20111303583286794 -0.46463441178785175 -0.4596688269882357 -0.48572450563596065 -0.4528395139748683 -0.237464825666099 0.1236702088620296
7.104 -0.003100360835276307 0.11310660105312745 0.08310190970075255 0.6709739943898362 0.03906945584443458 0.6661451375141882 -0.044321494082252756 -0.20342034420556226
7.1585 0.0353189173655451 -0.29134198208300066 0.3996460079038956 -0.47832934784953135 0.4378872410114912 -0.5409897385728512 -0.11958262356021236 -0.004903168084309825
7.213 0.15190900362362478 0.026867335182234137 -0.6681372384904618 0.09745437995589429 -0.6635485208669886 0.09973022320490578 0.04270194411839738 0.15685096659500378
7.2675 0.2809793331008125 0.15607781245795074 0.5359915255175667 0.31487163740771984 0.5374422397384124 0.38615669586279383 -0.2679903037141294 -0.05466528203806055
7.322 -0.15124729116332283 -0.018962251019318588 -0.12836446325642725 -0.6446878010222598 -0.16771022471625868 -0.6608630892124139 -0.19194415709655702 0.030422689064460454
7.3765 -0.0743614222305442 -0.009843469493965857 -0.29914098656552457 0.6022893217655347 -0.3133526358177614 0.585647311340043 0.04926775904957936 -0.1675742329947522
