!Created with skrf (http://scikit-rf.org).
# GHz S RI R 50.0 
!freq ReS11 ImS11 ReS21 ImS21 ReS12 ImS12 ReS22 ImS22
1.0 0.3635183649345046 -0.24665011961128502 0.7744729521106706 -0.020200833418953575 0.8525988582928362 -0.09279784922849293 -0.08601257942888364 -0.25946291358610074
1.495 0.13355405683044416 -0.08842142498624397 -0.8293843848086704 -0.15233803476165125 -0.8254279284159464 -0.15015122278596307 0.16923356392178707 -0.07927175754078265
1.99 0.2623388997017695 0.13880137107975477 0.710901388559079 0.3265341423853354 0.7852392488112954 0.2947720317768746 -0.09852483194546642 -0.010565722658428834
2.485 0.3134653810066329 -0.05871310399728544 -0.6252042288726177 -0.4192852539189623 -0.6789112289553063 -0.3803338622574928 0.022177876811187113 -0.2363732190521839
2.98 0.029404813859109077 -0.08247155940013459 0.5486389932503032 0.565753370440647 0.5334772856295168 0.5639134193951163 0.12488733920379576 0.04034735161552258
3.475 0.02469489838591446 0.13530353534694683 -0.42131446744374096 -0.6370936538569143 -0.44413121463017563 -0.6327100254431894 -0.1083311085305965 -0.05968378451808869
3.97 0.18013326708100366 -0.01014657485544551 0.2738440890581755 0.6953877525245026 0.29368021664173577 0.6634097435957732 0.11623749682950575 -0.15241207493821418
4.465 -0.012135541311483361 -0.19589062020663908 -0.11317519239751847 -0.7134676564222565 -0.08868226516108438 -0.7256469429723982 0.042594114845881416 0.1130769304876282
4.96 -0.1121302169368081 -0.02645386998488113 0.007809300014460702 0.7222470099468633 -0.0024187670197284273 0.7267455778850888 -0.0781910136244442 -0.09553925013226985
5.455 0.12365438178423245 -0.05763051093073934 0.17387080890320603 -0.6952205352720302 0.1653966532064641 -0.6712184264726374 0.14877756035792541 -0.02730031085286661
5.95 0.09966444713688173 -0.28214363706982903 -0.29805849061178885 0.581690293173421 -0.34065419167766625 0.6138192706724989 -0.05159951715007885 0.12812947880201292
6.445 -0.06175227253645792 -0.1808846959469973 0.38184265659946753 -0.5519552290213289 0.4083821658634467 -0.5665934287472152 -0.026569371811076405 -0.10227159128192143
6.94 0.15783287380150307 -0.05417834179498669 -0.5237362250227816 0.43050555841861093 -0.5238340275036636 0.422837189397975 0.1110358355403561 0.0883254115382397
7.435 0.2502794489437038 -0.2183165088702314 0.5484880552482428 -0.2759504525676827 0.618140503138155 -0.3057886742275507 -0.11907987566708016 0.08554738947419316
7.93 0.06277121542639064 -0.20255786738694498 -0.609360636492072 0.20226667400740342 -0.6452512087055868 0.2213142487167967 0.029102516012979595 -0.07562707538845971
8.425 0.15128137864338656 0.02421579612660629 0.656397439175327 -0.03965464930591129 0.6564255844592735 -0.036193173203104695 0.029429471165447682 0.155402887897419
8.92 0.29393782656023604 -0.06103690311240261 -0.6001309364131415 -0.090503270991816 -0.6690380146076389 -0.08237291135901947 -0.13944484411282448 0.021270041457217014
9.415 0.11442397839599694 -0.14456339069494759 0.6011468034813502 0.19720657489265983 0.6290647482260124 0.1818085693699189 0.06870838932751047 -0.01367126281246917
9.91 0.0399478469026328 0.07063627252194517 -0.5553732175398923 -0.32808795394495704 -0.5424332374473806 -0.3332555186823072 -0.06074706328644909 0.16957629942930258
10.405 0.19666506167476358 0.060551506510147755 0.46444223856308725 0.41088674130827796 0.4992152258062724 0.4216908200357647 -0.10864160343085191 -0.029248450578389516
10.9 0.08577321903274496 -0.11651571373859479 -0.37071327984890073 -0.4998802309058777 -0.3895198100756471 -0.487127157380805 0.07035488090904264 0.07175482202804936
11.395 -0.08426458186386426 -0.0009211643756026042 0.2752020782923197 0.5507700450999103 0.24629959168536905 0.559275744371243 -0.13394399923496236 0.14495403944459315
11.89 0.058711918662129076 0.06654858018536308 -0.165755904906539 -0.592739937450057 -0.17015940659184292 -0.5986308723109873 -0.055080401862996974 -0.0383570035446968
12.385 0.08711687453539076 -0.1482885779562863 0.006113433409561907 0.5918583509288913 0.023163639808962064 0.5880221074981904 0.020217173859654262 0.15019552263092198
12.88 -0.09690428380173571 -0.14137965631545468 0.08564378684570259 -0.564515014058058 0.1167487715458221 -0.5767986643254795 -0.1773456526096156 0.09423006516207084
13.375 0.0003357137742512899 -0.0030977204344394367 -0.19812647590148413 0.5594054547262611 -0.20061127795472664 0.5596593243424188 -0.010403756920430392 -0.002332112677884585
13.87 0.1593139218065865 -0.14688768887180714 0.32867679894384194 -0.45275767939348316 0.31793421131096467 -0.4598431198305638 -0.06847797159200816 0.1894145585197966
14.365 0.015832544252935645 -0.2200688829793102 -0.3830083206305706 0.38303813065728903 -0.4177514327263256 0.39142999387515043 -0.18476237842098958 0.03555271016353191
14.86 0.02166234904492637 -0.04391933874637436 0.4805832021102502 -0.3181190499502962 0.4761917530564014 -0.31950694009246083 -0.0010819978373358843 0.05526930421024898
15.355 0.21714680820051926 -0.05919791899560138 -0.5190381820011567 0.16965121129574978 -0.5172348101155423 0.17384433538419386 -0.15888469402462643 0.17274953904615742
15.85 0.1336809507808734 -0.18530717236997504 0.5302047435543555 -0.07917086249672438 0.5640107443703225 -0.08041067351505249 -0.15979280333668358 -0.01133223922846983
16.345 0.02435414038887575 -0.028108428354797876 -0.565830619105296 -0.027615782839254553 -0.5594430722351086 -0.02267059161504402 -0.028558133928321284 0.11059696309337645
16.84 0.17747818213988775 0.057703748490230765 0.5284686967376621 0.14654285345074627 0.5167596782656134 0.1550291723218991 -0.22064071407052308 0.1160644579422233
17.335 0.16231157356267792 -0.09338542319905503 -0.48844794413002923 -0.24034523434449664 -0.5107235549665604 -0.25101123606909753 -0.11128116104504701 -0.026561482026928762
17.83 -0.0244778212549463 -0.03245439368982526 0.43777540785352836 0.3360638581277382 0.43362862289181187 0.3345018554358396 -0.08293762272185311 0.14586655558696046
18.325 0.04971555428285204 0.1060480422548398 -0.36916546456858473 -0.4013378367868349 -0.33881457404495413 -0.4176047546000371 -0.2373580064001817 0.044348553939835104
18.82 0.1216009428474892 -0.03793930280553492 0.2673864924234443 0.47109463511746713 0.2808144123723148 0.4866986700349103 -0.06562430057325432 -0.0009983948566361978
19.315 -0.05449467015113195 -0.10077365635462447 -0.15663483448822596 -0.49892442314085506 -0.15870723640637124 -0.5031057746222236 -0.14962598876247132 0.14780386568080134
19.81 -0.05876214933129431 0.0512796801190758 0.08024909206908486 0.5133090309669546 0.047409936438282056 0.5285223474356363 -0.21542755461156302 -0.013853021866122025
20.305 0.09654538953240613 -0.036630913750687444 0.054116324521507324 -0.5210249804081288 0.040729220623400494 -0.5397344112305392 -0.05585057551781758 0.04902651691421542
20.8 0.006566348274474198 -0.17623359501145713 -0.15991668345238771 0.464768388029694 -0.1488323675065007 0.4792344819012709 -0.21417831768910947 0.11629894893553656
21.295 -0.06955314975442833 -0.04894724950839415 0.23000784670489036 -0.4455269357405147 0.2539457559928624 -0.4523733610597802 -0.17286813769395257 -0.04617518142425249
21.79 0.11345091127902024 -0.025569536815347335 -0.34372919482607595 0.37530970773483463 -0.32610501933091557 0.39538183140513916 -0.08820489564122816 0.09603546522630446
22.285 0.11726666954107896 -0.17320010325110227 0.39396613425112614 -0.27148763258610187 0.3845283917416409 -0.2895459591297916 -0.25461910553091416 0.0547714196065447
22.78 -0.013813860057202592 -0.10267485913418653 -0.4490276770727662 0.21345550531584137 -0.4566173135247291 0.21603563446811558 -0.12690624860544425 -0.04795978523184121
23.275 0.11379857062477812 0.029282037896102703 0.4937183946887152 -0.10272800899819824 0.4743873619754914 -0.1224163832717505 -0.14317096632023615 0.10987231685659785
23.77 0.18379673277369002 -0.0870119723094638 -0.4856222192781171 -0.0011468183623884617 -0.4730695516037727 0.007263456076858289 -0.25236215910850973 -0.018247289446101666
24.265 0.02596658092401759 -0.09210472194166465 0.4875187939936346 0.08873954923357846 0.4901365786147034 0.09242152416734725 -0.0924678340641579 -0.023923825578791674
24.76 0.04240280295954729 0.08029281132768455 -0.46140008061538906 -0.18208500434140462 -0.44201066277673456 -0.17511510186499835 -0.20027684555325492 0.08840913946606624
25.255 0.1573486035282334 0.016420723588301267 0.4113514593690093 0.2667919006734234 0.3853677956886032 0.2716958283578862 -0.2128003281244092 -0.07627295650848552
25.75 0.023583678517376926 -0.07966391101303305 -0.34301758921095277 -0.34591532313583134 -0.3423823150018853 -0.3577767645697693 -0.08555894091884372 0.01464123328906735
26.245 -0.05305845958558727 0.05899436136236422 0.2718833943229984 0.388760440551167 0.2552413277584352 0.3951852973394236 -0.2351929138431767 0.03925970011210846
26.74 0.08038310603289141 0.059388963883480375 -0.1917319112363112 -0.4366061027125481 -0.1634314642523485 -0.45056892198965043 -0.15171241856102782 -0.09688576446561946
27.235 0.0347281800322356 -0.10225116347933683 0.06992129436683929 0.4603587613335589 0.08095994948102152 0.48403307967880416 -0.10856328373565835 0.05029818595444828
27.73 -0.09131592996404339 -0.033625683697621804 0.0060124947387187695 -0.4480642520418411 0.014390937663371234 -0.4634324729195305 -0.24110130458219062 -0.019205927613386634
28.225 0.028893346712001004 0.0382994772030207 -0.09732660167637731 0.4552376336026601 -0.11859544676282541 0.46629556614514694 -0.09907300220151656 -0.07948468705207752
28.72 0.09307875851622452 -0.11439705322708156 0.21144189819370532 -0.3967136156825696 0.1962244642703869 -0.4332654328624416 -0.15222286951637237 0.061429945500902146
29.215 -0.03861097879817719 -0.11765045481612657 -0.26873859379555576 0.34621959965566695 -0.26964216082356823 0.3653511830424001 -0.2164744472124247 -0.07351312273025352
29.71 0.022515230373142677 0.015845474703761225 0.34661092629710727 -0.30192434175183586 0.353695687730853 -0.3132504091685076 -0.07357796460092501 -0.04129617722276588
30.205 0.15574488320399985 -0.06361201329479514 -0.39945646140104096 0.19813633105005485 -0.3887194437129789 0.23650623928022826 -0.19636987223332875 0.03716802392514223
30.7 0.04624645460543402 -0.13148990881157915 0.4251868737973928 -0.12442888115796291 0.41779881644082784 -0.14150656570052006 -0.17017810439598383 -0.11149137469926333
31.195 0.015058194565255952 0.02415028089528012 -0.45443478763414435 0.04314474325612199 -0.45661157141877073 0.05052182110061505 -0.07580315925382218 -0.00024278457952667812
31.69 0.155418037140947 0.030841817082009736 0.4457382870553531 0.05145458598951939 0.43345647916544794 0.02877034721245396 -0.21669882066984744 -0.012526464613063481
32.185 0.09340721428168362 -0.0826108064475407 -0.42693431238332863 -0.13796963555060032 -0.41005462762361505 -0.1301385918187778 -0.10794678002589599 -0.11642039196652343
32.68 -0.02469340830674776 0.024007166506123483 0.3903489087322668 0.21626568430551785 0.3879047144264492 0.21869312829172502 -0.10186796851564843 0.02505821391942026
33.175 0.08302562580943146 0.09881899585960646 -0.3410319718637709 -0.2736350961933742 -0.32325883775930325 -0.2701776061613856 -0.20453220307174255 -0.06776226845969349
33.67 0.09226047338938198 -0.03785694751215922 0.27083932372144653 0.34856465652176444 0.2529189974068799 0.34813668926800156 -0.05629974029829234 -0.08740235343875354
34.165 -0.0581060854709921 -0.02552743412221107 -0.18049000847873034 -0.3816660867412421 -0.18459502384449988 -0.39671309316492454 -0.13640029965185668 0.026939947966838337
34.66 -0.0027046369175377574 0.09038266726639099 0.12141646458244569 0.4034809807062544 0.10342706714551848 0.4081312232911828 -0.16058961036828442 -0.10688293293234194
35.155 0.08698532521767292 -0.026439963975121904 -0.013217480318577187 -0.42528944463023605 0.0004584937809819799 -0.4332546699827789 -0.033624125006142105 -0.03725780740978355
35.65 -0.030005193278392416 -0.09980513706608668 -0.07870332735666404 0.3982060940298934 -0.07473909596438166 0.42642706610989056 -0.16562023368956783 0.00596594029280454
36.145 -0.04043137582322666 0.027426704546096317 0.14308004468376814 -0.3862668074730287 0.15553978419664713 -0.39273828936333116 -0.10532517799008166 -0.1168570958013287
36.64 0.10606463401169315 -0.014185243131156471 -0.23981301393312257 0.34386810060681405 -0.24952880814312428 0.3579653280401699 -0.04815664367673671 0.011015570189272012
37.135 0.051230612543591 -0.12646622588827053 0.2994491418398052 -0.2731695968712753 0.2977835242767437 -0.3078819061132974 -0.1769577766181913 -0.033383957651275525
37.63 -0.02380398129055147 -0.021890548651511077 -0.346913020968437 0.22686286055288865 -0.3501365580901092 0.2329688100533923 -0.05393970601601327 -0.09692274044252892
38.125 0.11175510404365008 0.033899927428516316 0.3912070902284036 -0.14606159884682623 0.4004101443984667 -0.1559606413948429 -0.08314417168353742 0.03483643890540337
38.62 0.12337321398716555 -0.08213014712834259 -0.4058896005055381 0.061432638337572835 -0.4061554142444728 0.08806150408882453 -0.15882936085002486 -0.07567876529988843
39.115 -0.0006679034412655389 -0.029605148895939633 0.4170517239367021 0.013726991321045412 0.41231428014503435 0.010732357756158365 -0.02158312992947079 -0.05524686038177741
39.61 0.07287084974665843 0.09078481486809863 -0.3990212029654297 -0.09130473117943222 -0.40607790070743227 -0.0932475084910318 -0.12303974507036339 0.028899285510254585
40.105 0.13623907801826962 -0.0028810772406722557 0.3716810085617874 0.16605127098738653 0.3693025046174699 0.15561189637169068 -0.11419409853602608 -0.10091687286846703
40.6 0.00278603857876552 -0.032559618365146765 -0.3237161071927954 -0.24461280474741012 -0.3201754155698437 -0.24383360843941265 -0.015249691449890959 -0.0041497303079897005
41.095 -0.002939082283620291 0.09572272555278495 0.2673886620366217 0.2855840289529596 0.2695165691824032 0.29760887798231744 -0.14676466166026958 0.0012515360529966526
41.59 0.1021702455298108 0.047087955634056454 -0.20698838121864388 -0.33738051088527043 -0.19937334424041653 -0.33205255834443825 -0.060704179560977053 -0.09527596979293629
42.085 0.013101791319828748 -0.06138767778837835 0.11185300868386454 0.3721926518822485 0.10976622266126394 0.377586602768036 -0.03984166994851112 0.040779995420923705
42.58 -0.054835428285615696 0.03640627601024763 -0.04377012082054784 -0.3718270960437362 -0.04361584769231601 -0.39040271856761566 -0.14406446713363788 -0.03253560881231329
43.075 0.06636713234012225 0.05312894806811218 -0.03265430591425701 0.3873809219094144 -0.03938322599166391 0.38304434482793825 -0.01759767013399501 -0.05622246065163425
43.57 0.058705215865603316 -0.08431997702283138 0.13157030679539014 -0.35953325887191934 0.13323533433648413 -0.36876680941818535 -0.0805686026124032 0.06003961992431881
44.065 -0.0452981784220965 -0.039334844525917914 -0.18759219575263958 0.3250918329818148 -0.18891278079437313 0.3417278708127684 -0.1196595585641967 -0.058489227063014196
44.56 0.05106462097859129 0.046302964071316045 0.256595260105711 -0.29213238107503786 0.2587504799384808 -0.28478414239225747 -0.005923428712240459 -0.004142397131337437
45.055 0.12174512172584417 -0.060941658960440036 -0.3140287357543672 0.2198724841974861 -0.3198216884515974 0.22555647264712816 -0.12266713707303956 0.05062044217662241
45.55 0.010789525158159818 -0.072377484553147 0.34839725067815774 -0.15782720261321515 0.35076330882809986 -0.17197589815962075 -0.08309341462115258 -0.06793071038248633
46.045 0.039192325502443726 0.05747940030975672 -0.3765875830209919 0.09237453165536752 -0.37712124370990774 0.08291660854796913 -0.02367604761910223 0.04571144645489971
46.54 0.1486031148277103 0.012019524448132727 0.381042029777089 -0.014326016476408009 0.3913364529038576 -0.009998800256546399 -0.14350741824402002 0.01726825470077014
47.035 0.05789212247209219 -0.055227698539800266 -0.37686502254329535 -0.06287503791367903 -0.38214910794176704 -0.05703309329691512 -0.04412681739656011 -0.05258722788790453
47.53 0.005307434371550316 0.06403835822801467 0.34999677652440353 0.13148662737187772 0.35304246090458025 0.14460685960308245 -0.061448607776964544 0.07328160119387843
48.025 0.11647605490427947 0.08084623914256701 -0.3147227017679869 -0.18830399276774276 -0.325290478647132 -0.20499162321611342 -0.13889938610617117 -0.019154406882375272
48.52 0.07549045131994661 -0.030809783614144076 0.26819562154833176 0.26021981547904716 0.27249533217142374 0.25551948628010424 -0.018425275496319008 -0.013023948362029827
49.015 -0.03465166526337893 0.031009179757006275 -0.19631438401118484 -0.2973158094101153 -0.2010760368399534 -0.31317541798826937 -0.10596963080873828 0.07689517106323109
49.51 0.05393169915788845 0.09929040009368072 0.14384958746461704 0.32404803437675334 0.1484779317642113 0.3421385606155279 -0.11128840786348398 -0.041199554988707816
50.005 0.08267282231426941 -0.02275506641664393 -0.059150907279903096 -0.35835927220704183 -0.06721245800732871 -0.3529508814386562 -0.020101378826206103 0.037218197021536614
50.5 -0.033732380762337824 -0.03702671260352904 -0.02249801908821179 0.3488571580953618 -0.01575011355544462 0.3610704540376497 -0.13828456788743068 0.056538998000324726
50.995 0.007199360827442031 0.0670792478851676 0.078896135402724 -0.34275810338065477 0.07615726481688595 -0.35311291615080614 -0.07523153028275657 -0.0384353708818023
51.49 0.1049900319646771 -0.012678875175275928 -0.16316826253508707 0.32200978501352046 -0.15304736951515788 0.3159612498894718 -0.052389147972959106 0.07950660203206852
51.985 0.020900825303964966 -0.08097564174585747 0.2237136098574305 -0.27466278180670955 0.21911936586305672 -0.277245603823003 -0.15690869474784966 0.023768626732633656
52.48 0.00067359374475233 0.03139029774643443 -0.2720424053462426 0.23514271104584097 -0.26617536655536855 0.2371928175643199 -0.049221251900001144 -0.013864104705292625
52.975 0.12438517221375849 0.02707479724943972 0.3158664933582872 -0.17314430372240572 0.30656962196528326 -0.15991055902669052 -0.10029004560058527 0.09343682456641239
53.47 0.08930900209484242 -0.06872846695346976 -0.3397411134494929 0.10554524250659725 -0.3427751234188211 0.0995462233310867 -0.15073940481015688 -0.011235542458261008
53.965 0.009137478308430542 0.0156035650967133 0.3551689317218491 -0.03916013490794535 0.3554987537432718 -0.035902739868597135 -0.04275105023700852 0.02358652931418309
54.46 0.1077220388330711 0.08085148718475743 -0.3457904862255305 -0.026871572381419753 -0.34547537235595327 -0.046924056044184856 -0.1436636992873322 0.07769789035496186
54.955 0.12656406024028197 -0.017980332585952018 0.33675373057977676 0.09674061637465002 0.3406889051335603 0.11224436662205965 -0.12085256626590507 -0.031160693324843763
55.45 0.008227749816603711 0.0038303908040802728 -0.3022465508434029 -0.16782514970517262 -0.30688430337290734 -0.1729619360907733 -0.057339398787267244 0.05918767727041355
55.945 0.05091645856799866 0.10562351449357357 0.25790647134120215 0.21173060969910765 0.2586951117288879 0.2338713874879495 -0.170639869220017 0.044952384754863385
56.44 0.11939241440785762 0.02728933373063172 -0.2122972351578161 -0.26103092262856253 -0.21965106223972258 -0.2824110850341967 -0.08744714180717843 -0.027512113123450224
56.935 0.009406715519246201 -0.02501600340295017 0.1389528712954389 0.3067746036337562 0.15244326623165014 0.3104386881689712 -0.09176008991307485 0.08226553361442061
57.43 -0.0067431624041855015 0.07500617960420847 -0.0803583110949144 -0.3148129924398408 -0.08074801593170693 -0.3340144610239897 -0.17537630222798145 0.006542487365837463
57.925 0.09541172647646069 0.04360267922380437 0.012985974953064477 0.33461227347582917 0.02306581866554904 0.34706014276832686 -0.06461826199526463 -0.001004944452177526
58.42 0.042609119413587374 -0.05962622175347013 0.07011876534682696 -0.32745838008721223 0.05319857928341596 -0.33003989634139325 -0.13661943593555892 0.08345739149833885
