!Created with skrf (http://scikit-rf.org).
# GHz S RI R 50.0 
!freq ReS11 ImS11 ReS21 ImS21 ReS12 ImS12 ReS22 ImS22
1.0 0.36293901574138476 -0.24617021559729252 0.7730507539522223 -0.01960424464720318 0.8523421104538877 -0.09198243660777704 -0.08492693295365089 -0.2566436075868793
1.495 0.13396064146394887 -0.08835323506584697 -0.8264713035594138 -0.15243066830148208 -0.8253897097389186 -0.14968326382891464 0.1701861479714223 -0.07889183324562848
1.99 0.263607589254156 0.13883796853580468 0.7106596261940376 0.324120900514415 0.7868974051963397 0.29435111608664444 -0.0969698464869507 -0.010395070962746278
2.485 0.31361952411379035 -0.05691576197941281 -0.6245483218302511 -0.4188785037602228 -0.6761922136668645 -0.3817582859440718 0.02206379786652973 -0.2351832719725381
2.98 0.02836259759039432 -0.07921963233714892 0.5491694676575853 0.5619084992521935 0.5345644291245966 0.5609269797729576 0.12468281415409643 0.04092424496795114
3.475 0.025078459780860603 0.13573159316617653 -0.42165222538410546 -0.637031177147776 -0.44280157462042075 -0.6315851001912075 -0.1097012257783764 -0.060351570586209886
3.97 0.17927043873117002 -0.00988739536435402 0.2732691445985647 0.6939885132324835 0.29323156849431165 0.6620660771838542 0.11547722738596185 -0.15198613014073054
4.465 -0.011899113919663085 -0.19685270990072953 -0.11336190804552655 -0.71279997765228 -0.08910441331635176 -0.7253275125074775 0.042443112985384876 0.11452500758639679
4.96 -0.11193717265363172 -0.026215997546526267 0.009904802077210388 0.7209147592740411 -0.004373666508308473 0.7258987939238765 -0.07934746803287805 -0.09607320118036228
5.455 0.12422410834836761 -0.05728472331941542 0.17412301922956222 -0.6961671486081981 0.1632629452599797 -0.6715781448459021 0.14983517680876576 -0.027342526723321933
5.95 0.09814847370575747 -0.27952635815625093 -0.2962055130201991 0.5820079405742322 -0.34093529673578477 0.612310810567196 -0.051965514805545183 0.12686317422379967
6.445 -0.060854267436944 -0.1800093784847606 0.38224915241217283 -0.5514770166053312 0.41031807352465094 -0.5641489445353078 -0.02685770412502817 -0.10189781664612226
6.94 0.15723012103345244 -0.05463220152817633 -0.5233597662118517 0.4317512546580478 -0.5232084329054884 0.4225776384042825 0.11333999571632677 0.0899731562051307
7.435 0.2489993251897191 -0.216172954884175 0.5456984839220399 -0.27709993264691973 0.6161783303228761 -0.30588805464960966 -0.12119901225905812 0.08652544972410066
7.93 0.06318555210475435 -0.20408283446853018 -0.6079259251881965 0.2017495551948431 -0.644648103341834 0.2188337820409044 0.029086784426494906 -0.07730794565400129
8.425 0.15065375437966258 0.023923804529472258 0.6533544280873925 -0.039097657382030915 0.6564830988661934 -0.038082285592569924 0.029327962828245135 0.15757228046982052
8.92 0.29408502358300864 -0.060821248393549215 -0.5997977389225131 -0.089084938223792 -0.6696969678122013 -0.0803189483011494 -0.13888864377776894 0.021083191022930017
9.415 0.11317645464144224 -0.14334879664757108 0.6013224028608182 0.19661872071372605 0.6288985719337915 0.18030906385037052 0.06608663865757937 -0.013740329616222558
9.91 0.03958627593250994 0.07088831925506002 -0.5533842456640818 -0.32715410270515555 -0.5427917261982182 -0.3325944249762768 -0.06047001722556314 0.17052620872189655
10.405 0.1963284014530136 0.06033019317596485 0.4620988684972198 0.4103511449842381 0.49630133934515813 0.4170797140626922 -0.10901227472706788 -0.029081926656067368
10.9 0.0859449945976687 -0.11689291056211487 -0.3690739320107247 -0.49841962589948713 -0.38668118282295527 -0.4860340358593188 0.07015812293364442 0.07132811086244596
11.395 -0.08489628176689112 -0.0011659564119703288 0.27169536719992365 0.5498371490915327 0.24453248488105345 0.5611982569006898 -0.13382284494894237 0.14489781994054787
11.89 0.057599745673304545 0.06458649681246835 -0.16565041190591903 -0.5915319413154566 -0.16871468061599312 -0.5970127342074215 -0.05513636929841548 -0.03820489296147637
12.385 0.086063380799513 -0.1456474602954959 0.008330433426891104 0.5924605144631654 0.023710927508342236 0.5863546945258705 0.019516692883021172 0.14932719801119104
12.88 -0.09657222309483247 -0.14143754616433094 0.08616849175609165 -0.5632212781889608 0.11718445654800415 -0.5766426964568666 -0.17543381314521433 0.09329528020017826
13.375 0.0011797627166578422 -0.004227020474118601 -0.19795356428906388 0.5568416268204067 -0.1978294586504159 0.5579508730834031 -0.011332998237043987 -0.002691808238750737
13.87 0.15760421715483558 -0.14508889590638666 0.32819352788364264 -0.4521791005394653 0.31590967616852594 -0.4579758744093833 -0.0680445891395691 0.1873378679563756
14.365 0.016549492771961997 -0.22039147111930726 -0.3834765901982334 0.38065519408969234 -0.4165279714268162 0.39167600458172297 -0.1875899596259572 0.035366515320050626
14.86 0.021995056514763012 -0.043629802084489196 0.4799345628400815 -0.3159749272966465 0.47536473447683625 -0.3172123781742368 -0.0015207175350567404 0.05620884991306397
15.355 0.21831777519081547 -0.05834741600925958 -0.5184994263809193 0.16979641306212218 -0.5127689612535209 0.17553915721325056 -0.15896484360303884 0.1723975649932597
15.85 0.13354348412851424 -0.184379218344478 0.5264447837789656 -0.08013482441371593 0.5623096033572874 -0.07719012649349695 -0.15892476507259315 -0.012022604024843425
16.345 0.025300201328044704 -0.02877456150131397 -0.5655532350922039 -0.027003625636809102 -0.5588193423422286 -0.022544435743594077 -0.029076952000978804 0.11245110383674081
16.84 0.17725429873654436 0.057042018315784426 0.5266646537028953 0.1467705734922513 0.515825508859606 0.1549519243357248 -0.21794515411478796 0.11428449420471323
17.335 0.16388049099980126 -0.09372106680706126 -0.4843761470195216 -0.23984264355569318 -0.5086855320030692 -0.2523960681229586 -0.11112067482762912 -0.027105712120804034
17.83 -0.024312895015886613 -0.03267042071260748 0.4351281161041577 0.33513404624000626 0.4312667689176961 0.3327562978353243 -0.08245614459261265 0.14417200289951057
18.325 0.050376615310322836 0.10633259067829633 -0.364881046996387 -0.402020485180075 -0.3372488230302159 -0.4177022635315325 -0.23604821659382283 0.04542735237847139
18.82 0.12179264237869 -0.03834670397935078 0.267617096142314 0.4700087314296863 0.2776191625671633 0.4843703301498906 -0.06726416233221774 -0.0012809340402177645
19.315 -0.05321711587899214 -0.10027226630608352 -0.15585432779369246 -0.4957186432028796 -0.158579035427474 -0.4997899113258414 -0.15180235011393514 0.1493808154944807
19.81 -0.057756890431664806 0.05106440161986781 0.08063558860912978 0.5129860806976654 0.04897315387656099 0.5281228849119173 -0.2146725099415447 -0.014074187318877288
20.305 0.09533462452310609 -0.03530722174658712 0.05449700003852134 -0.5185344307029726 0.04017325533725137 -0.5365501992964586 -0.05557011305410087 0.048709511324632235
20.8 0.007139869170506913 -0.17681614089476752 -0.16046321516147402 0.46197804383741703 -0.1489281077660365 0.4781730491465241 -0.21361911921821916 0.11624196173528954
21.295 -0.06868772664597912 -0.04865911155421855 0.23056763570803349 -0.4446191605482286 0.25475688712874656 -0.44920108801640535 -0.17151841921380195 -0.04519886233373873
21.79 0.11374388890241914 -0.025706417080012346 -0.3424213292228785 0.3746700371270728 -0.3235195506350336 0.3928593834614171 -0.08752463897739018 0.09497361693910925
22.285 0.11715291476883871 -0.17310005777791784 0.39241141885762615 -0.271083000985308 0.38437299126755287 -0.2886574472969236 -0.2517247261295305 0.05461332290029114
22.78 -0.013252017275137608 -0.10025671197107586 -0.44653340320814283 0.21355834394678744 -0.4549717641609611 0.21597054989065673 -0.1283981664901553 -0.04796503782187321
23.275 0.10977167492204265 0.029346303288762116 0.4917522137065955 -0.10225635695220994 0.4712143459597791 -0.12162497179164858 -0.14351509005712254 0.10980649642119616
23.77 0.1842796254605729 -0.08683691088027103 -0.4820164911951323 -0.0021504181375387186 -0.47058080568810734 0.005947804008487477 -0.25039992690544416 -0.018474080768872855
24.265 0.025571164143278917 -0.09040965464496967 0.48637534501091684 0.08812775742035493 0.4879623143475115 0.09239993453432604 -0.09439420359231124 -0.024626321566390597
24.76 0.042359299816931435 0.07930806781281795 -0.4595594313599534 -0.18167481664249918 -0.4392081358716146 -0.17473761745534372 -0.19767519948962403 0.0875951381939929
25.255 0.15700997496370095 0.01625794329515005 0.4094978869457899 0.2630593206904765 0.38759558847338565 0.27105772518465726 -0.21148810578280056 -0.07597031998867974
25.75 0.023989227066968703 -0.07875615421314387 -0.3404737814634449 -0.3445630834114932 -0.34216867882292323 -0.3553695905445691 -0.08593912713896802 0.01478107425184536
26.245 -0.05380457906245351 0.06031713326123594 0.26960141507537655 0.3882144676850948 0.2537967187710516 0.3931617107737736 -0.23397254347745702 0.040285325829829285
26.74 0.08034118577740008 0.059108146466853945 -0.1933184414225557 -0.436621362481131 -0.16363955347713138 -0.447458668698952 -0.15356574548291366 -0.09738373471133244
27.235 0.03535308707714784 -0.10224632054142446 0.07158801343414851 0.4583727774876055 0.08016246887394915 0.4826354491761061 -0.10493685189960375 0.049045132193791606
27.73 -0.09065916376235239 -0.03334650631861075 0.006523381980944703 -0.44678377501391725 0.015495703308954637 -0.4607578729491207 -0.23961348360556148 -0.018989377027214597
28.225 0.02926521139365441 0.038362365926454256 -0.09674018761641681 0.45440717156805305 -0.11780043264864265 0.46514312892887383 -0.0996738363904992 -0.08019384872980076
28.72 0.09268307030236167 -0.11323697939917289 0.2106619682053792 -0.3953143646509928 0.19501386638617074 -0.43015310004252916 -0.1513275060778287 0.061155455134727345
29.215 -0.038173062866595074 -0.11816090642033937 -0.2659930640291967 0.34452672148168073 -0.26699209174975513 0.3651821670359563 -0.2172373670362752 -0.07398141553701805
29.71 0.023624523817547403 0.016700237510562262 0.3448772247554809 -0.30086521582736836 0.35091998689609266 -0.30974769582194467 -0.07297140988979153 -0.04062992015243458
30.205 0.15451239445015277 -0.06331509526594989 -0.3991963577343905 0.19864125133588248 -0.3843794242553554 0.23464404723509893 -0.19664352980910638 0.0377099941581442
30.7 0.046063653862639796 -0.12959456296191124 0.4238378645641363 -0.12341711610083049 0.41636144854518553 -0.14071660665293786 -0.16901257704696743 -0.11002907143641803
31.195 0.015602755367769438 0.02482359630520526 -0.4543705274264518 0.04336724867325616 -0.4513791408515102 0.05191014187140925 -0.07477430494434685 -6.750474564293783e-05
31.69 0.15408491888119447 0.030285658193778597 0.44258765879045026 0.05036398730741183 0.43117521961102495 0.02995351614521719 -0.21717816509900392 -0.011286031315426683
32.185 0.09286321980320827 -0.08150030332295437 -0.42500811640238445 -0.1370349350458837 -0.4094004037850346 -0.1305071590449817 -0.1101898204100152 -0.1177840094995346
32.68 -0.02416241295849473 0.02368392554934491 0.38886682908930326 0.21437040473261704 0.3854398375413411 0.2168340375854899 -0.10228227862667219 0.025068744387600914
33.175 0.08370326215096668 0.0981443949545491 -0.3393253753526196 -0.2737030111558705 -0.322386835105743 -0.2696516830804155 -0.20406881812204383 -0.06764039278464201
33.67 0.0918367500671092 -0.03718497818432566 0.26833891277724886 0.345858152156974 0.25155088580810037 0.34680811616887147 -0.057434430232260025 -0.08823704057962033
34.165 -0.05564778631883869 -0.02443286403573464 -0.18228053887527693 -0.37856142128436415 -0.18266996519909334 -0.3946813168703462 -0.1361300530116983 0.02696810576108785
34.66 -0.0020181154477873593 0.08877982665240929 0.11886797654149019 0.4000210688179877 0.10093680322389395 0.4041401952671246 -0.16242468629124068 -0.10706645586545867
35.155 0.08725508818056378 -0.026475939058855077 -0.013056483572610748 -0.4247285827710311 0.00016606624136683955 -0.43347925811503457 -0.03357121764380542 -0.03639675266397553
35.65 -0.029289415618527034 -0.09878358717483046 -0.07859044783014708 0.39690772889077036 -0.07468219494556795 0.42457308814124295 -0.16486058586384736 0.005845326243995976
36.145 -0.03990346591189532 0.027592312307833187 0.1423699080100311 -0.38436905727721393 0.1533344526155415 -0.39014016129387846 -0.10592403600408824 -0.11652748585433084
36.64 0.1016565340270034 -0.013276511424026794 -0.23654357954377025 0.3420530312644626 -0.24787486333124645 0.35698026279245954 -0.0486023026308574 0.011354680095589247
37.135 0.05114016188326906 -0.12555388959927943 0.29707337814189844 -0.27166660625493566 0.29512896598980143 -0.30519701632349067 -0.17754134608066544 -0.03348905128866491
37.63 -0.02379976395127603 -0.02222349681557467 -0.34471027466220006 0.22437847254292706 -0.3473608067681409 0.23253700941751115 -0.05450807566132843 -0.09672987535957503
38.125 0.11132443741283934 0.03395860654284173 0.39029231289319677 -0.1434107780143524 0.39882465541900075 -0.1534637622657497 -0.08485979025761571 0.035200229342851004
38.62 0.12359112721499438 -0.08195708319361672 -0.4033542795253752 0.05966595747064692 -0.4042348262116616 0.08670086449151687 -0.1576719219283012 -0.07447826419228622
39.115 -0.0003281820016088504 -0.03241546739626485 0.4146712420862459 0.015715807407954918 0.41050272961637335 0.011266249591701345 -0.022352160611927678 -0.0558774203778942
39.61 0.07193970687221385 0.08950170870373154 -0.39554456701872126 -0.09129599301561786 -0.40340026392677514 -0.09323110023232546 -0.12418611418666509 0.029357726854157315
40.105 0.13821965968341687 -0.0030196669646090357 0.37076557723223796 0.16558955750402132 0.3681139639627053 0.15586418890970655 -0.11475719941123198 -0.10089299372537312
40.6 0.0036467641489718555 -0.03507347694214196 -0.32064017119470273 -0.2417964683050851 -0.3177872015521295 -0.2427622360200715 -0.016356044580795127 -0.0040225440517625746
41.095 -0.002563857932140933 0.09858633175551938 0.2638796619595081 0.28385809550619956 0.27052852212483164 0.2981357810723583 -0.14401371336606356 0.0016478902157416083
41.59 0.10325273036737544 0.047406582579846354 -0.2081229601520276 -0.3369223577789715 -0.19918783379697674 -0.3315878105644612 -0.0600958072808277 -0.09370105631692544
42.085 0.013873409837470126 -0.061537539520656076 0.11107231948563889 0.3713710748503912 0.1095841380592461 0.374255528520613 -0.03846175719208066 0.03849088680719568
42.58 -0.056582153716583906 0.03796994850896487 -0.04328445617827884 -0.37028407474436564 -0.04370109473218451 -0.38957430833539364 -0.14270465730172952 -0.03177854078541695
43.075 0.06447365552597883 0.05123914729964228 -0.03161597920424796 0.385756004374461 -0.03873434261533866 0.3784006694206038 -0.01867425469679141 -0.05686289333760115
43.57 0.05917829300829139 -0.08431759079443583 0.13192824693610058 -0.35830753561329004 0.1319493509652034 -0.36598700634097486 -0.08010737577954773 0.05897101991308602
44.065 -0.044537367834693024 -0.03951487312562068 -0.18958601472326717 0.3227133342729708 -0.18747167699167233 0.33982006245396523 -0.11899321353397664 -0.05817504450159093
44.56 0.05171496711160552 0.04633147956016959 0.2543535582969593 -0.2893725252353272 0.25684175573333645 -0.2836153776808729 -0.005763999996212421 -0.003387673344498064
45.055 0.12162818412269598 -0.06034421680434052 -0.3122058681810574 0.21803311394861796 -0.3183671050792138 0.2246356917597023 -0.12139521064401848 0.04994394766142446
45.55 0.01156061525079856 -0.07258489316403853 0.34501652634526586 -0.15813159307045443 0.34854451743942644 -0.16975869058922508 -0.08216027611511102 -0.06592782284486838
46.045 0.039790095764610726 0.05783040812793852 -0.37434049229316063 0.09143650155166283 -0.3763896525861909 0.08184477547396822 -0.025171239625166115 0.04644860523294509
46.54 0.14691249635476028 0.011768831958625537 0.3771061013244226 -0.01633094368278371 0.38972212055524963 -0.008857121403898384 -0.14345525653127994 0.01748932339285796
47.035 0.059728985902098596 -0.05642584074355174 -0.37731874966127205 -0.06216607539881458 -0.3799611466506231 -0.05595435500704195 -0.04480345015130671 -0.052163778268298065
47.53 0.005549724013344747 0.06422100191031921 0.3481868413137263 0.13063994692381803 0.35053726655175477 0.14449748184865496 -0.06155578371974202 0.07204922567638014
48.025 0.11649673182914165 0.0799282170337459 -0.3138581582272186 -0.18566352247884746 -0.3237862236952506 -0.20445396760169685 -0.14035020373465645 -0.019562511866513293
48.52 0.07567408765828416 -0.03087790800856103 0.2649646319115443 0.25675541852027495 0.2716555323540082 0.2554090352809241 -0.019104503233043024 -0.01286281026490634
49.015 -0.03223841116453921 0.029159014947959864 -0.19616498918129527 -0.2973419671064903 -0.19989453965035126 -0.30970017095260566 -0.10537510832060833 0.07532113656796159
49.51 0.05304512729880718 0.09570909301992209 0.1410908700029922 0.32030332856290517 0.14742075560605591 0.3401583417805947 -0.11081975507896755 -0.040896028413851634
50.005 0.08205252152729084 -0.02243827564879376 -0.059549061403542415 -0.3565707375224285 -0.06654981567640458 -0.34936820664376234 -0.021140318122944382 0.037293153871445044
50.5 -0.031990141276477244 -0.03611064399576241 -0.021456141657833553 0.34671431922824864 -0.016204590430978473 0.3581340759450731 -0.13953054059688702 0.056192885127668055
50.995 0.007994559030140336 0.06655188711271344 0.07908571913259468 -0.3424676869543329 0.07554986058356912 -0.3527984917856955 -0.07675478937823506 -0.039124626534506865
51.49 0.10470718912931619 -0.01234678281227116 -0.1621620026628655 0.31906406438047874 -0.15047363794579663 0.313172875487451 -0.05174607100998194 0.07720601523769496
51.985 0.02211378518988443 -0.08311750783867614 0.22200051058923123 -0.2716671671373277 0.22042278487902636 -0.27605209640841544 -0.15539498250891112 0.023228574327154746
52.48 0.0014515904046535804 0.03116822474527882 -0.2700962336188452 0.2331639369740276 -0.26632259959858706 0.23666875473993781 -0.04901056371409082 -0.013624080766094901
52.975 0.1243661266974497 0.026918008930875436 0.31309928482618704 -0.1724573099924334 0.3050644618152731 -0.159333407094413 -0.10037635393810644 0.09297792434567632
53.47 0.08920557322026874 -0.06797668229046432 -0.33813002696857075 0.10506708083163857 -0.3418871783314578 0.09952592299291664 -0.15003344599593138 -0.010966836981723732
53.965 0.009736334563957904 0.015698212830345476 0.3523986475475221 -0.03797366413016164 0.3517521479206097 -0.03416051917467376 -0.04183348784566914 0.022696153587153226
54.46 0.10821605078424139 0.08076805524513021 -0.3428846496108653 -0.02682099288256629 -0.3416453157806242 -0.047997333057801475 -0.1449229740679557 0.07760876579191885
54.955 0.12724505489855395 -0.018142508612885702 0.3319939815515441 0.09343201886658338 0.34078936788716385 0.11193254684484052 -0.12239115434031453 -0.03126949172402276
55.45 0.008950202602566508 0.0036596050975539 -0.2987128665856396 -0.16490603557452743 -0.3044439721986219 -0.1716329120368983 -0.05740216582346872 0.058550817258029166
55.945 0.05153743255884061 0.10455306145205015 0.254458765214373 0.20894323313870944 0.2557770371122015 0.23187232156351642 -0.16969159906836742 0.043688337816865604
56.44 0.11763676088657139 0.026595327698739693 -0.21209102400136226 -0.26094818445692974 -0.218415190856903 -0.27961666463968166 -0.08812223014065104 -0.028006224929956077
56.935 0.01114394177507814 -0.028420336540696766 0.13679939332590915 0.30316390988092884 0.14854203496153995 0.3069691897738483 -0.09055965961905982 0.08029110117441586
57.43 -0.005908898595794546 0.07518635826596015 -0.07764521221490824 -0.31401182545015477 -0.08055635724929044 -0.3334174626515008 -0.17156906990821297 0.005955856582406141
57.925 0.09712939017016287 0.04408886894495019 0.012680182893301068 0.3336304288622048 0.022775070252063902 0.34345846703965593 -0.06580706686922207 -0.001261935293848184
58.42 0.042256308923908574 -0.05805722916691457 0.06927057637841494 -0.3240063595292431 0.0526598617295368 -0.3287459419317864 -0.13659943787305562 0.08302242729851174
