!Created with skrf (http://scikit-rf.org).
# GHz S RI R 50.0 
!freq ReS11 ImS11 ReS21 ImS21 ReS12 ImS12 ReS22 ImS22
1.0 0.3634139814669456 -0.2471574132862744 0.7731389497518005 -0.020626907972981064 0.8520924824277076 -0.09464587863500669 -0.08501044535188623 -0.25607771437864996
1.495 0.13504012869247528 -0.08949293601894744 -0.8271264665448638 -0.1486778053570454 -0.8272737107521814 -0.14695808914644432 0.16951671638820187 -0.07850628633468111
1.99 0.26327512384808177 0.13878271518831967 0.709674237041896 0.3253275482490148 0.7870187690008712 0.2965526281532312 -0.09712420120874479 -0.010193667697202138
2.485 0.3133623570100806 -0.056398340898266376 -0.6248905945937093 -0.4207485529649691 -0.6800901533444285 -0.3808230766153525 0.021734846245506898 -0.2363100644968679
2.98 0.030420519974227258 -0.08419284956044286 0.5476279540816101 0.5653724026744622 0.5341495911072456 0.5639066999731809 0.12494064767004966 0.040424119355430964
3.475 0.024858432167876993 0.13467194899548154 -0.42012919462816534 -0.6384622337917979 -0.44393105758923823 -0.632029794582784 -0.10986382608847277 -0.06075584197580027
3.97 0.18063539300218415 -0.010403326030787764 0.27676181078922596 0.6955298933181087 0.2937150540279541 0.662458348253219 0.11736908180988957 -0.15272413643204436
4.465 -0.012836044851385429 -0.19821568648462792 -0.11313224936895246 -0.7122794448301595 -0.08792784510581238 -0.7243833135068432 0.0425309205984919 0.11352015533765634
4.96 -0.11226407092439843 -0.026643232576861683 0.007401388901273825 0.7221664407220099 -0.003351228496988107 0.727929573842424 -0.0784337122769991 -0.09560869648319499
5.455 0.12515178315108486 -0.05842759337773042 0.17398086995380502 -0.6980752289950387 0.1642761274101135 -0.6717510743817098 0.15191719964251935 -0.02714162297427282
5.95 0.09909640041626148 -0.2817873675876398 -0.29718667253419634 0.5849315960808245 -0.34211879255177907 0.6152579068192242 -0.0518203518078505 0.12775060703170105
6.445 -0.06143362202455959 -0.18271278074376263 0.38126340519014146 -0.5525971690812992 0.4116629580400093 -0.5654180774846607 -0.026826155346506068 -0.10417414895977549
6.94 0.15646626397850125 -0.05465693183666528 -0.523643738820202 0.43166758324250204 -0.5209758637391961 0.4253766124049764 0.11249866099103724 0.08974258499267918
7.435 0.2498499733750607 -0.21736921511662347 0.5471186907530369 -0.2751742816651556 0.6190373342620039 -0.3054544726225745 -0.12096281978267452 0.08690586571669133
7.93 0.06402643974253572 -0.20572931150176935 -0.6104535668220034 0.20321693774447344 -0.6433464700439454 0.219413858413219 0.028830022127890747 -0.07479891250448441
8.425 0.1503576848766376 0.024173132201604934 0.655952229266232 -0.03830200610393275 0.6572296049526182 -0.03555954744489211 0.02931049390000247 0.15668336377850065
8.92 0.2948087397731956 -0.06025979041511352 -0.601713960928353 -0.08784048493005439 -0.6691949106037778 -0.08010624510370296 -0.1403982534425081 0.02122885317477099
9.415 0.11367555902900571 -0.143609080305529 0.601123519185763 0.19749875247193233 0.6302211604933132 0.1828801798475532 0.07085938130297606 -0.014236529983891305
9.91 0.03955492272392072 0.07079171726752885 -0.5545910096377363 -0.32614540875428144 -0.5436284168523271 -0.33540455569725197 -0.061265093138451465 0.17194365874444345
10.405 0.19793491546017286 0.06116562849450156 0.4642090603543219 0.411804110497514 0.5000463703764342 0.41912886742377176 -0.10833069521773304 -0.02906441313155309
10.9 0.08693004708547135 -0.11752091890389339 -0.3707260316108316 -0.4998993858956455 -0.38622128962527774 -0.4877112129898501 0.06926959218763759 0.07023172134546389
11.395 -0.08651821266919943 -0.0012211001689217385 0.2732423197446656 0.5530927767289917 0.2460586600322958 0.5589338892567345 -0.13389081769933214 0.14590201704906708
11.89 0.059545543226950146 0.06763283160997043 -0.16569784770407012 -0.5915547324359316 -0.17126248672640174 -0.6003804209555567 -0.054395978991791674 -0.03803375740752063
12.385 0.08665167349421855 -0.1471707363966941 0.008759737459133242 0.5926019250403226 0.021931314371152477 0.5881223128156908 0.02012502171855437 0.14960195769619367
12.88 -0.09653075573508942 -0.14142949200195626 0.08534750917762199 -0.5643005360061139 0.11751914980749566 -0.5768655069378206 -0.1764278176216224 0.09380165636522987
13.375 0.00027820891011487046 -0.0025339792907460054 -0.1998856397657873 0.5613128355667266 -0.19980488074427719 0.5601301462869028 -0.01217707090637268 -0.002699655883681845
13.87 0.15884139387937046 -0.14566414747639908 0.3291226970484001 -0.4542007315190651 0.3179839114453141 -0.4583408940097554 -0.06795879703371689 0.18816430373848536
14.365 0.015845583744567824 -0.2219481288498056 -0.3829868838416335 0.38039055140312916 -0.4194907328004223 0.3919767570280239 -0.18571771509108448 0.03533895495996466
14.86 0.02152554532901735 -0.04365801408780162 0.47979775536359986 -0.3201088615562715 0.4764333546215648 -0.320174618907507 -0.0011896666609454468 0.056062288767790715
15.355 0.21996931238388115 -0.059532833422322996 -0.5191385655963375 0.1697375116071609 -0.5146390167794669 0.17659027866498603 -0.1592693115503315 0.1726920505706769
15.85 0.13484643976717886 -0.18562610236097518 0.5293125002456378 -0.07949286681726894 0.5659544009524269 -0.07883702315250761 -0.15871374479674671 -0.011914793764025971
16.345 0.02482628935762812 -0.028185070261467222 -0.5656884100663744 -0.02501086654709493 -0.5613828855616725 -0.02200855910858639 -0.028412371864681877 0.11096816049167574
16.84 0.17630453902256246 0.05725561265155121 0.5293237221011807 0.14648913983097586 0.5170223538538077 0.15502362011933496 -0.21650573628765468 0.11459323377043365
17.335 0.16278688697235374 -0.09376030748827589 -0.4885939693003438 -0.23992794236043102 -0.5108790561049954 -0.2526051083755639 -0.1089624247577168 -0.026055894054085333
17.83 -0.024504151066450444 -0.03244028223295713 0.43909617591527733 0.33629211976523726 0.43211782479135014 0.3346302280349674 -0.08340486373445939 0.14700576516880853
18.325 0.05082074081478465 0.10817562590736374 -0.3662063956166789 -0.40221666366585335 -0.33956831373181895 -0.41704487747355357 -0.2364342026985752 0.044737784567015895
18.82 0.12300076211397538 -0.0382783487034569 0.26861766647689816 0.4725355357308458 0.2805340864004007 0.48645815881726867 -0.06761006734521652 -0.0010212000130384613
19.315 -0.05488270372021813 -0.1021415593412886 -0.15759651920085732 -0.49769435478430274 -0.1584948661519442 -0.50214370229626 -0.15077890943409555 0.14943497821772422
19.81 -0.05966404215700208 0.05198673239118757 0.08042105651073152 0.5147683578589214 0.04789255369689106 0.5290657904943346 -0.21415246823974263 -0.013742218472409855
20.305 0.09550925340410532 -0.03588403318165079 0.055767634621735736 -0.52106330812179 0.0409489722122464 -0.5381007465425812 -0.05657946256304534 0.04995899640026012
20.8 0.006444116621671951 -0.17658572059971056 -0.16014666517217002 0.46428739971825317 -0.1508046059518768 0.48017465686232186 -0.21503397873673374 0.11735030109730442
21.295 -0.07053695938598807 -0.04974374921279217 0.23343111544402106 -0.4440621455342313 0.2525831980177868 -0.45275155623910174 -0.17218622695568597 -0.046043890010040216
21.79 0.11145518631645335 -0.02515122048908272 -0.3447693584771216 0.37502754642102637 -0.3259086612960743 0.39508646664060915 -0.08786205011144209 0.09638456262915293
22.285 0.11753702791371565 -0.17359096180315367 0.3925193982441096 -0.2699298090083253 0.38594992407128503 -0.29011895496248263 -0.25285568534961295 0.05335994674372407
22.78 -0.01383019472475125 -0.10096681596359025 -0.44634261914946044 0.21285951660760266 -0.45724637813888647 0.21613615492593816 -0.13007045969470812 -0.04919818692370858
23.275 0.11301787252030655 0.02949736825748831 0.4916050829962549 -0.10228985138437802 0.4733838141289802 -0.12236022831397023 -0.1452219059726686 0.11127616522097551
23.77 0.18305880374830735 -0.08601905495798005 -0.4847930809116186 3.959124564794983e-05 -0.470595001945166 0.007065174053872455 -0.25199220121571103 -0.01791376031174016
24.265 0.02594345298120838 -0.09302634286954331 0.4888978527101874 0.0883809101249448 0.4916900575425924 0.09102734322778347 -0.09402321834952496 -0.024561054446159664
24.76 0.0432083079138432 0.08155797549061045 -0.46294248939583593 -0.18167419593604545 -0.4415793939153986 -0.17605017003088475 -0.1997260663532649 0.0882052299075571
25.255 0.1575915124711385 0.016271044925199984 0.41204088993974436 0.26393269010044246 0.38728762595530586 0.2708107385399044 -0.21193292857581972 -0.07504836129711853
25.75 0.024118800641925446 -0.0802541116345563 -0.3418373363490126 -0.34519744632454563 -0.34482621474106534 -0.35793976939236277 -0.08566931646531493 0.014673264885993206
26.245 -0.05273959600275127 0.05836413648401404 0.2714647781454661 0.3892110975149232 0.25459257508661004 0.39437133774330146 -0.23705527390829936 0.04041405145679977
26.74 0.08103909921182413 0.059903206485269936 -0.1939665124317433 -0.4396613184428889 -0.1643337333213035 -0.4505019173554324 -0.15442619019816445 -0.0978350524518138
27.235 0.03445366989318239 -0.10105824864651551 0.07047839538946692 0.46182889300722296 0.08060945983240464 0.4856957427226058 -0.1078147636757184 0.05011178473518382
27.73 -0.09257667140048534 -0.03418766438337087 0.005735623586047583 -0.44842086510689444 0.013721264391819204 -0.4632461030387416 -0.24075767995509173 -0.019507075820225928
28.225 0.02907544011871614 0.038636397191797 -0.09741486808291157 0.4557982970969398 -0.11891302106486394 0.4665384628749663 -0.09900784742256127 -0.08000847326449645
28.72 0.09329733280834597 -0.11497670806139096 0.2117574174980018 -0.397743449436702 0.19566497065621427 -0.43474391352962716 -0.15230553009878442 0.061054019175928266
29.215 -0.03875844615603991 -0.11909118292582344 -0.2678814501228233 0.34814116624414965 -0.26665932735174736 0.3637821511607862 -0.21855097840650037 -0.07403037788891578
29.71 0.022100714899912353 0.015352861145869987 0.34722305047385643 -0.3032054362482318 0.3543032689441375 -0.3132925004114609 -0.07115476265837524 -0.03984890072046662
30.205 0.15652289064853184 -0.06473716645120911 -0.40008276920334274 0.19926973981746585 -0.3862300280781732 0.23449694294067244 -0.19658130719503414 0.037553440741311186
30.7 0.04551418497476243 -0.12986846533861976 0.4251374989768773 -0.12369570585034333 0.4193784746701359 -0.14052846710142458 -0.16780850715302054 -0.11076938775950908
31.195 0.014598641784496302 0.023401194930201045 -0.45532248928179697 0.042402297061522556 -0.455544188509107 0.05060811170920386 -0.07543382688450974 -0.00046551426140505834
31.69 0.15528460754233703 0.03061980060394182 0.4438390113596378 0.052069981961080584 0.4322820638447396 0.029322893837532282 -0.21837307673816667 -0.01198351545547169
32.185 0.09106298668771315 -0.08090711143442034 -0.42724770366339476 -0.13761206911883878 -0.411122871760876 -0.13057860593751283 -0.10938694597028273 -0.11792293712556805
32.68 -0.02599786184408612 0.025343191621093143 0.38992257832042143 0.21392103185056863 0.3869190501563942 0.2199284791749859 -0.10164809747011118 0.0249425729382787
33.175 0.08323425165742326 0.09896202440905147 -0.34171201566116527 -0.2750360527203775 -0.3241513209900258 -0.27081510710734485 -0.20525954594809226 -0.06791397477373703
33.67 0.09180266604554942 -0.037320883025367985 0.2702615456900117 0.3481534364511158 0.25363217198371496 0.3499529050435039 -0.056075977182198686 -0.08781349698841488
34.165 -0.05854067002234699 -0.02558459550251758 -0.1828639043107362 -0.38045817839576374 -0.18418483334549504 -0.3969735889552983 -0.13775570246978158 0.027190833984737782
34.66 -0.0026976748551055148 0.08836841820988682 0.1204097661708315 0.4033053998285501 0.10161220185973147 0.4069009453093823 -0.16260267136988732 -0.10887292120658734
35.155 0.08520903665913918 -0.025685461995299853 -0.01341628508228252 -0.42657793836459046 0.0017312664482190935 -0.4340302307388199 -0.03330428643198678 -0.037039757756283945
35.65 -0.030624982948183353 -0.09984475571224151 -0.08106749245840345 0.40058493254019 -0.07408189173447058 0.42554761583313927 -0.16715892845204325 0.005612369043767763
36.145 -0.040347551513041605 0.02742348587292699 0.14239171078824486 -0.38676927342196105 0.15392616398075545 -0.39074163687430846 -0.10496077694052568 -0.1173730205450499
36.64 0.10398218685859932 -0.01342945096117848 -0.23886013230225325 0.3445746544645642 -0.2504696098311834 0.35834329225204886 -0.047335137762219405 0.010908365677167934
37.135 0.05138335942550689 -0.12771280363393217 0.2973140691211641 -0.2723814141491905 0.2955320239315603 -0.30831255770428495 -0.17621093044935748 -0.033624219812126974
37.63 -0.0240478521677917 -0.022309108359108425 -0.3473711658427429 0.22528823632294742 -0.35106267790662116 0.2343329197204088 -0.05356067580659563 -0.09575419483761005
38.125 0.11046366328191323 0.033407206950961756 0.39220834758873413 -0.14557901474481155 0.4013918471715351 -0.15558092293433815 -0.08421117982350734 0.03483200059069794
38.62 0.12390803928869228 -0.08216351736348224 -0.40639462962795875 0.06209622644915655 -0.4040560317217294 0.08615623636535738 -0.15820056523037054 -0.07552124095882434
39.115 -0.0006548617569375095 -0.032678120115826735 0.41626910292428676 0.014857937491127049 0.4143965329858022 0.010982322402375023 -0.021591397777533234 -0.055402140610879974
39.61 0.07176297717463703 0.08951482114129633 -0.39731647833466244 -0.09031490325010186 -0.40843383340947076 -0.09393233639792643 -0.12209019320167502 0.02855475661859111
40.105 0.13648477105374698 -0.0028363800388920093 0.37374967517734914 0.16523198928470786 0.3685997163311663 0.15475193527393374 -0.1149029740826553 -0.10108517197089632
40.6 0.0028865804810792543 -0.03346086491598196 -0.323568400948157 -0.24434058883459583 -0.31920977388909183 -0.2441633220417226 -0.0152650203015635 -0.004076468593779807
41.095 -0.0034361667644676915 0.09581335762496125 0.2669844384281034 0.2856536699533488 0.27172425955424806 0.29874041727930095 -0.14419255328329408 0.0013436683472536615
41.59 0.10364680795966572 0.048179023696015934 -0.20761590168850616 -0.3379750363017417 -0.2001742153171425 -0.33279995134855306 -0.05959991227775151 -0.09439567545087182
42.085 0.013200409662583436 -0.06022752213740121 0.11153428709817359 0.3729347741457148 0.11008769962497242 0.37858831078713695 -0.03952555374576727 0.039871691429866844
42.58 -0.056248403798345524 0.03722835653960918 -0.04463599945548285 -0.3728330353311453 -0.04539494406893637 -0.39013463780164975 -0.14249348583204507 -0.03199055744468836
43.075 0.06491867731206565 0.052063127208085695 -0.03360101778865461 0.38483567976785127 -0.03778244114792802 0.3812559766758836 -0.017941340975860243 -0.058342158894562464
43.57 0.05867867159372188 -0.08450082705448023 0.13093262570158354 -0.3580086153056562 0.13348855000967183 -0.3695693327376226 -0.08100690663606062 0.05986680537836154
44.065 -0.04412633218351406 -0.03866584380583748 -0.18967632930538114 0.32495455192136863 -0.189255768336121 0.3426764336988992 -0.11826117995035298 -0.058015107526760604
44.56 0.051804689306715564 0.04693082276303349 0.25672234838394126 -0.29113570421672635 0.25990788378503893 -0.2865649713306771 -0.00558956827972922 -0.003871298327050835
45.055 0.11993804660496758 -0.059538413663294674 -0.31388427814394615 0.21946926328005323 -0.32046749029830823 0.22660524457962652 -0.12279678889475454 0.050334029832311604
45.55 0.010922051110293067 -0.07275836454785609 0.3484038716747768 -0.15831106710680373 0.3500608399320612 -0.17202496336526615 -0.0822381746641316 -0.06642723226250381
46.045 0.03941471449133775 0.05791802699725934 -0.3736687648520251 0.09253381401875926 -0.37703429119960663 0.08297916142517058 -0.023346564663891404 0.04527030716752837
46.54 0.14869908902115028 0.012003242868956342 0.37947524100565894 -0.015268513196593095 0.39027245345609457 -0.009853514280675558 -0.14443620192463053 0.017832036897016738
47.035 0.059536304087579026 -0.05667325409594161 -0.3776827844547587 -0.06219967325557923 -0.3814790757985995 -0.055107354620269805 -0.04326022162136946 -0.05148496889850421
47.53 0.005458116037297672 0.06498149183685945 0.34957765125548984 0.13101374421857626 0.3526423869097125 0.14485198338757116 -0.06275336769484208 0.07486176507951146
48.025 0.11671906681717807 0.08046126905722553 -0.31604831571247444 -0.18755446214368088 -0.3237940087712666 -0.20414048839262694 -0.13902097051246534 -0.01922109979439715
48.52 0.07619774115859289 -0.031221664927758283 0.2670490663616985 0.25869189006879373 0.27150393330631495 0.25560059041878647 -0.018424968292509825 -0.012917608048959882
49.015 -0.03308007848698333 0.029612653991515147 -0.19719464650490434 -0.299649432464951 -0.2003878415427388 -0.31007394738729793 -0.10591410949358998 0.07663924306410712
49.51 0.052825441069087216 0.0974666583105896 0.1426647587995436 0.3244582622669637 0.1498394917730152 0.3433860274995452 -0.11316367640367582 -0.04236564512632467
50.005 0.08296887924245214 -0.023143875646308282 -0.05858079609086101 -0.35788020807422294 -0.0685698807813478 -0.35597491648716173 -0.01987643517602095 0.03695457954327583
50.5 -0.03291778471586228 -0.03624200096294109 -0.021714239571330514 0.34994087794314716 -0.016210659651438374 0.36116803916427176 -0.1404227870718275 0.057460379252696044
50.995 0.007172808479770783 0.06595106200056525 0.07837845927507577 -0.3443089085182035 0.07636082560783382 -0.35408085020176305 -0.0762570626191409 -0.03923671682123078
51.49 0.10591927749622744 -0.012547999217910758 -0.16355643219483873 0.32169070871102606 -0.15481675838047154 0.315387790052943 -0.051380969314055155 0.07738639148179663
51.985 0.021513316037816723 -0.08283321493884835 0.22230329095783158 -0.27265104493656045 0.2208695579353604 -0.2781070545684158 -0.15667716919142646 0.02419400981675892
52.48 0.0007735318757872653 0.03134196469199865 -0.27043631380418304 0.23420148913207503 -0.2670798126366747 0.2391739729227079 -0.04872140584322308 -0.013817324614229182
52.975 0.1252549357292993 0.027185099560670604 0.3143996490509929 -0.17467506753188683 0.3084291705202888 -0.16011256003730095 -0.09897986315519083 0.09262967140659932
53.47 0.08976633708162524 -0.0689554141652422 -0.34003471172922745 0.10639704660665068 -0.34280516318750265 0.09890875810949043 -0.14841307674698873 -0.010389828853461052
53.965 0.009791562023740423 0.016564254221358734 0.3567724152389701 -0.03942360857698316 0.35594527287305583 -0.03598672263691902 -0.04311307005717641 0.02397666936478334
54.46 0.10858094463247875 0.0820884579593087 -0.3468860468569941 -0.026701111689167396 -0.34409435711865044 -0.046957864583287975 -0.14585549932642114 0.07908818740628114
54.955 0.1261170171579707 -0.01820288705736909 0.3351564800871902 0.09415579256597911 0.3425605799257342 0.11230998831566863 -0.12148966513811733 -0.030943303821813286
55.45 0.008345121669965067 0.003883247551062481 -0.3032587138613463 -0.16953274671006355 -0.3076084639909947 -0.1740389142493085 -0.0579977697500174 0.05987418220226425
55.945 0.05166014814712356 0.10516543051555796 0.2565247861639179 0.2086536413810324 0.2572558011415998 0.2344553845072032 -0.17130108411940728 0.04475060548862761
56.44 0.11757760679131309 0.026609184325683394 -0.2128684330732204 -0.2621369709514831 -0.21920792718741922 -0.28205427517730935 -0.08740724331257721 -0.027365890868142458
56.935 0.010226079482535289 -0.027165104647056813 0.13723674112887663 0.30524226229062046 0.15086680139657513 0.31074899769828007 -0.09326137717617701 0.08345120562964693
57.43 -0.006662976973771182 0.07522675638204403 -0.07787500904919721 -0.3150648329355958 -0.08157742098504984 -0.3355426599274396 -0.17490576510204314 0.006244182979051137
57.925 0.09479219660431577 0.043438723183180525 0.013986612779077864 0.3350556983589875 0.022740742625335243 0.34877350055408324 -0.06464066552554817 -0.0008927040627098625
58.42 0.04200660438840798 -0.058455806882961106 0.0716329637171566 -0.32658766777840326 0.052637781481502374 -0.32804927750319923 -0.13595118475276471 0.08354549034021999
