!Created with mwavepy.
# GHz S RI R 50.0 
!freq	ReS11	ImS11	
75.0	-0.067684517179	0.659208635995	
! Port Impedance	50.00000000000000	0.00000000000000	
75.3499999999	-0.0533928089426	0.652344589777	
! Port Impedance	50.00000000000000	0.00000000000000	
75.6999999998	-0.0383027556279	0.641517701353	
! Port Impedance	50.00000000000000	0.00000000000000	
76.0499999998	-0.0300933217306	0.631739032724	
! Port Impedance	50.00000000000000	0.00000000000000	
76.3999999997	-0.013056932092	0.627690899379	
! Port Impedance	50.00000000000000	0.00000000000000	
76.7499999996	0.00793163701388	0.625254973879	
! Port Impedance	50.00000000000000	0.00000000000000	
77.0999999995	0.0150674033772	0.60851736969	
! Port Impedance	50.00000000000000	0.00000000000000	
77.4499999994	0.02644856761	0.596067605756	
! Port Impedance	50.00000000000000	0.00000000000000	
77.7999999994	0.0357018699291	0.576883269025	
! Port Impedance	50.00000000000000	0.00000000000000	
78.1499999993	0.0538291394162	0.569205798604	
! Port Impedance	50.00000000000000	0.00000000000000	
78.4999999992	0.0655442580263	0.549466717569	
! Port Impedance	50.00000000000000	0.00000000000000	
78.8499999991	0.0812740370031	0.512703313824	
! Port Impedance	50.00000000000000	0.00000000000000	
79.199999999	0.0845037296995	0.48248909038	
! Port Impedance	50.00000000000000	0.00000000000000	
79.549999999	0.0827543453161	0.467627464692	
! Port Impedance	50.00000000000000	0.00000000000000	
79.8999999989	0.0929836012679	0.436182221507	
! Port Impedance	50.00000000000000	0.00000000000000	
80.2499999988	0.0887459619105	0.402993233776	
! Port Impedance	50.00000000000000	0.00000000000000	
80.5999999987	0.100750441781	0.370427640132	
! Port Impedance	50.00000000000000	0.00000000000000	
80.9499999986	0.107256829954	0.346819609523	
! Port Impedance	50.00000000000000	0.00000000000000	
81.2999999986	0.105865334949	0.326826904155	
! Port Impedance	50.00000000000000	0.00000000000000	
81.6499999985	0.114286749155	0.2908987288	
! Port Impedance	50.00000000000000	0.00000000000000	
81.9999999984	0.124047782559	0.252742848212	
! Port Impedance	50.00000000000000	0.00000000000000	
82.3499999983	0.124990579841	0.212853724582	
! Port Impedance	50.00000000000000	0.00000000000000	
82.6999999982	0.12133819163	0.19243090956	
! Port Impedance	50.00000000000000	0.00000000000000	
83.0499999982	0.122986764569	0.158200591647	
! Port Impedance	50.00000000000000	0.00000000000000	
83.3999999981	0.119736047743	0.126450754864	
! Port Impedance	50.00000000000000	0.00000000000000	
83.749999998	0.12198790521	0.0914046402103	
! Port Impedance	50.00000000000000	0.00000000000000	
84.0999999979	0.112700937681	0.061055054608	
! Port Impedance	50.00000000000000	0.00000000000000	
84.4499999978	0.097297857645	0.0455456951086	
! Port Impedance	50.00000000000000	0.00000000000000	
84.7999999978	0.0981557587097	0.0158934705359	
! Port Impedance	50.00000000000000	0.00000000000000	
85.1499999977	0.102804124992	-0.0021280696766	
! Port Impedance	50.00000000000000	0.00000000000000	
85.4999999976	0.0774632503096	-0.0217982128548	
! Port Impedance	50.00000000000000	0.00000000000000	
85.8499999975	0.057534366055	-0.0395583462314	
! Port Impedance	50.00000000000000	0.00000000000000	
86.1999999974	0.0397876516577	-0.0663068703523	
! Port Impedance	50.00000000000000	0.00000000000000	
86.5499999974	0.0255927899828	-0.0830587744796	
! Port Impedance	50.00000000000000	0.00000000000000	
86.8999999973	0.0143993933912	-0.0834681435331	
! Port Impedance	50.00000000000000	0.00000000000000	
87.2499999972	-0.0187952376963	-0.105507120133	
! Port Impedance	50.00000000000000	0.00000000000000	
87.5999999971	-0.0446146771957	-0.123657904275	
! Port Impedance	50.00000000000000	0.00000000000000	
87.949999997	-0.0598991135015	-0.126208858045	
! Port Impedance	50.00000000000000	0.00000000000000	
88.299999997	-0.0849101343862	-0.148888743756	
! Port Impedance	50.00000000000000	0.00000000000000	
88.6499999969	-0.115257830456	-0.159124135381	
! Port Impedance	50.00000000000000	0.00000000000000	
88.9999999968	-0.141986310845	-0.162735037675	
! Port Impedance	50.00000000000000	0.00000000000000	
89.3499999967	-0.164820930488	-0.18638308191	
! Port Impedance	50.00000000000000	0.00000000000000	
89.6999999966	-0.197120366269	-0.194146316763	
! Port Impedance	50.00000000000000	0.00000000000000	
90.0499999966	-0.229472394668	-0.197649778719	
! Port Impedance	50.00000000000000	0.00000000000000	
90.3999999965	-0.257231008181	-0.216742388663	
! Port Impedance	50.00000000000000	0.00000000000000	
90.7499999964	-0.2827918113	-0.221848776004	
! Port Impedance	50.00000000000000	0.00000000000000	
91.0999999963	-0.298042641012	-0.217250649268	
! Port Impedance	50.00000000000000	0.00000000000000	
91.4499999962	-0.324378613958	-0.230330476399	
! Port Impedance	50.00000000000000	0.00000000000000	
91.7999999962	-0.358019131882	-0.231075165377	
! Port Impedance	50.00000000000000	0.00000000000000	
92.1499999961	-0.373061341701	-0.235963347874	
! Port Impedance	50.00000000000000	0.00000000000000	
92.499999996	-0.386969296081	-0.244189516852	
! Port Impedance	50.00000000000000	0.00000000000000	
92.8499999959	-0.418672623529	-0.238763869452	
! Port Impedance	50.00000000000000	0.00000000000000	
93.1999999958	-0.440522185263	-0.241461308747	
! Port Impedance	50.00000000000000	0.00000000000000	
93.5499999958	-0.452169953483	-0.247318323464	
! Port Impedance	50.00000000000000	0.00000000000000	
93.8999999957	-0.476360520694	-0.233018664985	
! Port Impedance	50.00000000000000	0.00000000000000	
94.2499999956	-0.484508320538	-0.231804854053	
! Port Impedance	50.00000000000000	0.00000000000000	
94.5999999955	-0.501585213615	-0.23357696989	
! Port Impedance	50.00000000000000	0.00000000000000	
94.9499999954	-0.527276638766	-0.222705531297	
! Port Impedance	50.00000000000000	0.00000000000000	
95.2999999954	-0.537454277219	-0.213888488118	
! Port Impedance	50.00000000000000	0.00000000000000	
95.6499999953	-0.555532196137	-0.209104454793	
! Port Impedance	50.00000000000000	0.00000000000000	
95.9999999952	-0.586063941332	-0.198822225582	
! Port Impedance	50.00000000000000	0.00000000000000	
96.3499999951	-0.591783164101	-0.182503233504	
! Port Impedance	50.00000000000000	0.00000000000000	
96.699999995	-0.597748606088	-0.170328934207	
! Port Impedance	50.00000000000000	0.00000000000000	
97.049999995	-0.612725647434	-0.148558922884	
! Port Impedance	50.00000000000000	0.00000000000000	
97.3999999949	-0.615905038628	-0.150156116559	
! Port Impedance	50.00000000000000	0.00000000000000	
97.7499999948	-0.633636831898	-0.158508778753	
! Port Impedance	50.00000000000000	0.00000000000000	
98.0999999947	-0.657616283742	-0.143343340145	
! Port Impedance	50.00000000000000	0.00000000000000	
98.4499999946	-0.672938081142	-0.133496337193	
! Port Impedance	50.00000000000000	0.00000000000000	
98.7999999946	-0.687641576755	-0.131775478489	
! Port Impedance	50.00000000000000	0.00000000000000	
99.1499999945	-0.707935226927	-0.105385618834	
! Port Impedance	50.00000000000000	0.00000000000000	
99.4999999944	-0.7113139245	-0.0854350945878	
! Port Impedance	50.00000000000000	0.00000000000000	
99.8499999943	-0.715386449305	-0.0871417702538	
! Port Impedance	50.00000000000000	0.00000000000000	
100.199999994	-0.732992993212	-0.0717054577864	
! Port Impedance	50.00000000000000	0.00000000000000	
100.549999994	-0.74107259631	-0.0712370318305	
! Port Impedance	50.00000000000000	0.00000000000000	
100.899999994	-0.747839467671	-0.0607626493723	
! Port Impedance	50.00000000000000	0.00000000000000	
101.249999994	-0.752920514019	-0.0482548663761	
! Port Impedance	50.00000000000000	0.00000000000000	
101.599999994	-0.760628154683	-0.0460900106704	
! Port Impedance	50.00000000000000	0.00000000000000	
101.949999994	-0.77582026773	-0.0370997501083	
! Port Impedance	50.00000000000000	0.00000000000000	
102.299999994	-0.787251896964	-0.00744347557349	
! Port Impedance	50.00000000000000	0.00000000000000	
102.649999994	-0.772695041557	0.0132505585997	
! Port Impedance	50.00000000000000	0.00000000000000	
102.999999994	-0.758070856068	0.00911114952412	
! Port Impedance	50.00000000000000	0.00000000000000	
103.349999994	-0.764846514495	-0.000871477133975	
! Port Impedance	50.00000000000000	0.00000000000000	
103.699999993	-0.792871608383	-0.00869155106174	
! Port Impedance	50.00000000000000	0.00000000000000	
104.049999993	-0.816223707403	0.0151753608067	
! Port Impedance	50.00000000000000	0.00000000000000	
104.399999993	-0.818909520506	0.0390060919062	
! Port Impedance	50.00000000000000	0.00000000000000	
104.749999993	-0.817911401004	0.0448624020697	
! Port Impedance	50.00000000000000	0.00000000000000	
105.099999993	-0.827477173726	0.0492104950946	
! Port Impedance	50.00000000000000	0.00000000000000	
105.449999993	-0.849619908476	0.0764042435928	
! Port Impedance	50.00000000000000	0.00000000000000	
105.799999993	-0.852609373623	0.11265164662	
! Port Impedance	50.00000000000000	0.00000000000000	
106.149999993	-0.821488007483	0.125296489884	
! Port Impedance	50.00000000000000	0.00000000000000	
106.499999993	-0.802662735724	0.107259589624	
! Port Impedance	50.00000000000000	0.00000000000000	
106.849999993	-0.825954842276	0.0841810605387	
! Port Impedance	50.00000000000000	0.00000000000000	
107.199999993	-0.861262444533	0.0934252679633	
! Port Impedance	50.00000000000000	0.00000000000000	
107.549999993	-0.87683991781	0.114759817106	
! Port Impedance	50.00000000000000	0.00000000000000	
107.899999992	-0.869081737541	0.136435621961	
! Port Impedance	50.00000000000000	0.00000000000000	
108.249999992	-0.858863132057	0.139827037336	
! Port Impedance	50.00000000000000	0.00000000000000	
108.599999992	-0.876440683436	0.128633695574	
! Port Impedance	50.00000000000000	0.00000000000000	
108.949999992	-0.904241617588	0.151117331605	
! Port Impedance	50.00000000000000	0.00000000000000	
109.299999992	-0.891295058994	0.19103817235	
! Port Impedance	50.00000000000000	0.00000000000000	
109.649999992	-0.869018208582	0.193402310401	
! Port Impedance	50.00000000000000	0.00000000000000	
109.999999992	-0.871806027248	0.177393311906	
! Port Impedance	50.00000000000000	0.00000000000000	
