! Touchstone file from project skinDepth
! Exported from HFSS 12.1.1
! Variables:
!  a = 1.1mm
!  d = 127um
!  epsR = 3.48mm
!  f0 = 94GHz
!  fMax = 110GHz
!  fMin = 75GHz
!  lam0 = c0/f0
!  lamMax = c0/fMin
!  lamMin = c0/fMax
!  n = sqrt(epsR)
!  prop = lamMax/4
!  r0 = lam0/(2*pi*rMult)
!  r0_short = (r_out_short+r_in_short)/2
!  rMult = 1.2625
!  r_in = r0-w/2
!  r_in_short = r_out+tlineW
!  r_out = r0+w/2
!  r_out_short = r_in_short+tlineW
!  t = 0.7um
!  theta1 = 15deg
!  tlineW = 0.004mm
!  w = r0/10
!Data is not renormalized
# GHZ S MA
! Modal data exported
! Port[1] = 1:1
! Port[2] = 2:1
75               0.680704714481089 137.731627345557 0.714743453836101 30.8748855449285 0.7147434538361  30.8748855449286 0.67835962767509 107.110538034025 
75.175           0.674355905175343 137.328202197753 0.720540373821138 30.345983292686  0.720540373821137 30.3459832926861 0.671952896069781 106.495837309556 
75.35            0.667872400000924 136.921367783213 0.726358300621065 29.8104153869251 0.726358300621064 29.8104153869251 0.665409529558285 105.872551699221 
75.525           0.661252068658426 136.511230439729 0.732195177726411 29.2681264118893 0.73219517772641 29.2681264118894 0.658727306088543 105.240529621251 
75.7             0.654492821817198 136.097910175964 0.738048830893958 28.7190637254528 0.738048830893956 28.7190637254528 0.651904038949792 104.599615698641 
75.875           0.647592618091941 135.681541830798 0.743916965362463 28.1631776891816 0.743916965362462 28.1631776891816 0.644937583276479 103.949650419278 
76.05            0.640549471448294 135.262276336934 0.749797163245086 27.6004219063716 0.749797163245085 27.6004219063717 0.637825842931336 103.290469743763 
76.225           0.633361459048443 134.840282100244 0.755686881126383 27.0307534677771 0.755686881126382 27.0307534677771 0.630566777772487 102.621904653115 
76.4             0.626026729547084 134.415746508095 0.761583447893274 26.4541332047561 0.761583447893272 26.4541332047562 0.62315841130782 101.943780627333 
76.575           0.6185435118474  133.988877581305 0.767484062830878 25.8705259492585 0.767484062830877 25.8705259492585 0.615598838738186 101.255917044494 
76.75            0.610910124325982 133.559905787331 0.773385794015489 25.2799008003925 0.773385794015488 25.2799008003926 0.607886235389084 100.558126488421 
76.925           0.603124984535042 133.129086033997 0.77928557703823 24.6822313968005 0.779285577038229 24.6822313968005 0.600018865528473 99.8502139511603 
77.1             0.595186619389767 132.696699866632 0.785180214094043 24.077496194279  0.785180214094041 24.077496194279  0.591995091566294 99.1319759143201 
77.275           0.587093675848385 132.26305789476  0.791066373471592 23.4656787478645 0.79106637347159 23.4656787478644 0.583813383629059 98.4031992907988 
77.45            0.578844932092539 131.828502478703 0.796940589480371 22.8467679975347 0.796940589480369 22.8467679975346 0.575472329500679 97.6636602054335 
77.625           0.570439309216007 131.393410711317 0.802799262851755 22.2207585565803 0.802799262851754 22.2207585565802 0.56697064491853 96.9131225895802 
77.8             0.561875883430829 130.958197735937 0.808638661650924 21.5876510015947 0.808638661650923 21.5876510015946 0.558307184211634 96.1513365604353 
77.975           0.553153898801663 130.52332044849  0.814454922736384 20.9474521629303 0.814454922736383 20.9474521629303 0.54948095126594 95.3780365509294 
78.15            0.544272780521955 130.089281639969 0.820244053803324 20.3001754143652 0.820244053803322 20.3001754143651 0.540491110800085 94.592939150056  
78.325           0.535232148749533 129.656634645349 0.826001936046085 19.6458409606183 0.826001936046084 19.6458409606182 0.531336999933798 93.7957406063458 
78.5             0.526031833024888 129.225988576798 0.831724327473653 18.9844761212523 0.831724327473652 18.9844761212523 0.522018140030533 92.9861139385798 
78.675           0.516671887303107 128.798014233277 0.837406866910225 18.3161156094005 0.837406866910224 18.3161156094004 0.512534248796143 92.163705587398  
78.85            0.507152605640708 128.373450795782 0.843045078710565 17.6408018036587 0.843045078710564 17.6408018036586 0.502885252616657 91.3281315287863 
79.025           0.497474538592256 127.953113438238 0.848634378216943 16.9585850113954 0.848634378216941 16.9585850113954 0.493071299120974 90.4789727549405 
79.2             0.487638510389272 127.537902009325 0.854170077981016 16.2695237216464 0.854170077981015 16.2695237216463 0.483092769958688 89.6157700090123 
79.375           0.477645636996881 127.128810971284 0.859647394769997 15.5736848456866 0.859647394769996 15.5736848456865 0.472950293790137 88.7380176368235 
79.55            0.467497345173016 126.726940819436 0.8650614573718  14.8711439433116 0.865061457371799 14.8711439433115 0.462644759495492 87.8451563896111 
79.725           0.457195392692656 126.333511252456 0.870407315208723 14.1619854328035 0.870407315208721 14.1619854328034 0.452177329623262 86.936564975708  
79.9             0.446741889947615 125.949876420498 0.8756799477634  13.4463027825234 0.875679947763398 13.4463027825233 0.44154945411701 86.0115501137593 
80.075           0.436139323193642 125.577542649031 0.880874274814458 12.7241986820491 0.880874274814456 12.724198682049  0.430762884383671 85.0693347829996 
80.25            0.425390579794743 125.218189124096 0.885985167472447 11.9957851907739 0.885985167472446 11.9957851907738 0.419819687799544 84.1090442937543 
80.425           0.41449897591425 124.873692134506 0.891007459999279 11.2611838618974 0.891007459999278 11.2611838618973 0.408722262793056 83.1296897090367 
80.6             0.403468287229658 124.546153604151 0.895935962386625 10.5205258397769 0.895935962386624 10.5205258397769 0.397473354700075 82.1301480296038 
80.775           0.392302783411609 124.237934820862 0.900765473660636 9.77395192866759 0.900765473660635 9.77395192866753 0.386076072662014 81.1091384016309 
80.95            0.381007267317615 123.951696487566 0.905490795871884 9.02161263096004 0.905490795871883 9.02161263095997 0.374533907935262 80.06519340667   
81.125           0.369587120122734 123.690446499785 0.910106748720903 8.2636681531352  0.910106748720902 8.26366815313513 0.362850754110473 78.9966242318154 
81.3             0.358048353961955 123.457597208572 0.914608184760988 7.50028837778479 0.914608184760987 7.50028837778473 0.351030929913279 77.9014781718562 
81.475           0.346397674119178 123.257034382351 0.918990005111338 6.73165280020548 0.918990005111337 6.73165280020543 0.3390792054899  76.7774864535781 
81.65            0.334642553401561 123.093200664725 0.923247175605148 5.95795042825772 0.923247175605147 5.95795042825767 0.327000833394294 75.6219997513454 
81.825           0.322791322135348 122.971197077038 0.927374743289139 5.17937964438577 0.927374743289139 5.17937964438572 0.31480158592056 74.431907919784  
82               0.310853278278626 122.89690708452  0.931367853183319 4.39614802892877 0.931367853183318 4.39614802892873 0.302487801012506 73.2035393130446 
82.175           0.298838823562698 122.87714899748  0.93522176520265 3.60847214410431 0.935221765202649 3.60847214410427 0.290066439801631 71.9325334581295 
82.35            0.286759633478733 122.919864094251 0.938931871135994 2.81657727831895 0.938931871135994 2.81657727831892 0.277545159980054 70.6136786062675 
82.525           0.274628871503767 123.034349926433 0.942493711572176 2.02069715075328 0.942493711572176 2.02069715075324 0.264932410865231 69.2407025085957 
82.7             0.262461461464959 123.231550905474 0.945902992658573 1.22107357647272 0.945902992658573 1.22107357647268 0.252237558403746 67.8060002077287 
82.875           0.250274436726516 123.524421571053 0.949155602574327 0.417956092634733 0.949155602574327 0.417956092634699 0.239471051875866 66.300276027676  
83.05            0.238087391432155 123.928381950063 0.952247627598192 -0.388398453311983 0.952247627598192 -0.388398453312019 0.226644649311259 64.7120672320565 
83.225           0.225923067991759 124.461889015954 0.955175367650331 -1.19772635221002 0.955175367650331 -1.19772635221006 0.213771726596753 63.0271023633459 
83.4             0.213808127186471 125.147152955356 0.957935351188061 -2.00975751700416 0.957935351188061 -2.00975751700419 0.200867707575229 61.2274254828971 
83.575           0.201774163639721 126.011030400279 0.960524349337743 -2.82421599989855 0.960524349337743 -2.82421599989858 0.187950671825036 59.2901842906398 
83.75            0.189859050845452 127.086125869053 0.962939389148676 -3.64082054066661 0.962939389148676 -3.64082054066664 0.17504222791665 57.1859288979613 
83.925           0.178108726643333 128.412120651534 0.965177765860026 -4.45928514361699 0.965177765860027 -4.45928514361702 0.162168790813594 54.8761886789822 
84.1             0.166579559888097 130.037311506397 0.967237054078488 -5.27931968043538 0.967237054078488 -5.27931968043541 0.149363486828606 52.309971903211  
84.275           0.155341464031411 132.020252948484 0.969115117772376 -6.10063051586387 0.969115117772376 -6.1006305158639 0.136669053033589 49.4186464575323 
84.45            0.144481921527215 134.431207274459 0.970810118997286 -6.92292115294528 0.970810118997287 -6.92292115294531 0.124142343608994 46.1083920258218 
84.625           0.134111003122758 137.352733833189 0.972320525278971 -7.74589289435816 0.972320525278971 -7.74589289435818 0.111861475356539 42.249086050924  
84.8             0.124367201505794 140.878082700092 0.973645115590767 -8.56924551620064 0.973645115590767 -8.56924551620066 0.0999373411979083 37.6582976762178 
84.975           0.115423257826212 145.10502730737  0.974782984875446 -9.39267795045014 0.974782984875447 -9.39267795045016 0.0885322637179189 32.0798624397674 
85.15            0.107489881553887 150.121600835789 0.975733547074618 -10.2158889722339 0.975733547074618 -10.215888972234 0.0778896204655047 25.161188655715  
85.325           0.100813234470685 155.980012223484 0.976496536642606 -11.0385778879951 0.976496536642607 -11.0385778879951 0.0683771456422631 16.4501766045938 
85.5             0.0956599860893287 162.658521623846 0.977072008535818 -11.8604452206274 0.977072008535819 -11.8604452206274 0.0605349735207786 5.47653594418602 
85.675           0.0922842815875223 170.021480004614 0.977460336682819 -12.6811933876877 0.97746033668282 -12.6811933876878 0.0550787568181409 -7.95780947805765 
85.85            0.0908782581332924 177.802481642323 0.977662210954385 -13.5005273688643 0.977662210954386 -13.5005273688643 0.0527433482057299 -23.2608742414711 
86.025           0.0915220010037305 -174.361890419415 0.977678632666544 -14.3181553589954 0.977678632666545 -14.3181553589954 0.0539172843266779 -38.8475984826742 
86.2             0.0941586478335537 -166.848351313613 0.977510908662797 -15.1337894030828 0.977510908662798 -15.1337894030829 0.0583651381247355 -52.950406475893 
86.375           0.0986102237099832 -159.955643570809 0.977160644034166 -15.9471460099333 0.977160644034167 -15.9471460099333 0.0653947645208365 -64.6600281674251 
86.55            0.104624386725267 -153.8551971729  0.97662973354723 -16.7579467412766 0.976629733547232 -16.7579467412766 0.0742469418751908 -73.9945382624716 
86.725           0.111926591354432 -148.596322683095 0.975920351860813 -17.565918773461 0.975920351860814 -17.565918773461 0.0843190655147949 -81.3858964078258 
86.9             0.120258066211422 -144.14286718866 0.975034942621197 -18.3707954290984 0.975034942621198 -18.3707954290984 0.0951937586796985 -87.3069961472123 
87.075           0.129394830758702 -140.413471937572 0.97397620653376 -19.1723166763229 0.973976206533761 -19.1723166763229 0.106594760870475 -92.1420866657094 
87.25            0.139152462891015 -137.311216853533 0.972747088515446 -19.9702295936399 0.972747088515447 -19.9702295936399 0.118339420322331 -96.174227250408 
87.425           0.149383186157631 -134.740791774373 0.971350764037647 -20.7642887986603 0.971350764037649 -20.7642887986603 0.130304658635572 -99.6056052716656 
87.6             0.159970050696817 -132.616481786536 0.969790624772763 -21.5542568393447 0.969790624772765 -21.5542568393447 0.142405254609366 -102.580195730773 
87.775           0.170820777873255 -130.864732574252 0.9680702636599  -22.3399045467112 0.968070263659901 -22.3399045467112 0.154580425058944 -105.20143575267 
87.95            0.181862342384329 -129.423990979682 0.966193459506011 -23.1210113482893 0.966193459506013 -23.1210113482893 0.166785526761973 -107.54467363789 
88.125           0.19303658019154 -128.243401512546 0.964164161238202 -23.8973655419235 0.964164161238204 -23.8973655419236 0.178986850577987 -109.665654162995 
88.3             0.204296771522467 -127.28117527582 0.96198647192108 -24.6687645298438 0.961986471921081 -24.6687645298438 0.191158289652005 -111.606268115128 
88.475           0.215605036166767 -126.503006420014 0.959664632649986 -25.4350150132152 0.959664632649988 -25.4350150132152 0.203279160223168 -113.39847150298 
88.65            0.226930365375242 -125.880681307921 0.957203006426821 -26.1959331476645 0.957203006426822 -26.1959331476645 0.215332744967058 -115.066987740736 
88.825           0.238247137641567 -125.3909155031  0.954606062120073 -26.9513446605414 0.954606062120074 -26.9513446605414 0.22730529862408 -116.63119645139 
89               0.249533996838636 -125.0144061206  0.951878358604753 -27.7010849309145 0.951878358604754 -27.7010849309145 0.239185355469183 -118.106472962454 
89.175           0.260773000060546 -124.735070064352 0.949024529171296 -28.4449990335194 0.949024529171297 -28.4449990335194 0.250963237731953 -119.505152037198 
89.35            0.271948966044653 -124.539435615889 0.946049266285328 -29.1829417480734 0.946049266285329 -29.1829417480734 0.262630700263663 -120.837230992848 
89.525           0.283048973118765 -124.416157516433 0.942957306772587 -29.9147775355344 0.942957306772588 -29.9147775355344 0.274180669161406 -122.110889539354 
89.7             0.29406196909736 -124.355630226974 0.939753417495383 -30.6403804830334 0.939753417495384 -30.6403804830334 0.285607046208801 -123.332878958655 
89.875           0.304978465457507 -124.349678751658 0.936442381578951 -31.3596342193207 0.936442381578952 -31.3596342193207 0.296904560091561 -124.508816909664 
90.05            0.315790295360185 -124.391310601721 0.933028985237928 -32.072431802666 0.933028985237929 -32.0724318026661 0.308068651301362 -125.643413212248 
90.225           0.32649042035875 -124.474515971059 0.929518005245158 -32.7786755832191 0.929518005245158 -32.7786755832191 0.319095381604438 -126.74064455306 
90.4             0.337072774490173 -124.594106005176 0.925914197077175 -33.4782770418848 0.925914197077176 -33.4782770418848 0.329981361630352 -127.803890968357 
90.575           0.347532137269596 -124.74558126225 0.922222283763085 -34.1711566077937 0.922222283763086 -34.1711566077938 0.340723691973866 -128.836043422187 
90.75            0.35786402918939 -124.925024195158 0.918446945456277 -34.8572434564516 0.918446945456277 -34.8572434564516 0.351319914480646 -129.839589310017 
90.925           0.368064624864593 -125.129010825996 0.914592809741502 -35.5364752906401 0.914592809741503 -35.5364752906401 0.361767971287171 -130.816680946955 
91.1             0.378130680114259 -125.354537824574 0.910664442683413 -36.2087981061093 0.910664442683414 -36.2087981061093 0.372066169826222 -131.769190825424 
91.275           0.388059470128149 -125.59896200787 0.906666340616653 -36.8741659440578 0.906666340616654 -36.8741659440578 0.382213152470798 -132.698756500606 
91.45            0.397848736516467 -125.859949902421 0.902602922672135 -37.5325406323374 0.902602922672135 -37.5325406323374 0.392207869824905 -133.606817281509 
91.625           0.407496641531836 -126.135435497741 0.898478524029203 -38.1838915172503 0.898478524029204 -38.1838915172503 0.402049556915761 -134.494644401099 
91.8             0.417001728127576 -126.423584698245 0.894297389878959 -38.8281951877249 0.89429738987896 -38.8281951877249 0.411737711723934 -135.363365961584 
91.975           0.426362884803694 -126.722765278352 0.890063670080145 -39.4654351935727 0.890063670080145 -39.4654351935728 0.421272075623403 -136.213987666325 
92.15            0.435579314413515 -127.031521379112 0.885781414485629 -40.0956017594321 0.885781414485629 -40.0956017594321 0.43065261540494 -137.047410133349 
92.325           0.444650506275361 -127.348551769318 0.881454568914716 -40.7186914959062 0.881454568914716 -40.7186914959062 0.43987950663258 -137.864443419555 
92.5             0.453576211067127 -127.672691240403 0.877086971744081 -41.3347071093058 0.877086971744081 -41.3347071093058 0.448953118140621 -138.665819256614 
92.675           0.462356418085779 -128.00289462104 0.872682351088321 -41.9436571112965 0.872682351088321 -41.9436571112965 0.45787399752233 -139.452201400051 
92.85            0.470991334535549 -128.338222990599 0.86824432253959 -42.5455555296546 0.86824432253959 -42.5455555296546 0.466642857494757 -140.224194415039 
93.025           0.479481366572859 -128.677831745564 0.863776387434752 -43.1404216212244 0.863776387434752 -43.1404216212244 0.475260563049288 -140.982351161127 
93.2             0.487827101886758 -129.020960233434 0.859281931617843 -43.728279588074 0.859281931617842 -43.728279588074 0.483728119316792 -141.727179189517 
93.375           0.49602929363388 -129.366922717558 0.854764224665212 -44.309158297743 0.854764224665212 -44.3091582977429 0.492046660090785 -142.459146227756 
93.55            0.504088845578753 -129.715100476206 0.850226419540779 -44.8830910083781 0.850226419540778 -44.8830910083781 0.500217436963067 -143.178684895726 
93.725           0.512006798315754 -130.064934871646 0.84567155264897 -45.4501150994637 0.845671552648969 -45.4501150994637 0.508241809034675 -143.886196771783 
93.9             0.519784316469207 -130.41592125163 0.841102544253471 -46.0102718087579 0.841102544253471 -46.0102718087579 0.516121233171198 -144.582055907705 
94.075           0.527422676784333 -130.767603567619 0.836522199230546 -46.5636059759655 0.836522199230545 -46.5636059759655 0.52385725477621 -145.266611874627 
94.25            0.534923257034787 -131.119569612145 0.831933208126545 -47.1101657935959 0.831933208126544 -47.1101657935958 0.531451499060069 -145.940192408734 
94.425           0.542287525682901 -131.471446792695 0.827338148490257 -47.6500025653777 0.827338148490257 -47.6500025653776 0.538905662783801 -146.603105714398 
94.6             0.549517032237242 -131.822898371963 0.822739486451845 -48.1831704725335 0.822739486451844 -48.1831704725334 0.546221506459736 -147.255642473418 
94.775           0.556613398258849 -132.173620114702 0.818139578521347 -48.7097263481495 0.818139578521347 -48.7097263481494 0.553400846991774 -147.898077601427 
94.95            0.563578308973109 -132.523337290085 0.813540673581021 -49.2297294598166 0.81354067358102 -49.2297294598165 0.560445550739219 -148.530671786338 
95.125           0.57041350544871 -132.871801985814 0.808944915047138 -49.7432413006624 0.808944915047137 -49.7432413006624 0.56735752698868 -149.153672838445 
95.3             0.577120777308854 -133.21879069631 0.804354343178236 -50.2503253888427 0.804354343178234 -50.2503253888426 0.574138721819053 -149.767316877451 
95.475           0.58370195594299 -133.564102152563 0.7997708975082  -50.7510470755157 0.799770897508199 -50.7510470755157 0.580791112344913 -150.371829378041 
95.65            0.590158908189851 -133.907555365556 0.795196419384   -51.2454733612792 0.795196419383999 -51.2454733612791 0.58731670132385 -150.967426092504 
95.825           0.596493530464811 -134.248987858944 0.790632654589216 -51.7336727210154 0.790632654589215 -51.7336727210153 0.593717512113497 -151.55431386633 
