! Created with skrf (http://scikit-rf.org).
# Hz S RI R 50.0 
!freq ReS11 ImS11
1000000.0 1.0002061592 -0.0022894031712
50997500.0 0.99132244848 -0.028317636837
100995000.0 0.99856265817 -0.054747768745
150992500.0 0.9970916593 -0.081242631015
200990000.0 0.99436706919 -0.1071608316
250987500.0 0.99099217086 -0.1336544457
300985000.0 0.98735243864 -0.15968430957
350982500.0 0.98293544281 -0.18620969532
400980000.0 0.9776099822 -0.21158602606
450977500.0 0.97171078373 -0.23693370869
500975000.0 0.9652836451 -0.26289708711
550972500.0 0.95836949532 -0.28810342967
600970000.0 0.95032497585 -0.31336144137
650967500.0 0.94224154356 -0.33784961789
700965000.0 0.93312550162 -0.36230706914
750962500.0 0.92320098991 -0.38687026265
800960000.0 0.91314190913 -0.41087116342
850957500.0 0.90159498132 -0.4349133111
900955000.0 0.89023763746 -0.45816527264
950952500.0 0.87833204727 -0.48086784722
1000950000.0 0.86509709128 -0.50407821008
1050947500.0 0.85194144787 -0.52715241821
1100945000.0 0.83788338454 -0.54928033713
1150942500.0 0.8227618788 -0.57206938633
1200940000.0 0.80718893427 -0.59361304733
1250937500.0 0.79096874936 -0.61570706184
1300935000.0 0.7742300431 -0.63627835615
1350932500.0 0.75677094177 -0.65792511833
1400930000.0 0.7385750815 -0.67793244042
1450927500.0 0.72031423507 -0.69749532688
1500925000.0 0.70097664019 -0.71702889622
1550922500.0 0.68114782554 -0.73573046002
1600920000.0 0.66167567444 -0.75413578563
1650917500.0 0.64035128118 -0.7722163734
1700915000.0 0.61901596266 -0.78939345519
1750912500.0 0.59643943264 -0.80648615571
1800910000.0 0.57459154029 -0.82263520208
1850907500.0 0.55164577546 -0.83632687578
1900905000.0 0.5282247645 -0.85357253003
1950902500.0 0.50335774261 -0.86774810521
2000900000.0 0.47927274059 -0.88226604564
2050897500.0 0.45439861513 -0.8950673617
2100895000.0 0.4288729823 -0.90806795953
2150892500.0 0.40325946114 -0.91982443762
2200890000.0 0.37749693486 -0.93137409976
2250887500.0 0.35028676222 -0.94136293647
2300885000.0 0.32351310013 -0.95081885764
2350882500.0 0.29661289791 -0.95964950266
2400880000.0 0.26898379359 -0.96830320507
2450877500.0 0.24136930558 -0.97622661641
2500875000.0 0.21307034715 -0.98224324712
2550872500.0 0.18521708051 -0.9889486632
2600870000.0 0.15731562211 -0.99348686505
2650867500.0 0.12893767814 -0.99774699392
2700865000.0 0.099871751929 -1.0004309466
2750862500.0 0.071701971427 -1.0031827506
2800860000.0 0.042958629642 -1.0049310169
2850857500.0 0.014388940554 -1.0058088495
2900855000.0 -0.014373358356 -1.0062124542
2950852500.0 -0.043802592692 -1.0048904022
3000850000.0 -0.072726343946 -1.0036026804
3050847500.0 -0.10190708545 -1.0010760798
3100845000.0 -0.13123595803 -0.99812399646
3150842500.0 -0.16118089086 -0.99340513738
3200840000.0 -0.19033874874 -0.98839080717
3250837500.0 -0.21974869425 -0.98300541505
3300835000.0 -0.24919344678 -0.97580435756
3350832500.0 -0.27603158811 -0.96856140583
3400830000.0 -0.30721888033 -0.95858918471
3450827500.0 -0.33576130736 -0.94877188765
3500825000.0 -0.36411140786 -0.93877125093
3550822500.0 -0.39229770072 -0.9270591092
3600820000.0 -0.42014270772 -0.91556385043
3650817500.0 -0.44793722617 -0.90121113761
3700815000.0 -0.47513688392 -0.88748068734
3750812500.0 -0.50301735708 -0.87160230304
3800810000.0 -0.52929659872 -0.85630598651
3850807500.0 -0.55619842911 -0.83834446962
3900805000.0 -0.5817931931 -0.82100139883
3950802500.0 -0.60798401081 -0.80299931083
4000800000.0 -0.63327480563 -0.78205472341
4050797500.0 -0.6552292169 -0.76273976314
4100795000.0 -0.68203154161 -0.74007857356
4150792500.0 -0.70513875046 -0.71838836207
4200790000.0 -0.72813304981 -0.69333580944
4250787500.0 -0.75045671903 -0.66959254538
4300785000.0 -0.77164047912 -0.64427065058
4350782500.0 -0.79252635746 -0.61760771888
4400780000.0 -0.81241399511 -0.59186859228
4450777500.0 -0.83154779068 -0.56294819109
4500775000.0 -0.84985209173 -0.53577441748
4550772500.0 -0.86722061714 -0.50627344128
4600770000.0 -0.88406286358 -0.47713913634
4650767500.0 -0.89937596292 -0.44593596877
4700765000.0 -0.91421374214 -0.41458135831
4750762500.0 -0.93128717798 -0.3795348428
4800760000.0 -0.93969015182 -0.34972035562
4850757500.0 -0.95273836001 -0.31881081825
4900755000.0 -0.96120080661 -0.28251866943
4950752500.0 -0.97198423596 -0.24679700541
5000750000.0 -0.97795695933 -0.21267130123
5050747500.0 -0.98553129256 -0.17670212764
5100745000.0 -0.99086151781 -0.14188182979
5150742500.0 -0.99512492212 -0.10467325049
5200740000.0 -0.99804170493 -0.068275013365
5250737500.0 -0.99848977042 -0.029688223547
5300735000.0 -0.99876879852 0.0083806052117
5350732500.0 -0.99816524508 0.046578691835
5400730000.0 -0.9941322799 0.084749733773
5450727500.0 -0.99041536808 0.12646779277
5500725000.0 -0.98325184936 0.162086694
5550722500.0 -0.97318472911 0.19732140896
5600720000.0 -0.96604268442 0.239830188
5650717500.0 -0.95443005312 0.27969628227
5700715000.0 -0.94191476538 0.31838696738
5750712500.0 -0.92733306054 0.3569470836
5800710000.0 -0.91029532534 0.39631240605
5850707500.0 -0.8927666389 0.43458852349
5900705000.0 -0.87150389876 0.4734607591
5950702500.0 -0.84869840644 0.51131743418
6000700000.0 -0.82404692126 0.55018666554
6050697500.0 -0.79672700116 0.58720854657
6100695000.0 -0.76615157064 0.62506461136
6150692500.0 -0.74006654154 0.66489205375
6200690000.0 -0.69878483716 0.69705636822
6250687500.0 -0.66226332008 0.73755798194
6300685000.0 -0.62178189289 0.76479959509
6350682500.0 -0.57557090096 0.79852274441
6400680000.0 -0.52997193712 0.82872831074
6450677500.0 -0.47913822073 0.85807430437
6500675000.0 -0.42416178816 0.88570380752
6550672500.0 -0.36499816998 0.91082698106
6600670000.0 -0.29745842022 0.93345346179
6650667500.0 -0.22471438525 0.951932232
6700665000.0 -0.1402526854 0.96506018632
6750662500.0 -0.045552441231 0.97084198277
6800660000.0 0.068943931283 0.96075487177
6850657500.0 0.20300832491 0.92304455889
6900655000.0 0.36845034144 0.80447521688
6950652500.0 0.4547581364 0.53045147191
7000650000.0 0.22651404086 0.30798884126
7050647500.0 0.048708305503 0.42377432868
7100645000.0 0.081793272921 0.52875946322
7150642500.0 0.16296014109 0.53876175058
7200640000.0 0.23139731389 0.49112880614
7250637500.0 0.25987314333 0.41109665877
7300635000.0 0.24188098841 0.32234241008
7350632500.0 0.1822977468 0.26277158945
7400630000.0 0.10953095179 0.24968630079
7450627500.0 0.051647837497 0.27624370415
7500625000.0 0.027484080728 0.32394657888
7550622500.0 0.026096237431 0.37509841166
7600620000.0 0.060347914987 0.40511559953
7650617500.0 0.099539983718 0.42336198167
7700615000.0 0.13922269915 0.42631906061
7750612500.0 0.17797310441 0.41605161199
7800610000.0 0.21374107246 0.39809832054
7850607500.0 0.24187822553 0.37466530612
7900605000.0 0.26916363406 0.34426726613
7950602500.0 0.28951202892 0.31314506069
8000600000.0 0.3050843871 0.27682486762
8050597500.0 0.31596061481 0.2384827623
8100595000.0 0.3205311193 0.19875270279
8150592500.0 0.31516085315 0.1576396919
8200590000.0 0.30499952416 0.11818361755
8250587500.0 0.28164563671 0.086566779917
8300585000.0 0.26125009872 0.055063089423
8350582500.0 0.23139056417 0.034713097934
8400580000.0 0.20145492524 0.021810592128
8450577500.0 0.17086619106 0.018324030412
8500575000.0 0.14640968184 0.024208602757
8550572500.0 0.12594934142 0.035644935195
8600570000.0 0.1193505858 0.047636821598
8650567500.0 0.11817152615 0.060418831735
8700565000.0 0.12370751306 0.065467217535
8750562500.0 0.13294911773 0.065893797373
8800560000.0 0.14357503096 0.059854280335
8850557500.0 0.1503736679 0.046550094548
8900555000.0 0.15487037941 0.028860954223
8950552500.0 0.14409214376 0.010074636076
9000550000.0 0.14014879479 -0.012680491586
9050547500.0 0.11995446102 -0.028901982969
9100545000.0 0.096916682014 -0.042136687221
9150542500.0 0.06971248425 -0.046357126789
9200540000.0 0.041444511774 -0.040181140913
9250537500.0 0.013567133841 -0.026447736012
9300535000.0 0.0010769798801 -0.00412472041
9350532500.0 -0.0075189820616 0.024217985776
9400530000.0 -0.0038109828417 0.046747225672
9450527500.0 0.0079431508566 0.068418159048
9500525000.0 0.027575104245 0.085045921533
9550522500.0 0.050296953266 0.090468477883
9600520000.0 0.076816877951 0.088570902814
9650517500.0 0.088613946575 0.077130774431
9700515000.0 0.11492508806 0.053933976118
9750512500.0 0.12241913124 0.029731630885
9800510000.0 0.11805514172 0.00094889864859
9850507500.0 0.10523835037 -0.0269891237
9900505000.0 0.080251827865 -0.039419772403
9950502500.0 0.048528359132 -0.044623498828
10000500000.0 0.022890714554 -0.039383789679
10050497500.0 -0.0013294544172 -0.019378645665
10100495000.0 -0.014556349014 0.0068040335753
10150492500.0 -0.013796434794 0.038568887894
10200490000.0 0.0018226089001 0.071807693791
10250487500.0 0.030571093806 0.095529427846
10300485000.0 0.074765114797 0.10940038506
10350482500.0 0.11174735922 0.10872938124
10400480000.0 0.16870371317 0.082190711589
10450477500.0 0.20519123155 0.043555795661
10500475000.0 0.23227451303 -0.010820199938
10550472500.0 0.23777684172 -0.072245237065
10600470000.0 0.22527189816 -0.13465089645
10650467500.0 0.19053920909 -0.1887203953
10700465000.0 0.14275523372 -0.23259805183
10750462500.0 0.083556282795 -0.25456774905
10800460000.0 0.023441714067 -0.25590376487
10850457500.0 -0.029877532427 -0.23585759457
10900455000.0 -0.064807832368 -0.19778615329
10950452500.0 -0.079263995011 -0.15316467601
11000450000.0 -0.064604591748 -0.10978912428
11050447500.0 -0.040846074747 -0.085315854959
11100445000.0 0.02622031931 -0.082959494634
11150442500.0 0.078686105091 -0.11723817746
11200440000.0 0.11571837107 -0.18763459643
11250437500.0 0.11899358266 -0.28024250543
11300435000.0 0.078436414033 -0.3769625881
11350432500.0 -0.0046309297721 -0.46129077344
11400430000.0 -0.1172457599 -0.51457475627
11450427500.0 -0.25104318122 -0.52301946039
11500425000.0 -0.37819589504 -0.49081319742
11550422500.0 -0.49032077179 -0.41913479206
11600420000.0 -0.57977763388 -0.31810810124
11650417500.0 -0.63566218068 -0.19228363029
11700415000.0 -0.64997783903 -0.045171979808
11750412500.0 -0.60737256845 0.093417767305
11800410000.0 -0.51238210202 0.23615671248
11850407500.0 -0.34179613066 0.32757377407
11900405000.0 -0.12847465403 0.32093630592
11950402500.0 0.075222809557 0.16926293152
12000400000.0 0.14861031579 -0.11307940716
12050397500.0 0.0055214332379 -0.38294416394
12100395000.0 -0.25923108654 -0.49487847568
12150392500.0 -0.50449802677 -0.44265204941
12200390000.0 -0.67161744151 -0.29982700336
12250387500.0 -0.74643385261 -0.11261393988
12300385000.0 -0.71290529808 0.094600091497
12350382500.0 -0.50913484176 0.25703509489
12400380000.0 -0.10700343824 0.032800381744
12450377500.0 -0.47139496914 -0.49019979074
12500375000.0 -0.88175698668 -0.2712090442
12550372500.0 -0.97487428419 -0.021069974307
12600370000.0 -0.97651785859 0.15147786821
12650367500.0 -0.94889795383 0.28967992305
12700365000.0 -0.91138839359 0.39163922847
12750362500.0 -0.86769205967 0.47938861859
12800360000.0 -0.82103290366 0.55297300169
12850357500.0 -0.77425323662 0.61488772261
12900355000.0 -0.72322126553 0.67138428034
12950352500.0 -0.67690138983 0.71685862075
13000350000.0 -0.62477143943 0.75994048884
13050347500.0 -0.57760324521 0.79534310691
13100345000.0 -0.52601214168 0.82732275713
13150342500.0 -0.47646523297 0.8555905919
13200340000.0 -0.43074916168 0.8781914942
13250337500.0 -0.37157417837 0.90271012296
13300335000.0 -0.33610257101 0.91558869838
13350332500.0 -0.28661251835 0.92918238494
13400330000.0 -0.24530209969 0.9417403715
13450327500.0 -0.20252139062 0.95032034883
13500325000.0 -0.15758258853 0.9582752447
13550322500.0 -0.11799768369 0.96292852236
13600320000.0 -0.073375382214 0.9664041677
13650317500.0 -0.034104171485 0.96875149766
13700315000.0 0.0082067056141 0.9677644143
13750312500.0 0.047434160385 0.96628423467
13800310000.0 0.086437202499 0.96198890982
13850307500.0 0.12775851136 0.95705736794
13900305000.0 0.16092162578 0.95103524827
13950302500.0 0.20908134313 0.94185286161
14000300000.0 0.23294640686 0.93459094321
14050297500.0 0.2672349132 0.92292548272
14100295000.0 0.30157800321 0.91425491401
14150292500.0 0.33342603107 0.90242351129
14200290000.0 0.36818266879 0.88903433336
14250287500.0 0.39545122024 0.87718937355
14300285000.0 0.42803319127 0.86085846762
14350282500.0 0.45649779369 0.84678604475
14400280000.0 0.48542438206 0.82926903383
14450277500.0 0.51381080992 0.81198192608
14500275000.0 0.53945816622 0.7945166618
14550272500.0 0.56865149497 0.77282184232
14600270000.0 0.59099069766 0.75643221153
14650267500.0 0.62271680238 0.73166948842
14700265000.0 0.63854802831 0.71616243168
14750262500.0 0.66023104495 0.69526341527
14800260000.0 0.68368126162 0.67338246928
14850257500.0 0.7030341547 0.65277480132
14900255000.0 0.72555064313 0.62767657077
14950252500.0 0.74380050796 0.60656323851
15000250000.0 0.76333601015 0.5813531617
15050247500.0 0.78127107029 0.55814441
15100245000.0 0.79793564173 0.53339930864
15150242500.0 0.81444469944 0.50720140106
15200240000.0 0.82873273277 0.48454695961
15250237500.0 0.84387036113 0.45646753184
15300235000.0 0.85633217088 0.43499331009
15350232500.0 0.87275335231 0.40704134087
15400230000.0 0.88054268106 0.38488653158
15450227500.0 0.89149920876 0.36325791885
15500225000.0 0.90196957739 0.33482422685
15550222500.0 0.91069988181 0.31085920394
15600220000.0 0.9204783134 0.28203984038
15650217500.0 0.92826103097 0.25677786639
15700215000.0 0.9357303154 0.22931553478
15750212500.0 0.94249614004 0.20133282244
15800210000.0 0.94836745317 0.17523230143
15850207500.0 0.95363586634 0.1459636279
15900205000.0 0.95791711183 0.12068752047
15950202500.0 0.96182257933 0.090929261583
16000200000.0 0.9651298075 0.06651305082
16050197500.0 0.97019777257 0.037551066628
16100195000.0 0.96885026588 0.012328549113
16150192500.0 0.97213107668 -0.0080131315712
16200190000.0 0.96946690354 -0.041731303458
16250187500.0 0.96994297956 -0.064390512782
16300185000.0 0.96786846 -0.094575402276
16350182500.0 0.96566087226 -0.12039701332
16400180000.0 0.96289592466 -0.14700418037
16450177500.0 0.95879919321 -0.17497349742
16500175000.0 0.95547192498 -0.19882037524
16550172500.0 0.94914732483 -0.22787705516
16600170000.0 0.94474318189 -0.25074543409
16650167500.0 0.93766848102 -0.27832187269
16700165000.0 0.93180288532 -0.30176774931
16750162500.0 0.92641590599 -0.32736882312
16800160000.0 0.91608567317 -0.35255571847
16850157500.0 0.91161273056 -0.36993175039
16900155000.0 0.89748711626 -0.40208713917
16950152500.0 0.88942490367 -0.42291518194
17000150000.0 0.87689845233 -0.45033630925
17050147500.0 0.8656624597 -0.47391895175
17100145000.0 0.85353019563 -0.49708996828
17150142500.0 0.84034485603 -0.52221925139
17200140000.0 0.82844396574 -0.54274087907
17250137500.0 0.81289298976 -0.56741005986
17300135000.0 0.80032692973 -0.58704622042
17350132500.0 0.78389364793 -0.61055436591
17400130000.0 0.76978226669 -0.63020757249
17450127500.0 0.75590527797 -0.65084210215
17500125000.0 0.73605274309 -0.67249636433
17550122500.0 0.72662344758 -0.68351961377
17600120000.0 0.70025637552 -0.71305160887
17650117500.0 0.68455193096 -0.72969987391
17700115000.0 0.66224317792 -0.75190147906
17750112500.0 0.64297810141 -0.77092250325
17800110000.0 0.62264643766 -0.78833962526
17850107500.0 0.59964464483 -0.80815537302
17900105000.0 0.58109306663 -0.82269439131
17950102500.0 0.55638240457 -0.84156522116
18000100000.0 0.53782861559 -0.8548779617
18050097500.0 0.51349171596 -0.87114326109
18100095000.0 0.49232327624 -0.88463920869
18150092500.0 0.47092467124 -0.89748753009
18200090000.0 0.44369761416 -0.91249632152
18250087500.0 0.43204528854 -0.9198699276
18300085000.0 0.39428159858 -0.93799593377
18350082500.0 0.37399911039 -0.9467073584
18400080000.0 0.34326954825 -0.96087223933
18450077500.0 0.31644981321 -0.97328452159
18500075000.0 0.29118663802 -0.98062064966
18550072500.0 0.26056323596 -0.99135109712
18600070000.0 0.23853642198 -0.99793694031
18650067500.0 0.20619777509 -1.006750754
18700065000.0 0.18444072433 -1.0118146757
18750062500.0 0.15414530784 -1.0172393336
18800060000.0 0.128441384 -1.0225154174
18850057500.0 0.10352879304 -1.0257813641
18900055000.0 0.072342161231 -1.0299642303
18950052500.0 0.072334875118 -1.0331252515
19000050000.0 0.014379819472 -1.0357897916
19050047500.0 -0.01290150381 -1.0383125659
19100045000.0 -0.048000794969 -1.0381719405
19150042500.0 -0.082286515969 -1.0408222213
19200040000.0 -0.10720490015 -1.0360408894
19250037500.0 -0.14361935453 -1.0342498525
19300035000.0 -0.16629391862 -1.0301093863
19350032500.0 -0.19975535137 -1.0252701227
19400030000.0 -0.22392307408 -1.0221049251
19450027500.0 -0.25376471065 -1.0149208415
19500025000.0 -0.28171060546 -1.0093881529
19550022500.0 -0.30616852512 -1.0028120089
19600020000.0 -0.33958073522 -0.99330722949
19650017500.0 -0.3432567921 -0.98979767199
19700015000.0 -0.39650037134 -0.97444518759
19750012500.0 -0.42152943963 -0.94823519038
19800010000.0 -0.45310400359 -0.95207448713
19850007500.0 -0.48895923402 -0.93994860208
19900005000.0 -0.50902937713 -0.92467735286
19950002500.0 -0.54321095523 -0.90778556437
20000000000.0 -0.56314420126 -0.89457264679
