# GHz S MA R 50
! EEsoF format of Network Analyzer Results
!freq	S11Mag	S11Phase	S21Mag	S21Phase	S12Mag	S12Phase	S22Mag	S22Phase	
0.050000000000000003	1.0112782502908089	174.06574732430178	0	0	0	0	0	0
0.074968789013732828	1.0093894320871801	171.9654374678793	0	0	0	0	0	0
0.099937578027465654	1.0074324531296479	169.26668703732244	0	0	0	0	0	0
0.12490636704119848	1.0158741838379644	166.85547162039808	0	0	0	0	0	0
0.14987515605493129	1.0162220291671795	163.94021472136893	0	0	0	0	0	0
0.17484394506866413	1.0089802372781986	161.50148068228762	0	0	0	0	0	0
0.19981273408239697	1.0059024196740856	158.82545759825391	0	0	0	0	0	0
0.22478152309612975	1.0123346336785874	156.08380812010631	0	0	0	0	0	0
0.24975031210986259	1.0137862731129723	153.81290385578444	0	0	0	0	0	0
0.27471910112359543	1.0083879088097001	151.08619524507225	0	0	0	0	0	0
0.29968789013732827	1.0123440479281784	148.11142595181235	0	0	0	0	0	0
0.32465667915106106	1.0115765843176334	145.58984618065134	0	0	0	0	0	0
0.3496254681647939	1.0121985598394221	142.54620881888945	0	0	0	0	0	0
0.37459425717852673	1.0121964412398414	140.39968365986391	0	0	0	0	0	0
0.39956304619225952	1.0112387990741702	137.89402887406303	0	0	0	0	0	0
0.42453183520599236	1.0064539500009526	135.06879484444434	0	0	0	0	0	0
0.4495006242197252	1.0069444283764473	132.60495620936359	0	0	0	0	0	0
0.47446941323345804	1.006199710014493	130.16023515658239	0	0	0	0	0	0
0.49943820224719088	1.0142439394412619	127.19849023460266	0	0	0	0	0	0
0.52440699126092372	1.0125152067562491	124.54552082138414	0	0	0	0	0	0
0.5493757802746565	1.0064934701698267	122.03042798106928	0	0	0	0	0	0
0.57434456928838939	1.0124500875832299	119.22134059413148	0	0	0	0	0	0
0.59931335830212218	1.0109914570741783	116.83731191214638	0	0	0	0	0	0
0.62428214731585507	1.0126592837564914	114.20302305352631	0	0	0	0	0	0
0.64925093632958786	1.0065108335629229	111.53043191638372	0	0	0	0	0	0
0.67421972534332064	1.0070694188144231	108.79513038772095	0	0	0	0	0	0
0.69918851435705354	1.0082621756495678	106.07450522216062	0	0	0	0	0	0
0.72415730337078632	1.009330600255065	103.39506612276547	0	0	0	0	0	0
0.7491260923845191	1.0126003342781642	100.47411934023357	0	0	0	0	0	0
0.774094881398252	1.0075882022476494	97.840511023072324	0	0	0	0	0	0
0.79906367041198478	1.0158048513593447	94.904874531470853	0	0	0	0	0	0
0.82403245942571768	1.0100540041324575	92.157489823025529	0	0	0	0	0	0
0.84900124843945046	1.0120366219747188	89.308892064125729	0	0	0	0	0	0
0.87397003745318325	1.0045294024662743	86.586315122219744	0	0	0	0	0	0
0.89893882646691614	1.0021270562267541	83.646319386492124	0	0	0	0	0	0
0.92390761548064892	1.0035682960687131	80.735888189560981	0	0	0	0	0	0
0.94887640449438182	1.0015288495504311	78.401771828789776	0	0	0	0	0	0
0.9738451935081146	0.99717952256167497	75.20333271812072	0	0	0	0	0	0
0.99881398252184739	0.99911432231001984	72.350935932355625	0	0	0	0	0	0
1.0237827715355803	0.99464278427202191	69.477701602385565	0	0	0	0	0	0
1.048751560549313	0.99366322773129723	66.713605295615295	0	0	0	0	0	0
1.0737203495630459	0.98842135266800557	63.343179197477021	0	0	0	0	0	0
1.0986891385767787	0.9861497764929068	60.533103922651122	0	0	0	0	0	0
1.1236579275905116	0.98873534370941241	57.365505473033664	0	0	0	0	0	0
1.1486267166042443	0.98458231076074598	54.305836708850002	0	0	0	0	0	0
1.1735955056179772	0.9803612527269322	51.363032019872016	0	0	0	0	0	0
1.1985642946317101	0.97256204537358437	48.088157764245878	0	0	0	0	0	0
1.2235330836454428	0.96812946838978098	45.076623620500868	0	0	0	0	0	0
1.2485018726591757	0.96341092457464372	41.805364153279882	0	0	0	0	0	0
1.2734706616729086	0.95331662029668285	38.368203411625636	0	0	0	0	0	0
1.2984394506866412	0.94338838220890231	34.884822932181322	0	0	0	0	0	0
1.3234082397003741	0.93647188347798249	31.365308140698648	0	0	0	0	0	0
1.348377028714107	0.9229946481317538	28.219024703917523	0	0	0	0	0	0
1.3733458177278397	0.90517197270965588	24.83356020409164	0	0	0	0	0	0
1.3983146067415726	0.89010323411186409	21.544967618148689	0	0	0	0	0	0
1.4232833957553055	0.88461753194793169	18.117416557646976	0	0	0	0	0	0
1.4482521847690382	0.86879402611696743	14.148999540610699	0	0	0	0	0	0
1.4732209737827711	0.85262446187008378	10.522023402203567	0	0	0	0	0	0
1.498189762796504	0.82941378843163682	6.7829917419617702	0	0	0	0	0	0
1.5231585518102368	0.81333792184221321	2.8712107992025429	0	0	0	0	0	0
1.5481273408239695	0.77354992637057562	-0.42043728791429824	0	0	0	0	0	0
1.5730961298377024	0.74574178116668244	-3.4957466784701445	0	0	0	0	0	0
1.5980649188514353	0.71426497797083799	-6.2031309258563887	0	0	0	0	0	0
1.623033707865168	0.68831209995868159	-9.3336938094174364	0	0	0	0	0	0
1.6480024968789009	0.65546935142843243	-12.153819118001937	0	0	0	0	0	0
1.6729712858926338	0.63249632152885293	-14.516315746347185	0	0	0	0	0	0
1.6979400749063664	0.60209386881864191	-17.102302190684259	0	0	0	0	0	0
1.7229088639200993	0.57622480754182215	-18.614387654723782	0	0	0	0	0	0
1.7478776529338322	0.54833612895057349	-21.163656631639562	0	0	0	0	0	0
1.7728464419475649	0.51914743443751121	-22.740856643507314	0	0	0	0	0	0
1.7978152309612978	0.49027070624883351	-25.092740957255437	0	0	0	0	0	0
1.8227840199750307	0.4550372335502777	-24.357132125818403	0	0	0	0	0	0
1.8477528089887636	0.43272160195629245	-23.325925795094179	0	0	0	0	0	0
1.8727215980024963	0.42254898144688507	-20.526497961308436	0	0	0	0	0	0
1.8976903870162292	0.4349478027459962	-19.365555941710756	0	0	0	0	0	0
1.9226591760299621	0.44932789120293881	-19.189312192292121	0	0	0	0	0	0
1.9476279650436947	0.46594766241015739	-20.427798578983538	0	0	0	0	0	0
1.9725967540574276	0.47441688178783226	-24.078679281100026	0	0	0	0	0	0
1.9975655430711605	0.47517546127552712	-25.980842563677765	0	0	0	0	0	0
2.0225343320848932	0.4710347387878096	-30.25135973113257	0	0	0	0	0	0
2.0475031210986261	0.46166500807309402	-32.189861577836467	0	0	0	0	0	0
2.0724719101123585	0.45652686339076481	-33.821253706912678	0	0	0	0	0	0
2.0974406991260914	0.45168357687412103	-35.51022379919371	0	0	0	0	0	0
2.1224094881398243	0.44936531613298775	-36.569499897723212	0	0	0	0	0	0
2.1473782771535572	0.45178918617259978	-38.421663248119742	0	0	0	0	0	0
2.1723470661672901	0.45635122681063317	-41.272068234506719	0	0	0	0	0	0
2.197315855181023	0.45370713972258581	-43.997110025178394	0	0	0	0	0	0
2.2222846441947555	0.45421204195089321	-47.344351995876011	0	0	0	0	0	0
2.2472534332084884	0.44822590453374067	-50.769329873014151	0	0	0	0	0	0
2.2722222222222213	0.4380515178846548	-54.315688183126618	0	0	0	0	0	0
2.2971910112359542	0.4294793621678229	-57.159090114614095	0	0	0	0	0	0
2.322159800249687	0.4145376178584641	-60.137671250894805	0	0	0	0	0	0
2.3471285892634199	0.39952252340443839	-63.066008612794811	0	0	0	0	0	0
2.3720973782771524	0.38120464460818154	-64.014450332442479	0	0	0	0	0	0
2.3970661672908853	0.37067497586987175	-65.131290548127495	0	0	0	0	0	0
2.4220349563046182	0.36889513450379091	-65.798077967116541	0	0	0	0	0	0
2.4470037453183511	0.37346120442649727	-67.371313500226833	0	0	0	0	0	0
2.471972534332084	0.37467081619417597	-70.08467649930742	0	0	0	0	0	0
2.4969413233458169	0.37203039952967554	-73.47226522225499	0	0	0	0	0	0
2.5219101123595498	0.36946209584753076	-76.734554506148612	0	0	0	0	0	0
2.5468789013732822	0.36541363744798849	-81.078127016128647	0	0	0	0	0	0
2.5718476903870151	0.35093392717424743	-83.839731298178819	0	0	0	0	0	0
2.596816479400748	0.34050670547629458	-87.056300877231919	0	0	0	0	0	0
2.6217852684144809	0.32708839972467685	-89.858340607193526	0	0	0	0	0	0
2.6467540574282138	0.31633139351514089	-92.584993355775055	0	0	0	0	0	0
2.6717228464419467	0.30424075084236102	-95.092965105864678	0	0	0	0	0	0
2.6966916354556791	0.2958239175207355	-96.718124045634738	0	0	0	0	0	0
2.721660424469412	0.28695622296798162	-100.26424272527694	0	0	0	0	0	0
2.7466292134831449	0.27859284683582675	-101.78505857784263	0	0	0	0	0	0
2.7715980024968778	0.27368723876783607	-105.28369301560092	0	0	0	0	0	0
2.7965667915106107	0.26094639689768184	-108.96575399615699	0	0	0	0	0	0
2.8215355805243436	0.24942962645990951	-111.56384295756943	0	0	0	0	0	0
2.8465043695380761	0.23684734946511432	-115.66204342552373	0	0	0	0	0	0
2.871473158551809	0.22165128856760566	-119.45916587381707	0	0	0	0	0	0
2.8964419475655419	0.20757437577875551	-122.39914593510952	0	0	0	0	0	0
2.9214107365792747	0.19174972742332647	-125.98077362517894	0	0	0	0	0	0
2.9463795255930076	0.17524944390222755	-128.25388417202348	0	0	0	0	0	0
2.9713483146067405	0.15798956230745118	-130.72313647577494	0	0	0	0	0	0
2.9963171036204734	0.14299758320058978	-131.12568050996407	0	0	0	0	0	0
3.0212858926342059	0.1288363366621719	-132.5917355061749	0	0	0	0	0	0
3.0462546816479388	0.11691105859864927	-132.93467970168606	0	0	0	0	0	0
3.0712234706616717	0.10311589767662598	-134.42744876090524	0	0	0	0	0	0
3.0961922596754046	0.08981764977070375	-135.60913921364812	0	0	0	0	0	0
3.1211610486891375	0.072555644333802863	-136.73841271428748	0	0	0	0	0	0
3.1461298377028704	0.054714372373710005	-134.79662267046942	0	0	0	0	0	0
3.1710986267166028	0.035901342887262586	-123.6647491231444	0	0	0	0	0	0
3.1960674157303357	0.027074557175749171	-91.045478775814786	0	0	0	0	0	0
3.2210362047440686	0.031763051442625909	-48.33489147545982	0	0	0	0	0	0
3.2460049937578015	0.052710484182553287	-34.752189047513696	0	0	0	0	0	0
3.2709737827715344	0.076190313196511414	-28.127835228234343	0	0	0	0	0	0
3.2959425717852673	0.10295288748084	-29.798599158122958	0	0	0	0	0	0
3.3209113607990002	0.13059336039425626	-32.101897539985245	0	0	0	0	0	0
3.3458801498127326	0.15841649987898643	-37.100032596288983	0	0	0	0	0	0
3.3708489388264655	0.18629243389791761	-42.869086838092933	0	0	0	0	0	0
3.3958177278401984	0.21474377853509519	-48.534486822760385	0	0	0	0	0	0
3.4207865168539313	0.24116512818724437	-55.198353929085215	0	0	0	0	0	0
3.4457553058676642	0.26949888691950102	-62.603622996439292	0	0	0	0	0	0
3.4707240948813971	0.28977942021289227	-71.276921333589669	0	0	0	0	0	0
3.4956928838951296	0.30140499987772262	-80.482840719644145	0	0	0	0	0	0
3.5206616729088624	0.29804711513426868	-88.486243339250862	0	0	0	0	0	0
3.5456304619225953	0.28505040675684029	-95.597064374701489	0	0	0	0	0	0
3.5705992509363282	0.27247645983631319	-99.463376577008972	0	0	0	0	0	0
3.5955680399500611	0.2643421792451574	-102.96933007107157	0	0	0	0	0	0
3.620536828963794	0.26264778502942854	-104.52144658502772	0	0	0	0	0	0
3.6455056179775269	0.26298649536630203	-108.31510547453378	0	0	0	0	0	0
3.6704744069912594	0.26450128556722913	-110.90770088022654	0	0	0	0	0	0
3.6954431960049923	0.26829943448155086	-114.4457150767555	0	0	0	0	0	0
3.7204119850187252	0.27014659685520748	-117.72297554892212	0	0	0	0	0	0
3.7453807740324581	0.27553287413978389	-121.87689712893818	0	0	0	0	0	0
3.770349563046191	0.27517780225843069	-126.73328020037944	0	0	0	0	0	0
3.7953183520599238	0.27221531854919551	-131.83718155583841	0	0	0	0	0	0
3.8202871410736563	0.26951064363651761	-137.22093410510618	0	0	0	0	0	0
3.8452559300873892	0.26065777817868779	-143.28707049689532	0	0	0	0	0	0
3.8702247191011221	0.25421185543105573	-148.68470431585618	0	0	0	0	0	0
3.895193508114855	0.24159310147702895	-154.46912531495329	0	0	0	0	0	0
3.9201622971285879	0.22731205412232081	-159.39354205311616	0	0	0	0	0	0
3.9451310861423208	0.21287161572577026	-164.06984004984761	0	0	0	0	0	0
3.9700998751560532	0.19876734027023177	-169.23092707857376	0	0	0	0	0	0
3.9950686641697861	0.18245316844570308	-174.44007146219087	0	0	0	0	0	0
4.0200374531835195	0.1640996064155418	-179.48587554616293	0	0	0	0	0	0
4.0450062421972524	0.14729749345328319	174.99606504785655	0	0	0	0	0	0
4.0699750312109844	0.12843362043335849	172.0682017890035	0	0	0	0	0	0
4.0949438202247173	0.11250094663657234	168.94306012103999	0	0	0	0	0	0
4.1199126092384502	0.097849774077956864	167.43097417524015	0	0	0	0	0	0
4.144881398252183	0.084254999201685957	164.9664850608093	0	0	0	0	0	0
4.1698501872659159	0.070923956468979504	163.6782863760744	0	0	0	0	0	0
4.1948189762796488	0.057389027124371085	158.86268716300717	0	0	0	0	0	0
4.2197877652933817	0.044110786080754673	151.20960937763732	0	0	0	0	0	0
4.2447565543071146	0.028591194977212828	139.49115973444265	0	0	0	0	0	0
4.2697253433208475	0.012592561482955761	108.36839874677914	0	0	0	0	0	0
4.2946941323345804	0.015824816974518218	7.9010791057964234	0	0	0	0	0	0
4.3196629213483133	0.034939983123116983	-26.047500035513931	0	0	0	0	0	0
4.3446317103620462	0.055811697814566616	-39.962007692970388	0	0	0	0	0	0
4.3696004993757782	0.077138389241832764	-50.955209624209481	0	0	0	0	0	0
4.3945692883895111	0.096466857984626522	-59.74617204755404	0	0	0	0	0	0
4.419538077403244	0.11330876766064531	-67.635493722729152	0	0	0	0	0	0
4.4445068664169769	0.12844988672980603	-74.75861299835033	0	0	0	0	0	0
4.4694756554307098	0.14188935474999526	-80.357859620413578	0	0	0	0	0	0
4.4944444444444427	0.15045967484070275	-86.73267521338424	0	0	0	0	0	0
4.5194132334581756	0.15804776935812076	-91.748271091497912	0	0	0	0	0	0
4.5443820224719085	0.16692756476370493	-95.839313978227523	0	0	0	0	0	0
4.5693508114856414	0.17267516365469701	-99.868519690913672	0	0	0	0	0	0
4.5943196004993743	0.17688596479679672	-102.43392157127026	0	0	0	0	0	0
4.6192883895131072	0.18635846935828704	-105.77850051832621	0	0	0	0	0	0
4.6442571785268401	0.19199140597867631	-108.81510925660413	0	0	0	0	0	0
4.669225967540573	0.20072997731642772	-111.26922239977266	0	0	0	0	0	0
4.694194756554305	0.2086141910086857	-114.80397049401239	0	0	0	0	0	0
4.7191635455680379	0.21621000610744173	-118.1457377957873	0	0	0	0	0	0
4.7441323345817707	0.22291089664639546	-122.05818790731985	0	0	0	0	0	0
4.7691011235955036	0.23387188674753107	-126.08782302558342	0	0	0	0	0	0
4.7940699126092365	0.23783747494230173	-130.49084995213477	0	0	0	0	0	0
4.8190387016229694	0.24401032882337173	-134.37674244776719	0	0	0	0	0	0
4.8440074906367023	0.24566441007264361	-139.14818473721181	0	0	0	0	0	0
4.8689762796504352	0.24667992530337768	-143.98852157126595	0	0	0	0	0	0
4.8939450686641681	0.24406148332918082	-148.57672431113906	0	0	0	0	0	0
4.918913857677901	0.2429166735076454	-152.72673201016622	0	0	0	0	0	0
4.9438826466916339	0.23874379906469531	-157.19281035885939	0	0	0	0	0	0
4.9688514357053668	0.23431273747719819	-160.48183509926221	0	0	0	0	0	0
4.9938202247190997	0.22861744668901124	-164.57517089526652	0	0	0	0	0	0
5.0187890137328317	0.22556008747208026	-167.39467937666359	0	0	0	0	0	0
5.0437578027465646	0.21979678892942203	-170.9934606833715	0	0	0	0	0	0
5.0687265917602975	0.21637933201515711	-173.59065087497271	0	0	0	0	0	0
5.0936953807740304	0.21207054056737371	-177.22858760246567	0	0	0	0	0	0
5.1186641697877633	0.20724257831982792	179.35877619108877	0	0	0	0	0	0
5.1436329588014962	0.20107576707942704	176.08815483896871	0	0	0	0	0	0
5.1686017478152291	0.19488820362199966	171.93904420068577	0	0	0	0	0	0
5.193570536828962	0.18585870852959782	168.51386270458335	0	0	0	0	0	0
5.2185393258426949	0.17779307236627642	164.59092056566865	0	0	0	0	0	0
5.2435081148564278	0.16860823999926575	160.96983438713315	0	0	0	0	0	0
5.2684769038701607	0.15612253971806889	157.59078067285384	0	0	0	0	0	0
5.2934456928838935	0.14123410646844478	155.2914185736023	0	0	0	0	0	0
5.3184144818976264	0.12926291737249937	153.2761446877866	0	0	0	0	0	0
5.3433832709113585	0.11330915572359587	152.92425117459149	0	0	0	0	0	0
5.3683520599250913	0.099808113006743096	153.71601995944553	0	0	0	0	0	0
5.3933208489388242	0.089081661999687117	156.8945124830378	0	0	0	0	0	0
5.4182896379525571	0.078908211587410848	161.83132757457398	0	0	0	0	0	0
5.44325842696629	0.073793060449612063	169.73859735652744	0	0	0	0	0	0
5.4682272159800229	0.07470120126542075	177.64986837999544	0	0	0	0	0	0
5.4931960049937558	0.075215810683140177	-175.55248654833085	0	0	0	0	0	0
5.5181647940074887	0.081411976515505996	-169.71892758974039	0	0	0	0	0	0
5.5431335830212216	0.085701043569554047	-166.19447617043161	0	0	0	0	0	0
5.5681023720349545	0.091605009198541656	-162.07434825306751	0	0	0	0	0	0
5.5930711610486874	0.10118040790716354	-160.69200854952516	0	0	0	0	0	0
5.6180399500624203	0.10883389404721307	-159.65315559013692	0	0	0	0	0	0
5.6430087390761523	0.12116275249934032	-159.15935290731966	0	0	0	0	0	0
5.6679775280898852	0.13001887991353447	-160.406103140543	0	0	0	0	0	0
5.6929463171036181	0.14421771350631274	-162.06156060220644	0	0	0	0	0	0
5.717915106117351	0.15585135607852632	-164.92765828510335	0	0	0	0	0	0
5.7428838951310839	0.16725150232776506	-167.86325894947328	0	0	0	0	0	0
5.7678526841448168	0.17602647334629104	-170.9353218800544	0	0	0	0	0	0
5.7928214731585497	0.18139033555017448	-174.60833437414837	0	0	0	0	0	0
5.8177902621722826	0.18789474803677161	-177.70548411257181	0	0	0	0	0	0
5.8427590511860155	0.19487208439017117	179.08250895964832	0	0	0	0	0	0
5.8677278401997484	0.19987057937625538	176.0119160021776	0	0	0	0	0	0
5.8926966292134813	0.20630885542457938	172.90074981095773	0	0	0	0	0	0
5.9176654182272141	0.2132273450843489	169.12268952793011	0	0	0	0	0	0
5.942634207240947	0.21848800602875207	166.04138276071691	0	0	0	0	0	0
5.967602996254679	0.22676445312105245	162.46910308357133	0	0	0	0	0	0
5.9925717852684119	0.22938491768826039	159.00545863169194	0	0	0	0	0	0
6.0175405742821448	0.23500995271047567	155.0123192033935	0	0	0	0	0	0
6.0425093632958777	0.23675899715789048	150.47266651628672	0	0	0	0	0	0
6.0674781523096106	0.2382305316417902	146.61527264537989	0	0	0	0	0	0
6.0924469413233435	0.2414124248722298	143.08809868358315	0	0	0	0	0	0
6.1174157303370764	0.24163878148734735	139.17893463586674	0	0	0	0	0	0
6.1423845193508093	0.24133051596832922	135.7608146928421	0	0	0	0	0	0
6.1673533083645422	0.24305098134837883	131.69671949030788	0	0	0	0	0	0
6.1923220973782751	0.24517375682666367	128.47547272721792	0	0	0	0	0	0
6.217290886392008	0.24308702034705595	124.35440833161455	0	0	0	0	0	0
6.2422596754057409	0.24289646030212131	121.26653221986034	0	0	0	0	0	0
6.2672284644194738	0.23795636226837896	116.95938322814717	0	0	0	0	0	0
6.2921972534332058	0.23688730957266074	113.45397565343329	0	0	0	0	0	0
6.3171660424469387	0.23432981199897635	109.09566625369634	0	0	0	0	0	0
6.3421348314606716	0.22947105547425889	105.81299681772643	0	0	0	0	0	0
6.3671036204744045	0.22610360618187847	102.36859926593257	0	0	0	0	0	0
6.3920724094881374	0.22276023280321289	99.175844145916386	0	0	0	0	0	0
6.4170411985018703	0.21788061839227488	96.401341645611211	0	0	0	0	0	0
6.4420099875156032	0.21379315674906435	93.222022127108048	0	0	0	0	0	0
6.4669787765293361	0.20893551323116585	90.376596317603855	0	0	0	0	0	0
6.491947565543069	0.2070883201825009	86.206141987265696	0	0	0	0	0	0
6.5169163545568018	0.20215513525906284	82.204462664928428	0	0	0	0	0	0
6.5418851435705347	0.19924888524016893	77.997346091070412	0	0	0	0	0	0
6.5668539325842676	0.1929200736270075	73.459189889733878	0	0	0	0	0	0
6.5918227215980005	0.18423921700411669	70.05377699624276	0	0	0	0	0	0
6.6167915106117325	0.17505347531497339	65.957380239071341	0	0	0	0	0	0
6.6417602996254654	0.1652549475385533	62.927434722483113	0	0	0	0	0	0
6.6667290886391983	0.15469257580659779	60.556187091889583	0	0	0	0	0	0
6.6916978776529312	0.14493542655246991	58.329675363601332	0	0	0	0	0	0
6.7166666666666641	0.13902179143035417	56.019101963566825	0	0	0	0	0	0
6.741635455680397	0.13111386608957917	54.015655769321278	0	0	0	0	0	0
6.7666042446941299	0.12717006631930489	52.630305151102526	0	0	0	0	0	0
6.7915730337078628	0.12105039543159246	51.343011810361226	0	0	0	0	0	0
6.8165418227215957	0.11734483813324301	50.184414411023518	0	0	0	0	0	0
6.8415106117353286	0.11094094848472948	49.033509475851901	0	0	0	0	0	0
6.8664794007490615	0.10673178036661526	47.949465752082823	0	0	0	0	0	0
6.8914481897627944	0.099372700045419912	47.395787895581819	0	0	0	0	0	0
6.9164169787765273	0.09415395178039529	45.525271829395663	0	0	0	0	0	0
6.9413857677902593	0.088451542142285455	45.697184252125069	0	0	0	0	0	0
6.9663545568039922	0.083555932317169443	46.172763265937526	0	0	0	0	0	0
