!Created with mwavepy.
# GHz S RI R 50.0 
!freq	ReS11	ImS11	
500.0	-0.008271257121	-0.01217373812	
! Port Impedance	50.00000000000000	0.00000000000000	
501.25	-0.03674376744	0.01317221915	
! Port Impedance	50.00000000000000	0.00000000000000	
502.5	-0.08250529745	0.03122232095	
! Port Impedance	50.00000000000000	0.00000000000000	
503.75	-0.01939693499	0.06001179465	
! Port Impedance	50.00000000000000	0.00000000000000	
505.0	0.05248099721	0.03699207383	
! Port Impedance	50.00000000000000	0.00000000000000	
506.25	0.06393419774	0.003310085384	
! Port Impedance	50.00000000000000	0.00000000000000	
507.5	0.05231624506	-0.03356704119	
! Port Impedance	50.00000000000000	0.00000000000000	
508.75	0.01427910073	-0.0460903108	
! Port Impedance	50.00000000000000	0.00000000000000	
510.0	-0.008605963054	-0.06406028423	
! Port Impedance	50.00000000000000	0.00000000000000	
511.25	-0.04437706606	0.01502990321	
! Port Impedance	50.00000000000000	0.00000000000000	
512.5	0.01482800575	0.02337840509	
! Port Impedance	50.00000000000000	0.00000000000000	
513.75	0.0269384264	-0.04884396726	
! Port Impedance	50.00000000000000	0.00000000000000	
515.0	-0.02072694238	-0.01996857139	
! Port Impedance	50.00000000000000	0.00000000000000	
516.25	-0.02641215123	0.01966340742	
! Port Impedance	50.00000000000000	0.00000000000000	
517.5	-0.02056982186	0.00717496547	
! Port Impedance	50.00000000000000	0.00000000000000	
518.75	-0.01257858248	-0.007892588492	
! Port Impedance	50.00000000000000	0.00000000000000	
520.0	-0.01937172515	0.02643488489	
! Port Impedance	50.00000000000000	0.00000000000000	
521.25	0.03206709104	0.05039688367	
! Port Impedance	50.00000000000000	0.00000000000000	
522.5	0.05018018705	0.001452658234	
! Port Impedance	50.00000000000000	0.00000000000000	
523.75	0.06622655129	-0.06848106341	
! Port Impedance	50.00000000000000	0.00000000000000	
525.0	0.0398946259	-0.03064530476	
! Port Impedance	50.00000000000000	0.00000000000000	
526.25	0.02826853539	-0.008136924476	
! Port Impedance	50.00000000000000	0.00000000000000	
527.5	-0.001643284397	-0.02732381191	
! Port Impedance	50.00000000000000	0.00000000000000	
528.75	-0.05149306578	-0.002249776453	
! Port Impedance	50.00000000000000	0.00000000000000	
530.0	0.0008775862866	0.04027892921	
! Port Impedance	50.00000000000000	0.00000000000000	
531.25	0.03213257989	-0.0004868409739	
! Port Impedance	50.00000000000000	0.00000000000000	
532.5	0.009496412085	-0.002253686998	
! Port Impedance	50.00000000000000	0.00000000000000	
533.75	0.008972343794	0.02332094808	
! Port Impedance	50.00000000000000	0.00000000000000	
535.0	0.02441101128	0.02301271778	
! Port Impedance	50.00000000000000	0.00000000000000	
536.25	0.02277624617	-0.0005016707769	
! Port Impedance	50.00000000000000	0.00000000000000	
537.5	0.02580893964	0.005317693298	
! Port Impedance	50.00000000000000	0.00000000000000	
538.75	0.03660811703	0.0001518722154	
! Port Impedance	50.00000000000000	0.00000000000000	
540.0	0.05886061739	-0.0317635646	
! Port Impedance	50.00000000000000	0.00000000000000	
541.25	0.02756206009	-0.07379285318	
! Port Impedance	50.00000000000000	0.00000000000000	
542.5	-0.01725554251	-0.05400453569	
! Port Impedance	50.00000000000000	0.00000000000000	
543.75	-0.04222470218	0.003772618702	
! Port Impedance	50.00000000000000	0.00000000000000	
545.0	-0.01278283653	0.01633275513	
! Port Impedance	50.00000000000000	0.00000000000000	
546.25	-0.007632298567	0.01050882454	
! Port Impedance	50.00000000000000	0.00000000000000	
547.5	0.01038643006	0.02756338902	
! Port Impedance	50.00000000000000	0.00000000000000	
548.75	0.01026356218	0.02426853218	
! Port Impedance	50.00000000000000	0.00000000000000	
550.0	0.01055270452	-0.01006026299	
! Port Impedance	50.00000000000000	0.00000000000000	
551.25	0.014336712	-0.0324615903	
! Port Impedance	50.00000000000000	0.00000000000000	
552.5	-0.02583007588	-0.02483170725	
! Port Impedance	50.00000000000000	0.00000000000000	
553.75	-0.04615587829	-0.01371215489	
! Port Impedance	50.00000000000000	0.00000000000000	
555.0	-0.03007362633	0.004642265959	
! Port Impedance	50.00000000000000	0.00000000000000	
556.25	-0.02954776424	0.009963992387	
! Port Impedance	50.00000000000000	0.00000000000000	
557.5	-0.03767102466	0.0419198924	
! Port Impedance	50.00000000000000	0.00000000000000	
558.75	-0.03495745917	0.03779671842	
! Port Impedance	50.00000000000000	0.00000000000000	
560.0	0.0007147485236	0.02724520614	
! Port Impedance	50.00000000000000	0.00000000000000	
561.25	0.002796234877	0.009378741924	
! Port Impedance	50.00000000000000	0.00000000000000	
562.5	-0.002100269031	0.03090427516	
! Port Impedance	50.00000000000000	0.00000000000000	
563.75	0.02734550956	0.03131005023	
! Port Impedance	50.00000000000000	0.00000000000000	
565.0	0.0286080204	0.01652445124	
! Port Impedance	50.00000000000000	0.00000000000000	
566.25	0.01613893738	0.02847847657	
! Port Impedance	50.00000000000000	0.00000000000000	
567.5	-0.004166850977	0.04948080815	
! Port Impedance	50.00000000000000	0.00000000000000	
568.75	0.00413382196	0.05490902799	
! Port Impedance	50.00000000000000	0.00000000000000	
570.0	0.01771178719	0.04197986714	
! Port Impedance	50.00000000000000	0.00000000000000	
571.25	0.01280242069	-0.001427273786	
! Port Impedance	50.00000000000000	0.00000000000000	
572.5	-0.006070168575	0.004818433658	
! Port Impedance	50.00000000000000	0.00000000000000	
573.75	0.01385922123	0.03153630107	
! Port Impedance	50.00000000000000	0.00000000000000	
575.0	0.02266353865	0.02882639811	
! Port Impedance	50.00000000000000	0.00000000000000	
576.25	0.01863818441	0.02985702561	
! Port Impedance	50.00000000000000	0.00000000000000	
577.5	0.04984792778	0.02127873056	
! Port Impedance	50.00000000000000	0.00000000000000	
578.75	0.05966001215	0.02606716883	
! Port Impedance	50.00000000000000	0.00000000000000	
580.0	0.0465491674	0.004360237731	
! Port Impedance	50.00000000000000	0.00000000000000	
581.25	0.0159446646	-0.008265002484	
! Port Impedance	50.00000000000000	0.00000000000000	
582.5	0.01240606818	0.01307182479	
! Port Impedance	50.00000000000000	0.00000000000000	
583.75	0.006949450614	0.03522419165	
! Port Impedance	50.00000000000000	0.00000000000000	
585.0	-0.008587361574	0.01746265628	
! Port Impedance	50.00000000000000	0.00000000000000	
586.25	-0.01217138776	0.02557189357	
! Port Impedance	50.00000000000000	0.00000000000000	
587.5	-0.003455011347	0.05689422987	
! Port Impedance	50.00000000000000	0.00000000000000	
588.75	0.02721580802	0.0408198372	
! Port Impedance	50.00000000000000	0.00000000000000	
590.0	0.02460404266	0.009232901505	
! Port Impedance	50.00000000000000	0.00000000000000	
591.25	0.006576398865	0.01750456021	
! Port Impedance	50.00000000000000	0.00000000000000	
592.5	0.000833098656	0.03946556386	
! Port Impedance	50.00000000000000	0.00000000000000	
593.75	-0.006960957169	0.04104231506	
! Port Impedance	50.00000000000000	0.00000000000000	
595.0	-0.01756783837	0.03284414693	
! Port Impedance	50.00000000000000	0.00000000000000	
596.25	-0.02576909658	0.03288870024	
! Port Impedance	50.00000000000000	0.00000000000000	
597.5	-0.02949924255	0.02418668851	
! Port Impedance	50.00000000000000	0.00000000000000	
598.75	-0.002138008415	0.01948927725	
! Port Impedance	50.00000000000000	0.00000000000000	
600.0	-0.00451078953	-0.01714591759	
! Port Impedance	50.00000000000000	0.00000000000000	
601.25	-0.03221140713	-0.04495170772	
! Port Impedance	50.00000000000000	0.00000000000000	
602.5	-0.04681392947	-0.02464689796	
! Port Impedance	50.00000000000000	0.00000000000000	
603.75	-0.05221466308	-0.007466510897	
! Port Impedance	50.00000000000000	0.00000000000000	
605.0	-0.03231570994	-0.03326090872	
! Port Impedance	50.00000000000000	0.00000000000000	
606.25	-0.0005115930423	-0.02628545056	
! Port Impedance	50.00000000000000	0.00000000000000	
607.5	-0.01313003932	-0.01030612234	
! Port Impedance	50.00000000000000	0.00000000000000	
608.75	0.008705875883	-0.009182117605	
! Port Impedance	50.00000000000000	0.00000000000000	
610.0	0.04976179035	-0.005129868209	
! Port Impedance	50.00000000000000	0.00000000000000	
611.25	0.04787571329	-0.0008935750063	
! Port Impedance	50.00000000000000	0.00000000000000	
612.5	0.02866511298	-0.01396737928	
! Port Impedance	50.00000000000000	0.00000000000000	
613.75	0.04463652091	0.002353763869	
! Port Impedance	50.00000000000000	0.00000000000000	
615.0	0.02914847179	0.0293449636	
! Port Impedance	50.00000000000000	0.00000000000000	
616.25	0.005096167239	0.01685415271	
! Port Impedance	50.00000000000000	0.00000000000000	
617.5	0.002883570839	0.02103616028	
! Port Impedance	50.00000000000000	0.00000000000000	
618.75	-0.002008919442	0.05348027196	
! Port Impedance	50.00000000000000	0.00000000000000	
620.0	-0.001730691004	0.04222837213	
! Port Impedance	50.00000000000000	0.00000000000000	
621.25	0.001949023583	0.004984710467	
! Port Impedance	50.00000000000000	0.00000000000000	
622.5	-0.02556057808	-0.002788963312	
! Port Impedance	50.00000000000000	0.00000000000000	
623.75	-0.05631894955	0.001728137281	
! Port Impedance	50.00000000000000	0.00000000000000	
625.0	-0.05016300888	-0.02055291001	
! Port Impedance	50.00000000000000	0.00000000000000	
626.25	-0.03550169274	-0.01062420158	
! Port Impedance	50.00000000000000	0.00000000000000	
627.5	-0.03543438843	-0.01344300218	
! Port Impedance	50.00000000000000	0.00000000000000	
628.75	-0.007044099223	-0.01013891319	
! Port Impedance	50.00000000000000	0.00000000000000	
630.0	0.03121493995	0.005869761669	
! Port Impedance	50.00000000000000	0.00000000000000	
631.25	0.05054817237	-0.004381722702	
! Port Impedance	50.00000000000000	0.00000000000000	
632.5	0.06218259209	-0.02081013301	
! Port Impedance	50.00000000000000	0.00000000000000	
633.75	0.03716832359	-0.01376306234	
! Port Impedance	50.00000000000000	0.00000000000000	
635.0	0.02128203689	-0.00505010842	
! Port Impedance	50.00000000000000	0.00000000000000	
636.25	0.01568960631	0.01113927173	
! Port Impedance	50.00000000000000	0.00000000000000	
637.5	-0.008389738169	0.03236914522	
! Port Impedance	50.00000000000000	0.00000000000000	
638.75	-0.02900584638	0.0443107404	
! Port Impedance	50.00000000000000	0.00000000000000	
640.0	-0.03424222017	0.0328619974	
! Port Impedance	50.00000000000000	0.00000000000000	
641.25	-0.03179579362	0.01911286459	
! Port Impedance	50.00000000000000	0.00000000000000	
642.5	-0.01719294249	-0.01858829989	
! Port Impedance	50.00000000000000	0.00000000000000	
643.75	-0.0005152533844	-0.03138284922	
! Port Impedance	50.00000000000000	0.00000000000000	
645.0	-0.009581779707	-0.02812554801	
! Port Impedance	50.00000000000000	0.00000000000000	
646.25	-0.0009766351472	-0.03807663021	
! Port Impedance	50.00000000000000	0.00000000000000	
647.5	0.01673069912	-0.0267823491	
! Port Impedance	50.00000000000000	0.00000000000000	
648.75	0.02358903324	-0.004190132827	
! Port Impedance	50.00000000000000	0.00000000000000	
650.0	0.03074246492	0.01243491114	
! Port Impedance	50.00000000000000	0.00000000000000	
651.25	0.03319050818	0.03731946144	
! Port Impedance	50.00000000000000	0.00000000000000	
652.5	0.01045274068	0.04111219638	
! Port Impedance	50.00000000000000	0.00000000000000	
653.75	-0.006989665222	0.01428638695	
! Port Impedance	50.00000000000000	0.00000000000000	
655.0	-0.0134778526	-0.01463215605	
! Port Impedance	50.00000000000000	0.00000000000000	
656.25	-0.03379726752	-0.0308855049	
! Port Impedance	50.00000000000000	0.00000000000000	
657.5	-0.04363095519	-0.03233470352	
! Port Impedance	50.00000000000000	0.00000000000000	
658.75	-0.04233406588	-0.01684162774	
! Port Impedance	50.00000000000000	0.00000000000000	
660.0	-0.02802737834	-0.005102708404	
! Port Impedance	50.00000000000000	0.00000000000000	
661.25	-0.004209508601	-0.01782134795	
! Port Impedance	50.00000000000000	0.00000000000000	
662.5	0.009129778689	-0.04146098976	
! Port Impedance	50.00000000000000	0.00000000000000	
663.75	0.0343130211	-0.04691099194	
! Port Impedance	50.00000000000000	0.00000000000000	
665.0	0.05351818581	-0.0154944626	
! Port Impedance	50.00000000000000	0.00000000000000	
666.25	0.0172402964	0.01050058417	
! Port Impedance	50.00000000000000	0.00000000000000	
667.5	-0.008946902357	0.01605305631	
! Port Impedance	50.00000000000000	0.00000000000000	
668.75	-0.03735222043	0.01640133836	
! Port Impedance	50.00000000000000	0.00000000000000	
670.0	-0.04559314779	0.01055247312	
! Port Impedance	50.00000000000000	0.00000000000000	
671.25	-0.0394366604	0.008498510927	
! Port Impedance	50.00000000000000	0.00000000000000	
672.5	-0.02619053356	0.003315951302	
! Port Impedance	50.00000000000000	0.00000000000000	
673.75	-0.02130278317	-0.02234101495	
! Port Impedance	50.00000000000000	0.00000000000000	
675.0	0.0003944982236	-0.05068699283	
! Port Impedance	50.00000000000000	0.00000000000000	
676.25	0.02590456132	-0.03516563643	
! Port Impedance	50.00000000000000	0.00000000000000	
677.5	0.009499190481	-0.01746475052	
! Port Impedance	50.00000000000000	0.00000000000000	
678.75	0.01988556784	0.01457189452	
! Port Impedance	50.00000000000000	0.00000000000000	
680.0	0.02122608069	0.04731402429	
! Port Impedance	50.00000000000000	0.00000000000000	
681.25	0.02892917661	0.03675981128	
! Port Impedance	50.00000000000000	0.00000000000000	
682.5	0.02558216046	0.0325941465	
! Port Impedance	50.00000000000000	0.00000000000000	
683.75	-0.007455302576	0.02544621991	
! Port Impedance	50.00000000000000	0.00000000000000	
685.0	-0.01384841629	-0.02768274532	
! Port Impedance	50.00000000000000	0.00000000000000	
686.25	0.02355958432	-0.05093149125	
! Port Impedance	50.00000000000000	0.00000000000000	
687.5	0.02146596504	-0.06190672845	
! Port Impedance	50.00000000000000	0.00000000000000	
688.75	0.01594870919	-0.03869526501	
! Port Impedance	50.00000000000000	0.00000000000000	
690.0	0.007312997609	0.0160251452	
! Port Impedance	50.00000000000000	0.00000000000000	
691.25	0.003923213494	0.04639994177	
! Port Impedance	50.00000000000000	0.00000000000000	
692.5	0.05238053679	0.01074713713	
! Port Impedance	50.00000000000000	0.00000000000000	
693.75	0.05580444451	-0.01993679263	
! Port Impedance	50.00000000000000	0.00000000000000	
695.0	0.01961341341	0.0238018725	
! Port Impedance	50.00000000000000	0.00000000000000	
696.25	-0.01600477055	-0.01900979418	
! Port Impedance	50.00000000000000	0.00000000000000	
697.5	0.0101668123	-0.04710387406	
! Port Impedance	50.00000000000000	0.00000000000000	
698.75	0.02547032392	-0.05144001178	
! Port Impedance	50.00000000000000	0.00000000000000	
700.0	0.01871259596	-0.02053414248	
! Port Impedance	50.00000000000000	0.00000000000000	
701.25	0.0238031583	0.01074450721	
! Port Impedance	50.00000000000000	0.00000000000000	
702.5	0.03667683438	0.01871305655	
! Port Impedance	50.00000000000000	0.00000000000000	
703.75	0.04711709388	0.001324766324	
! Port Impedance	50.00000000000000	0.00000000000000	
705.0	0.02656343696	0.02818744144	
! Port Impedance	50.00000000000000	0.00000000000000	
706.25	-0.01722551083	0.02676704748	
! Port Impedance	50.00000000000000	0.00000000000000	
707.5	-0.03560149586	-0.01281669302	
! Port Impedance	50.00000000000000	0.00000000000000	
708.75	-0.002605872761	-0.06186653458	
! Port Impedance	50.00000000000000	0.00000000000000	
710.0	0.03125609834	-0.02840850325	
! Port Impedance	50.00000000000000	0.00000000000000	
711.25	-0.0005012423136	0.005758760528	
! Port Impedance	50.00000000000000	0.00000000000000	
712.5	-0.001925380867	0.04482432383	
! Port Impedance	50.00000000000000	0.00000000000000	
713.75	0.05845032665	0.03999326866	
! Port Impedance	50.00000000000000	0.00000000000000	
715.0	0.04768423794	0.008145636875	
! Port Impedance	50.00000000000000	0.00000000000000	
716.25	0.008707879257	0.0188725929	
! Port Impedance	50.00000000000000	0.00000000000000	
717.5	-0.03179519848	0.007543573104	
! Port Impedance	50.00000000000000	0.00000000000000	
718.75	-0.03991868376	-0.03823313654	
! Port Impedance	50.00000000000000	0.00000000000000	
720.0	0.01862223565	-0.05786201387	
! Port Impedance	50.00000000000000	0.00000000000000	
721.25	0.02498546171	0.01298319443	
! Port Impedance	50.00000000000000	0.00000000000000	
722.5	-0.01796379723	-0.005884051522	
! Port Impedance	50.00000000000000	0.00000000000000	
723.75	-0.07166230198	0.0305351168	
! Port Impedance	50.00000000000000	0.00000000000000	
725.0	-0.03524935118	0.05489536597	
! Port Impedance	50.00000000000000	0.00000000000000	
726.25	-0.01657745246	0.01784805818	
! Port Impedance	50.00000000000000	0.00000000000000	
727.5	-0.01651956494	-0.02626277594	
! Port Impedance	50.00000000000000	0.00000000000000	
728.75	0.02177580043	-0.04427278808	
! Port Impedance	50.00000000000000	0.00000000000000	
730.0	-0.008411175392	-0.05819903686	
! Port Impedance	50.00000000000000	0.00000000000000	
731.25	0.009961193164	-0.04022629392	
! Port Impedance	50.00000000000000	0.00000000000000	
732.5	0.005528502617	0.01544452458	
! Port Impedance	50.00000000000000	0.00000000000000	
733.75	-0.0469485126	0.01950642877	
! Port Impedance	50.00000000000000	0.00000000000000	
735.0	-0.03574782245	0.05763040477	
! Port Impedance	50.00000000000000	0.00000000000000	
736.25	-0.01162589741	0.02756623434	
! Port Impedance	50.00000000000000	0.00000000000000	
737.5	-0.0322671011	-0.02238504095	
! Port Impedance	50.00000000000000	0.00000000000000	
738.75	0.006000390103	-0.05196298761	
! Port Impedance	50.00000000000000	0.00000000000000	
740.0	0.002795747589	-0.04633021673	
! Port Impedance	50.00000000000000	0.00000000000000	
741.25	0.003997020596	-0.04187953203	
! Port Impedance	50.00000000000000	0.00000000000000	
742.5	0.01015060682	0.01345291605	
! Port Impedance	50.00000000000000	0.00000000000000	
743.75	-0.05798882057	-0.01738141867	
! Port Impedance	50.00000000000000	0.00000000000000	
745.0	-0.07211247933	-0.006040953968	
! Port Impedance	50.00000000000000	0.00000000000000	
746.25	-0.0200931712	0.0462966654	
! Port Impedance	50.00000000000000	0.00000000000000	
747.5	-0.01095877273	-0.01975404544	
! Port Impedance	50.00000000000000	0.00000000000000	
748.75	-0.02244539995	-0.05202006076	
! Port Impedance	50.00000000000000	0.00000000000000	
750.0	-0.03971231753	0.02686920249	
! Port Impedance	50.00000000000000	0.00000000000000	
