# HZ S RI R 50
7.50000000000e+10 +8.18286343757e-01 -3.85608354912e-01 +1.81713656243e-01 +3.85608354912e-01 +1.81713656243e-01 +3.85608354912e-01 +8.18286343757e-01 -3.85608354912e-01
7.53500000000e+10 +8.16897657404e-01 -3.86750403661e-01 +1.83102342596e-01 +3.86750403661e-01 +1.83102342596e-01 +3.86750403661e-01 +8.16897657404e-01 -3.86750403661e-01
7.57000000000e+10 +8.15507243877e-01 -3.87885523140e-01 +1.84492756123e-01 +3.87885523140e-01 +1.84492756123e-01 +3.87885523140e-01 +8.15507243877e-01 -3.87885523140e-01
7.60500000000e+10 +8.14115144824e-01 -3.89013721856e-01 +1.85884855176e-01 +3.89013721856e-01 +1.85884855176e-01 +3.89013721856e-01 +8.14115144824e-01 -3.89013721856e-01
7.64000000000e+10 +8.12721401693e-01 -3.90135008584e-01 +1.87278598307e-01 +3.90135008584e-01 +1.87278598307e-01 +3.90135008584e-01 +8.12721401693e-01 -3.90135008584e-01
7.67500000000e+10 +8.11326055724e-01 -3.91249392367e-01 +1.88673944276e-01 +3.91249392367e-01 +1.88673944276e-01 +3.91249392367e-01 +8.11326055724e-01 -3.91249392367e-01
7.71000000000e+10 +8.09929147951e-01 -3.92356882507e-01 +1.90070852049e-01 +3.92356882507e-01 +1.90070852049e-01 +3.92356882507e-01 +8.09929147951e-01 -3.92356882507e-01
7.74500000000e+10 +8.08530719200e-01 -3.93457488568e-01 +1.91469280800e-01 +3.93457488568e-01 +1.91469280800e-01 +3.93457488568e-01 +8.08530719200e-01 -3.93457488568e-01
7.78000000000e+10 +8.07130810087e-01 -3.94551220370e-01 +1.92869189913e-01 +3.94551220370e-01 +1.92869189913e-01 +3.94551220370e-01 +8.07130810087e-01 -3.94551220370e-01
7.81500000000e+10 +8.05729461018e-01 -3.95638087987e-01 +1.94270538982e-01 +3.95638087987e-01 +1.94270538982e-01 +3.95638087987e-01 +8.05729461018e-01 -3.95638087987e-01
7.85000000000e+10 +8.04326712185e-01 -3.96718101743e-01 +1.95673287815e-01 +3.96718101743e-01 +1.95673287815e-01 +3.96718101743e-01 +8.04326712185e-01 -3.96718101743e-01
7.88500000000e+10 +8.02922603568e-01 -3.97791272212e-01 +1.97077396432e-01 +3.97791272212e-01 +1.97077396432e-01 +3.97791272212e-01 +8.02922603568e-01 -3.97791272212e-01
7.92000000000e+10 +8.01517174931e-01 -3.98857610209e-01 +1.98482825069e-01 +3.98857610209e-01 +1.98482825069e-01 +3.98857610209e-01 +8.01517174931e-01 -3.98857610209e-01
7.95500000000e+10 +8.00110465824e-01 -3.99917126794e-01 +1.99889534176e-01 +3.99917126794e-01 +1.99889534176e-01 +3.99917126794e-01 +8.00110465824e-01 -3.99917126794e-01
7.99000000000e+10 +7.98702515578e-01 -4.00969833264e-01 +2.01297484422e-01 +4.00969833264e-01 +2.01297484422e-01 +4.00969833264e-01 +7.98702515578e-01 -4.00969833264e-01
8.02500000000e+10 +7.97293363305e-01 -4.02015741153e-01 +2.02706636695e-01 +4.02015741153e-01 +2.02706636695e-01 +4.02015741153e-01 +7.97293363305e-01 -4.02015741153e-01
8.06000000000e+10 +7.95883047900e-01 -4.03054862228e-01 +2.04116952100e-01 +4.03054862228e-01 +2.04116952100e-01 +4.03054862228e-01 +7.95883047900e-01 -4.03054862228e-01
8.09500000000e+10 +7.94471608036e-01 -4.04087208484e-01 +2.05528391964e-01 +4.04087208484e-01 +2.05528391964e-01 +4.04087208484e-01 +7.94471608036e-01 -4.04087208484e-01
8.13000000000e+10 +7.93059082164e-01 -4.05112792147e-01 +2.06940917836e-01 +4.05112792147e-01 +2.06940917836e-01 +4.05112792147e-01 +7.93059082164e-01 -4.05112792147e-01
8.16500000000e+10 +7.91645508514e-01 -4.06131625663e-01 +2.08354491486e-01 +4.06131625663e-01 +2.08354491486e-01 +4.06131625663e-01 +7.91645508514e-01 -4.06131625663e-01
8.20000000000e+10 +7.90230925092e-01 -4.07143721701e-01 +2.09769074908e-01 +4.07143721701e-01 +2.09769074908e-01 +4.07143721701e-01 +7.90230925092e-01 -4.07143721701e-01
8.23500000000e+10 +7.88815369678e-01 -4.08149093148e-01 +2.11184630322e-01 +4.08149093148e-01 +2.11184630322e-01 +4.08149093148e-01 +7.88815369678e-01 -4.08149093148e-01
8.27000000000e+10 +7.87398879830e-01 -4.09147753107e-01 +2.12601120170e-01 +4.09147753107e-01 +2.12601120170e-01 +4.09147753107e-01 +7.87398879830e-01 -4.09147753107e-01
8.30500000000e+10 +7.85981492877e-01 -4.10139714892e-01 +2.14018507123e-01 +4.10139714892e-01 +2.14018507123e-01 +4.10139714892e-01 +7.85981492877e-01 -4.10139714892e-01
8.34000000000e+10 +7.84563245922e-01 -4.11124992028e-01 +2.15436754078e-01 +4.11124992028e-01 +2.15436754078e-01 +4.11124992028e-01 +7.84563245922e-01 -4.11124992028e-01
8.37500000000e+10 +7.83144175842e-01 -4.12103598246e-01 +2.16855824158e-01 +4.12103598246e-01 +2.16855824158e-01 +4.12103598246e-01 +7.83144175842e-01 -4.12103598246e-01
8.41000000000e+10 +7.81724319282e-01 -4.13075547479e-01 +2.18275680718e-01 +4.13075547479e-01 +2.18275680718e-01 +4.13075547479e-01 +7.81724319282e-01 -4.13075547479e-01
8.44500000000e+10 +7.80303712662e-01 -4.14040853863e-01 +2.19696287338e-01 +4.14040853863e-01 +2.19696287338e-01 +4.14040853863e-01 +7.80303712662e-01 -4.14040853863e-01
8.48000000000e+10 +7.78882392170e-01 -4.14999531732e-01 +2.21117607830e-01 +4.14999531732e-01 +2.21117607830e-01 +4.14999531732e-01 +7.78882392170e-01 -4.14999531732e-01
8.51500000000e+10 +7.77460393762e-01 -4.15951595613e-01 +2.22539606238e-01 +4.15951595613e-01 +2.22539606238e-01 +4.15951595613e-01 +7.77460393762e-01 -4.15951595613e-01
8.55000000000e+10 +7.76037753167e-01 -4.16897060228e-01 +2.23962246833e-01 +4.16897060228e-01 +2.23962246833e-01 +4.16897060228e-01 +7.76037753167e-01 -4.16897060228e-01
8.58500000000e+10 +7.74614505878e-01 -4.17835940485e-01 +2.25385494122e-01 +4.17835940485e-01 +2.25385494122e-01 +4.17835940485e-01 +7.74614505878e-01 -4.17835940485e-01
8.62000000000e+10 +7.73190687160e-01 -4.18768251481e-01 +2.26809312840e-01 +4.18768251481e-01 +2.26809312840e-01 +4.18768251481e-01 +7.73190687160e-01 -4.18768251481e-01
8.65500000000e+10 +7.71766332043e-01 -4.19694008497e-01 +2.28233667957e-01 +4.19694008497e-01 +2.28233667957e-01 +4.19694008497e-01 +7.71766332043e-01 -4.19694008497e-01
8.69000000000e+10 +7.70341475323e-01 -4.20613226992e-01 +2.29658524677e-01 +4.20613226992e-01 +2.29658524677e-01 +4.20613226992e-01 +7.70341475323e-01 -4.20613226992e-01
8.72500000000e+10 +7.68916151564e-01 -4.21525922605e-01 +2.31083848436e-01 +4.21525922605e-01 +2.31083848436e-01 +4.21525922605e-01 +7.68916151564e-01 -4.21525922605e-01
8.76000000000e+10 +7.67490395096e-01 -4.22432111151e-01 +2.32509604904e-01 +4.22432111151e-01 +2.32509604904e-01 +4.22432111151e-01 +7.67490395096e-01 -4.22432111151e-01
8.79500000000e+10 +7.66064240014e-01 -4.23331808616e-01 +2.33935759986e-01 +4.23331808616e-01 +2.33935759986e-01 +4.23331808616e-01 +7.66064240014e-01 -4.23331808616e-01
8.83000000000e+10 +7.64637720178e-01 -4.24225031156e-01 +2.35362279822e-01 +4.24225031156e-01 +2.35362279822e-01 +4.24225031156e-01 +7.64637720178e-01 -4.24225031156e-01
8.86500000000e+10 +7.63210869214e-01 -4.25111795094e-01 +2.36789130786e-01 +4.25111795094e-01 +2.36789130786e-01 +4.25111795094e-01 +7.63210869214e-01 -4.25111795094e-01
8.90000000000e+10 +7.61783720511e-01 -4.25992116917e-01 +2.38216279489e-01 +4.25992116917e-01 +2.38216279489e-01 +4.25992116917e-01 +7.61783720511e-01 -4.25992116917e-01
8.93500000000e+10 +7.60356307224e-01 -4.26866013274e-01 +2.39643692776e-01 +4.26866013274e-01 +2.39643692776e-01 +4.26866013274e-01 +7.60356307224e-01 -4.26866013274e-01
8.97000000000e+10 +7.58928662272e-01 -4.27733500972e-01 +2.41071337728e-01 +4.27733500972e-01 +2.41071337728e-01 +4.27733500972e-01 +7.58928662272e-01 -4.27733500972e-01
9.00500000000e+10 +7.57500818336e-01 -4.28594596975e-01 +2.42499181664e-01 +4.28594596975e-01 +2.42499181664e-01 +4.28594596975e-01 +7.57500818336e-01 -4.28594596975e-01
9.04000000000e+10 +7.56072807862e-01 -4.29449318399e-01 +2.43927192138e-01 +4.29449318399e-01 +2.43927192138e-01 +4.29449318399e-01 +7.56072807862e-01 -4.29449318399e-01
9.07500000000e+10 +7.54644663060e-01 -4.30297682512e-01 +2.45355336940e-01 +4.30297682512e-01 +2.45355336940e-01 +4.30297682512e-01 +7.54644663060e-01 -4.30297682512e-01
9.11000000000e+10 +7.53216415904e-01 -4.31139706727e-01 +2.46783584096e-01 +4.31139706727e-01 +2.46783584096e-01 +4.31139706727e-01 +7.53216415904e-01 -4.31139706727e-01
9.14500000000e+10 +7.51788098129e-01 -4.31975408607e-01 +2.48211901871e-01 +4.31975408607e-01 +2.48211901871e-01 +4.31975408607e-01 +7.51788098129e-01 -4.31975408607e-01
9.18000000000e+10 +7.50359741235e-01 -4.32804805852e-01 +2.49640258765e-01 +4.32804805852e-01 +2.49640258765e-01 +4.32804805852e-01 +7.50359741235e-01 -4.32804805852e-01
9.21500000000e+10 +7.48931376484e-01 -4.33627916308e-01 +2.51068623516e-01 +4.33627916308e-01 +2.51068623516e-01 +4.33627916308e-01 +7.48931376484e-01 -4.33627916308e-01
9.25000000000e+10 +7.47503034904e-01 -4.34444757953e-01 +2.52496965096e-01 +4.34444757953e-01 +2.52496965096e-01 +4.34444757953e-01 +7.47503034904e-01 -4.34444757953e-01
9.28500000000e+10 +7.46074747283e-01 -4.35255348904e-01 +2.53925252717e-01 +4.35255348904e-01 +2.53925252717e-01 +4.35255348904e-01 +7.46074747283e-01 -4.35255348904e-01
9.32000000000e+10 +7.44646544174e-01 -4.36059707407e-01 +2.55353455826e-01 +4.36059707407e-01 +2.55353455826e-01 +4.36059707407e-01 +7.44646544174e-01 -4.36059707407e-01
9.35500000000e+10 +7.43218455892e-01 -4.36857851839e-01 +2.56781544108e-01 +4.36857851839e-01 +2.56781544108e-01 +4.36857851839e-01 +7.43218455892e-01 -4.36857851839e-01
9.39000000000e+10 +7.41790512517e-01 -4.37649800705e-01 +2.58209487483e-01 +4.37649800705e-01 +2.58209487483e-01 +4.37649800705e-01 +7.41790512517e-01 -4.37649800705e-01
9.42500000000e+10 +7.40362743891e-01 -4.38435572632e-01 +2.59637256109e-01 +4.38435572632e-01 +2.59637256109e-01 +4.38435572632e-01 +7.40362743891e-01 -4.38435572632e-01
9.46000000000e+10 +7.38935179621e-01 -4.39215186372e-01 +2.61064820379e-01 +4.39215186372e-01 +2.61064820379e-01 +4.39215186372e-01 +7.38935179621e-01 -4.39215186372e-01
9.49500000000e+10 +7.37507849076e-01 -4.39988660794e-01 +2.62492150924e-01 +4.39988660794e-01 +2.62492150924e-01 +4.39988660794e-01 +7.37507849076e-01 -4.39988660794e-01
9.53000000000e+10 +7.36080781391e-01 -4.40756014886e-01 +2.63919218609e-01 +4.40756014886e-01 +2.63919218609e-01 +4.40756014886e-01 +7.36080781391e-01 -4.40756014886e-01
9.56500000000e+10 +7.34654005463e-01 -4.41517267748e-01 +2.65345994537e-01 +4.41517267748e-01 +2.65345994537e-01 +4.41517267748e-01 +7.34654005463e-01 -4.41517267748e-01
9.60000000000e+10 +7.33227549956e-01 -4.42272438596e-01 +2.66772450044e-01 +4.42272438596e-01 +2.66772450044e-01 +4.42272438596e-01 +7.33227549956e-01 -4.42272438596e-01
9.63500000000e+10 +7.31801443297e-01 -4.43021546751e-01 +2.68198556703e-01 +4.43021546751e-01 +2.68198556703e-01 +4.43021546751e-01 +7.31801443297e-01 -4.43021546751e-01
9.67000000000e+10 +7.30375713676e-01 -4.43764611645e-01 +2.69624286324e-01 +4.43764611645e-01 +2.69624286324e-01 +4.43764611645e-01 +7.30375713676e-01 -4.43764611645e-01
9.70500000000e+10 +7.28950389053e-01 -4.44501652812e-01 +2.71049610947e-01 +4.44501652812e-01 +2.71049610947e-01 +4.44501652812e-01 +7.28950389053e-01 -4.44501652812e-01
9.74000000000e+10 +7.27525497148e-01 -4.45232689891e-01 +2.72474502852e-01 +4.45232689891e-01 +2.72474502852e-01 +4.45232689891e-01 +7.27525497148e-01 -4.45232689891e-01
9.77500000000e+10 +7.26101065452e-01 -4.45957742619e-01 +2.73898934548e-01 +4.45957742619e-01 +2.73898934548e-01 +4.45957742619e-01 +7.26101065452e-01 -4.45957742619e-01
9.81000000000e+10 +7.24677121217e-01 -4.46676830831e-01 +2.75322878783e-01 +4.46676830831e-01 +2.75322878783e-01 +4.46676830831e-01 +7.24677121217e-01 -4.46676830831e-01
9.84500000000e+10 +7.23253691467e-01 -4.47389974459e-01 +2.76746308533e-01 +4.47389974459e-01 +2.76746308533e-01 +4.47389974459e-01 +7.23253691467e-01 -4.47389974459e-01
9.88000000000e+10 +7.21830802988e-01 -4.48097193526e-01 +2.78169197012e-01 +4.48097193526e-01 +2.78169197012e-01 +4.48097193526e-01 +7.21830802988e-01 -4.48097193526e-01
9.91500000000e+10 +7.20408482337e-01 -4.48798508146e-01 +2.79591517663e-01 +4.48798508146e-01 +2.79591517663e-01 +4.48798508146e-01 +7.20408482337e-01 -4.48798508146e-01
9.95000000000e+10 +7.18986755836e-01 -4.49493938522e-01 +2.81013244164e-01 +4.49493938522e-01 +2.81013244164e-01 +4.49493938522e-01 +7.18986755836e-01 -4.49493938522e-01
9.98500000000e+10 +7.17565649578e-01 -4.50183504944e-01 +2.82434350422e-01 +4.50183504944e-01 +2.82434350422e-01 +4.50183504944e-01 +7.17565649578e-01 -4.50183504944e-01
1.00200000000e+11 +7.16145189421e-01 -4.50867227784e-01 +2.83854810579e-01 +4.50867227784e-01 +2.83854810579e-01 +4.50867227784e-01 +7.16145189421e-01 -4.50867227784e-01
1.00550000000e+11 +7.14725400997e-01 -4.51545127497e-01 +2.85274599003e-01 +4.51545127497e-01 +2.85274599003e-01 +4.51545127497e-01 +7.14725400997e-01 -4.51545127497e-01
1.00900000000e+11 +7.13306309704e-01 -4.52217224617e-01 +2.86693690296e-01 +4.52217224617e-01 +2.86693690296e-01 +4.52217224617e-01 +7.13306309704e-01 -4.52217224617e-01
1.01250000000e+11 +7.11887940711e-01 -4.52883539755e-01 +2.88112059289e-01 +4.52883539755e-01 +2.88112059289e-01 +4.52883539755e-01 +7.11887940711e-01 -4.52883539755e-01
1.01600000000e+11 +7.10470318959e-01 -4.53544093598e-01 +2.89529681041e-01 +4.53544093598e-01 +2.89529681041e-01 +4.53544093598e-01 +7.10470318959e-01 -4.53544093598e-01
1.01950000000e+11 +7.09053469158e-01 -4.54198906904e-01 +2.90946530842e-01 +4.54198906904e-01 +2.90946530842e-01 +4.54198906904e-01 +7.09053469158e-01 -4.54198906904e-01
1.02300000000e+11 +7.07637415794e-01 -4.54848000504e-01 +2.92362584206e-01 +4.54848000504e-01 +2.92362584206e-01 +4.54848000504e-01 +7.07637415794e-01 -4.54848000504e-01
1.02650000000e+11 +7.06222183120e-01 -4.55491395297e-01 +2.93777816880e-01 +4.55491395297e-01 +2.93777816880e-01 +4.55491395297e-01 +7.06222183120e-01 -4.55491395297e-01
1.03000000000e+11 +7.04807795167e-01 -4.56129112247e-01 +2.95192204833e-01 +4.56129112247e-01 +2.95192204833e-01 +4.56129112247e-01 +7.04807795167e-01 -4.56129112247e-01
1.03350000000e+11 +7.03394275736e-01 -4.56761172384e-01 +2.96605724264e-01 +4.56761172384e-01 +2.96605724264e-01 +4.56761172384e-01 +7.03394275736e-01 -4.56761172384e-01
1.03700000000e+11 +7.01981648406e-01 -4.57387596801e-01 +2.98018351594e-01 +4.57387596801e-01 +2.98018351594e-01 +4.57387596801e-01 +7.01981648406e-01 -4.57387596801e-01
1.04050000000e+11 +7.00569936529e-01 -4.58008406649e-01 +2.99430063471e-01 +4.58008406649e-01 +2.99430063471e-01 +4.58008406649e-01 +7.00569936529e-01 -4.58008406649e-01
1.04400000000e+11 +6.99159163231e-01 -4.58623623139e-01 +3.00840836769e-01 +4.58623623139e-01 +3.00840836769e-01 +4.58623623139e-01 +6.99159163231e-01 -4.58623623139e-01
1.04750000000e+11 +6.97749351417e-01 -4.59233267538e-01 +3.02250648583e-01 +4.59233267538e-01 +3.02250648583e-01 +4.59233267538e-01 +6.97749351417e-01 -4.59233267538e-01
1.05100000000e+11 +6.96340523770e-01 -4.59837361168e-01 +3.03659476230e-01 +4.59837361168e-01 +3.03659476230e-01 +4.59837361168e-01 +6.96340523770e-01 -4.59837361168e-01
1.05450000000e+11 +6.94932702747e-01 -4.60435925401e-01 +3.05067297253e-01 +4.60435925401e-01 +3.05067297253e-01 +4.60435925401e-01 +6.94932702747e-01 -4.60435925401e-01
1.05800000000e+11 +6.93525910586e-01 -4.61028981661e-01 +3.06474089414e-01 +4.61028981661e-01 +3.06474089414e-01 +4.61028981661e-01 +6.93525910586e-01 -4.61028981661e-01
1.06150000000e+11 +6.92120169305e-01 -4.61616551421e-01 +3.07879830695e-01 +4.61616551421e-01 +3.07879830695e-01 +4.61616551421e-01 +6.92120169305e-01 -4.61616551421e-01
1.06500000000e+11 +6.90715500700e-01 -4.62198656200e-01 +3.09284499300e-01 +4.62198656200e-01 +3.09284499300e-01 +4.62198656200e-01 +6.90715500700e-01 -4.62198656200e-01
1.06850000000e+11 +6.89311926349e-01 -4.62775317559e-01 +3.10688073651e-01 +4.62775317559e-01 +3.10688073651e-01 +4.62775317559e-01 +6.89311926349e-01 -4.62775317559e-01
1.07200000000e+11 +6.87909467612e-01 -4.63346557106e-01 +3.12090532388e-01 +4.63346557106e-01 +3.12090532388e-01 +4.63346557106e-01 +6.87909467612e-01 -4.63346557106e-01
1.07550000000e+11 +6.86508145629e-01 -4.63912396487e-01 +3.13491854371e-01 +4.63912396487e-01 +3.13491854371e-01 +4.63912396487e-01 +6.86508145629e-01 -4.63912396487e-01
1.07900000000e+11 +6.85107981327e-01 -4.64472857387e-01 +3.14892018673e-01 +4.64472857387e-01 +3.14892018673e-01 +4.64472857387e-01 +6.85107981327e-01 -4.64472857387e-01
1.08250000000e+11 +6.83708995413e-01 -4.65027961530e-01 +3.16291004587e-01 +4.65027961530e-01 +3.16291004587e-01 +4.65027961530e-01 +6.83708995413e-01 -4.65027961530e-01
1.08600000000e+11 +6.82311208381e-01 -4.65577730673e-01 +3.17688791619e-01 +4.65577730673e-01 +3.17688791619e-01 +4.65577730673e-01 +6.82311208381e-01 -4.65577730673e-01
1.08950000000e+11 +6.80914640510e-01 -4.66122186609e-01 +3.19085359490e-01 +4.66122186609e-01 +3.19085359490e-01 +4.66122186609e-01 +6.80914640510e-01 -4.66122186609e-01
1.09300000000e+11 +6.79519311867e-01 -4.66661351160e-01 +3.20480688133e-01 +4.66661351160e-01 +3.20480688133e-01 +4.66661351160e-01 +6.79519311867e-01 -4.66661351160e-01
1.09650000000e+11 +6.78125242305e-01 -4.67195246181e-01 +3.21874757695e-01 +4.67195246181e-01 +3.21874757695e-01 +4.67195246181e-01 +6.78125242305e-01 -4.67195246181e-01
1.10000000000e+11 +6.76732451464e-01 -4.67723893552e-01 +3.23267548536e-01 +4.67723893552e-01 +3.23267548536e-01 +4.67723893552e-01 +6.76732451464e-01 -4.67723893552e-01
