# HZ S RI R 50
4.00000000000e+07 -9.03235729001e-03 -3.36317327770e-02 +9.65211447926e-01 -2.52694586273e-01 +9.65211447926e-01 -2.52694586273e-01 -9.03235729001e-03 -3.36317327770e-02
4.06000000000e+07 -9.29376906716e-03 -3.40890755940e-02 +9.64205044375e-01 -2.56388964716e-01 +9.64205044375e-01 -2.56388964716e-01 -9.29376906716e-03 -3.40890755940e-02
4.12000000000e+07 -9.55865650401e-03 -3.45443766676e-02 +9.63184390978e-01 -2.60079166389e-01 +9.63184390978e-01 -2.60079166389e-01 -9.55865650401e-03 -3.45443766676e-02
4.18000000000e+07 -9.82700367970e-03 -3.49976093920e-02 +9.62149505336e-01 -2.63765133950e-01 +9.62149505336e-01 -2.63765133950e-01 -9.82700367970e-03 -3.49976093920e-02
4.24000000000e+07 -1.00987944581e-02 -3.54487472910e-02 +9.61100405374e-01 -2.67446810160e-01 +9.61100405374e-01 -2.67446810160e-01 -1.00987944581e-02 -3.54487472910e-02
4.30000000000e+07 -1.03740124893e-02 -3.58977640187e-02 +9.60037109334e-01 -2.71124137888e-01 +9.60037109334e-01 -2.71124137888e-01 -1.03740124893e-02 -3.58977640187e-02
4.36000000000e+07 -1.06526412112e-02 -3.63446333622e-02 +9.58959635776e-01 -2.74797060109e-01 +9.58959635776e-01 -2.74797060109e-01 -1.06526412112e-02 -3.63446333622e-02
4.42000000000e+07 -1.09346638511e-02 -3.67893292426e-02 +9.57868003571e-01 -2.78465519910e-01 +9.57868003571e-01 -2.78465519910e-01 -1.09346638511e-02 -3.67893292426e-02
4.48000000000e+07 -1.12200634274e-02 -3.72318257170e-02 +9.56762231900e-01 -2.82129460488e-01 +9.56762231900e-01 -2.82129460488e-01 -1.12200634274e-02 -3.72318257170e-02
4.54000000000e+07 -1.15088227507e-02 -3.76720969800e-02 +9.55642340246e-01 -2.85788825154e-01 +9.55642340246e-01 -2.85788825154e-01 -1.15088227507e-02 -3.76720969800e-02
4.60000000000e+07 -1.18009244255e-02 -3.81101173656e-02 +9.54508348396e-01 -2.89443557332e-01 +9.54508348396e-01 -2.89443557332e-01 -1.18009244255e-02 -3.81101173656e-02
4.66000000000e+07 -1.20963508520e-02 -3.85458613487e-02 +9.53360276432e-01 -2.93093600565e-01 +9.53360276432e-01 -2.93093600565e-01 -1.20963508520e-02 -3.85458613487e-02
4.72000000000e+07 -1.23950842273e-02 -3.89793035465e-02 +9.52198144733e-01 -2.96738898512e-01 +9.52198144733e-01 -2.96738898512e-01 -1.23950842273e-02 -3.89793035465e-02
4.78000000000e+07 -1.26971065470e-02 -3.94104187206e-02 +9.51021973970e-01 -3.00379394953e-01 +9.51021973970e-01 -3.00379394953e-01 -1.26971065470e-02 -3.94104187206e-02
4.84000000000e+07 -1.30023996064e-02 -3.98391817781e-02 +9.49831785102e-01 -3.04015033789e-01 +9.49831785102e-01 -3.04015033789e-01 -1.30023996064e-02 -3.98391817781e-02
4.90000000000e+07 -1.33109450028e-02 -4.02655677734e-02 +9.48627599374e-01 -3.07645759043e-01 +9.48627599374e-01 -3.07645759043e-01 -1.33109450028e-02 -4.02655677734e-02
4.96000000000e+07 -1.36227241359e-02 -4.06895519100e-02 +9.47409438314e-01 -3.11271514862e-01 +9.47409438314e-01 -3.11271514862e-01 -1.36227241359e-02 -4.06895519100e-02
5.02000000000e+07 -1.39377182103e-02 -4.11111095416e-02 +9.46177323732e-01 -3.14892245521e-01 +9.46177323732e-01 -3.14892245521e-01 -1.39377182103e-02 -4.11111095416e-02
5.08000000000e+07 -1.42559082364e-02 -4.15302161740e-02 +9.44931277715e-01 -3.18507895420e-01 +9.44931277715e-01 -3.18507895420e-01 -1.42559082364e-02 -4.15302161740e-02
5.14000000000e+07 -1.45772750320e-02 -4.19468474663e-02 +9.43671322626e-01 -3.22118409089e-01 +9.43671322626e-01 -3.22118409089e-01 -1.45772750320e-02 -4.19468474663e-02
5.20000000000e+07 -1.49017992240e-02 -4.23609792327e-02 +9.42397481101e-01 -3.25723731188e-01 +9.42397481101e-01 -3.25723731188e-01 -1.49017992240e-02 -4.23609792327e-02
5.26000000000e+07 -1.52294612496e-02 -4.27725874439e-02 +9.41109776047e-01 -3.29323806510e-01 +9.41109776047e-01 -3.29323806510e-01 -1.52294612496e-02 -4.27725874439e-02
5.32000000000e+07 -1.55602413581e-02 -4.31816482285e-02 +9.39808230639e-01 -3.32918579977e-01 +9.39808230639e-01 -3.32918579977e-01 -1.55602413581e-02 -4.31816482285e-02
5.38000000000e+07 -1.58941196121e-02 -4.35881378746e-02 +9.38492868319e-01 -3.36507996651e-01 +9.38492868319e-01 -3.36507996651e-01 -1.58941196121e-02 -4.35881378746e-02
5.44000000000e+07 -1.62310758894e-02 -4.39920328312e-02 +9.37163712792e-01 -3.40092001725e-01 +9.37163712792e-01 -3.40092001725e-01 -1.62310758894e-02 -4.39920328312e-02
5.50000000000e+07 -1.65710898842e-02 -4.43933097095e-02 +9.35820788026e-01 -3.43670540533e-01 +9.35820788026e-01 -3.43670540533e-01 -1.65710898842e-02 -4.43933097095e-02
5.56000000000e+07 -1.69141411085e-02 -4.47919452846e-02 +9.34464118248e-01 -3.47243558545e-01 +9.34464118248e-01 -3.47243558545e-01 -1.69141411085e-02 -4.47919452846e-02
5.62000000000e+07 -1.72602088941e-02 -4.51879164966e-02 +9.33093727943e-01 -3.50811001372e-01 +9.33093727943e-01 -3.50811001372e-01 -1.72602088941e-02 -4.51879164966e-02
5.68000000000e+07 -1.76092723939e-02 -4.55812004522e-02 +9.31709641850e-01 -3.54372814767e-01 +9.31709641850e-01 -3.54372814767e-01 -1.76092723939e-02 -4.55812004522e-02
5.74000000000e+07 -1.79613105830e-02 -4.59717744261e-02 +9.30311884964e-01 -3.57928944623e-01 +9.30311884964e-01 -3.57928944623e-01 -1.79613105830e-02 -4.59717744261e-02
5.80000000000e+07 -1.83163022609e-02 -4.63596158623e-02 +9.28900482531e-01 -3.61479336980e-01 +9.28900482531e-01 -3.61479336980e-01 -1.83163022609e-02 -4.63596158623e-02
5.86000000000e+07 -1.86742260528e-02 -4.67447023754e-02 +9.27475460046e-01 -3.65023938020e-01 +9.27475460046e-01 -3.65023938020e-01 -1.86742260528e-02 -4.67447023754e-02
5.92000000000e+07 -1.90350604111e-02 -4.71270117519e-02 +9.26036843251e-01 -3.68562694074e-01 +9.26036843251e-01 -3.68562694074e-01 -1.90350604111e-02 -4.71270117519e-02
5.98000000000e+07 -1.93987836166e-02 -4.75065219518e-02 +9.24584658137e-01 -3.72095551618e-01 +9.24584658137e-01 -3.72095551618e-01 -1.93987836166e-02 -4.75065219518e-02
6.04000000000e+07 -1.97653737809e-02 -4.78832111097e-02 +9.23118930935e-01 -3.75622457280e-01 +9.23118930935e-01 -3.75622457280e-01 -1.97653737809e-02 -4.78832111097e-02
6.10000000000e+07 -2.01348088473e-02 -4.82570575359e-02 +9.21639688122e-01 -3.79143357834e-01 +9.21639688122e-01 -3.79143357834e-01 -2.01348088473e-02 -4.82570575359e-02
6.16000000000e+07 -2.05070665923e-02 -4.86280397181e-02 +9.20146956414e-01 -3.82658200209e-01 +9.20146956414e-01 -3.82658200209e-01 -2.05070665923e-02 -4.86280397181e-02
6.22000000000e+07 -2.08821246278e-02 -4.89961363225e-02 +9.18640762763e-01 -3.86166931484e-01 +9.18640762763e-01 -3.86166931484e-01 -2.08821246278e-02 -4.89961363225e-02
6.28000000000e+07 -2.12599604020e-02 -4.93613261949e-02 +9.17121134362e-01 -3.89669498891e-01 +9.17121134362e-01 -3.89669498891e-01 -2.12599604020e-02 -4.93613261949e-02
6.34000000000e+07 -2.16405512014e-02 -4.97235883622e-02 +9.15588098638e-01 -3.93165849819e-01 +9.15588098638e-01 -3.93165849819e-01 -2.16405512014e-02 -4.97235883622e-02
6.40000000000e+07 -2.20238741524e-02 -5.00829020332e-02 +9.14041683249e-01 -3.96655931810e-01 +9.14041683249e-01 -3.96655931810e-01 -2.20238741524e-02 -5.00829020332e-02
6.46000000000e+07 -2.24099062225e-02 -5.04392466004e-02 +9.12481916088e-01 -4.00139692565e-01 +9.12481916088e-01 -4.00139692565e-01 -2.24099062225e-02 -5.04392466004e-02
6.52000000000e+07 -2.27986242225e-02 -5.07926016407e-02 +9.10908825275e-01 -4.03617079942e-01 +9.10908825275e-01 -4.03617079942e-01 -2.27986242225e-02 -5.07926016407e-02
6.58000000000e+07 -2.31900048074e-02 -5.11429469169e-02 +9.09322439160e-01 -4.07088041958e-01 +9.09322439160e-01 -4.07088041958e-01 -2.31900048074e-02 -5.11429469169e-02
6.64000000000e+07 -2.35840244788e-02 -5.14902623786e-02 +9.07722786320e-01 -4.10552526791e-01 +9.07722786320e-01 -4.10552526791e-01 -2.35840244788e-02 -5.14902623786e-02
6.70000000000e+07 -2.39806595858e-02 -5.18345281636e-02 +9.06109895556e-01 -4.14010482778e-01 +9.06109895556e-01 -4.14010482778e-01 -2.39806595858e-02 -5.18345281636e-02
6.76000000000e+07 -2.43798863272e-02 -5.21757245987e-02 +9.04483795892e-01 -4.17461858421e-01 +9.04483795892e-01 -4.17461858421e-01 -2.43798863272e-02 -5.21757245987e-02
6.82000000000e+07 -2.47816807526e-02 -5.25138322013e-02 +9.02844516574e-01 -4.20906602383e-01 +9.02844516574e-01 -4.20906602383e-01 -2.47816807526e-02 -5.25138322013e-02
6.88000000000e+07 -2.51860187647e-02 -5.28488316800e-02 +9.01192087069e-01 -4.24344663491e-01 +9.01192087069e-01 -4.24344663491e-01 -2.51860187647e-02 -5.28488316800e-02
6.94000000000e+07 -2.55928761203e-02 -5.31807039362e-02 +8.99526537061e-01 -4.27775990740e-01 +8.99526537061e-01 -4.27775990740e-01 -2.55928761203e-02 -5.31807039362e-02
7.00000000000e+07 -2.60022284323e-02 -5.35094300647e-02 +8.97847896451e-01 -4.31200533288e-01 +8.97847896451e-01 -4.31200533288e-01 -2.60022284323e-02 -5.35094300647e-02
7.06000000000e+07 -2.64140511712e-02 -5.38349913551e-02 +8.96156195357e-01 -4.34618240462e-01 +8.96156195357e-01 -4.34618240462e-01 -2.64140511712e-02 -5.38349913551e-02
7.12000000000e+07 -2.68283196671e-02 -5.41573692925e-02 +8.94451464108e-01 -4.38029061757e-01 +8.94451464108e-01 -4.38029061757e-01 -2.68283196671e-02 -5.41573692925e-02
7.18000000000e+07 -2.72450091107e-02 -5.44765455590e-02 +8.92733733247e-01 -4.41432946835e-01 +8.92733733247e-01 -4.41432946835e-01 -2.72450091107e-02 -5.44765455590e-02
7.24000000000e+07 -2.76640945557e-02 -5.47925020344e-02 +8.91003033526e-01 -4.44829845531e-01 +8.91003033526e-01 -4.44829845531e-01 -2.76640945557e-02 -5.47925020344e-02
7.30000000000e+07 -2.80855509202e-02 -5.51052207972e-02 +8.89259395907e-01 -4.48219707849e-01 +8.89259395907e-01 -4.48219707849e-01 -2.80855509202e-02 -5.51052207972e-02
7.36000000000e+07 -2.85093529880e-02 -5.54146841256e-02 +8.87502851558e-01 -4.51602483965e-01 +8.87502851558e-01 -4.51602483965e-01 -2.85093529880e-02 -5.54146841256e-02
7.42000000000e+07 -2.89354754111e-02 -5.57208744988e-02 +8.85733431855e-01 -4.54978124227e-01 +8.85733431855e-01 -4.54978124227e-01 -2.89354754111e-02 -5.57208744988e-02
7.48000000000e+07 -2.93638927106e-02 -5.60237745974e-02 +8.83951168376e-01 -4.58346579159e-01 +8.83951168376e-01 -4.58346579159e-01 -2.93638927106e-02 -5.60237745974e-02
7.54000000000e+07 -2.97945792788e-02 -5.63233673048e-02 +8.82156092902e-01 -4.61707799456e-01 +8.82156092902e-01 -4.61707799456e-01 -2.97945792788e-02 -5.63233673048e-02
7.60000000000e+07 -3.02275093809e-02 -5.66196357079e-02 +8.80348237417e-01 -4.65061735991e-01 +8.80348237417e-01 -4.65061735991e-01 -3.02275093809e-02 -5.66196357079e-02
7.66000000000e+07 -3.06626571567e-02 -5.69125630979e-02 +8.78527634102e-01 -4.68408339811e-01 +8.78527634102e-01 -4.68408339811e-01 -3.06626571567e-02 -5.69125630979e-02
7.72000000000e+07 -3.10999966222e-02 -5.72021329718e-02 +8.76694315338e-01 -4.71747562140e-01 +8.76694315338e-01 -4.71747562140e-01 -3.10999966222e-02 -5.72021329718e-02
7.78000000000e+07 -3.15395016713e-02 -5.74883290323e-02 +8.74848313701e-01 -4.75079354382e-01 +8.74848313701e-01 -4.75079354382e-01 -3.15395016713e-02 -5.74883290323e-02
7.84000000000e+07 -3.19811460778e-02 -5.77711351896e-02 +8.72989661964e-01 -4.78403668117e-01 +8.72989661964e-01 -4.78403668117e-01 -3.19811460778e-02 -5.77711351896e-02
7.90000000000e+07 -3.24249034969e-02 -5.80505355618e-02 +8.71118393090e-01 -4.81720455104e-01 +8.71118393090e-01 -4.81720455104e-01 -3.24249034969e-02 -5.80505355618e-02
7.96000000000e+07 -3.28707474668e-02 -5.83265144757e-02 +8.69234540239e-01 -4.85029667283e-01 +8.69234540239e-01 -4.85029667283e-01 -3.28707474668e-02 -5.83265144757e-02
8.02000000000e+07 -3.33186514109e-02 -5.85990564678e-02 +8.67338136757e-01 -4.88331256776e-01 +8.67338136757e-01 -4.88331256776e-01 -3.33186514109e-02 -5.85990564678e-02
8.08000000000e+07 -3.37685886390e-02 -5.88681462849e-02 +8.65429216181e-01 -4.91625175883e-01 +8.65429216181e-01 -4.91625175883e-01 -3.37685886390e-02 -5.88681462849e-02
8.14000000000e+07 -3.42205323495e-02 -5.91337688852e-02 +8.63507812235e-01 -4.94911377088e-01 +8.63507812235e-01 -4.94911377088e-01 -3.42205323495e-02 -5.91337688852e-02
8.20000000000e+07 -3.46744556309e-02 -5.93959094389e-02 +8.61573958829e-01 -4.98189813059e-01 +8.61573958829e-01 -4.98189813059e-01 -3.46744556309e-02 -5.93959094389e-02
8.26000000000e+07 -3.51303314636e-02 -5.96545533287e-02 +8.59627690059e-01 -5.01460436645e-01 +8.59627690059e-01 -5.01460436645e-01 -3.51303314636e-02 -5.96545533287e-02
8.32000000000e+07 -3.55881327217e-02 -5.99096861510e-02 +8.57669040200e-01 -5.04723200882e-01 +8.57669040200e-01 -5.04723200882e-01 -3.55881327217e-02 -5.99096861510e-02
8.38000000000e+07 -3.60478321746e-02 -6.01612937165e-02 +8.55698043713e-01 -5.07978058988e-01 +8.55698043713e-01 -5.07978058988e-01 -3.60478321746e-02 -6.01612937165e-02
8.44000000000e+07 -3.65094024892e-02 -6.04093620506e-02 +8.53714735236e-01 -5.11224964368e-01 +8.53714735236e-01 -5.11224964368e-01 -3.65094024892e-02 -6.04093620506e-02
8.50000000000e+07 -3.69728162311e-02 -6.06538773947e-02 +8.51719149588e-01 -5.14463870614e-01 +8.51719149588e-01 -5.14463870614e-01 -3.69728162311e-02 -6.06538773947e-02
8.56000000000e+07 -3.74380458668e-02 -6.08948262061e-02 +8.49711321761e-01 -5.17694731502e-01 +8.49711321761e-01 -5.17694731502e-01 -3.74380458668e-02 -6.08948262061e-02
8.62000000000e+07 -3.79050637653e-02 -6.11321951595e-02 +8.47691286928e-01 -5.20917500998e-01 +8.47691286928e-01 -5.20917500998e-01 -3.79050637653e-02 -6.11321951595e-02
8.68000000000e+07 -3.83738421998e-02 -6.13659711469e-02 +8.45659080432e-01 -5.24132133255e-01 +8.45659080432e-01 -5.24132133255e-01 -3.83738421998e-02 -6.13659711469e-02
8.74000000000e+07 -3.88443533497e-02 -6.15961412788e-02 +8.43614737789e-01 -5.27338582614e-01 +8.43614737789e-01 -5.27338582614e-01 -3.88443533497e-02 -6.15961412788e-02
8.80000000000e+07 -3.93165693023e-02 -6.18226928847e-02 +8.41558294689e-01 -5.30536803607e-01 +8.41558294689e-01 -5.30536803607e-01 -3.93165693023e-02 -6.18226928847e-02
8.86000000000e+07 -3.97904620545e-02 -6.20456135133e-02 +8.39489786988e-01 -5.33726750953e-01 +8.39489786988e-01 -5.33726750953e-01 -3.97904620545e-02 -6.20456135133e-02
8.92000000000e+07 -4.02660035147e-02 -6.22648909337e-02 +8.37409250714e-01 -5.36908379563e-01 +8.37409250714e-01 -5.36908379563e-01 -4.02660035147e-02 -6.22648909337e-02
8.98000000000e+07 -4.07431655044e-02 -6.24805131356e-02 +8.35316722058e-01 -5.40081644539e-01 +8.35316722058e-01 -5.40081644539e-01 -4.07431655044e-02 -6.24805131356e-02
9.04000000000e+07 -4.12219197604e-02 -6.26924683300e-02 +8.33212237379e-01 -5.43246501172e-01 +8.33212237379e-01 -5.43246501172e-01 -4.12219197604e-02 -6.26924683300e-02
9.10000000000e+07 -4.17022379362e-02 -6.29007449496e-02 +8.31095833199e-01 -5.46402904947e-01 +8.31095833199e-01 -5.46402904947e-01 -4.17022379362e-02 -6.29007449496e-02
9.16000000000e+07 -4.21840916039e-02 -6.31053316494e-02 +8.28967546203e-01 -5.49550811542e-01 +8.28967546203e-01 -5.49550811542e-01 -4.21840916039e-02 -6.31053316494e-02
9.22000000000e+07 -4.26674522562e-02 -6.33062173075e-02 +8.26827413236e-01 -5.52690176824e-01 +8.26827413236e-01 -5.52690176824e-01 -4.26674522562e-02 -6.33062173075e-02
9.28000000000e+07 -4.31522913078e-02 -6.35033910250e-02 +8.24675471303e-01 -5.55820956856e-01 +8.24675471303e-01 -5.55820956856e-01 -4.31522913078e-02 -6.35033910250e-02
9.34000000000e+07 -4.36385800977e-02 -6.36968421271e-02 +8.22511757567e-01 -5.58943107895e-01 +8.22511757567e-01 -5.58943107895e-01 -4.36385800977e-02 -6.36968421271e-02
9.40000000000e+07 -4.41262898908e-02 -6.38865601633e-02 +8.20336309349e-01 -5.62056586391e-01 +8.20336309349e-01 -5.62056586391e-01 -4.41262898908e-02 -6.38865601633e-02
9.46000000000e+07 -4.46153918795e-02 -6.40725349077e-02 +8.18149164123e-01 -5.65161348989e-01 +8.18149164123e-01 -5.65161348989e-01 -4.46153918795e-02 -6.40725349077e-02
9.52000000000e+07 -4.51058571857e-02 -6.42547563598e-02 +8.15950359519e-01 -5.68257352528e-01 +8.15950359519e-01 -5.68257352528e-01 -4.51058571857e-02 -6.42547563598e-02
9.58000000000e+07 -4.55976568627e-02 -6.44332147444e-02 +8.13739933317e-01 -5.71344554044e-01 +8.13739933317e-01 -5.71344554044e-01 -4.55976568627e-02 -6.44332147444e-02
9.64000000000e+07 -4.60907618970e-02 -6.46079005128e-02 +8.11517923451e-01 -5.74422910767e-01 +8.11517923451e-01 -5.74422910767e-01 -4.60907618970e-02 -6.46079005128e-02
9.70000000000e+07 -4.65851432098e-02 -6.47788043424e-02 +8.09284368002e-01 -5.77492380123e-01 +8.09284368002e-01 -5.77492380123e-01 -4.65851432098e-02 -6.47788043424e-02
9.76000000000e+07 -4.70807716591e-02 -6.49459171374e-02 +8.07039305201e-01 -5.80552919738e-01 +8.07039305201e-01 -5.80552919738e-01 -4.70807716591e-02 -6.49459171374e-02
9.82000000000e+07 -4.75776180418e-02 -6.51092300295e-02 +8.04782773424e-01 -5.83604487430e-01 +8.04782773424e-01 -5.83604487430e-01 -4.75776180418e-02 -6.51092300295e-02
9.88000000000e+07 -4.80756530946e-02 -6.52687343776e-02 +8.02514811193e-01 -5.86647041218e-01 +8.02514811193e-01 -5.86647041218e-01 -4.80756530946e-02 -6.52687343776e-02
9.94000000000e+07 -4.85748474970e-02 -6.54244217687e-02 +8.00235457175e-01 -5.89680539315e-01 +8.00235457175e-01 -5.89680539315e-01 -4.85748474970e-02 -6.54244217687e-02
1.00000000000e+08 -4.90751718721e-02 -6.55762840177e-02 +7.97944750178e-01 -5.92704940136e-01 +7.97944750178e-01 -5.92704940136e-01 -4.90751718721e-02 -6.55762840177e-02
