# HZ S RI R 50
4.00000000000e+07 -4.60311264499e-04 -1.43441505527e-04 +2.97508161440e-01 -9.54453422623e-01 +2.97508161440e-01 -9.54453422623e-01 -4.60311264499e-04 -1.43441505527e-04
4.06000000000e+07 -4.65617140766e-04 -1.35432277581e-04 +2.79291526538e-01 -9.59938057733e-01 +2.79291526538e-01 -9.59938057733e-01 -4.65617140766e-04 -1.35432277581e-04
4.12000000000e+07 -4.70614386548e-04 -1.27227024128e-04 +2.60973895936e-01 -9.65075047203e-01 +2.60973895936e-01 -9.65075047203e-01 -4.70614386548e-04 -1.27227024128e-04
4.18000000000e+07 -4.75295769003e-04 -1.18837631874e-04 +2.42561903409e-01 -9.69862533527e-01 +2.42561903409e-01 -9.69862533527e-01 -4.75295769003e-04 -1.18837631874e-04
4.24000000000e+07 -4.79654512865e-04 -1.10276254034e-04 +2.24062216849e-01 -9.74298785772e-01 +2.24062216849e-01 -9.74298785772e-01 -4.79654512865e-04 -1.10276254034e-04
4.30000000000e+07 -4.83684310252e-04 -1.01555292727e-04 +2.05481535855e-01 -9.78382200204e-01 +2.05481535855e-01 -9.78382200204e-01 -4.83684310252e-04 -1.01555292727e-04
4.36000000000e+07 -4.87379329792e-04 -9.26873810047e-05 +1.86826589300e-01 -9.82111300864e-01 +1.86826589300e-01 -9.82111300864e-01 -4.87379329792e-04 -9.26873810047e-05
4.42000000000e+07 -4.90734225063e-04 -8.36853645599e-05 +1.68104132901e-01 -9.85484740110e-01 +1.68104132901e-01 -9.85484740110e-01 -4.90734225063e-04 -8.36853645599e-05
4.48000000000e+07 -4.93744142328e-04 -7.45622831119e-05 +1.49320946768e-01 -9.88501299093e-01 +1.49320946768e-01 -9.88501299093e-01 -4.93744142328e-04 -7.45622831119e-05
4.54000000000e+07 -4.96404727559e-04 -6.53313515210e-05 +1.30483832949e-01 -9.91159888207e-01 +1.30483832949e-01 -9.91159888207e-01 -4.96404727559e-04 -6.53313515210e-05
4.60000000000e+07 -4.98712132733e-04 -5.60059406465e-05 +1.11599612969e-01 -9.93459547476e-01 +1.11599612969e-01 -9.93459547476e-01 -4.98712132733e-04 -5.60059406465e-05
4.66000000000e+07 -5.00663021398e-04 -4.65995579785e-05 +9.26751253588e-02 -9.95399446905e-01 +9.26751253588e-02 -9.95399446905e-01 -5.00663021398e-04 -4.65995579785e-05
4.72000000000e+07 -5.02254573498e-04 -3.71258280737e-05 +7.37172231771e-02 -9.96978886777e-01 +7.37172231771e-02 -9.96978886777e-01 -5.02254573498e-04 -3.71258280737e-05
4.78000000000e+07 -5.03484489449e-04 -2.75984728204e-05 +5.47327715309e-02 -9.98197297905e-01 +5.47327715309e-02 -9.98197297905e-01 -5.03484489449e-04 -2.75984728204e-05
4.84000000000e+07 -5.04350993463e-04 -1.80312915640e-05 +3.57286450883e-02 -9.99054241840e-01 +3.57286450883e-02 -9.99054241840e-01 -5.04350993463e-04 -1.80312915640e-05
4.90000000000e+07 -5.04852836108e-04 -8.43814112007e-06 +1.67117255898e-02 -9.99549411026e-01 +1.67117255898e-02 -9.99549411026e-01 -5.04852836108e-04 -8.43814112007e-06
4.96000000000e+07 -5.04989296116e-04 +1.16708429562e-06 -2.31110064459e-03 -9.99682628912e-01 -2.31110064459e-03 -9.99682628912e-01 -5.04989296116e-04 +1.16708429562e-06
5.02000000000e+07 -5.04760181411e-04 +1.07704731905e-05 -2.13329452079e-02 -9.99453850012e-01 -2.13329452079e-02 -9.99453850012e-01 -5.04760181411e-04 +1.07704731905e-05
5.08000000000e+07 -5.04165829389e-04 +2.03581169437e-05 -4.03469201014e-02 -9.98863159926e-01 -4.03469201014e-02 -9.98863159926e-01 -5.04165829389e-04 +2.03581169437e-05
5.14000000000e+07 -5.03207106412e-04 +2.99161299496e-05 -5.93461402282e-02 -9.97910775302e-01 -5.93461402282e-02 -9.97910775302e-01 -5.03207106412e-04 +2.99161299496e-05
5.20000000000e+07 -5.01885406551e-04 +3.94306697287e-05 -7.83237258868e-02 -9.96597043761e-01 -7.83237258868e-02 -9.96597043761e-01 -5.01885406551e-04 +3.94306697287e-05
5.26000000000e+07 -5.00202649559e-04 +4.88879569745e-05 -9.72728052620e-02 -9.94922443768e-01 -9.72728052620e-02 -9.94922443768e-01 -5.00202649559e-04 +4.88879569745e-05
5.32000000000e+07 -4.98161278077e-04 +5.82742955093e-05 -1.16186516913e-01 -9.92887584457e-01 -1.16186516913e-01 -9.92887584457e-01 -4.98161278077e-04 +5.82742955093e-05
5.38000000000e+07 -4.95764254097e-04 +6.75760921194e-05 -1.35058012259e-01 -9.90493205413e-01 -1.35058012259e-01 -9.90493205413e-01 -4.95764254097e-04 +6.75760921194e-05
5.44000000000e+07 -4.93015054654e-04 +7.67798762405e-05 -1.53880458056e-01 -9.87740176398e-01 -1.53880458056e-01 -9.87740176398e-01 -4.93015054654e-04 +7.67798762405e-05
5.50000000000e+07 -4.89917666794e-04 +8.58723194652e-05 -1.72647038875e-01 -9.84629497041e-01 -1.72647038875e-01 -9.84629497041e-01 -4.89917666794e-04 +8.58723194652e-05
5.56000000000e+07 -4.86476581780e-04 +9.48402548447e-05 -1.91350959568e-01 -9.81162296468e-01 -1.91350959568e-01 -9.81162296468e-01 -4.86476581780e-04 +9.48402548447e-05
5.62000000000e+07 -4.82696788590e-04 +1.03670695956e-04 -2.09985447728e-01 -9.77339832900e-01 -2.09985447728e-01 -9.77339832900e-01 -4.82696788590e-04 +1.03670695956e-04
5.68000000000e+07 -4.78583766675e-04 +1.12350855707e-04 -2.28543756140e-01 -9.73163493190e-01 -2.28543756140e-01 -9.73163493190e-01 -4.78583766675e-04 +1.12350855707e-04
5.74000000000e+07 -4.74143478023e-04 +1.20868164854e-04 -2.47019165228e-01 -9.68634792324e-01 -2.47019165228e-01 -9.68634792324e-01 -4.74143478023e-04 +1.20868164854e-04
5.80000000000e+07 -4.69382358512e-04 +1.29210290202e-04 -2.65404985484e-01 -9.63755372868e-01 -2.65404985484e-01 -9.63755372868e-01 -4.69382358512e-04 +1.29210290202e-04
5.86000000000e+07 -4.64307308584e-04 +1.37365152462e-04 -2.83694559891e-01 -9.58527004376e-01 -2.83694559891e-01 -9.58527004376e-01 -4.64307308584e-04 +1.37365152462e-04
5.92000000000e+07 -4.58925683243e-04 +1.45320943746e-04 -3.01881266336e-01 -9.52951582745e-01 -3.01881266336e-01 -9.52951582745e-01 -4.58925683243e-04 +1.45320943746e-04
5.98000000000e+07 -4.53245281395e-04 +1.53066144657e-04 -3.19958520004e-01 -9.47031129528e-01 -3.19958520004e-01 -9.47031129528e-01 -4.53245281395e-04 +1.53066144657e-04
6.04000000000e+07 -4.47274334551e-04 +1.60589540977e-04 -3.37919775763e-01 -9.40767791206e-01 -3.37919775763e-01 -9.40767791206e-01 -4.47274334551e-04 +1.60589540977e-04
6.10000000000e+07 -4.41021494889e-04 +1.67880239896e-04 -3.55758530537e-01 -9.34163838401e-01 -3.55758530537e-01 -9.34163838401e-01 -4.41021494889e-04 +1.67880239896e-04
6.16000000000e+07 -4.34495822729e-04 +1.74927685787e-04 -3.73468325656e-01 -9.27221665060e-01 -3.73468325656e-01 -9.27221665060e-01 -4.34495822729e-04 +1.74927685787e-04
6.22000000000e+07 -4.27706773393e-04 +1.81721675491e-04 -3.91042749196e-01 -9.19943787585e-01 -3.91042749196e-01 -9.19943787585e-01 -4.27706773393e-04 +1.81721675491e-04
6.28000000000e+07 -4.20664183513e-04 +1.88252373084e-04 -4.08475438303e-01 -9.12332843919e-01 -4.08475438303e-01 -9.12332843919e-01 -4.20664183513e-04 +1.88252373084e-04
6.34000000000e+07 -4.13378256775e-04 +1.94510324119e-04 -4.25760081491e-01 -9.04391592595e-01 -4.25760081491e-01 -9.04391592595e-01 -4.13378256775e-04 +1.94510324119e-04
6.40000000000e+07 -4.05859549135e-04 +2.00486469314e-04 -4.42890420934e-01 -8.96122911728e-01 -4.42890420934e-01 -8.96122911728e-01 -4.05859549135e-04 +2.00486469314e-04
6.46000000000e+07 -3.98118953529e-04 +2.06172157665e-04 -4.59860254725e-01 -8.87529797981e-01 -4.59860254725e-01 -8.87529797981e-01 -3.98118953529e-04 +2.06172157665e-04
6.52000000000e+07 -3.90167684086e-04 +2.11559158972e-04 -4.76663439128e-01 -8.78615365473e-01 -4.76663439128e-01 -8.78615365473e-01 -3.90167684086e-04 +2.11559158972e-04
6.58000000000e+07 -3.82017259888e-04 +2.16639675749e-04 -4.93293890795e-01 -8.69382844651e-01 -4.93293890795e-01 -8.69382844651e-01 -3.82017259888e-04 +2.16639675749e-04
6.64000000000e+07 -3.73679488277e-04 +2.21406354511e-04 -5.09745588975e-01 -8.59835581124e-01 -5.09745588975e-01 -8.59835581124e-01 -3.73679488277e-04 +2.21406354511e-04
6.70000000000e+07 -3.65166447752e-04 +2.25852296420e-04 -5.26012577690e-01 -8.49977034443e-01 -5.26012577690e-01 -8.49977034443e-01 -3.65166447752e-04 +2.25852296420e-04
6.76000000000e+07 -3.56490470472e-04 +2.29971067267e-04 -5.42088967890e-01 -8.39810776856e-01 -5.42088967890e-01 -8.39810776856e-01 -3.56490470472e-04 +2.29971067267e-04
6.82000000000e+07 -3.47664124392e-04 +2.33756706786e-04 -5.57968939590e-01 -8.29340492006e-01 -5.57968939590e-01 -8.29340492006e-01 -3.47664124392e-04 +2.33756706786e-04
6.88000000000e+07 -3.38700195054e-04 +2.37203737276e-04 -5.73646743973e-01 -8.18569973601e-01 -5.73646743973e-01 -8.18569973601e-01 -3.38700195054e-04 +2.37203737276e-04
6.94000000000e+07 -3.29611667070e-04 +2.40307171530e-04 -5.89116705470e-01 -8.07503124039e-01 -5.89116705470e-01 -8.07503124039e-01 -3.29611667070e-04 +2.40307171530e-04
7.00000000000e+07 -3.20411705311e-04 +2.43062520050e-04 -6.04373223821e-01 -7.96143952990e-01 -6.04373223821e-01 -7.96143952990e-01 -3.20411705311e-04 +2.43062520050e-04
7.06000000000e+07 -3.11113635838e-04 +2.45465797541e-04 -6.19410776095e-01 -7.84496575951e-01 -6.19410776095e-01 -7.84496575951e-01 -3.11113635838e-04 +2.45465797541e-04
7.12000000000e+07 -3.01730926600e-04 +2.47513528673e-04 -6.34223918693e-01 -7.72565212746e-01 -6.34223918693e-01 -7.72565212746e-01 -3.01730926600e-04 +2.47513528673e-04
7.18000000000e+07 -2.92277167927e-04 +2.49202753112e-04 -6.48807289318e-01 -7.60354186005e-01 -6.48807289318e-01 -7.60354186005e-01 -2.92277167927e-04 +2.49202753112e-04
7.24000000000e+07 -2.82766052841e-04 +2.50531029795e-04 -6.63155608918e-01 -7.47867919592e-01 -6.63155608918e-01 -7.47867919592e-01 -2.82766052841e-04 +2.50531029795e-04
7.30000000000e+07 -2.73211357228e-04 +2.51496440460e-04 -6.77263683592e-01 -7.35110937008e-01 -6.77263683592e-01 -7.35110937008e-01 -2.73211357228e-04 +2.51496440460e-04
7.36000000000e+07 -2.63626919880e-04 +2.52097592414e-04 -6.91126406476e-01 -7.22087859746e-01 -6.91126406476e-01 -7.22087859746e-01 -2.63626919880e-04 +2.52097592414e-04
7.42000000000e+07 -2.54026622458e-04 +2.52333620545e-04 -7.04738759588e-01 -7.08803405621e-01 -7.04738759588e-01 -7.08803405621e-01 -2.54026622458e-04 +2.52333620545e-04
7.48000000000e+07 -2.44424369379e-04 +2.52204188565e-04 -7.18095815646e-01 -6.95262387061e-01 -7.18095815646e-01 -6.95262387061e-01 -2.44424369379e-04 +2.52204188565e-04
7.54000000000e+07 -2.34834067683e-04 +2.51709489490e-04 -7.31192739849e-01 -6.81469709362e-01 -7.31192739849e-01 -6.81469709362e-01 -2.34834067683e-04 +2.51709489490e-04
7.60000000000e+07 -2.25269606886e-04 +2.50850245351e-04 -7.44024791632e-01 -6.67430368910e-01 -7.44024791632e-01 -6.67430368910e-01 -2.25269606886e-04 +2.50850245351e-04
7.66000000000e+07 -2.15744838873e-04 +2.49627706142e-04 -7.56587326376e-01 -6.53149451375e-01 -7.56587326376e-01 -6.53149451375e-01 -2.15744838873e-04 +2.49627706142e-04
7.72000000000e+07 -2.06273557826e-04 +2.48043647999e-04 -7.68875797094e-01 -6.38632129866e-01 -7.68875797094e-01 -6.38632129866e-01 -2.06273557826e-04 +2.48043647999e-04
7.78000000000e+07 -1.96869480254e-04 +2.46100370625e-04 -7.80885756073e-01 -6.23883663057e-01 -7.80885756073e-01 -6.23883663057e-01 -1.96869480254e-04 +2.46100370625e-04
7.84000000000e+07 -1.87546225128e-04 +2.43800693944e-04 -7.92612856488e-01 -6.08909393282e-01 -7.92612856488e-01 -6.08909393282e-01 -1.87546225128e-04 +2.43800693944e-04
7.90000000000e+07 -1.78317294153e-04 +2.41147954015e-04 -8.04052853972e-01 -5.93714744601e-01 -8.04052853972e-01 -5.93714744601e-01 -1.78317294153e-04 +2.41147954015e-04
7.96000000000e+07 -1.69196052221e-04 +2.38145998190e-04 -8.15201608152e-01 -5.78305220837e-01 -8.15201608152e-01 -5.78305220837e-01 -1.69196052221e-04 +2.38145998190e-04
8.02000000000e+07 -1.60195708053e-04 +2.34799179535e-04 -8.26055084150e-01 -5.62686403578e-01 -8.26055084150e-01 -5.62686403578e-01 -1.60195708053e-04 +2.34799179535e-04
8.08000000000e+07 -1.51329295072e-04 +2.31112350515e-04 -8.36609354042e-01 -5.46863950158e-01 -8.36609354042e-01 -5.46863950158e-01 -1.51329295072e-04 +2.31112350515e-04
8.14000000000e+07 -1.42609652529e-04 +2.27090855963e-04 -8.46860598279e-01 -5.30843591607e-01 -8.46860598279e-01 -5.30843591607e-01 -1.42609652529e-04 +2.27090855963e-04
8.20000000000e+07 -1.34049406914e-04 +2.22740525329e-04 -8.56805107070e-01 -5.14631130577e-01 -8.56805107070e-01 -5.14631130577e-01 -1.34049406914e-04 +2.22740525329e-04
8.26000000000e+07 -1.25660953666e-04 +2.18067664228e-04 -8.66439281724e-01 -4.98232439237e-01 -8.66439281724e-01 -4.98232439237e-01 -1.25660953666e-04 +2.18067664228e-04
8.32000000000e+07 -1.17456439229e-04 +2.13079045307e-04 -8.75759635954e-01 -4.81653457149e-01 -8.75759635954e-01 -4.81653457149e-01 -1.17456439229e-04 +2.13079045307e-04
8.38000000000e+07 -1.09447743463e-04 +2.07781898419e-04 -8.84762797137e-01 -4.64900189116e-01 -8.84762797137e-01 -4.64900189116e-01 -1.09447743463e-04 +2.07781898419e-04
8.44000000000e+07 -1.01646462439e-04 +2.02183900154e-04 -8.93445507533e-01 -4.47978703007e-01 -8.93445507533e-01 -4.47978703007e-01 -1.01646462439e-04 +2.02183900154e-04
8.50000000000e+07 -9.40638916555e-05 +1.96293162710e-04 -9.01804625467e-01 -4.30895127556e-01 -9.01804625467e-01 -4.30895127556e-01 -9.40638916555e-05 +1.96293162710e-04
8.56000000000e+07 -8.67110096766e-05 +1.90118222137e-04 -9.09837126466e-01 -4.13655650149e-01 -9.09837126466e-01 -4.13655650149e-01 -8.67110096766e-05 +1.90118222137e-04
8.62000000000e+07 -7.95984622405e-05 +1.83668025971e-04 -9.17540104348e-01 -3.96266514577e-01 -9.17540104348e-01 -3.96266514577e-01 -7.95984622405e-05 +1.83668025971e-04
8.68000000000e+07 -7.27365468453e-05 +1.76951920264e-04 -9.24910772280e-01 -3.78734018778e-01 -9.24910772280e-01 -3.78734018778e-01 -7.27365468453e-05 +1.76951920264e-04
8.74000000000e+07 -6.61351978399e-05 +1.69979636046e-04 -9.31946463782e-01 -3.61064512555e-01 -9.31946463782e-01 -3.61064512555e-01 -6.61351978399e-05 +1.69979636046e-04
8.80000000000e+07 -5.98039720422e-05 +1.62761275226e-04 -9.38644633695e-01 -3.43264395276e-01 -9.38644633695e-01 -3.43264395276e-01 -5.98039720422e-05 +1.62761275226e-04
8.86000000000e+07 -5.37520349030e-05 +1.55307295950e-04 -9.45002859098e-01 -3.25340113554e-01 -9.45002859098e-01 -3.25340113554e-01 -5.37520349030e-05 +1.55307295950e-04
8.92000000000e+07 -4.79881472380e-05 +1.47628497458e-04 -9.51018840186e-01 -3.07298158920e-01 -9.51018840186e-01 -3.07298158920e-01 -4.79881472380e-05 +1.47628497458e-04
8.98000000000e+07 -4.25206525454e-05 +1.39736004429e-04 -9.56690401105e-01 -2.89145065462e-01 -9.56690401105e-01 -2.89145065462e-01 -4.25206525454e-05 +1.39736004429e-04
9.04000000000e+07 -3.73574649281e-05 +1.31641250870e-04 -9.62015490734e-01 -2.70887407465e-01 -9.62015490734e-01 -2.70887407465e-01 -3.73574649281e-05 +1.31641250870e-04
9.10000000000e+07 -3.25060576384e-05 +1.23355963551e-04 -9.66992183429e-01 -2.52531797029e-01 -9.66992183429e-01 -2.52531797029e-01 -3.25060576384e-05 +1.23355963551e-04
9.16000000000e+07 -2.79734522613e-05 +1.14892145013e-04 -9.71618679720e-01 -2.34084881673e-01 -9.71618679720e-01 -2.34084881673e-01 -2.79734522613e-05 +1.14892145013e-04
9.22000000000e+07 -2.37662085513e-05 +1.06262056183e-04 -9.75893306960e-01 -2.15553341929e-01 -9.75893306960e-01 -2.15553341929e-01 -2.37662085513e-05 +1.06262056183e-04
9.28000000000e+07 -1.98904149395e-05 +9.74781986134e-05 -9.79814519934e-01 -1.96943888921e-01 -9.79814519934e-01 -1.96943888921e-01 -1.98904149395e-05 +9.74781986134e-05
9.34000000000e+07 -1.63516797226e-05 +8.85532963693e-05 -9.83380901409e-01 -1.78263261936e-01 -9.83380901409e-01 -1.78263261936e-01 -1.63516797226e-05 +8.85532963693e-05
9.40000000000e+07 -1.31551229475e-05 +7.95002775994e-05 -9.86591162658e-01 -1.59518225983e-01 -9.86591162658e-01 -1.59518225983e-01 -1.31551229475e-05 +7.95002775994e-05
9.46000000000e+07 -1.03053690036e-05 +7.03322558075e-05 -9.89444143913e-01 -1.40715569342e-01 -9.89444143913e-01 -1.40715569342e-01 -1.03053690036e-05 +7.03322558075e-05
9.52000000000e+07 -7.80653993252e-06 +6.10625108578e-05 -9.91938814796e-01 -1.21862101110e-01 -9.91938814796e-01 -1.21862101110e-01 -7.80653993252e-06 +6.10625108578e-05
9.58000000000e+07 -5.66224946605e-06 +5.17044697388e-05 -9.94074274681e-01 -1.02964648727e-01 -9.94074274681e-01 -1.02964648727e-01 -5.66224946605e-06 +5.17044697388e-05
9.64000000000e+07 -3.87559779978e-06 +4.22716871149e-05 -9.95849753027e-01 -8.40300555117e-02 -9.95849753027e-01 -8.40300555117e-02 -3.87559779978e-06 +4.22716871149e-05
9.70000000000e+07 -2.44916711104e-06 +3.27778256927e-05 -9.97264609649e-01 -6.50651781793e-02 -9.97264609649e-01 -6.50651781793e-02 -2.44916711104e-06 +3.27778256927e-05
9.76000000000e+07 -1.38501782692e-06 +2.32366364321e-05 -9.98318334957e-01 -4.60768843588e-02 -9.98318334957e-01 -4.60768843588e-02 -1.38501782692e-06 +2.32366364321e-05
9.82000000000e+07 -6.84685648142e-07 +1.36619386286e-05 -9.99010550132e-01 -2.70720501067e-02 -9.99010550132e-01 -2.70720501067e-02 -6.84685648142e-07 +1.36619386286e-05
9.88000000000e+07 -3.49179332811e-07 +4.06759989849e-06 -9.99341007265e-01 -8.05755741652e-03 -9.99341007265e-01 -8.05755741652e-03 -3.49179332811e-07 +4.06759989849e-06
9.94000000000e+07 -3.78979243472e-07 -5.53248390729e-06 -9.99309589448e-01 +1.09597082731e-02 -9.99309589448e-01 +1.09597082731e-02 -3.78979243472e-07 -5.53248390729e-06
1.00000000000e+08 -7.74036659432e-07 -1.51244088285e-05 -9.98916310812e-01 +2.99728605716e-02 -9.98916310812e-01 +2.99728605716e-02 -7.74036659432e-07 -1.51244088285e-05
