# HZ S RI R 50
2.00000000000000000000e+008 -1.12046731979395693124e-003 -5.92065175617384736179e-003 +9.82630743932045636058e-001 -1.72518196508561483249e-001 +9.82630743932045636058e-001 -1.72518196508561483249e-001 -1.12046731979395693124e-003 -5.92065175617384736179e-003
4.00000000000000000000e+008 -4.16381900505151999331e-003 -1.11048151174674095826e-002 +9.36342557386114826556e-001 -3.39237592827282941066e-001 +9.36342557386114826556e-001 -3.39237592827282941066e-001 -4.16381900505151999331e-003 -1.11048151174674095826e-002
6.00000000000000000000e+008 -8.78230513543005325561e-003 -1.49473477254920619761e-002 +8.62118402283120754959e-001 -4.95198147518419951041e-001 +8.62118402283120754959e-001 -4.95198147518419951041e-001 -8.78230513543005325561e-003 -1.49473477254920619761e-002
8.00000000000000000000e+008 -1.44295876815244989572e-002 -1.69995914368249317894e-002 +7.62241909315613530573e-001 -6.35754231579187867318e-001 +7.62241909315613530573e-001 -6.35754231579187867318e-001 -1.44295876815244989572e-002 -1.69995914368249317894e-002
1.00000000000000000000e+009 -2.04396661043890169596e-002 -1.70235024399900368441e-002 +6.39787841155768366441e-001 -7.56740542145144412522e-001 +6.39787841155768366441e-001 -7.56740542145144412522e-001 -2.04396661043890169596e-002 -1.70235024399900368441e-002
1.20000000000000000000e+009 -2.61054405374828019104e-002 -1.50194707962734604056e-002 +4.98500553238381771681e-001 -8.54597385802384201803e-001 +4.98500553238381771681e-001 -8.54597385802384201803e-001 -2.61054405374828019104e-002 -1.50194707962734604056e-002
1.40000000000000000000e+009 -3.07614053378146394546e-002 -1.12261678894237902637e-002 +3.42670090322891474077e-001 -9.26471039163247689352e-001 +3.42670090322891474077e-001 -9.26471039163247689352e-001 -3.07614053378146394546e-002 -1.12261678894237902637e-002
1.60000000000000000000e+009 -3.38613204578145920998e-002 -6.09274189437857775081e-003 +1.76999455912922348810e-001 -9.70289890402514010326e-001 +1.76999455912922348810e-001 -9.70289890402514010326e-001 -3.38613204578145920998e-002 -6.09274189437857775081e-003
1.80000000000000000000e+009 -3.50420770426123559527e-002 -2.26681808082662992814e-004 +6.46543295390744534451e-003 -9.84816940486010761191e-001 +6.46543295390744534451e-003 -9.84816940486010761191e-001 -3.50420770426123559527e-002 -2.26681808082662992814e-004
2.00000000000000000000e+009 -3.41665426139738034883e-002 +5.67668203529874803442e-003 -1.63824109973479403735e-001 -9.69679646009609541579e-001 -1.63824109973479403735e-001 -9.69679646009609541579e-001 -3.41665426139738034883e-002 +5.67668203529874803442e-003
2.20000000000000000000e+009 -3.13405039129214871285e-002 +1.09150900389346008912e-002 -3.28774079892850401574e-001 -9.25378086107784048053e-001 -3.28774079892850401574e-001 -9.25378086107784048053e-001 -3.13405039129214871285e-002 +1.09150900389346008912e-002
2.40000000000000000000e+009 -2.69016449575675518913e-002 +1.48615780736620958086e-002 -4.83445363926274851440e-001 -8.53272006888963652216e-001 -4.83445363926274851440e-001 -8.53272006888963652216e-001 -2.69016449575675518913e-002 +1.48615780736620958086e-002
2.60000000000000000000e+009 -2.13815385484948869421e-002 +1.70386899012125864195e-002 -6.23195627389351969327e-001 -7.55546658354817601833e-001 -6.23195627389351969327e-001 -7.55546658354817601833e-001 -2.13815385484948869421e-002 +1.70386899012125864195e-002
2.80000000000000000000e+009 -1.54446239905451192242e-002 +1.71760823487226259310e-002 -7.43815488888186049365e-001 -6.35156801760984879301e-001 -7.43815488888186049365e-001 -6.35156801760984879301e-001 -1.54446239905451192242e-002 +1.71760823487226259310e-002
3.00000000000000000000e+009 -9.81081552158810654696e-003 +1.52445873843985914980e-002 -8.41656955717177024390e-001 -4.95748132732212520857e-001 -8.41656955717177024390e-001 -4.95748132732212520857e-001 -9.81081552158810654696e-003 +1.52445873843985914980e-002
3.20000000000000000000e+009 -5.17044868324704771229e-003 +1.14622848752344887180e-002 -9.13749931298206696795e-001 -3.41555847670134249405e-001 -9.13749931298206696795e-001 -3.41555847670134249405e-001 -5.17044868324704771229e-003 +1.14622848752344887180e-002
3.40000000000000000000e+009 -2.10144884804364150480e-003 +6.27126510674162578052e-003 -9.57901712315112563445e-001 -1.77281232756871132139e-001 -9.57901712315112563445e-001 -1.77281232756871132139e-001 -2.10144884804364150480e-003 +6.27126510674162578052e-003
3.60000000000000000000e+009 -9.98672463155929768935e-004 +2.87214557802351879920e-004 -9.72774024934230596706e-001 -7.94884575366050331879e-003 -9.72774024934230596706e-001 -7.94884575366050331879e-003 -9.98672463155929768935e-004 +2.87214557802351879920e-004
3.80000000000000000000e+009 -2.02421284459765923186e-003 -5.77266527206944136952e-003 -9.57932559761550339594e-001 +1.61251208278352764491e-001 -9.57932559761550339594e-001 +1.61251208278352764491e-001 -2.02421284459765923186e-003 -5.77266527206944136952e-003
4.00000000000000000000e+009 -5.08512964169895425454e-003 -1.11750581961620673588e-002 -9.13865232055934395561e-001 +3.25129638703384460374e-001 -9.13865232055934395561e-001 +3.25129638703384460374e-001 -5.08512964169895425454e-003 -1.11750581961620673588e-002
4.20000000000000000000e+009 -9.84179839675961183609e-003 -1.52590384422642486029e-002 -8.41967382692827004398e-001 +4.78665502916646501408e-001 -8.41967382692827004398e-001 +4.78665502916646501408e-001 -9.84179839675961183609e-003 -1.52590384422642486029e-002
4.40000000000000000000e+009 -1.57463020795159738818e-002 -1.75168843398089517371e-002 -7.44494519107421703907e-001 +6.17167119512909589929e-001 -7.44494519107421703907e-001 +6.17167119512909589929e-001 -1.57463020795159738818e-002 -1.75168843398089517371e-002
4.60000000000000000000e+009 -2.21065244388455942048e-002 -1.76572258308001911464e-002 -6.24485531160719919974e-001 +7.36419215850092845344e-001 -6.24485531160719919974e-001 +7.36419215850092845344e-001 -2.21065244388455942048e-002 -1.76572258308001911464e-002
4.80000000000000000000e+009 -2.81683854493860776069e-002 -1.56426676270534879831e-002 -4.85661161581377565089e-001 +8.32810657671000820201e-001 -4.85661161581377565089e-001 +8.32810657671000820201e-001 -2.81683854493860776069e-002 -1.56426676270534879831e-002
5.00000000000000000000e+009 -3.32064145987074135769e-002 -1.16971317117505729105e-002 -3.32303540006192943412e-001 +9.03439116672368869310e-001 -3.32303540006192943412e-001 +9.03439116672368869310e-001 -3.32064145987074135769e-002 -1.16971317117505729105e-002
5.20000000000000000000e+009 -3.66118498496921657148e-002 -6.28181020885706063728e-003 -1.69122684154321634153e-001 +9.46191110776189892029e-001 -1.69122684154321634153e-001 +9.46191110776189892029e-001 -3.66118498496921657148e-002 -6.28181020885706063728e-003
5.40000000000000000000e+009 -3.79677450493573487300e-002 -4.23357161222044712763e-005 -1.11514500597864672608e-003 +9.59797560610653355262e-001 -1.11514500597864672608e-003 +9.59797560610653355262e-001 -3.79677450493573487300e-002 -4.23357161222044712763e-005
5.60000000000000000000e+009 -3.71020617504445454626e-002 +6.26686970738400250108e-003 +1.66581263260830891859e-001 +9.43866022015375727428e-001 +1.66581263260830891859e-001 +9.43866022015375727428e-001 -3.71020617504445454626e-002 +6.26686970738400250108e-003
5.80000000000000000000e+009 -3.41121922964654766819e-002 +1.18724491081002910681e-002 +3.28834029098994229390e-001 +8.98890954176567058553e-001 +3.28834029098994229390e-001 +8.98890954176567058553e-001 -3.41121922964654766819e-002 +1.18724491081002910681e-002
6.00000000000000000000e+009 -2.93575308589007696880e-002 +1.60758226093207640117e-002 +4.80662166108668742481e-001 +8.26242868078437164847e-001 +4.80662166108668742481e-001 +8.26242868078437164847e-001 -2.93575308589007696880e-002 +1.60758226093207640117e-002
6.20000000000000000000e+009 -2.34202786430858546363e-002 +1.83397545492689148516e-002 +6.17380773638301461048e-001 +7.28136270492819814848e-001 +6.17380773638301461048e-001 +7.28136270492819814848e-001 -2.34202786430858546363e-002 +1.83397545492689148516e-002
6.40000000000000000000e+009 -1.70383274135279365324e-002 +1.83572697935002644709e-002 +7.34742148716024834343e-001 +6.07575399124149817531e-001 +7.34742148716024834343e-001 +6.07575399124149817531e-001 -1.70383274135279365324e-002 +1.83572697935002644709e-002
6.60000000000000000000e+009 -1.10174764922294984859e-002 +1.60940830646385535374e-002 +8.29070508594936139701e-001 +4.68276278207681528887e-001 +8.29070508594936139701e-001 +4.68276278207681528887e-001 -1.10174764922294984859e-002 +1.60940830646385535374e-002
6.80000000000000000000e+009 -6.13303227375091956908e-003 +1.17984880400206840201e-002 +8.97385866344067917311e-001 +3.14563956922370824287e-001 +8.97385866344067917311e-001 +3.14563956922370824287e-001 -6.13303227375091956908e-003 +1.17984880400206840201e-002
7.00000000000000000000e+009 -3.03262611805500768153e-003 +5.97636314981728981183e-003 +9.37511197947652585860e-001 +1.51245070748921461856e-001 +9.37511197947652585860e-001 +1.51245070748921461856e-001 -3.03262611805500768153e-003 +5.97636314981728981183e-003
7.20000000000000000000e+009 -2.15251199813429761748e-003 -6.66762153950877867539e-004 +9.48156261023002766564e-001 -1.65420305676771406400e-002 +9.48156261023002766564e-001 -1.65420305676771406400e-002 -2.15251199813429761748e-003 -6.66762153950877867539e-004
7.40000000000000000000e+009 -3.65844126379850269684e-003 -7.31029258231096889381e-003 +9.28971679633893376860e-001 -1.83494797383926322443e-001 +9.28971679633893376860e-001 -1.83494797383926322443e-001 -3.65844126379850269684e-003 -7.31029258231096889381e-003
7.60000000000000000000e+009 -7.41945283370589250826e-003 -1.31197458049266500041e-002 +8.80568365958663390458e-001 -3.44324420460418889611e-001 +8.80568365958663390458e-001 -3.44324420460418889611e-001 -7.41945283370589250826e-003 -1.31197458049266500041e-002
7.80000000000000000000e+009 -1.30188415514977170323e-002 -1.73519007711395688298e-002 +8.04499861308144770256e-001 -4.93935281573931128651e-001 +8.04499861308144770256e-001 -4.93935281573931128651e-001 -1.30188415514977170323e-002 -1.73519007711395688298e-002
8.00000000000000000000e+009 -1.98017267242697921070e-002 -1.94504077299545614921e-002 +7.03208295927663207259e-001 -6.27596492028916763672e-001 +7.03208295927663207259e-001 -6.27596492028916763672e-001 -1.98017267242697921070e-002 -1.94504077299545614921e-002
8.20000000000000000000e+009 -2.69537658529899401549e-002 -1.91193517731100340318e-002 +5.79937744659192455643e-001 -7.41096961876223869758e-001 +5.79937744659192455643e-001 -7.41096961876223869758e-001 -2.69537658529899401549e-002 -1.91193517731100340318e-002
8.40000000000000000000e+009 -3.36013954864939415335e-002 -1.63650083453992997717e-002 +4.38621134174134008621e-001 -8.30877503946190310025e-001 +4.38621134174134008621e-001 -8.30877503946190310025e-001 -3.36013954864939415335e-002 -1.63650083453992997717e-002
8.60000000000000000000e+009 -3.89211387178855922064e-002 -1.15000838879469879927e-002 +2.83748053694829749372e-001 -8.94136242939407410724e-001 +2.83748053694829749372e-001 -8.94136242939407410724e-001 -3.89211387178855922064e-002 -1.15000838879469879927e-002
8.80000000000000000000e+009 -4.22443440786115648189e-002 -5.10947205455435701088e-003 +1.20220668022073651215e-001 -9.28906402066872471934e-001 +1.20220668022073651215e-001 -9.28906402066872471934e-001 -4.22443440786115648189e-002 -5.10947205455435701088e-003
9.00000000000000000000e+009 -4.31442690083719757044e-002 +2.01868600087163046347e-003 -4.67963764863521952675e-002 -9.34107721604254259695e-001 -4.67963764863521952675e-002 -9.34107721604254259695e-001 -4.31442690083719757044e-002 +2.01868600087163046347e-003
9.20000000000000000000e+009 -4.14945081242949417866e-002 +8.98863971947045682642e-003 -2.12028130478696202887e-001 -9.09573862122069476399e-001 -2.12028130478696202887e-001 -9.09573862122069476399e-001 -4.14945081242949417866e-002 +8.98863971947045682642e-003
9.40000000000000000000e+009 -3.74910658773774038699e-002 +1.49081207936844241380e-002 -3.70241654673439224421e-001 -8.56058011845994504263e-001 -3.70241654673439224421e-001 -8.56058011845994504263e-001 -3.74910658773774038699e-002 +1.49081207936844241380e-002
9.60000000000000000000e+009 -3.16345111405142362382e-002 +1.90016192391396325501e-002 -5.16397854803361422427e-001 -7.75217754433340400233e-001 -5.16397854803361422427e-001 -7.75217754433340400233e-001 -3.16345111405142362382e-002 +1.90016192391396325501e-002
9.80000000000000000000e+009 -2.46732558989063988086e-002 +2.07119323078202507982e-002 -6.45802473558492518002e-001 -6.69578560250434939860e-001 -6.45802473558492518002e-001 -6.69578560250434939860e-001 -2.46732558989063988086e-002 +2.07119323078202507982e-002
1.00000000000000000000e+010 -1.75136932508842720069e-002 +1.97769186760638274181e-002 -7.54254887820435371282e-001 -5.42473715556495039714e-001 -7.54254887820435371282e-001 -5.42473715556495039714e-001 -1.75136932508842720069e-002 +1.97769186760638274181e-002
1.02000000000000000000e+010 -1.11072827683266414645e-002 +1.62707757855322619756e-002 -8.38191359938947444519e-001 -3.97957779164443303799e-001 -8.38191359938947444519e-001 -3.97957779164443303799e-001 -1.11072827683266414645e-002 +1.62707757855322619756e-002
1.04000000000000000000e+010 -6.32817052667876064898e-003 +1.06030361133146889402e-002 -8.94816940430039231558e-001 -2.40691252934447097456e-001 -8.94816940430039231558e-001 -2.40691252934447097456e-001 -6.32817052667876064898e-003 +1.06030361133146889402e-002
1.06000000000000000000e+010 -3.85700181628198957712e-003 +3.47360195799420630458e-003 -9.22218096203175297099e-001 -7.57962235479207324662e-002 -9.22218096203175297099e-001 -7.57962235479207324662e-002 -3.85700181628198957712e-003 +3.47360195799420630458e-003
1.08000000000000000000e+010 -4.08669572104166951149e-003 -4.21201620716777670739e-003 -9.19447140628190107137e-001 +9.13140066292563584716e-002 -9.19447140628190107137e-001 +9.13140066292563584716e-002 -4.08669572104166951149e-003 -4.21201620716777670739e-003
1.10000000000000000000e+010 -7.06378523258104941418e-003 -1.14573308836150838247e-002 -8.86570241492121158267e-001 +2.55124530464460930190e-001 -8.86570241492121158267e-001 +2.55124530464460930190e-001 -7.06378523258104941418e-003 -1.14573308836150838247e-002
1.12000000000000000000e+010 -1.24745518334961284085e-002 -1.73047443004020647106e-002 -8.24673314661574563544e-001 +4.10217626259086254326e-001 -8.24673314661574563544e-001 +4.10217626259086254326e-001 -1.24745518334961284085e-002 -1.73047443004020647106e-002
1.14000000000000000000e+010 -1.96791387299932764299e-002 -2.09632801952925260092e-002 -7.35824073886452323379e-001 +5.51468755682700040310e-001 -7.35824073886452323379e-001 +5.51468755682700040310e-001 -1.96791387299932764299e-002 -2.09632801952925260092e-002
1.16000000000000000000e+010 -2.77900624139822277625e-002 -2.19166447527522345595e-002 -6.22993038095489670702e-001 +6.74227875465321146997e-001 -6.22993038095489670702e-001 +6.74227875465321146997e-001 -2.77900624139822277625e-002 -2.19166447527522345595e-002
1.18000000000000000000e+010 -3.57852081811732489203e-002 -1.99965832531973086716e-002 -4.89940315351508337560e-001 +7.74476292673390465104e-001 -4.89940315351508337560e-001 +7.74476292673390465104e-001 -3.57852081811732489203e-002 -1.99965832531973086716e-002
1.20000000000000000000e+010 -4.26405502835578639753e-002 -1.54112242972210509995e-002 -3.41077521179003417817e-001 +8.48952935471946723567e-001 -3.41077521179003417817e-001 +8.48952935471946723567e-001 -4.26405502835578639753e-002 -1.54112242972210509995e-002
1.22000000000000000000e+010 -4.74651905122855308217e-002 -8.72420313960115510754e-003 -1.81314702028514795895e-001 +8.95248109509942713302e-001 -1.81314702028514795895e-001 +8.95248109509942713302e-001 -4.74651905122855308217e-002 -8.72420313960115510754e-003
1.24000000000000000000e+010 -4.96210944249368540726e-002 -7.86828675435665564342e-004 -1.59006614659593648042e-002 +9.11866463802449067622e-001 -1.59006614659593648042e-002 +9.11866463802449067622e-001 -4.96210944249368540726e-002 -7.86828675435665564342e-004
1.26000000000000000000e+010 -4.88119247060092298351e-002 +7.36849333076664524123e-003 +1.49737771859853902034e-001 +8.98263089845914852738e-001 +1.49737771859853902034e-001 +8.98263089845914852738e-001 -4.88119247060092298351e-002 +7.36849333076664524123e-003
1.28000000000000000000e+010 -4.51291635272343047425e-002 +1.46605832346558741935e-002 +3.10155266235695448174e-001 +8.54856961333151144089e-001 +3.10155266235695448174e-001 +8.54856961333151144089e-001 -4.51291635272343047425e-002 +1.46605832346558741935e-002
1.30000000000000000000e+010 -3.90487454459266386531e-002 +2.01013000284742775203e-002 +4.60046649270534402376e-001 +7.83024389976890611287e-001 +4.60046649270534402376e-001 +7.83024389976890611287e-001 -3.90487454459266386531e-002 +2.01013000284742775203e-002
1.32000000000000000000e+010 -3.13772062273113688802e-002 +2.29290376792363227720e-002 +5.94406160156136897932e-001 +6.85072454503719008301e-001 +5.94406160156136897932e-001 +6.85072454503719008301e-001 -3.13772062273113688802e-002 +2.29290376792363227720e-002
1.34000000000000000000e+010 -2.31524642488025005072e-002 +2.27163930536126226767e-002 +7.08687883554760755800e-001 +5.64189451469214953150e-001 +7.08687883554760755800e-001 +5.64189451469214953150e-001 -2.31524642488025005072e-002 +2.27163930536126226767e-002
1.36000000000000000000e+010 -1.55103239364694275165e-002 +1.94367718022457301730e-002 +7.98965272190097497429e-001 +4.24367434360613915434e-001 +7.98965272190097497429e-001 +4.24367434360613915434e-001 -1.55103239364694275165e-002 +1.94367718022457301730e-002
1.38000000000000000000e+010 -9.53300245065264936772e-003 +1.34790561959463924685e-002 +8.62083865223306600178e-001 +2.70291791015805860088e-001 +8.62083865223306600178e-001 +2.70291791015805860088e-001 -9.53300245065264936772e-003 +1.34790561959463924685e-002
1.40000000000000000000e+010 -6.09961540912981083074e-003 +5.60577080857654549972e-003 +8.95797554576939325521e-001 +1.07195028155421798188e-001 +8.95797554576939325521e-001 +1.07195028155421798188e-001 -6.09961540912981083074e-003 +5.60577080857654549972e-003
1.42000000000000000000e+010 -5.75972453265699395331e-003 -3.14209142303226987222e-003 +8.98876363629598773564e-001 -5.93237295207858159052e-002 +8.98876363629598773564e-001 -5.93237295207858159052e-002 -5.75972453265699395331e-003 -3.14209142303226987222e-003
1.44000000000000000000e+010 -8.64906158417405070138e-003 -1.15823276012579998856e-002 +8.71173765645690711956e-001 -2.23506502006389856652e-001 +8.71173765645690711956e-001 -2.23506502006389856652e-001 -8.64906158417405070138e-003 -1.15823276012579998856e-002
1.46000000000000000000e+010 -1.44612482846554878807e-002 -1.85525952467499657961e-002 +8.13644525027071852108e-001 -3.79659229356195115912e-001 +8.13644525027071852108e-001 -3.79659229356195115912e-001 -1.44612482846554878807e-002 -1.85525952467499657961e-002
1.48000000000000000000e+010 -2.24813469364401954942e-002 -2.30725684692886928717e-002 +7.28309448821393146112e-001 -5.22373937986462033578e-001 +7.28309448821393146112e-001 -5.22373937986462033578e-001 -2.24813469364401954942e-002 -2.30725684692886928717e-002
1.50000000000000000000e+010 -3.16777547332290354554e-002 -2.44836347756989952673e-002 +6.18170010329400776428e-001 -6.46734275278514791907e-001 +6.18170010329400776428e-001 -6.46734275278514791907e-001 -3.16777547332290354554e-002 -2.44836347756989952673e-002
1.52000000000000000000e+010 -4.08400596853386310681e-002 -2.25456760033051137326e-002 +4.87081815257742356540e-001 -7.48491207370566735690e-001 +4.87081815257742356540e-001 -7.48491207370566735690e-001 -4.08400596853386310681e-002 -2.25456760033051137326e-002
