# HZ S RI R 50
2.00000000000000000000e+008 -2.76767366405330453999e-003 -1.57081492068498786152e-002 +9.84774435540556880575e-001 -1.61631923655015413699e-001 +9.84774435540556880575e-001 -1.61631923655015413699e-001 -2.76767366405330453999e-003 -1.57081492068498786152e-002
4.00000000000000000000e+008 -1.03515836798719253892e-002 -2.97088195012917589966e-002 +9.43903120226042946506e-001 -3.18372775480916248014e-001 +9.43903120226042946506e-001 -3.18372775480916248014e-001 -1.03515836798719253892e-002 -2.97088195012917589966e-002
6.00000000000000000000e+008 -2.19919690547351817655e-002 -4.05694199432204277711e-002 +8.78246840403531403574e-001 -4.66019046116476487462e-001 +8.78246840403531403574e-001 -4.66019046116476487462e-001 -2.19919690547351817655e-002 -4.05694199432204277711e-002
8.00000000000000000000e+008 -3.64817406743739025554e-002 -4.71818609813118017282e-002 +7.89729214816894398155e-001 -6.00669671534366567123e-001 +7.89729214816894398155e-001 -6.00669671534366567123e-001 -3.64817406743739025554e-002 -4.71818609813118017282e-002
1.00000000000000000000e+009 -5.23277353455258928405e-002 -4.88788341591248690077e-002 +6.80896374954535921198e-001 -7.18862748108051952123e-001 +6.80896374954535921198e-001 -7.18862748108051952123e-001 -5.23277353455258928405e-002 -4.88788341591248690077e-002
1.20000000000000000000e+009 -6.79074448406642022791e-002 -4.54982122108169920183e-002 +5.54785188659365546826e-001 -8.17659682181622771147e-001 +5.54785188659365546826e-001 -8.17659682181622771147e-001 -6.79074448406642022791e-002 -4.54982122108169920183e-002
1.40000000000000000000e+009 -8.16340713556530372941e-002 -3.73942631825546142887e-002 +4.14800533104365209969e-001 -8.94691076177188793217e-001 +4.14800533104365209969e-001 -8.94691076177188793217e-001 -8.16340713556530372941e-002 -3.73942631825546142887e-002
1.60000000000000000000e+009 -9.21138592690288610099e-002 -2.53977875443492720486e-002 +2.64604730946645327894e-001 -9.48171880778458708861e-001 +2.64604730946645327894e-001 -9.48171880778458708861e-001 -9.21138592690288610099e-002 -2.53977875443492720486e-002
1.80000000000000000000e+009 -9.82816549227808339273e-002 -1.07317515046856000460e-002 +1.08025214229642757546e-001 -9.76896316319293966934e-001 +1.08025214229642757546e-001 -9.76896316319293966934e-001 -9.82816549227808339273e-002 -1.07317515046856000460e-002
2.00000000000000000000e+009 -9.95040395723740533906e-002 +5.10812239933515054718e-003 -5.10179630675141951301e-002 -9.80224327335055267696e-001 -5.10179630675141951301e-002 -9.80224327335055267696e-001 -9.95040395723740533906e-002 +5.10812239933515054718e-003
2.20000000000000000000e+009 -9.56427588515637167044e-002 +2.04969187660699291020e-002 -2.08568359398018543516e-001 -9.58070142081719922089e-001 -2.08568359398018543516e-001 -9.58070142081719922089e-001 -9.56427588515637167044e-002 +2.04969187660699291020e-002
2.40000000000000000000e+009 -8.70739988657403957140e-002 +3.38367819362501570657e-002 -3.60680979887753050406e-001 -9.10900152656614836566e-001 -3.60680979887753050406e-001 -9.10900152656614836566e-001 -8.70739988657403957140e-002 +3.38367819362501570657e-002
2.60000000000000000000e+009 -7.46613681848133786678e-002 +4.37140041356374048354e-002 -5.03471987673788090589e-001 -8.39742468225055604947e-001 -5.03471987673788090589e-001 -8.39742468225055604947e-001 -7.46613681848133786678e-002 +4.37140041356374048354e-002
2.80000000000000000000e+009 -5.96826951415276724111e-002 +4.90444960993651618564e-002 -6.33180676497588801332e-001 -7.46204958620079961129e-001 -6.33180676497588801332e-001 -7.46204958620079961129e-001 -5.96826951415276724111e-002 +4.90444960993651618564e-002
3.00000000000000000000e+009 -4.37135715816318118354e-002 +4.91944457036406421202e-002 -7.46251693550028072366e-001 -6.32493355613462870934e-001 -7.46251693550028072366e-001 -6.32493355613462870934e-001 -4.37135715816318118354e-002 +4.91944457036406421202e-002
3.20000000000000000000e+009 -2.84744440634155729364e-002 +4.40626633721818705691e-002 -8.39440758925175001259e-001 -5.01417072679173791983e-001 -8.39440758925175001259e-001 -5.01417072679173791983e-001 -2.84744440634155729364e-002 +4.40626633721818705691e-002
3.40000000000000000000e+009 -1.56529699582484069231e-002 +3.41121731837189592906e-002 -9.09940651102467246147e-001 -3.56368908999374733870e-001 -9.09940651102467246147e-001 -3.56368908999374733870e-001 -1.56529699582484069231e-002 +3.41121731837189592906e-002
3.60000000000000000000e+009 -6.71862619902525819160e-003 +2.03419760318811898570e-002 -9.55517189969495195356e-001 -2.01266562397603793189e-001 -9.55517189969495195356e-001 -2.01266562397603793189e-001 -6.71862619902525819160e-003 +2.03419760318811898570e-002
3.80000000000000000000e+009 -2.75082365223058194006e-003 +4.19605875285451387913e-003 -9.74639022857930692467e-001 -4.04491424847466599091e-002 -9.74639022857930692467e-001 -4.04491424847466599091e-002 -2.75082365223058194006e-003 +4.19605875285451387913e-003
4.00000000000000000000e+009 -4.30336680029396508734e-003 -1.25847800484929876752e-002 -9.66582037321752296499e-001 +1.21470036720035035049e-001 -9.66582037321752296499e-001 +1.21470036720035035049e-001 -4.30336680029396508734e-003 -1.25847800484929876752e-002
4.20000000000000000000e+009 -1.13256539834486868318e-002 -2.81533652836592693247e-002 -9.31490575550523280945e-001 +2.79783929208884896145e-001 -9.31490575550523280945e-001 +2.79783929208884896145e-001 -1.13256539834486868318e-002 -2.81533652836592693247e-002
4.40000000000000000000e+009 -2.31541956103959722935e-002 -4.07659668537826980206e-002 -8.70383598390473967044e-001 +4.29887222401982072029e-001 -8.70383598390473967044e-001 +4.29887222401982072029e-001 -2.31541956103959722935e-002 -4.07659668537826980206e-002
4.60000000000000000000e+009 -3.85778943140517235899e-002 -4.89843371471840247078e-002 -7.85103368008319368876e-001 +5.67464464161384740670e-001 -7.85103368008319368876e-001 +5.67464464161384740670e-001 -3.85778943140517235899e-002 -4.89843371471840247078e-002
4.80000000000000000000e+009 -5.59693457254926973743e-002 -5.18435127349037364053e-002 -6.78214661613601887957e-001 +6.88649649876844294205e-001 -6.78214661613601887957e-001 +6.88649649876844294205e-001 -5.59693457254926973743e-002 -5.18435127349037364053e-002
5.00000000000000000000e+009 -7.34648741276904410080e-002 -4.89645054569896598373e-002 -5.52871105128017181762e-001 +7.90142234538733556626e-001 -5.52871105128017181762e-001 +7.90142234538733556626e-001 -7.34648741276904410080e-002 -4.89645054569896598373e-002
5.20000000000000000000e+009 -8.91702198345347973873e-002 -4.05998147885328342088e-002 -4.12669601322074197647e-001 +8.69274017171087098887e-001 -4.12669601322074197647e-001 +8.69274017171087098887e-001 -8.91702198345347973873e-002 -4.05998147885328342088e-002
5.40000000000000000000e+009 -1.01367513323083788257e-001 -2.76093098839994659233e-002 -2.61513040239516381114e-001 +9.24031508241388577218e-001 -2.61513040239516381114e-001 +9.24031508241388577218e-001 -1.01367513323083788257e-001 -2.76093098839994659233e-002
5.60000000000000000000e+009 -1.08701705691989475300e-001 -1.13722217414633924859e-002 -1.03496065498394185234e-001 +9.53046627766914289381e-001 -1.03496065498394185234e-001 +9.53046627766914289381e-001 -1.08701705691989475300e-001 -1.13722217414633924859e-002
5.80000000000000000000e+009 -1.10329304658430646380e-001 +6.35350569966556307649e-003 +5.71797020212555864860e-002 +9.55573085148460066307e-001 +5.71797020212555864860e-002 +9.55573085148460066307e-001 -1.10329304658430646380e-001 +6.35350569966556307649e-003
6.00000000000000000000e+009 -1.06017266602189963454e-001 +2.36104372844699941791e-002 +2.16263796492246029857e-001 +9.31465862618548801066e-001 +2.16263796492246029857e-001 +9.31465862618548801066e-001 -1.06017266602189963454e-001 +2.36104372844699941791e-002
6.20000000000000000000e+009 -9.61839950992532388696e-002 +3.84442576179021208715e-002 +3.69499291748228986254e-001 +8.81177139340011961188e-001 +3.69499291748228986254e-001 +8.81177139340011961188e-001 -9.61839950992532388696e-002 +3.84442576179021208715e-002
6.40000000000000000000e+009 -8.18773846730046078735e-002 +4.91138145396730479986e-002 +5.12665734048556975821e-001 +8.05774672494240618015e-001 +5.12665734048556975821e-001 +8.05774672494240618015e-001 -8.18773846730046078735e-002 +4.91138145396730479986e-002
6.60000000000000000000e+009 -6.46875123582870137362e-002 +5.42911702559181821859e-002 +6.41640526457804116767e-001 +7.06979400626690623888e-001 +6.41640526457804116767e-001 +7.06979400626690623888e-001 -6.46875123582870137362e-002 +5.42911702559181821859e-002
6.80000000000000000000e+009 -4.65953027469566058438e-002 +5.32319335302834997781e-002 +7.52493783386055770102e-001 +5.87209489388489713768e-001 +7.52493783386055770102e-001 +5.87209489388489713768e-001 -4.65953027469566058438e-002 +5.32319335302834997781e-002
7.00000000000000000000e+009 -2.97645651983871085966e-002 +4.58940483745360477963e-002 +8.41624139651666269835e-001 +4.49610227325010602950e-001 +8.41624139651666269835e-001 +4.49610227325010602950e-001 -2.97645651983871085966e-002 +4.58940483745360477963e-002
7.20000000000000000000e+009 -1.62935991645689372265e-002 +3.29833646577124828259e-002 +9.05931579936546826914e-001 +2.98045432609468086138e-001 +9.05931579936546826914e-001 +2.98045432609468086138e-001 -1.62935991645689372265e-002 +3.29833646577124828259e-002
7.40000000000000000000e+009 -7.95285910965811901341e-003 +1.59090396859877143687e-002 +9.43010169336890302638e-001 +1.37028491108670269494e-001 +9.43010169336890302638e-001 +1.37028491108670269494e-001 -7.95285910965811901341e-003 +1.59090396859877143687e-002
7.60000000000000000000e+009 -5.94400232638925534595e-003 -3.35747785452027418945e-003 +9.51332139394340914329e-001 -2.84192066978704929725e-002 +9.51332139394340914329e-001 -2.84192066978704929725e-002 -5.94400232638925534595e-003 -3.35747785452027418945e-003
7.80000000000000000000e+009 -1.07190984476126308089e-002 -2.25102108156378655224e-002 +9.30389291791019479305e-001 -1.92979074381963405793e-001 +9.30389291791019479305e-001 -1.92979074381963405793e-001 -1.07190984476126308089e-002 -2.25102108156378655224e-002
8.00000000000000000000e+009 -2.18936838341363231020e-002 -3.91958194608024515504e-002 +8.80761330629203587073e-001 -3.51294405532428410943e-001 +8.80761330629203587073e-001 -3.51294405532428410943e-001 -2.18936838341363231020e-002 -3.91958194608024515504e-002
8.20000000000000000000e+009 -3.82731639188675226704e-002 -5.13187213687523319239e-002 +8.04093928118294387630e-001 -4.98242758080430614420e-001 +8.04093928118294387630e-001 -4.98242758080430614420e-001 -3.82731639188675226704e-002 -5.13187213687523319239e-002
8.40000000000000000000e+009 -5.79918625506837398520e-002 -5.73171839215110973109e-002 +7.02988764288787537637e-001 -6.29181605749547512296e-001 +7.02988764288787537637e-001 -6.29181605749547512296e-001 -5.79918625506837398520e-002 -5.73171839215110973109e-002
8.60000000000000000000e+009 -7.87435661643801770859e-002 -5.63686676262405636506e-002 +5.80827348841094770471e-001 -7.40133389851571399376e-001 +5.80827348841094770471e-001 -7.40133389851571399376e-001 -7.87435661643801770859e-002 -5.63686676262405636506e-002
8.80000000000000000000e+009 -9.80677194100649934905e-002 -4.84969355662963480524e-002 +4.41563709261647729942e-001 -8.27891719068031051165e-001 +4.41563709261647729942e-001 -8.27891719068031051165e-001 -9.80677194100649934905e-002 -4.84969355662963480524e-002
9.00000000000000000000e+009 -1.13650017188031526860e-001 -3.45716538865674521963e-002 +2.89524011104378475867e-001 -8.90050312717056257839e-001 +2.89524011104378475867e-001 -8.90050312717056257839e-001 -1.13650017188031526860e-001 -3.45716538865674521963e-002
9.20000000000000000000e+009 -1.23599684223181724430e-001 -1.62076537615349069998e-002 +1.29243690810210282160e-001 -9.24974131720215031471e-001 +1.29243690810210282160e-001 -9.24974131720215031471e-001 -1.23599684223181724430e-001 -1.62076537615349069998e-002
9.40000000000000000000e+009 -1.26674751744331404169e-001 +4.41817601875794507132e-003 -3.46421487825966933904e-002 -9.31743208175012327388e-001 -3.46421487825966933904e-002 -9.31743208175012327388e-001 -1.26674751744331404169e-001 +4.41817601875794507132e-003
9.60000000000000000000e+009 -1.22436564796408936528e-001 +2.48099410726388726334e-002 -1.97456892037037506915e-001 -9.10101905123021692745e-001 -1.97456892037037506915e-001 -9.10101905123021692745e-001 -1.22436564796408936528e-001 +2.48099410726388726334e-002
9.80000000000000000000e+009 -1.11322150497134245151e-001 +4.24330523246245067126e-002 -3.54506902670273127409e-001 -8.60440132408719415835e-001 -3.54506902670273127409e-001 -8.60440132408719415835e-001 -1.11322150497134245151e-001 +4.24330523246245067126e-002
1.00000000000000000000e+010 -9.46269943058415663462e-002 +5.50095558425635899891e-002 -5.01101371412773000102e-001 -7.83820269693513260734e-001 -5.01101371412773000102e-001 -7.83820269693513260734e-001 -9.46269943058415663462e-002 +5.50095558425635899891e-002
1.02000000000000000000e+010 -7.43928964761797345551e-002 +6.08044098747149638906e-002 -6.32600878902925711778e-001 -6.82046631502854050488e-001 -6.32600878902925711778e-001 -6.82046631502854050488e-001 -7.43928964761797345551e-002 +6.08044098747149638906e-002
1.04000000000000000000e+010 -5.31993779367232813571e-002 +5.88736060531483071379e-002 -7.44523963238545083421e-001 -5.57756135112993822744e-001 -7.44523963238545083421e-001 -5.57756135112993822744e-001 -5.31993779367232813571e-002 +5.88736060531483071379e-002
1.06000000000000000000e+010 -3.38661703782832113063e-002 +4.92388322748968931819e-002 -8.32727672664232421162e-001 -4.14493207515392425577e-001 -8.32727672664232421162e-001 -4.14493207515392425577e-001 -3.38661703782832113063e-002 +4.92388322748968931819e-002
1.08000000000000000000e+010 -1.90902538015847202113e-002 +3.29508151033499480098e-002 -8.93656436851378188635e-001 -2.56723856333296140964e-001 -8.93656436851378188635e-001 -2.56723856333296140964e-001 -1.90902538015847202113e-002 +3.29508151033499480098e-002
1.10000000000000000000e+010 -1.10612983494325772815e-002 +1.20104438500516583904e-002 -9.24627719361135413934e-001 -8.97483432990676399665e-002 -9.24627719361135413934e-001 -8.97483432990676399665e-002 -1.10612983494325772815e-002 +1.20104438500516583904e-002
1.12000000000000000000e+010 -1.11172285003689943345e-002 -1.08630020660274353300e-002 -9.24100712971262727713e-001 +8.05083285251943364669e-002 -9.24100712971262727713e-001 +8.05083285251943364669e-002 -1.11172285003689943345e-002 -1.08630020660274353300e-002
1.14000000000000000000e+010 -1.95074739327114991816e-002 -3.25956815372431610300e-002 -8.91865552549302997853e-001 +2.47816875611586023842e-001 -8.91865552549302997853e-001 +2.47816875611586023842e-001 -1.95074739327114991816e-002 -3.25956815372431610300e-002
1.16000000000000000000e+010 -3.53182107768923864155e-002 -5.02004012469386487472e-002 -8.29102091369787630448e-001 +4.06029450277983150475e-001 -8.29102091369787630448e-001 +4.06029450277983150475e-001 -3.53182107768923864155e-002 -5.02004012469386487472e-002
1.18000000000000000000e+010 -5.65820477276446076598e-002 -6.12173936366560839106e-002 -7.38288311712101741335e-001 +5.49461656617457050444e-001 -7.38288311712101741335e-001 +5.49461656617457050444e-001 -5.65820477276446076598e-002 -6.12173936366560839106e-002
1.20000000000000000000e+010 -8.05539121804594998588e-002 -6.40747333636431798398e-002 -6.22978640095585567416e-001 +6.73200563289779618792e-001 -6.22978640095585567416e-001 +6.73200563289779618792e-001 -8.05539121804594998588e-002 -6.40747333636431798398e-002
1.22000000000000000000e+010 -1.04100073494382022732e-001 -5.83087170073854771379e-002 -4.87506397051206130655e-001 +7.73290532520774065439e-001 -4.87506397051206130655e-001 +7.73290532520774065439e-001 -1.04100073494382022732e-001 -5.83087170073854771379e-002
1.24000000000000000000e+010 -1.24130160155165578106e-001 -4.46184042932252222791e-002 -3.36679623910167535872e-001 +8.46785465928981184724e-001 -3.36679623910167535872e-001 +8.46785465928981184724e-001 -1.24130160155165578106e-001 -4.46184042932252222791e-002
1.26000000000000000000e+010 -1.38005547056331695499e-001 -2.47622502225224791483e-002 -1.75531716357851946819e-001 +8.91693274834508886606e-001 -1.75531716357851946819e-001 +8.91693274834508886606e-001 -1.38005547056331695499e-001 -2.47622502225224791483e-002
1.28000000000000000000e+010 -1.43875136057573960180e-001 -1.32720080425414717167e-003 -9.16307206995131164062e-003 +9.06863717953269143912e-001 -9.16307206995131164062e-003 +9.06863717953269143912e-001 -1.43875136057573960180e-001 -1.32720080425414717167e-003
1.30000000000000000000e+010 -1.40910416621114004121e-001 +2.25917265637654782195e-002 +1.57322470404014064238e-001 +8.91878569251897790338e-001 +1.57322470404014064238e-001 +8.91878569251897790338e-001 -1.40910416621114004121e-001 +2.25917265637654782195e-002
1.32000000000000000000e+010 -1.29426645671720241815e-001 +4.37663288608415093628e-002 +3.18812703292207566541e-001 +8.46994300733065363929e-001 +3.18812703292207566541e-001 +8.46994300733065363929e-001 -1.29426645671720241815e-001 +4.37663288608415093628e-002
1.34000000000000000000e+010 -1.10882648667001690312e-001 +5.92348945198617193864e-002 +4.70161510394401127577e-001 +7.73166381073456587814e-001 +4.70161510394401127577e-001 +7.73166381073456587814e-001 -1.10882648667001690312e-001 +5.92348945198617193864e-002
1.36000000000000000000e+010 -8.77511470978514646069e-002 +6.66971068585971715859e-002 +6.06200374988602685988e-001 +6.72155594684146873163e-001 +6.06200374988602685988e-001 +6.72155594684146873163e-001 -8.77511470978514646069e-002 +6.66971068585971715859e-002
1.38000000000000000000e+010 -6.32522472141221758779e-002 +6.48660614322190132164e-002 +7.21840180267343090037e-001 +5.46684982515864392738e-001 +7.21840180267343090037e-001 +5.46684982515864392738e-001 -6.32522472141221758779e-002 +6.48660614322190132164e-002
1.40000000000000000000e+010 -4.09534501609263232313e-002 +5.37252039003744616408e-002 +8.12295736615218255672e-001 +4.00587063115689534509e-001 +8.12295736615218255672e-001 +4.00587063115689534509e-001 -4.09534501609263232313e-002 +5.37252039003744616408e-002
1.42000000000000000000e+010 -2.42652977091892159411e-002 +3.46281800681559545629e-002 +8.73428365084305435850e-001 +2.38864031497103751489e-001 +8.73428365084305435850e-001 +2.38864031497103751489e-001 -2.42652977091892159411e-002 +3.46281800681559545629e-002
1.44000000000000000000e+010 -1.58989662776012098677e-002 +1.01872539991992618058e-002 +9.02155053402954654196e-001 +6.75896001507857863144e-002 +9.02155053402954654196e-001 +6.75896001507857863144e-002 -1.58989662776012098677e-002 +1.01872539991992618058e-002
1.46000000000000000000e+010 -1.73863372850498638933e-002 -1.60697123405730384060e-002 +8.96831768105838533778e-001 -1.06383230994305327810e-001 +8.96831768105838533778e-001 -1.06383230994305327810e-001 -1.73863372850498638933e-002 -1.60697123405730384060e-002
1.48000000000000000000e+010 -2.87736427740011534160e-002 -4.02364460038310139955e-002 +8.57504097819165922445e-001 -2.75884641555352971842e-001 +8.57504097819165922445e-001 -2.75884641555352971842e-001 -2.87736427740011534160e-002 -4.02364460038310139955e-002
1.50000000000000000000e+010 -4.85719386331776234456e-002 -5.86621988618756043388e-002 +7.85944680606881718177e-001 -4.33974850260477329478e-001 +7.85944680606881718177e-001 -4.33974850260477329478e-001 -4.85719386331776234456e-002 -5.86621988618756043388e-002
1.52000000000000000000e+010 -7.39852123024109104010e-002 -6.85500941387270634753e-002 +6.85459155056817426299e-001 -5.74454030121825165445e-001 +6.85459155056817426299e-001 -5.74454030121825165445e-001 -7.39852123024109104010e-002 -6.85500941387270634753e-002
