# HZ S RI R 50
2.00000000000000000000e+008 -1.81119485732281031154e-003 -9.87750037908089253968e-003 +9.83578248377824149173e-001 -1.72953850953350168895e-001 +9.83578248377824149173e-001 -1.72953850953350168895e-001 -1.81119485732281031154e-003 -9.87750037908089253968e-003
4.00000000000000000000e+008 -6.86902406225321608690e-003 -1.85209378130227163284e-002 +9.37436920092431291707e-001 -3.40161680916399533636e-001 +9.37436920092431291707e-001 -3.40161680916399533636e-001 -6.86902406225321608690e-003 -1.85209378130227163284e-002
6.00000000000000000000e+008 -1.45486325317337773788e-002 -2.49028305998193165427e-002 +8.63113471796379427836e-001 -4.96536789563478575538e-001 +8.63113471796379427836e-001 -4.96536789563478575538e-001 -1.45486325317337773788e-002 -2.49028305998193165427e-002
8.00000000000000000000e+008 -2.39150323158099330223e-002 -2.82745347024106474798e-002 +7.63014438721178245295e-001 -6.37377547982220904466e-001 +7.63014438721178245295e-001 -6.37377547982220904466e-001 -2.39150323158099330223e-002 -2.82745347024106474798e-002
1.00000000000000000000e+009 -3.38387960519595104580e-002 -2.82535878939361960460e-002 +6.40314410490367524886e-001 -7.58513962822280674025e-001 +6.40314410490367524886e-001 -7.58513962822280674025e-001 -3.38387960519595104580e-002 -2.82535878939361960460e-002
1.20000000000000000000e+009 -4.31333988225262934812e-002 -2.48654103633905963766e-002 +4.98832822180240109677e-001 -8.56423919913538722604e-001 +4.98832822180240109677e-001 -8.56423919913538722604e-001 -4.31333988225262934812e-002 -2.48654103633905963766e-002
1.40000000000000000000e+009 -5.06969773621256947216e-002 -1.85355907007684825305e-002 +3.42899137801553510752e-001 -9.28317996935461464680e-001 +3.42899137801553510752e-001 -9.28317996935461464680e-001 -5.06969773621256947216e-002 -1.85355907007684825305e-002
1.60000000000000000000e+009 -5.56416296696137860356e-002 -1.00351353508846968809e-002 +1.77215197854326711457e-001 -9.72195706849422358609e-001 +1.77215197854326711457e-001 -9.72195706849422358609e-001 -5.56416296696137860356e-002 -1.00351353508846968809e-002
1.80000000000000000000e+009 -5.73957011782033829639e-002 -3.86335096050622716756e-004 +6.72027893755073116311e-003 -9.86878416730528451595e-001 +6.72027893755073116311e-003 -9.86878416730528451595e-001 -5.73957011782033829639e-002 -3.86335096050622716756e-004
2.00000000000000000000e+009 -5.57681672154192661917e-002 +9.25915870592116871385e-003 -1.63539228637957695378e-001 -9.72024589156347595953e-001 -1.63539228637957695378e-001 -9.72024589156347595953e-001 -5.57681672154192661917e-002 +9.25915870592116871385e-003
2.20000000000000000000e+009 -5.09686248698400373724e-002 +1.77559798154831825767e-002 -3.28536668125302078192e-001 -9.28131558105190657137e-001 -3.28536668125302078192e-001 -9.28131558105190657137e-001 -5.09686248698400373724e-002 +1.77559798154831825767e-002
2.40000000000000000000e+009 -4.35811111521959212989e-002 +2.40992691255006094564e-002 -4.83391303496425561725e-001 -8.56525364631670060866e-001 -4.83391303496425561725e-001 -8.56525364631670060866e-001 -4.35811111521959212989e-002 +2.40992691255006094564e-002
2.60000000000000000000e+009 -3.44946942008708123950e-002 +2.75425548726298749513e-002 -6.23496556714360106177e-001 -7.59337100155083821740e-001 -6.23496556714360106177e-001 -7.59337100155083821740e-001 -3.44946942008708123950e-002 +2.75425548726298749513e-002
2.80000000000000000000e+009 -2.47983323537018900129e-002 +2.76858854699939434252e-002 -7.44651173473564464977e-001 -6.39461671971720879704e-001 -7.44651173473564464977e-001 -6.39461671971720879704e-001 -2.47983323537018900129e-002 +2.76858854699939434252e-002
3.00000000000000000000e+009 -1.56515882746429586814e-002 +2.45236544536032545494e-002 -8.43191121534372811652e-001 -5.00493722799623452779e-001 -8.43191121534372811652e-001 -5.00493722799623452779e-001 -1.56515882746429586814e-002 +2.45236544536032545494e-002
3.20000000000000000000e+009 -8.14599639768097232018e-003 +1.84457400602158726188e-002 -9.16116535707108825548e-001 -3.46636094808432215775e-001 -9.16116535707108825548e-001 -3.46636094808432215775e-001 -8.14599639768097232018e-003 +1.84457400602158726188e-002
3.40000000000000000000e+009 -3.17365613075576685070e-003 +1.01909095297645201778e-002 -9.61205111945141910113e-001 -1.82578762420166573754e-001 -9.61205111945141910113e-001 -1.82578762420166573754e-001 -3.17365613075576685070e-003 +1.01909095297645201778e-002
3.60000000000000000000e+009 -1.31941778114571498133e-003 +7.57398395979810195103e-004 -9.77101939976411149047e-001 -1.33500894405737952075e-002 -9.77101939976411149047e-001 -1.33500894405737952075e-002 -1.31941778114571498133e-003 +7.57398395979810195103e-004
3.80000000000000000000e+009 -2.79053146487071414630e-003 -8.71866498573649860437e-003 -9.63376431409000200112e-001 +1.55853316595043589476e-001 -9.63376431409000200112e-001 +1.55853316595043589476e-001 -2.79053146487071414630e-003 -8.71866498573649860437e-003
4.00000000000000000000e+009 -7.39296090255772784389e-003 -1.71017621870624032809e-002 -9.20539787799372399846e-001 +3.19848098890310572617e-001 -9.20539787799372399846e-001 +3.19848098890310572617e-001 -7.39296090255772784389e-003 -1.71017621870624032809e-002
4.20000000000000000000e+009 -1.45573525541521451437e-002 -2.33947366425995596784e-002 -8.50020800973019463598e-001 +4.73644807547351165411e-001 -8.50020800973019463598e-001 +4.73644807547351165411e-001 -1.45573525541521451437e-002 -2.33947366425995596784e-002
4.40000000000000000000e+009 -2.34109297099599385217e-002 -2.68582938501705226209e-002 -7.54102664545783674122e-001 +6.12615629495287361550e-001 -7.54102664545783674122e-001 +6.12615629495287361550e-001 -2.34109297099599385217e-002 -2.68582938501705226209e-002
4.60000000000000000000e+009 -3.28855265685526060304e-002 -2.70975155364839292993e-002 -6.35827719881845609962e-001 +7.32639402074891754602e-001 -6.35827719881845609962e-001 +7.32639402074891754602e-001 -3.28855265685526060304e-002 -2.70975155364839292993e-002
4.80000000000000000000e+009 -4.18475850944305047263e-002 -2.41054233621714047997e-002 -4.98879680845917994336e-001 +8.30217978399705458514e-001 -4.98879680845917994336e-001 +8.30217978399705458514e-001 -4.18475850944305047263e-002 -2.41054233621714047997e-002
5.00000000000000000000e+009 -4.92337750602767076913e-002 -1.82594610853208313972e-002 -3.47453384325197622839e-001 +9.02562400994510460883e-001 -3.47453384325197622839e-001 +9.02562400994510460883e-001 -4.92337750602767076913e-002 -1.82594610853208313972e-002
5.20000000000000000000e+009 -5.41760207566713142269e-002 -1.02726561082085686427e-002 -1.86120599762756244733e-001 +9.47651159755838912169e-001 -1.86120599762756244733e-001 +9.47651159755838912169e-001 -5.41760207566713142269e-002 -1.02726561082085686427e-002
5.40000000000000000000e+009 -5.61017646321445503932e-002 -1.10636194761162516900e-003 -1.96975199707107480329e-002 +9.64265205258175939207e-001 -1.96975199707107480329e-002 +9.64265205258175939207e-001 -5.61017646321445503932e-002 -1.10636194761162516900e-003
5.60000000000000000000e+009 -5.47986950018320984057e-002 +8.14460660613376338790e-003 +1.46883834222965359295e-001 +9.52004948762782854388e-001 +1.46883834222965359295e-001 +9.52004948762782854388e-001 -5.47986950018320984057e-002 +8.14460660613376338790e-003
5.80000000000000000000e+009 -5.04373396376759167148e-002 +1.63811158089028560680e-002 +3.08700977395840625572e-001 +9.11293296345727754648e-001 +3.08700977395840625572e-001 +9.11293296345727754648e-001 -5.04373396376759167148e-002 +1.63811158089028560680e-002
6.00000000000000000000e+009 -4.35494416088665625697e-002 +2.26286434623399097810e-002 +4.60965453369969635489e-001 +8.43366353966748638626e-001 +4.60965453369969635489e-001 +8.43366353966748638626e-001 -4.35494416088665625697e-002 +2.26286434623399097810e-002
6.20000000000000000000e+009 -3.49646004694113624045e-002 +2.61516283771232628530e-002 +5.99148859856865945162e-001 +7.50250594643222523672e-001 +5.99148859856865945162e-001 +7.50250594643222523672e-001 -3.49646004694113624045e-002 +2.61516283771232628530e-002
6.40000000000000000000e+009 -2.57120617748997117025e-002 +2.65402437992495084107e-002 +7.19111212679617306520e-001 +6.34722875814410558704e-001 +7.19111212679617306520e-001 +6.34722875814410558704e-001 -2.57120617748997117025e-002 +2.65402437992495084107e-002
6.60000000000000000000e+009 -1.68985024346358474190e-002 +2.37592587754330321348e-002 +8.17229663028062769392e-001 +5.00248505008950905548e-001 +8.17229663028062769392e-001 +5.00248505008950905548e-001 -1.68985024346358474190e-002 +2.37592587754330321348e-002
6.80000000000000000000e+009 -9.57578960746967647322e-003 +1.81525890757472455062e-002 +8.90522337608700587097e-001 +3.50893060323075600682e-001 +8.90522337608700587097e-001 +3.50893060323075600682e-001 -9.57578960746967647322e-003 +1.81525890757472455062e-002
7.00000000000000000000e+009 -4.61447120617671738968e-003 +1.04021723558587637914e-002 +9.36759304789844371442e-001 +1.91205942220562835621e-001 +9.36759304789844371442e-001 +1.91205942220562835621e-001 -4.61447120617671738968e-003 +1.04021723558587637914e-002
7.20000000000000000000e+009 -2.59867922681947596808e-003 +1.44545869421171821814e-003 +9.54551250861820577143e-001 +2.60772501535726404509e-002 +9.54551250861820577143e-001 +2.60772501535726404509e-002 -2.59867922681947596808e-003 +1.44545869421171821814e-003
7.40000000000000000000e+009 -3.75589115289604296571e-003 -7.63868164278683984408e-003 +9.43406949954593732066e-001 -1.39426285708004915609e-001 +9.43406949954593732066e-001 -1.39426285708004915609e-001 -3.75589115289604296571e-003 -7.63868164278683984408e-003
7.60000000000000000000e+009 -7.93068926078666254498e-003 -1.57614014635070430470e-002 +9.03753104294313991396e-001 -3.00236970994324781081e-001 +9.03753104294313991396e-001 -3.00236970994324781081e-001 -7.93068926078666254498e-003 -1.57614014635070430470e-002
7.80000000000000000000e+009 -1.46058439482233057283e-002 -2.19559490254806546905e-002 +8.36914135384027924047e-001 -4.51461928391958589035e-001 +8.36914135384027924047e-001 -4.51461928391958589035e-001 -1.46058439482233057283e-002 -2.19559490254806546905e-002
8.00000000000000000000e+009 -2.29676733464509591487e-002 -2.54936162381305987668e-002 +7.45054095334544475016e-001 -5.88547434051657436527e-001 +7.45054095334544475016e-001 -5.88547434051657436527e-001 -2.29676733464509591487e-002 -2.54936162381305987668e-002
8.20000000000000000000e+009 -3.20067983463742308792e-002 -2.59692434084726336829e-002 +6.31086942139332696122e-001 -7.07422249885545806336e-001 +6.31086942139332696122e-001 -7.07422249885545806336e-001 -3.20067983463742308792e-002 -2.59692434084726336829e-002
8.40000000000000000000e+009 -4.06410773879489900517e-002 -2.33463509244741865278e-002 +4.98564044446144050138e-001 -8.04613916251140426361e-001 +4.98564044446144050138e-001 -8.04613916251140426361e-001 -4.06410773879489900517e-002 -2.33463509244741865278e-002
8.60000000000000000000e+009 -4.78452443124285989318e-002 -1.79574546274627426523e-002 +3.51548444830024120478e-001 -8.77336078265636643003e-001 +3.51548444830024120478e-001 -8.77336078265636643003e-001 -4.78452443124285989318e-002 -1.79574546274627426523e-002
8.80000000000000000000e+009 -5.27716862318714508007e-002 -1.04607583468436082103e-002 +1.94484162920264547214e-001 -9.23548583014032753447e-001 +1.94484162920264547214e-001 -9.23548583014032753447e-001 -5.27716862318714508007e-002 -1.04607583468436082103e-002
9.00000000000000000000e+009 -5.48485858218209360038e-002 -1.75941624264524284875e-003 +3.20662016924988940714e-002 -9.41994477308651489977e-001 +3.20662016924988940714e-002 -9.41994477308651489977e-001 -5.48485858218209360038e-002 -1.75941624264524284875e-003
9.20000000000000000000e+009 -5.38447927464086456562e-002 +7.10657141483049970693e-003 -1.30886226682149636735e-001 -9.32218732433573671337e-001 -1.30886226682149636735e-001 -9.32218732433573671337e-001 -5.38447927464086456562e-002 +7.10657141483049970693e-003
9.40000000000000000000e+009 -4.98947392167553641085e-002 +1.50832145206233995960e-002 -2.89553517225803469515e-001 -8.94572567313531630262e-001 -2.89553517225803469515e-001 -8.94572567313531630262e-001 -4.98947392167553641085e-002 +1.50832145206233995960e-002
9.60000000000000000000e+009 -4.34810416203090244203e-002 +2.12262922244500287783e-002 -4.39238469497098216188e-001 -8.30205088874155561207e-001 -4.39238469497098216188e-001 -8.30205088874155561207e-001 -4.34810416203090244203e-002 +2.12262922244500287783e-002
9.80000000000000000000e+009 -3.53768357672045036244e-002 +2.48121829824404262210e-002 -5.75490166696438598670e-001 -7.41041344179608651999e-001 -5.75490166696438598670e-001 -7.41041344179608651999e-001 -3.53768357672045036244e-002 +2.48121829824404262210e-002
1.00000000000000000000e+010 -2.65541489372637176669e-002 +2.54231746780706133193e-002 -6.94229664536771040595e-001 -6.29743605711260090452e-001 -6.94229664536771040595e-001 -6.29743605711260090452e-001 -2.65541489372637176669e-002 +2.54231746780706133193e-002
1.02000000000000000000e+010 -1.80684534512759627234e-002 +2.29971451548744258708e-002 -7.91875682050126705747e-001 -4.99651524127710355838e-001 -7.91875682050126705747e-001 -4.99651524127710355838e-001 -1.80684534512759627234e-002 +2.29971451548744258708e-002
1.04000000000000000000e+010 -1.09325983959870105117e-002 +1.78352088499896185847e-002 -8.65465476804865518901e-001 -3.54697159831674380115e-001 -8.65465476804865518901e-001 -3.54697159831674380115e-001 -1.09325983959870105117e-002 +1.78352088499896185847e-002
1.06000000000000000000e+010 -5.99509899639959296241e-003 +1.05656803154590920452e-002 -9.12763463283402964876e-001 -1.99292934373754782040e-001 -9.12763463283402964876e-001 -1.99292934373754782040e-001 -5.99509899639959296241e-003 +1.05656803154590920452e-002
1.08000000000000000000e+010 -3.83780235787306968701e-003 +2.06807402561431409593e-003 -9.32348718870422032978e-001 -3.81938676315235273173e-002 -9.32348718870422032978e-001 -3.81938676315235273173e-002 -3.83780235787306968701e-003 +2.06807402561431409593e-003
1.10000000000000000000e+010 -4.70595211700315478598e-003 -6.63386909779798382425e-003 -9.23672874469330773550e-001 +1.23660662768797377509e-001 -9.23672874469330773550e-001 +1.23660662768797377509e-001 -4.70595211700315478598e-003 -6.63386909779798382425e-003
1.12000000000000000000e+010 -8.47970691621444117025e-003 -1.44968368949019068420e-002 -8.87082111816451579500e-001 +2.81316950315963820728e-001 -8.87082111816451579500e-001 +2.81316950315963820728e-001 -8.47970691621444117025e-003 -1.44968368949019068420e-002
1.14000000000000000000e+010 -1.46907290407333988858e-002 -2.05844755027083797794e-002 -8.23800673233639146886e-001 +4.29977959414526433868e-001 -8.23800673233639146886e-001 +4.29977959414526433868e-001 -1.46907290407333988858e-002 -2.05844755027083797794e-002
1.16000000000000000000e+010 -2.25814191702372914217e-002 -2.41797693218771467261e-002 -7.35877593847128252946e-001 +5.65164250702268056159e-001 -7.35877593847128252946e-001 +5.65164250702268056159e-001 -2.25814191702372914217e-002 -2.41797693218771467261e-002
1.18000000000000000000e+010 -3.11987608445742879704e-002 -2.48693755103667410444e-002 -6.26102270690195639169e-001 +6.82855516062482403861e-001 -6.26102270690195639169e-001 +6.82855516062482403861e-001 -3.11987608445742879704e-002 -2.48693755103667410444e-002
1.20000000000000000000e+010 -3.95104723669665799934e-002 -2.25900492157253343639e-002 -4.97897091544913183991e-001 +7.79606618929509442850e-001 -4.97897091544913183991e-001 +7.79606618929509442850e-001 -3.95104723669665799934e-002 -2.25900492157253343639e-002
1.22000000000000000000e+010 -4.65288231895062964760e-002 -1.76324486039572889129e-002 -3.55196148092122299111e-001 +8.52635875987729274783e-001 -3.55196148092122299111e-001 +8.52635875987729274783e-001 -4.65288231895062964760e-002 -1.76324486039572889129e-002
1.24000000000000000000e+010 -5.14271964878200635307e-002 -1.06029931142249331244e-002 -2.02318052216154647960e-001 +8.99886823249566814020e-001 -2.02318052216154647960e-001 +8.99886823249566814020e-001 -5.14271964878200635307e-002 -1.06029931142249331244e-002
1.26000000000000000000e+010 -5.36360243957048343777e-002 -2.34930075486212584443e-003 -4.38385300666574995176e-002 +9.20067086444373849474e-001 -4.38385300666574995176e-002 +9.20067086444373849474e-001 -5.36360243957048343777e-002 -2.34930075486212584443e-003
1.28000000000000000000e+010 -5.29076165527538749833e-002 +6.14144734385252324266e-003 +1.15534445464967078232e-001 +9.12668789226566246064e-001 +1.15534445464967078232e-001 +9.12668789226566246064e-001 -5.29076165527538749833e-002 +6.14144734385252324266e-003
1.30000000000000000000e+010 -4.93431334506580221433e-002 +1.38592924764688735229e-002 +2.71082864235328679925e-001 +8.77974185645606586270e-001 +2.71082864235328679925e-001 +8.77974185645606586270e-001 -4.93431334506580221433e-002 +1.38592924764688735229e-002
1.32000000000000000000e+010 -4.33790974268503035094e-002 +1.98902083548591138151e-002 +4.18199773621736492490e-001 +8.17048291077650756797e-001 +4.18199773621736492490e-001 +8.17048291077650756797e-001 -4.33790974268503035094e-002 +1.98902083548591138151e-002
1.34000000000000000000e+010 -3.57350806932644829428e-002 +2.35234295996522291272e-002 +5.52511070830161488132e-001 +7.31717872803237967538e-001 +5.52511070830161488132e-001 +7.31717872803237967538e-001 -3.57350806932644829428e-002 +2.35234295996522291272e-002
1.36000000000000000000e+010 -2.73283247341583566958e-002 +2.43352056817882425599e-002 +6.69998630928313798627e-001 +6.24534017074416691884e-001 +6.69998630928313798627e-001 +6.24534017074416691884e-001 -2.73283247341583566958e-002 +2.43352056817882425599e-002
1.38000000000000000000e+010 -1.91647682730413382313e-002 +2.22390987669658611592e-002 +7.67123113979592652356e-001 +4.98714314282272197509e-001 +7.67123113979592652356e-001 +4.98714314282272197509e-001 -1.91647682730413382313e-002 +2.22390987669658611592e-002
1.40000000000000000000e+010 -1.22189368846595692447e-002 +1.74964291885472966737e-002 +8.40942006556714805043e-001 +3.58060966587478102241e-001 +8.40942006556714805043e-001 +3.58060966587478102241e-001 -1.22189368846595692447e-002 +1.74964291885472966737e-002
1.42000000000000000000e+010 -7.31692933707862175341e-003 +1.06849648044773943428e-002 +8.89215969826713803492e-001 +2.06852933621286788624e-001 +8.89215969826713803492e-001 +2.06852933621286788624e-001 -7.31692933707862175341e-003 +1.06849648044773943428e-002
1.44000000000000000000e+010 -5.03687956667582103359e-003 +2.62904618323007684480e-003 +9.10495165958612906465e-001 +4.97132856654428564869e-002 +9.10495165958612906465e-001 +4.97132856654428564869e-002 -5.03687956667582103359e-003 +2.62904618323007684480e-003
1.46000000000000000000e+010 -5.63949746303425529514e-003 -5.70061976601568109330e-003 +9.04177459562108487567e-001 -1.08543448052642654833e-001 +9.04177459562108487567e-001 -1.08543448052642654833e-001 -5.63949746303425529514e-003 -5.70061976601568109330e-003
1.48000000000000000000e+010 -9.03763833912348338306e-003 -1.33050934741352541030e-002 +8.70532372229235296146e-001 -2.63075856466163215952e-001 +8.70532372229235296146e-001 -2.63075856466163215952e-001 -9.03763833912348338306e-003 -1.33050934741352541030e-002
1.50000000000000000000e+010 -1.48087659725444544673e-002 -1.92783302055225293226e-002 +8.10688054138971270213e-001 -4.09181961737753174813e-001 +8.10688054138971270213e-001 -4.09181961737753174813e-001 -1.48087659725444544673e-002 -1.92783302055225293226e-002
1.52000000000000000000e+010 -2.22484537500560360102e-002 -2.29159877255894206538e-002 +7.26582570219729162453e-001 -5.42456725909183257173e-001 +7.26582570219729162453e-001 -5.42456725909183257173e-001 -2.22484537500560360102e-002 -2.29159877255894206538e-002
