# HZ S RI R 50
2.00000000000000000000e+008 -1.38675713876532482379e-004 -7.38921587245475034768e-004 +9.82869479170424664716e-001 -1.76855789073988273197e-001 +9.82869479170424664716e-001 -1.76855789073988273197e-001 -1.38675713876532482379e-004 -7.38921587245475034768e-004
4.00000000000000000000e+008 -5.28597431091130573987e-004 -1.39033912996065094937e-003 +9.34750467739027701697e-001 -3.47661020306334334062e-001 +9.34750467739027701697e-001 -3.47661020306334334062e-001 -5.28597431091130573987e-004 -1.39033912996065094937e-003
6.00000000000000000000e+008 -1.12789447597681194609e-003 -1.87750323734073927724e-003 +8.57237231972191260354e-001 -5.07043341245458800692e-001 +8.57237231972191260354e-001 -5.07043341245458800692e-001 -1.12789447597681194609e-003 -1.87750323734073927724e-003
8.00000000000000000000e+008 -1.87123396336702041247e-003 -2.14016370157494055168e-003 +7.52844843373484118310e-001 -6.50000806006117648472e-001 +7.52844843373484118310e-001 -6.50000806006117648472e-001 -1.87123396336702041247e-003 -2.14016370157494055168e-003
1.00000000000000000000e+009 -2.67593873465202030867e-003 -2.14195524630993562945e-003 +6.24929038048776641645e-001 -7.72058150921312247306e-001 +6.24929038048776641645e-001 -7.72058150921312247306e-001 -2.67593873465202030867e-003 -2.14195524630993562945e-003
1.20000000000000000000e+009 -3.45036757239229347621e-003 -1.87545371645761894258e-003 +4.77579862814459743525e-001 -8.69406310550582483998e-001 +4.77579862814459743525e-001 -8.69406310550582483998e-001 -3.45036757239229347621e-003 -1.87545371645761894258e-003
1.40000000000000000000e+009 -4.10378707503909929966e-003 -1.36433554329838994078e-003 +3.15492492708370875221e-001 -9.39020982997263442549e-001 +3.15492492708370875221e-001 -9.39020982997263442549e-001 -4.10378707503909929966e-003 -1.36433554329838994078e-003
1.60000000000000000000e+009 -4.55677018968944982924e-003 -6.62202988952384583726e-004 +1.43819265005415058978e-001 -9.78756606935469175568e-001 +1.43819265005415058978e-001 -9.78756606935469175568e-001 -4.55677018968944982924e-003 -6.62202988952384583726e-004
1.80000000000000000000e+009 -4.75100373434341090306e-003 +1.52064661429659184807e-004 -3.19924625263619533122e-002 -9.87412861783182660425e-001 -3.19924625263619533122e-002 -9.87412861783182660425e-001 -4.75100373434341090306e-003 +1.52064661429659184807e-004
2.00000000000000000000e+009 -4.65733406876058658730e-003 +9.82200590340190707317e-004 -2.06371597786888599790e-001 -9.64771649207236681178e-001 -2.06371597786888599790e-001 -9.64771649207236681178e-001 -4.65733406876058658730e-003 +9.82200590340190707317e-004
2.20000000000000000000e+009 -4.28095773689561413800e-003 +1.72504466472480147421e-003 -3.73798444914551664109e-001 -9.11603420490819438271e-001 -3.73798444914551664109e-001 -9.11603420490819438271e-001 -4.28095773689561413800e-003 +1.72504466472480147421e-003
2.40000000000000000000e+009 -3.66288639968722707155e-003 +2.28262546855163145354e-003 -5.28978271421235879401e-001 -8.29642648453743913883e-001 -5.28978271421235879401e-001 -8.29642648453743913883e-001 -3.66288639968722707155e-003 +2.28262546855163145354e-003
2.60000000000000000000e+009 -2.87717681565441288707e-003 +2.57450934433139412560e-003 -6.67007955881219638528e-001 -7.21533175672305127080e-001 -6.67007955881219638528e-001 -7.21533175672305127080e-001 -2.87717681565441288707e-003 +2.57450934433139412560e-003
2.80000000000000000000e+009 -2.02388939685810113900e-003 +2.54892190918250705761e-003 -7.83530565447306703852e-001 -5.90745077161020870626e-001 -7.83530565447306703852e-001 -5.90745077161020870626e-001 -2.02388939685810113900e-003 +2.54892190918250705761e-003
3.00000000000000000000e+009 -1.21827459229284745627e-003 +2.19114641252714324043e-003 -8.74873062009142055118e-001 -4.41465533700631129754e-001 -8.74873062009142055118e-001 -4.41465533700631129754e-001 -1.21827459229284745627e-003 +2.19114641252714324043e-003
3.20000000000000000000e+009 -5.77220192453747633216e-004 +1.52789855174986430320e-003 -9.38162819403579262278e-001 -2.78467003141324609405e-001 -9.38162819403579262278e-001 -2.78467003141324609405e-001 -5.77220192453747633216e-004 +1.52789855174986430320e-003
3.40000000000000000000e+009 -2.04450795423531683521e-004 +6.26767592454375243281e-004 -9.71419241785368425823e-001 -1.06956684598301085543e-001 -9.71419241785368425823e-001 -1.06956684598301085543e-001 -2.04450795423531683521e-004 +6.26767592454375243281e-004
3.60000000000000000000e+009 -1.76280255599137083544e-004 -4.09630918337750536424e-004 -9.73617495434840662938e-001 +6.75881223519780027775e-002 -9.73617495434840662938e-001 +6.75881223519780027775e-002 -1.76280255599137083544e-004 -4.09630918337750536424e-004
3.80000000000000000000e+009 -5.29818133592520660279e-004 -1.45448243354042252608e-003 -9.44722192245341818584e-001 +2.39593673288112124498e-001 -9.44722192245341818584e-001 +2.39593673288112124498e-001 -5.29818133592520660279e-004 -1.45448243354042252608e-003
4.00000000000000000000e+009 -1.25538393132270244094e-003 -2.37158171734562581850e-003 -8.85689778665187832374e-001 +4.03567011424829258370e-001 -8.85689778665187832374e-001 +4.03567011424829258370e-001 -1.25538393132270244094e-003 -2.37158171734562581850e-003
4.20000000000000000000e+009 -2.29448151956048677219e-003 -3.03249901079670263968e-003 -7.98439368232738200248e-001 +5.54271154117854658594e-001 -7.98439368232738200248e-001 +5.54271154117854658594e-001 -2.29448151956048677219e-003 -3.03249901079670263968e-003
4.40000000000000000000e+009 -3.54406004469172029522e-003 -3.33401782175807119557e-003 -6.85792779525761897474e-001 +6.86892609352553917823e-001 -6.85792779525761897474e-001 +6.86892609352553917823e-001 -3.54406004469172029522e-003 -3.33401782175807119557e-003
4.60000000000000000000e+009 -4.86700196115702997390e-003 -3.21353795063814657793e-003 -5.51385565573972336040e-001 +7.97195795251395500358e-001 -5.51385565573972336040e-001 +7.97195795251395500358e-001 -4.86700196115702997390e-003 -3.21353795063814657793e-003
4.80000000000000000000e+009 -6.10792882252748567384e-003 -2.66021507260046476476e-003 -3.99551799614225211510e-001 +8.81659334465122790370e-001 -3.99551799614225211510e-001 +8.81659334465122790370e-001 -6.10792882252748567384e-003 -2.66021507260046476476e-003
5.00000000000000000000e+009 -7.11261496208713019096e-003 -1.72000101823061761833e-003 -2.35186267131812121178e-001 +9.37589784592627206727e-001 -2.35186267131812121178e-001 +9.37589784592627206727e-001 -7.11261496208713019096e-003 -1.72000101823061761833e-003
5.20000000000000000000e+009 -7.74866565618731982512e-003 -4.93430160337259742301e-004 -6.35884612215445593764e-002 +9.63209118345096482194e-001 -6.35884612215445593764e-002 +9.63209118345096482194e-001 -7.74866565618731982512e-003 -4.93430160337259742301e-004
5.40000000000000000000e+009 -7.92475376495822315948e-003 +8.74103542857914859662e-004 +1.09706645768112245887e-001 +9.57713142444138965104e-001 +1.09706645768112245887e-001 +9.57713142444138965104e-001 -7.92475376495822315948e-003 +8.74103542857914859662e-004
5.60000000000000000000e+009 -7.60569132648105002137e-003 +2.20882509929057292350e-003 +2.79105693584677239105e-001 +9.21298994042367924706e-001 +2.79105693584677239105e-001 +9.21298994042367924706e-001 -7.60569132648105002137e-003 +2.20882509929057292350e-003
5.80000000000000000000e+009 -6.82097135426145816800e-003 +3.33007205703439793099e-003 +4.39136327234845635914e-001 +8.55160830045031850055e-001 +4.39136327234845635914e-001 +8.55160830045031850055e-001 -6.82097135426145816800e-003 +3.33007205703439793099e-003
6.00000000000000000000e+009 -5.66513070067458865409e-003 +4.07423808481593464903e-003 +5.84623301574131337688e-001 +7.61453788937828668359e-001 +5.84623301574131337688e-001 +7.61453788937828668359e-001 -5.66513070067458865409e-003 +4.07423808481593464903e-003
6.20000000000000000000e+009 -4.28928611741405570179e-003 +4.31806788134768068654e-003 +7.10855824472815589488e-001 +6.43227231792029008339e-001 +7.10855824472815589488e-001 +6.43227231792029008339e-001 -4.28928611741405570179e-003 +4.31806788134768068654e-003
6.40000000000000000000e+009 -2.88436565312532450234e-003 +3.99805985251232114119e-003 +8.13740906100399286061e-001 +5.04329149971599721702e-001 +8.13740906100399286061e-001 +5.04329149971599721702e-001 -2.88436565312532450234e-003 +3.99805985251232114119e-003
6.60000000000000000000e+009 -1.65774623152655496174e-003 +3.12302849766824810671e-003 +8.89937830554366593461e-001 +3.49284464505539793411e-001 +8.89937830554366593461e-001 +3.49284464505539793411e-001 -1.65774623152655496174e-003 +3.12302849766824810671e-003
6.80000000000000000000e+009 -8.06050490813088084396e-004 +1.77760853711556574865e-003 +9.36969323164782208480e-001 +1.83150742301412261526e-001 +9.36969323164782208480e-001 +1.83150742301412261526e-001 -8.06050490813088084396e-004 +1.77760853711556574865e-003
7.00000000000000000000e+009 -4.87593127733714859582e-004 +1.15580012997060921224e-004 +9.53305566896603839844e-001 +1.13556162747196244533e-002 +9.53305566896603839844e-001 +1.13556162747196244533e-002 -4.87593127733714859582e-004 +1.15580012997060921224e-004
7.20000000000000000000e+009 -7.98269987746353998012e-004 -1.65676752157449471044e-003 +9.38417946686354143004e-001 -1.60479097736377390726e-001 +9.38417946686354143004e-001 -1.60479097736377390726e-001 -7.98269987746353998012e-004 -1.65676752157449471044e-003
7.40000000000000000000e+009 -1.75447378923909171576e-003 -3.30560408841313810302e-003 +8.92800289651019762793e-001 -3.26720983781890961239e-001 +8.92800289651019762793e-001 -3.26720983781890961239e-001 -1.75447378923909171576e-003 -3.30560408841313810302e-003
7.60000000000000000000e+009 -3.28588785485657303848e-003 -4.59995002194993948125e-003 +8.17956422677157179990e-001 -4.81912246946276212611e-001 +8.17956422677157179990e-001 -4.81912246946276212611e-001 -3.28588785485657303848e-003 -4.59995002194993948125e-003
7.80000000000000000000e+009 -5.23981832118724719094e-003 -5.34361281465271613367e-003 +7.16354059138385568239e-001 -6.20950271619930549427e-001 +7.16354059138385568239e-001 -6.20950271619930549427e-001 -5.23981832118724719094e-003 -5.34361281465271613367e-003
8.00000000000000000000e+009 -7.39721363844239240826e-003 -5.40431392948900832934e-003 +5.91346292942062756737e-001 -7.39257250801025111997e-001 +5.91346292942062756737e-001 -7.39257250801025111997e-001 -7.39721363844239240826e-003 -5.40431392948900832934e-003
8.20000000000000000000e+009 -9.49888346704134099718e-003 -4.73575642569486979921e-003 +4.47063233178177588112e-001 -8.32932961203350030743e-001 +4.47063233178177588112e-001 -8.32932961203350030743e-001 -9.49888346704134099718e-003 -4.73575642569486979921e-003
8.40000000000000000000e+009 -1.12788955020444933708e-002 -3.38910345459435529553e-003 +2.88277456567428091994e-001 -8.98885397245926975884e-001 +2.88277456567428091994e-001 -8.98885397245926975884e-001 -1.12788955020444933708e-002 -3.38910345459435529553e-003
8.60000000000000000000e+009 -1.25009261110688007362e-002 -1.51160503022249037564e-003 +1.20247896741116910846e-001 -9.34934861526643068430e-001 +1.20247896741116910846e-001 -9.34934861526643068430e-001 -1.25009261110688007362e-002 -1.51160503022249037564e-003
8.80000000000000000000e+009 -1.29926618220405805382e-002 +6.68222094535847357770e-004 -5.14525318385081406602e-002 -9.39888154212854209923e-001 -5.14525318385081406602e-002 -9.39888154212854209923e-001 -1.29926618220405805382e-002 +6.68222094535847357770e-004
9.00000000000000000000e+009 -1.26733212970688308846e-002 +2.86760298884850039006e-003 -2.21119878226542554422e-001 -9.13580607182051918080e-001 -2.21119878226542554422e-001 -9.13580607182051918080e-001 -1.26733212970688308846e-002 +2.86760298884850039006e-003
9.20000000000000000000e+009 -1.15700329690184428033e-002 +4.78565451292968426639e-003 -3.83106819963612621471e-001 -8.56884778000187807834e-001 -3.83106819963612621471e-001 -8.56884778000187807834e-001 -1.15700329690184428033e-002 +4.78565451292968426639e-003
9.40000000000000000000e+009 -9.82010860615248684646e-003 +6.14416085823905975399e-003 -5.32009232457748670875e-001 -7.71685593699472316409e-001 -5.32009232457748670875e-001 -7.71685593699472316409e-001 -9.82010860615248684646e-003 +6.14416085823905975399e-003
9.60000000000000000000e+009 -7.65805340074647566961e-003 +6.72753358162034732076e-003 -6.62845980205970519705e-001 -6.60822601541827370220e-001 -6.62845980205970519705e-001 -6.60822601541827370220e-001 -7.65805340074647566961e-003 +6.72753358162034732076e-003
9.80000000000000000000e+009 -5.38822878928542012278e-003 +6.41629563296272197731e-003 -7.71226418414585501715e-001 -5.28000777238136320690e-001 -7.71226418414585501715e-001 -5.28000777238136320690e-001 -5.38822878928542012278e-003 +6.41629563296272197731e-003
1.00000000000000000000e+010 -3.34616386580847361559e-003 +5.20899181456307720089e-003 -8.53500277537355356294e-001 -3.77672125245696876927e-001 -8.53500277537355356294e-001 -3.77672125245696876927e-001 -3.34616386580847361559e-003 +5.20899181456307720089e-003
1.02000000000000000000e+010 -1.85330383454804258937e-003 +3.22874847772492866091e-003 -9.06884828394252440198e-001 -2.14891148437970441742e-001 -9.06884828394252440198e-001 -2.14891148437970441742e-001 -1.85330383454804258937e-003 +3.22874847772492866091e-003
1.04000000000000000000e+010 -1.17121503816333834801e-003 +7.12651083594547101081e-004 -9.29564568600364959927e-001 -4.51482034383265881661e-002 -9.29564568600364959927e-001 -4.51482034383265881661e-002 -1.17121503816333834801e-003 +7.12651083594547101081e-004
1.06000000000000000000e+010 -1.46171723410251338041e-003 -2.01555251939386937537e-003 -9.20759234048575736509e-001 +1.25814225471255425326e-001 -9.20759234048575736509e-001 +1.25814225471255425326e-001 -1.46171723410251338041e-003 -2.01555251939386937537e-003
1.08000000000000000000e+010 -2.75896035852185583792e-003 -4.58649287007848165815e-003 -8.80756813097106405763e-001 +2.92196292597620144171e-001 -8.80756813097106405763e-001 +2.92196292597620144171e-001 -2.75896035852185583792e-003 -4.58649287007848165815e-003
1.10000000000000000000e+010 -4.95810433546386465642e-003 -6.63487871692908844773e-003 -8.10909466611931417646e-001 +4.48339697483592369842e-001 -8.10909466611931417646e-001 +4.48339697483592369842e-001 -4.95810433546386465642e-003 -6.63487871692908844773e-003
1.12000000000000000000e+010 -7.82313428567189134144e-003 -7.85122403153885872751e-003 -7.13591795633869763194e-001 +5.88923287829720920605e-001 -7.13591795633869763194e-001 +5.88923287829720920605e-001 -7.82313428567189134144e-003 -7.85122403153885872751e-003
1.14000000000000000000e+010 -1.10137178541454515412e-002 -8.02830431197492679074e-003 -5.92122625410164471482e-001 +7.09147824555234840282e-001 -5.92122625410164471482e-001 +7.09147824555234840282e-001 -1.10137178541454515412e-002 -8.02830431197492679074e-003
1.16000000000000000000e+010 -1.41282514315203729105e-002 -7.09541275282775385502e-003 -4.50653199060918052687e-001 +8.04902809277705078017e-001 -4.50653199060918052687e-001 +8.04902809277705078017e-001 -1.41282514315203729105e-002 -7.09541275282775385502e-003
1.18000000000000000000e+010 -1.67577550869048436111e-002 -5.13489026854751454826e-003 -2.94026183864135981505e-001 +8.72909203366814323566e-001 -2.94026183864135981505e-001 +8.72909203366814323566e-001 -1.67577550869048436111e-002 -5.13489026854751454826e-003
1.20000000000000000000e+010 -1.85434454992894903747e-002 -2.37768153914464774185e-003 -1.27611010474775160572e-001 +9.10833159569863992644e-001 -1.27611010474775160572e-001 +9.10833159569863992644e-001 -1.85434454992894903747e-002 -2.37768153914464774185e-003
1.22000000000000000000e+010 -1.92299386478693781766e-002 +8.22476438908438826567e-004 +4.28783017168823318843e-002 +9.17367339276270676862e-001 +4.28783017168823318843e-002 +9.17367339276270676862e-001 -1.92299386478693781766e-002 +8.22476438908438826567e-004
1.24000000000000000000e+010 -1.87062724952389188016e-002 +4.03358752610954648943e-003 +2.11576510346596802226e-001 +8.92277781652329182727e-001 +2.11576510346596802226e-001 +8.92277781652329182727e-001 -1.87062724952389188016e-002 +4.03358752610954648943e-003
1.26000000000000000000e+010 -1.70283012225102177439e-002 +6.80320637185708419759e-003 +3.72665550061806016835e-001 +8.36415452901974498801e-001 +3.72665550061806016835e-001 +8.36415452901974498801e-001 -1.70283012225102177439e-002 +6.80320637185708419759e-003
1.28000000000000000000e+010 -1.44183494502279942184e-002 +8.72192121186987114057e-003 +5.20572116705073639764e-001 +7.51692461217059015866e-001 +5.20572116705073639764e-001 +7.51692461217059015866e-001 -1.44183494502279942184e-002 +8.72192121186987114057e-003
1.30000000000000000000e+010 -1.12410468183086632160e-002 +9.48371225838778170170e-003 +6.50158836841719711686e-001 +6.41023523411389795079e-001 +6.50158836841719711686e-001 +6.41023523411389795079e-001 -1.12410468183086632160e-002 +9.48371225838778170170e-003
1.32000000000000000000e+010 -7.95760912112489053605e-003 +8.93437293024183787349e-003 +7.56903488888116315891e-001 +5.08233766426933408766e-001 +7.56903488888116315891e-001 +5.08233766426933408766e-001 -7.95760912112489053605e-003 +8.93437293024183787349e-003
1.34000000000000000000e+010 -5.06404909753950874252e-003 +7.10041556251239658337e-003 +8.37060608939212191792e-001 +3.57934548171292887808e-001 +8.37060608939212191792e-001 +3.57934548171292887808e-001 -5.06404909753950874252e-003 +7.10041556251239658337e-003
1.36000000000000000000e+010 -3.02142885253839929907e-003 +4.19328025347174594695e-003 +8.87799605514729361921e-001 +1.95369873111045810887e-001 +8.87799605514729361921e-001 +1.95369873111045810887e-001 -3.02142885253839929907e-003 +4.19328025347174594695e-003
1.38000000000000000000e+010 -2.18788541409271897198e-003 +5.86970234084067152107e-004 +9.07313452153783339682e-001 +2.62372459572443351983e-002 +9.07313452153783339682e-001 +2.62372459572443351983e-002 -2.18788541409271897198e-003 +5.86970234084067152107e-004
1.40000000000000000000e+010 -2.76245102869425614156e-003 -3.22896382647206098629e-003 +8.94892392119460811095e-001 -1.43511612186231901633e-001 +8.94892392119460811095e-001 -1.43511612186231901633e-001 -2.76245102869425614156e-003 -3.22896382647206098629e-003
1.42000000000000000000e+010 -4.74949800232193474619e-003 -6.71541004058325702308e-003 +8.50958087663282292112e-001 -3.07883089061892323279e-001 +8.50958087663282292112e-001 -3.07883089061892323279e-001 -4.74949800232193474619e-003 -6.71541004058325702308e-003
1.44000000000000000000e+010 -7.95003318102235727316e-003 -9.35984108916755250251e-003 +7.77055347318643785393e-001 -4.61058523066453784800e-001 +7.77055347318643785393e-001 -4.61058523066453784800e-001 -7.95003318102235727316e-003 -9.35984108916755250251e-003
1.46000000000000000000e+010 -1.19823607379406331386e-002 -1.07518457046646368630e-002 +6.75800845435767016944e-001 -5.97606203399310809132e-001 +6.75800845435767016944e-001 -5.97606203399310809132e-001 -1.19823607379406331386e-002 -1.07518457046646368630e-002
1.48000000000000000000e+010 -1.63303481667887266660e-002 -1.06468615941677762632e-002 +5.50790801628439408155e-001 -7.12679190071598078760e-001 +5.50790801628439408155e-001 -7.12679190071598078760e-001 -1.63303481667887266660e-002 -1.06468615941677762632e-002
1.50000000000000000000e+010 -2.04133249821313068895e-002 -9.00821009176500618609e-003 +4.06471996666224744121e-001 -8.02190557853414532019e-001 +4.06471996666224744121e-001 -8.02190557853414532019e-001 -2.04133249821313068895e-002 -9.00821009176500618609e-003
1.52000000000000000000e+010 -2.36681849155117828010e-002 -6.02037216677800499781e-003 +2.47982356785292873402e-001 -8.62959375387979954475e-001 +2.47982356785292873402e-001 -8.62959375387979954475e-001 -2.36681849155117828010e-002 -6.02037216677800499781e-003
