# HZ S RI R 50
2.00000000000000000000e+008 -1.87821943707373276589e-004 -1.08176754417111547525e-003 +9.85282741256289007481e-001 -1.64130729606665998199e-001 +9.85282741256289007481e-001 -1.64130729606665998199e-001 -1.87821943707373276589e-004 -1.08176754417111547525e-003
4.00000000000000000000e+008 -7.25029061753571955548e-004 -2.07055264837903907002e-003 +9.43831730799260415488e-001 -3.23458539033972924948e-001 +9.43831730799260415488e-001 -3.23458539033972924948e-001 -7.25029061753571955548e-004 -2.07055264837903907002e-003
6.00000000000000000000e+008 -1.57677473054153999277e-003 -2.87498537927913071222e-003 +8.76808586057452044038e-001 -4.73681737711279471359e-001 +8.76808586057452044038e-001 -4.73681737711279471359e-001 -1.57677473054153999277e-003 -2.87498537927913071222e-003
8.00000000000000000000e+008 -2.68260707764966972733e-003 -3.41109918560253324443e-003 +7.86057484754294821805e-001 -6.10742098793734089490e-001 +7.86057484754294821805e-001 -6.10742098793734089490e-001 -2.68260707764966972733e-003 -3.41109918560253324443e-003
1.00000000000000000000e+009 -3.95716760080296742208e-003 -3.61088911708975536519e-003 +6.74058371775095532819e-001 -7.30932700190140116625e-001 +6.74058371775095532819e-001 -7.30932700190140116625e-001 -3.95716760080296742208e-003 -3.61088911708975536519e-003
1.20000000000000000000e+009 -5.29373143315746159249e-003 -3.43076731393764317382e-003 +5.43863269647573921439e-001 -8.30996676042420112651e-001 +5.43863269647573921439e-001 -8.30996676042420112651e-001 -5.29373143315746159249e-003 -3.43076731393764317382e-003
1.40000000000000000000e+009 -6.57085650454305308932e-003 -2.85933314554939798161e-003 +3.99017341766474131770e-001 -9.08214708958740568612e-001 +3.99017341766474131770e-001 -9.08214708958740568612e-001 -6.57085650454305308932e-003 -2.85933314554939798161e-003
1.60000000000000000000e+009 -7.66212220545358074081e-003 -1.92331866435794282370e-003 +2.43466641399590538741e-001 -9.60479009580035958393e-001 +2.43466641399590538741e-001 -9.60479009580035958393e-001 -7.66212220545358074081e-003 -1.92331866435794282370e-003
1.80000000000000000000e+009 -8.44845389601252619305e-003 -6.90449458259180157658e-004 +8.14548191540681726375e-002 -9.86351786711473499381e-001 +8.14548191540681726375e-002 -9.86351786711473499381e-001 -8.44845389601252619305e-003 -6.90449458259180157658e-004
2.00000000000000000000e+009 -8.83199257708278638590e-003 +7.31902806549008882152e-004 -8.25886316419889715545e-002 -9.85106576198233718777e-001 -8.25886316419889715545e-002 -9.85106576198233718777e-001 -8.83199257708278638590e-003 +7.31902806549008882152e-004
2.20000000000000000000e+009 -8.74998457713167289429e-003 +2.20302424079056981612e-003 -2.44165771075258192235e-001 -9.56751229015220583385e-001 -2.44165771075258192235e-001 -9.56751229015220583385e-001 -8.74998457713167289429e-003 +2.20302424079056981612e-003
2.40000000000000000000e+009 -8.18683178586034412949e-003 +3.56028557030697466110e-003 -3.98830272864521717668e-001 -9.02031832176572789805e-001 -3.98830272864521717668e-001 -9.02031832176572789805e-001 -8.18683178586034412949e-003 +3.56028557030697466110e-003
2.60000000000000000000e+009 -7.18234055032245313765e-003 +4.63513712375995465265e-003 -5.42307105892892105103e-001 -8.22417322708861919800e-001 -5.42307105892892105103e-001 -8.22417322708861919800e-001 -7.18234055032245313765e-003 +4.63513712375995465265e-003
2.80000000000000000000e+009 -5.83439050786850946229e-003 +5.27235091616080116944e-003 -6.70608815524025403398e-001 -7.20065028371708382160e-001 -6.70608815524025403398e-001 -7.20065028371708382160e-001 -5.83439050786850946229e-003 +5.27235091616080116944e-003
3.00000000000000000000e+009 -4.29472860169226051258e-003 +5.35049130863356463966e-003 -7.80145474537992544839e-001 -5.97767808486120655331e-001 -7.80145474537992544839e-001 -5.97767808486120655331e-001 -4.29472860169226051258e-003 +5.35049130863356463966e-003
3.20000000000000000000e+009 -2.75734921467440724160e-003 +4.80108419333482271119e-003 -8.67825511360039159037e-001 -4.58883865397609669312e-001 -8.67825511360039159037e-001 -4.58883865397609669312e-001 -2.75734921467440724160e-003 +4.80108419333482271119e-003
3.40000000000000000000e+009 -1.43987504757577770148e-003 +3.62373320448239289934e-003 -9.31144784194161356794e-001 -3.07250657990209063986e-001 -9.31144784194161356794e-001 -3.07250657990209063986e-001 -1.43987504757577770148e-003 +3.62373320448239289934e-003
3.60000000000000000000e+009 -5.59392397105948086661e-004 +1.89457483506362306565e-003 -9.68261439716912919451e-001 -1.47084693072687289206e-001 -9.68261439716912919451e-001 -1.47084693072687289206e-001 -5.59392397105948086661e-004 +1.89457483506362306565e-003
3.80000000000000000000e+009 -3.05178643128352735433e-004 -2.33996250832622346323e-004 -9.78054277326774745838e-001 +1.71306750716764023823e-002 -9.78054277326774745838e-001 +1.71306750716764023823e-002 -3.05178643128352735433e-004 -2.33996250832622346323e-004
4.00000000000000000000e+009 -8.11537644550126683642e-004 -2.54348738112780432125e-003 -9.60162558313251590647e-001 +1.80766920066678576928e-001 -9.60162558313251590647e-001 +1.80766920066678576928e-001 -8.11537644550126683642e-004 -2.54348738112780432125e-003
4.20000000000000000000e+009 -2.13438801287394114628e-003 -4.76930279486375684889e-003 -9.15005494406245900585e-001 +3.39178553273822069869e-001 -9.15005494406245900585e-001 +3.39178553273822069869e-001 -2.13438801287394114628e-003 -4.76930279486375684889e-003
4.40000000000000000000e+009 -4.23521877433254232553e-003 -6.62915781385301026291e-003 -8.43780068505753710895e-001 +4.87834489623941880421e-001 -8.43780068505753710895e-001 +4.87834489623941880421e-001 -4.23521877433254232553e-003 -6.62915781385301026291e-003
4.60000000000000000000e+009 -6.97547841873731935824e-003 -7.85715129759126384990e-003 -7.48436417496310513187e-001 +6.22448791681199598003e-001 -7.48436417496310513187e-001 +6.22448791681199598003e-001 -6.97547841873731935824e-003 -7.85715129759126384990e-003
4.80000000000000000000e+009 -1.01234083725947696802e-002 -8.23960880081220370386e-003 -6.31630749459211937591e-001 +7.39106729909439708059e-001 -6.31630749459211937591e-001 +7.39106729909439708059e-001 -1.01234083725947696802e-002 -8.23960880081220370386e-003
5.00000000000000000000e+009 -1.33738606327022287179e-002 -7.64809405365800623611e-003 -4.96656639810842681637e-001 +8.34382010267458729125e-001 -4.96656639810842681637e-001 +8.34382010267458729125e-001 -1.33738606327022287179e-002 -7.64809405365800623611e-003
5.20000000000000000000e+009 -1.63799165646958157228e-002 -6.06483773306359420785e-003 -3.47356473174060265130e-001 +9.05441194825372552835e-001 -3.47356473174060265130e-001 +9.05441194825372552835e-001 -1.63799165646958157228e-002 -6.06483773306359420785e-003
5.40000000000000000000e+009 -1.87933717994069986179e-002 -3.59633590451066123203e-003 -1.88015658233712246172e-001 +9.50131798336117938675e-001 -1.88015658233712246172e-001 +9.50131798336117938675e-001 -1.87933717994069986179e-002 -3.59633590451066123203e-003
5.60000000000000000000e+009 -2.03096200546617582094e-002 -4.72022551298827662547e-004 -2.32429228982997254649e-002 +9.67051246200540948195e-001 -2.32429228982997254649e-002 +9.67051246200540948195e-001 -2.03096200546617582094e-002 -4.72022551298827662547e-004
5.80000000000000000000e+009 -2.07113958788830293534e-002 +2.97337823595686737144e-003 +1.42159595304945235439e-001 +9.55594730670433656350e-001 +1.42159595304945235439e-001 +9.55594730670433656350e-001 -2.07113958788830293534e-002 +2.97337823595686737144e-003
6.00000000000000000000e+009 -1.99054150186600518901e-002 +6.33315067567185707026e-003 +3.03332648194096388128e-001 +9.15980865802977439749e-001 +3.03332648194096388128e-001 +9.15980865802977439749e-001 -1.99054150186600518901e-002 +6.33315067567185707026e-003
6.20000000000000000000e+009 -1.79462970674417535144e-002 +9.17468871194883524300e-003 +4.55498915569077122978e-001 +8.49254775640775672052e-001 +4.55498915569077122978e-001 +8.49254775640775672052e-001 -1.79462970674417535144e-002 +9.17468871194883524300e-003
6.40000000000000000000e+009 -1.50432901749076742420e-002 +1.10935420315581689116e-002 +5.94101452189065293297e-001 +7.57268749680103603339e-001 +5.94101452189065293297e-001 +7.57268749680103603339e-001 -1.50432901749076742420e-002 +1.10935420315581689116e-002
6.60000000000000000000e+009 -1.15471656104103436585e-002 +1.17689835271314498233e-002 +7.14938523287339422474e-001 +6.42640835422975231772e-001 +7.14938523287339422474e-001 +6.42640835422975231772e-001 -1.15471656104103436585e-002 +1.17689835271314498233e-002
6.80000000000000000000e+009 -7.91704183134068692484e-003 +1.10138032169969386082e-002 +8.14291954325428224415e-001 +5.08691775554064640197e-001 +8.14291954325428224415e-001 +5.08691775554064640197e-001 -7.91704183134068692484e-003 +1.10138032169969386082e-002
7.00000000000000000000e+009 -4.66958275695247490567e-003 +8.81104319059502170963e-003 +8.89045995705618152805e-001 +3.59360691132022957994e-001 +8.89045995705618152805e-001 +3.59360691132022957994e-001 -4.66958275695247490567e-003 +8.81104319059502170963e-003
7.20000000000000000000e+009 -2.31567602465106332776e-003 +5.33138443703685700054e-003 +9.36793305098971851308e-001 +1.99100066994990915203e-001 +9.36793305098971851308e-001 +1.99100066994990915203e-001 -2.31567602465106332776e-003 +5.33138443703685700054e-003
7.40000000000000000000e+009 -1.29197197735370192424e-003 +9.26875931587380769150e-004 +9.55924101431071981949e-001 +3.27511047854893919129e-002 +9.55924101431071981949e-001 +3.27511047854893919129e-002 -1.29197197735370192424e-003 +9.26875931587380769150e-004
7.60000000000000000000e+009 -1.89617996163103153841e-003 -3.90047841764006291559e-003 +9.45694079386851238489e-001 -1.34598517739406647875e-001 +9.45694079386851238489e-001 -1.34598517739406647875e-001 -1.89617996163103153841e-003 -3.90047841764006291559e-003
7.80000000000000000000e+009 -4.23544315238344546565e-003 -8.55337627089263440039e-003 +9.06266582021907685096e-001 -2.97771040063513625640e-001 +9.06266582021907685096e-001 -2.97771040063513625640e-001 -4.23544315238344546565e-003 -8.55337627089263440039e-003
8.00000000000000000000e+009 -8.19622362193615783266e-003 -1.24117086853324180146e-002 +8.38725070805647732186e-001 -4.51664097332277580943e-001 +8.38725070805647732186e-001 -4.51664097332277580943e-001 -8.19622362193615783266e-003 -1.24117086853324180146e-002
8.20000000000000000000e+009 -1.34418832715630879454e-002 -1.49143751986530129910e-002 +7.45053236918157946178e-001 -5.91418712443374849919e-001 +7.45053236918157946178e-001 -5.91418712443374849919e-001 -1.34418832715630879454e-002 -1.49143751986530129910e-002
8.40000000000000000000e+009 -1.94407325016817608687e-002 -1.56397594440870237043e-002 +6.28082090249665547788e-001 -7.12582253567076051581e-001 +6.28082090249665547788e-001 -7.12582253567076051581e-001 -1.94407325016817608687e-002 -1.56397594440870237043e-002
8.60000000000000000000e+009 -2.55231620480576883170e-002 -1.43734568287564052486e-002 +4.91405745431790386135e-001 -8.11258697106289616841e-001 +4.91405745431790386135e-001 -8.11258697106289616841e-001 -2.55231620480576883170e-002 -1.43734568287564052486e-002
8.80000000000000000000e+009 -3.09621780564602912256e-002 -1.11527504879459903736e-002 +3.39269932533342644110e-001 -8.84239437355928581397e-001 +3.39269932533342644110e-001 -8.84239437355928581397e-001 -3.09621780564602912256e-002 -1.11527504879459903736e-002
9.00000000000000000000e+009 -3.50678970880598933624e-002 -6.27985630991547902346e-003 +1.76438986546488735252e-001 -9.29109677041878190273e-001 +1.76438986546488735252e-001 -9.29109677041878190273e-001 -3.50678970880598933624e-002 -6.27985630991547902346e-003
9.20000000000000000000e+009 -3.72839289555097763706e-002 -2.99793416102720714379e-004 +8.04782260756814471492e-003 -9.44327729272287474949e-001 +8.04782260756814471492e-003 -9.44327729272287474949e-001 -3.72839289555097763706e-002 -2.99793416102720714379e-004
9.40000000000000000000e+009 -3.72725005026717445822e-002 +6.05663644188504136923e-003 -1.60554954826806872692e-001 -9.29276799231354644348e-001 -1.60554954826806872692e-001 -9.29276799231354644348e-001 -3.72725005026717445822e-002 +6.05663644188504136923e-003
9.60000000000000000000e+009 -3.49758308902424347453e-002 +1.19594776158054843379e-002 -3.23967945209984176103e-001 -8.84290418240078257561e-001 -3.23967945209984176103e-001 -8.84290418240078257561e-001 -3.49758308902424347453e-002 +1.19594776158054843379e-002
9.80000000000000000000e+009 -3.06436050271949554646e-002 +1.65862109379645780716e-002 -4.76898712957100623377e-001 -8.10653266158604224323e-001 -4.76898712957100623377e-001 -8.10653266158604224323e-001 -3.06436050271949554646e-002 +1.65862109379645780716e-002
1.00000000000000000000e+010 -2.48201761520586462739e-002 +1.92352591343866764773e-002 -6.14324800932812720156e-001 -7.10578545604117928214e-001 -6.14324800932812720156e-001 -7.10578545604117928214e-001 -2.48201761520586462739e-002 +1.92352591343866764773e-002
1.02000000000000000000e+010 -1.82900129216881889016e-002 +1.94313532754191616025e-002 -7.31653050788075298705e-001 -5.87161645473275539686e-001 -7.31653050788075298705e-001 -5.87161645473275539686e-001 -1.82900129216881889016e-002 +1.94313532754191616025e-002
1.04000000000000000000e+010 -1.19854482812228081701e-002 +1.70074370491028643848e-002 -8.24875686145066455701e-001 -4.44308171258600670406e-001 -8.24875686145066455701e-001 -4.44308171258600670406e-001 -1.19854482812228081701e-002 +1.70074370491028643848e-002
1.06000000000000000000e+010 -6.86642868049805541603e-003 +1.21495166317037699838e-002 -8.90719720834345807248e-001 -2.86633335034622294124e-001 -8.90719720834345807248e-001 -2.86633335034622294124e-001 -6.86642868049805541603e-003 +1.21495166317037699838e-002
1.08000000000000000000e+010 -3.78699173914274871133e-003 +5.39471776418060447456e-003 -9.26783512186138858091e-001 -1.19329954983211819486e-001 -9.26783512186138858091e-001 -1.19329954983211819486e-001 -3.78699173914274871133e-003 +5.39471776418060447456e-003
1.10000000000000000000e+010 -3.36676239515261693097e-003 -2.42134946879735092271e-003 -9.31651557844863198454e-001 +5.19956351065970559522e-002 -9.31651557844863198454e-001 +5.19956351065970559522e-002 -3.36676239515261693097e-003 -2.42134946879735092271e-003
1.12000000000000000000e+010 -5.88696496297415761828e-003 -1.02645328020705625671e-002 -9.04977015465506351433e-001 +2.21516715232974281680e-001 -9.04977015465506351433e-001 +2.21516715232974281680e-001 -5.88696496297415761828e-003 -1.02645328020705625671e-002
1.14000000000000000000e+010 -1.12286175827022299822e-002 -1.70382804830565386112e-002 -8.47521861004408960660e-001 +3.83400578219936949420e-001 -8.47521861004408960660e-001 +3.83400578219936949420e-001 -1.12286175827022299822e-002 -1.70382804830565386112e-002
1.16000000000000000000e+010 -1.88655186450190359704e-002 -2.17381045145629628323e-002 -7.61147536928017731661e-001 +5.32031990350736339046e-001 -7.61147536928017731661e-001 +5.32031990350736339046e-001 -1.88655186450190359704e-002 -2.17381045145629628323e-002
1.18000000000000000000e+010 -2.79168809920444030426e-002 -2.36021185123680143914e-002 -6.48754039718615116428e-001 +6.62230749180637179307e-001 -6.48754039718615116428e-001 +6.62230749180637179307e-001 -2.79168809920444030426e-002 -2.36021185123680143914e-002
1.20000000000000000000e+010 -3.72552713278399907915e-002 -2.22345575000785743158e-002 -5.14171523642457217740e-001 +7.69448364097687242946e-001 -5.14171523642457217740e-001 +7.69448364097687242946e-001 -3.72552713278399907915e-002 -2.22345575000785743158e-002
1.22000000000000000000e+010 -4.56565743872166113215e-002 -1.76822404581817166358e-002 -3.62014027724773534977e-001 +8.49931901274120105150e-001 -3.62014027724773534977e-001 +8.49931901274120105150e-001 -4.56565743872166113215e-002 -1.76822404581817166358e-002
1.24000000000000000000e+010 -5.19717106825879002208e-002 -1.04503877230284793198e-002 -1.97508281947618907770e-001 +9.00848380369187351491e-001 -1.97508281947618907770e-001 +9.00848380369187351491e-001 -5.19717106825879002208e-002 -1.04503877230284793198e-002
1.26000000000000000000e+010 -5.52959861790184512009e-002 -1.45283524759899575381e-003 -2.63107468133727262494e-002 +9.20369281887049583979e-001 -2.63107468133727262494e-002 +9.20369281887049583979e-001 -5.52959861790184512009e-002 -1.45283524759899575381e-003
1.28000000000000000000e+010 -5.51116767796885689834e-002 +8.09902531067376897644e-003 +1.45676899303758988768e-001 +9.07719887945630077297e-001 +1.45676899303758988768e-001 +9.07719887945630077297e-001 -5.51116767796885689834e-002 +8.09902531067376897644e-003
1.30000000000000000000e+010 -5.13824793088908729488e-002 +1.68556743019878593759e-002 +3.12488661930526545607e-001 +8.63200773677903820946e-001 +3.12488661930526545607e-001 +8.63200773677903820946e-001 -5.13824793088908729488e-002 +1.68556743019878593759e-002
1.32000000000000000000e+010 -4.45841235321910445144e-002 +2.35174178964099207800e-002 +4.68271783700322463684e-001 +7.88188009758033825136e-001 +4.68271783700322463684e-001 +7.88188009758033825136e-001 -4.45841235321910445144e-002 +2.35174178964099207800e-002
1.34000000000000000000e+010 -3.56630267653200647149e-002 +2.70262440348004798207e-002 +6.07465072347016077359e-001 +6.85114793192260318477e-001 +6.07465072347016077359e-001 +6.85114793192260318477e-001 -3.56630267653200647149e-002 +2.70262440348004798207e-002
1.36000000000000000000e+010 -2.59238269714280600287e-002 +2.67346628853281642613e-002 +7.24982850108300214131e-001 +5.57431585366099824341e-001 +7.24982850108300214131e-001 +5.57431585366099824341e-001 -2.59238269714280600287e-002 +2.67346628853281642613e-002
1.38000000000000000000e+010 -1.68564536546611659640e-002 +2.25252496645382133122e-002 +8.16406248707919113272e-001 +4.09536440451447825151e-001 +8.16406248707919113272e-001 +4.09536440451447825151e-001 -1.68564536546611659640e-002 +2.25252496645382133122e-002
1.40000000000000000000e+010 -9.92332165341628172350e-003 +1.48587936564871462425e-002 +8.78177107132111389731e-001 +2.46664327176267988984e-001 +8.78177107132111389731e-001 +2.46664327176267988984e-001 -9.92332165341628172350e-003 +1.48587936564871462425e-002
1.42000000000000000000e+010 -6.33589257372322960105e-003 +4.73721807077453777729e-003 +9.07781707947869831443e-001 +7.47257044318517943404e-002 +9.07781707947869831443e-001 +7.47257044318517943404e-002 -6.33589257372322960105e-003 +4.73721807077453777729e-003
1.44000000000000000000e+010 -6.85523687761573595478e-003 -6.42037720068769270781e-003 +9.03904772452886362544e-001 -9.99089697950925476055e-002 +9.03904772452886362544e-001 -9.99089697950925476055e-002 -6.85523687761573595478e-003 -6.42037720068769270781e-003
1.46000000000000000000e+010 -1.16511833156519150484e-002 -1.69754813555047061324e-002 +8.66531464011908947320e-001 -2.70671855048621012862e-001 +8.66531464011908947320e-001 -2.70671855048621012862e-001 -1.16511833156519150484e-002 -1.69754813555047061324e-002
1.48000000000000000000e+010 -2.02477687516645320220e-002 -2.53142241034595393001e-002 +7.96978605251682736821e-001 -4.31089281253612288669e-001 +7.96978605251682736821e-001 -4.31089281253612288669e-001 -2.02477687516645320220e-002 -2.53142241034595393001e-002
1.50000000000000000000e+010 -3.15693389850662808893e-002 -3.00995819555293815661e-002 +6.97845877556352522930e-001 -5.75075615956061270140e-001 +6.97845877556352522930e-001 -5.75075615956061270140e-001 -3.15693389850662808893e-002 -3.00995819555293815661e-002
1.52000000000000000000e+010 -4.40842566643654953928e-002 -3.04899696707040708532e-002 +5.72891038463606672160e-001 -6.97200522296904656727e-001 +5.72891038463606672160e-001 -6.97200522296904656727e-001 -4.40842566643654953928e-002 -3.04899696707040708532e-002
