<Qucs Dataset 0.0.19>
<indep frequency 21>
  +1.00000000000000000000e+009
  +1.95000000000000000000e+009
  +2.90000000000000000000e+009
  +3.85000000000000000000e+009
  +4.80000000000000000000e+009
  +5.75000000000000000000e+009
  +6.70000000000000000000e+009
  +7.65000000000000000000e+009
  +8.60000000000000000000e+009
  +9.55000000000000000000e+009
  +1.05000000000000000000e+010
  +1.14500000000000000000e+010
  +1.24000000000000000000e+010
  +1.33500000000000000000e+010
  +1.43000000000000000000e+010
  +1.52500000000000000000e+010
  +1.62000000000000000000e+010
  +1.71500000000000000000e+010
  +1.81000000000000000000e+010
  +1.90500000000000000000e+010
  +2.00000000000000000000e+010
</indep>
<dep S[1,1] frequency>
  -6.50626769496335383147e-002-j5.22757872354908683342e-004
  -6.83683069800839204877e-002-j3.59514974880078587438e-004
  -6.93661875602701039067e-002-j2.37871439248479128389e-004
  -6.97620582900814883986e-002-j1.58505579477837053957e-004
  -6.99428600587088111773e-002-j1.07066146229639692412e-004
  -7.00329810378436251606e-002-j7.33065707075424282269e-005
  -7.00806457554289802259e-002-j5.08030599428821479763e-005
  -7.01069381115836665064e-002-j3.55775057605671631141e-005
  -7.01218874218988569291e-002-j2.51375245995575707307e-005
  -7.01305722710917761598e-002-j1.78945875760691750487e-005
  -7.01356907237253440757e-002-j1.28182740944429550281e-005
  -7.01387311839996308027e-002-j9.22906202491951838801e-006
  -7.01405397119875401168e-002-j6.67205798547247200020e-006
  -7.01416088860705028152e-002-j4.83861379128596370456e-006
  -7.01422309893859341479e-002-j3.51677702184673131333e-006
  -7.01425820394290661097e-002-j2.55943035618615413528e-006
  -7.01427692088018028826e-002-j1.86348087861250383428e-006
  -7.01428582353726265408e-002-j1.35607082229033204034e-006
  -7.01428895905459731663e-002-j9.85320874167078762911e-007
  -7.01428881811841792304e-002-j7.14042145103328019541e-007
  -7.01428692556226029975e-002-j5.15418531799205824697e-007
</dep>
<dep S[1,2] frequency>
  +2.68854084659843339811e-001-j1.38019673848378959802e-002
  +1.59467719772600796668e-001-j1.59955420100094287961e-002
  +1.06150255069436580402e-001-j1.58969911677116111648e-002
  +7.49901102564792948479e-002-j1.49937408771779068922e-002
  +5.49943514451338155702e-002-j1.38099611148659734416e-002
  +4.13882298235956624932e-002-j1.25637389369899904468e-002
  +3.17457534771137528384e-002-j1.13515238389110210276e-002
  +2.47040794995240092780e-002-j1.02153945547150300233e-002
  +1.94415554383774551173e-002-j9.17146914061385196137e-003
  +1.54359778998876748246e-002-j8.22307823576078067429e-003
  +1.23415544656506823151e-002-j7.36726434737404543146e-003
  +9.92164536049428523456e-003-j6.59812049681727554040e-003
  +8.00987183552131880304e-003-j5.90854451055787023572e-003
  +6.48658067685660855856e-003-j5.29116538110432823444e-003
  +5.26405496146769777410e-003-j4.73882401988195804676e-003
  +4.27692113608829638238e-003-j4.24480961096283804235e-003
  +3.47575550026429013969e-003-j3.80296082918460745526e-003
  +2.82272178731694063300e-003-j3.40769267619033498773e-003
  +2.28853285183692762433e-003-j3.05398328041841648356e-003
  +1.85029588641478213475e-003-j2.73734026367444989447e-003
  +1.48995944027595556870e-003-j2.45375787972822211394e-003
</dep>
<dep S[2,1] frequency>
  +2.68854084659843339811e-001-j1.38019673848378959802e-002
  +1.59467719772600796668e-001-j1.59955420100094287961e-002
  +1.06150255069436580402e-001-j1.58969911677116111648e-002
  +7.49901102564792948479e-002-j1.49937408771779068922e-002
  +5.49943514451338155702e-002-j1.38099611148659734416e-002
  +4.13882298235956624932e-002-j1.25637389369899904468e-002
  +3.17457534771137528384e-002-j1.13515238389110210276e-002
  +2.47040794995240092780e-002-j1.02153945547150300233e-002
  +1.94415554383774551173e-002-j9.17146914061385196137e-003
  +1.54359778998876748246e-002-j8.22307823576078067429e-003
  +1.23415544656506823151e-002-j7.36726434737404543146e-003
  +9.92164536049428523456e-003-j6.59812049681727554040e-003
  +8.00987183552131880304e-003-j5.90854451055787023572e-003
  +6.48658067685660855856e-003-j5.29116538110432823444e-003
  +5.26405496146769777410e-003-j4.73882401988195804676e-003
  +4.27692113608829638238e-003-j4.24480961096283804235e-003
  +3.47575550026429013969e-003-j3.80296082918460745526e-003
  +2.82272178731694063300e-003-j3.40769267619033498773e-003
  +2.28853285183692762433e-003-j3.05398328041841648356e-003
  +1.85029588641478213475e-003-j2.73734026367444989447e-003
  +1.48995944027595556870e-003-j2.45375787972822211394e-003
</dep>
<dep S[2,2] frequency>
  -6.50626769496335383147e-002-j5.22757872354908683342e-004
  -6.83683069800839204877e-002-j3.59514974880078587438e-004
  -6.93661875602701039067e-002-j2.37871439248479128389e-004
  -6.97620582900814883986e-002-j1.58505579477837053957e-004
  -6.99428600587088111773e-002-j1.07066146229639692412e-004
  -7.00329810378436251606e-002-j7.33065707075424282269e-005
  -7.00806457554289802259e-002-j5.08030599428821479763e-005
  -7.01069381115836665064e-002-j3.55775057605671631141e-005
  -7.01218874218988569291e-002-j2.51375245995575707307e-005
  -7.01305722710917761598e-002-j1.78945875760691750487e-005
  -7.01356907237253440757e-002-j1.28182740944429550281e-005
  -7.01387311839996308027e-002-j9.22906202491951838801e-006
  -7.01405397119875401168e-002-j6.67205798547247200020e-006
  -7.01416088860705028152e-002-j4.83861379128596370456e-006
  -7.01422309893859341479e-002-j3.51677702184673131333e-006
  -7.01425820394290661097e-002-j2.55943035618615413528e-006
  -7.01427692088018028826e-002-j1.86348087861250383428e-006
  -7.01428582353726265408e-002-j1.35607082229033204034e-006
  -7.01428895905459731663e-002-j9.85320874167078762911e-007
  -7.01428881811841792304e-002-j7.14042145103328019541e-007
  -7.01428692556226029975e-002-j5.15418531799205824697e-007
</dep>
