# HZ S RI R 50
1.00000000000000000000e+009 -6.50626772076821208168e-002 -5.22757873891434798018e-004 +2.68854084458892861331e-001 -1.38019673820925937308e-002 +2.68854084458892861331e-001 -1.38019673820925937308e-002 -6.50626772076821208168e-002 -5.22757873891434798018e-004
1.95000000000000000000e+009 -6.83683072470639557894e-002 -3.59514975731339977375e-004 +1.59467719607630120660e-001 -1.59955420022297942206e-002 +1.59467719607630120660e-001 -1.59955420022297942206e-002 -6.83683072470639557894e-002 -3.59514975731339977375e-004
2.90000000000000000000e+009 -6.93661878294152406399e-002 -2.37871439705848459600e-004 +1.06150254935766810704e-001 -1.58969911564643094637e-002 +1.06150254935766810704e-001 -1.58969911564643094637e-002 -6.93661878294152406399e-002 -2.37871439705848459600e-004
3.85000000000000000000e+009 -6.97620585599147552402e-002 -1.58505579722237446893e-004 +7.49901101475323322854e-002 -1.49937408637566792213e-002 +7.49901101475323322854e-002 -1.49937408637566792213e-002 -6.97620585599147552402e-002 -1.58505579722237446893e-004
4.80000000000000000000e+009 -6.99428603287873540406e-002 -1.07066146358207259161e-004 +5.49943513556330407233e-002 -1.38099611002038373531e-002 +5.49943513556330407233e-002 -1.38099611002038373531e-002 -6.99428603287873540406e-002 -1.07066146358207259161e-004
5.75000000000000000000e+009 -7.00329813080125540559e-002 -7.33065707725544024381e-005 +4.13882297495298742684e-002 -1.25637389217421648752e-002 +4.13882297495298742684e-002 -1.25637389217421648752e-002 -7.00329813080125540559e-002 -7.33065707725544024381e-005
6.70000000000000000000e+009 -7.00806460256295921107e-002 -5.08030599729821142783e-005 +3.17457534154332934873e-002 -1.13515238235332438510e-002 +3.17457534154332934873e-002 -1.13515238235332438510e-002 -7.00806460256295921107e-002 -5.08030599729821142783e-005
7.65000000000000000000e+009 -7.01069383817931046643e-002 -3.55775057716845925196e-005 +2.47040794478844451254e-002 -1.02153945395214926228e-002 +2.47040794478844451254e-002 -1.02153945395214926228e-002 -7.01069383817931046643e-002 -3.55775057716845925196e-005
8.60000000000000000000e+009 -7.01218876921083505982e-002 -2.51375246006414035968e-005 +1.94415553949528786826e-002 -9.17146912581806583731e-003 +1.94415553949528786826e-002 -9.17146912581806583731e-003 -7.01218876921083505982e-002 -2.51375246006414035968e-005
9.55000000000000000000e+009 -7.01305725412983971268e-002 -1.78945875721719290245e-005 +1.54359778632380973545e-002 -8.22307822150435650810e-003 +1.54359778632380973545e-002 -8.22307822150435650810e-003 -7.01305725412983971268e-002 -1.78945875721719290245e-005
1.05000000000000000000e+010 -7.01356909939284817179e-002 -1.28182740883883550508e-005 +1.23415544346274427823e-002 -7.36726433374702317780e-003 +1.23415544346274427823e-002 -7.36726433374702317780e-003 -7.01356909939284817179e-002 -1.28182740883883550508e-005
1.14500000000000000000e+010 -7.01387314541995487982e-002 -9.22906201822623015749e-006 +9.92164533417166059903e-003 -6.59812048387257293891e-003 +9.92164533417166059903e-003 -6.59812048387257293891e-003 -7.01387314541995487982e-002 -9.22906201822623015749e-006
1.24000000000000000000e+010 -7.01405399821848074549e-002 -6.67205797896593420576e-006 +8.00987181314648070962e-003 -5.90854449832171804008e-003 +8.00987181314648070962e-003 -5.90854449832171804008e-003 -7.01405399821848074549e-002 -6.67205797896593420576e-006
1.33500000000000000000e+010 -7.01416091562656746072e-002 -4.83861378537638508519e-006 +6.48658065781237882369e-003 -5.29116536958383707617e-003 +6.48658065781237882369e-003 -5.29116536958383707617e-003 -7.01416091562656746072e-002 -4.83861378537638508519e-006
1.43000000000000000000e+010 -7.01422312595795238721e-002 -3.51677701665772616328e-006 +5.26405494524446841698e-003 -4.73882400907062444756e-003 +5.26405494524446841698e-003 -4.73882400907062444756e-003 -7.01422312595795238721e-002 -3.51677701665772616328e-006
1.52500000000000000000e+010 -7.01425823096214762220e-002 -2.55943035176377775349e-006 +4.27692112226260405528e-003 -4.24480960084460713644e-003 +4.27692112226260405528e-003 -4.24480960084460713644e-003 -7.01425823096214762220e-002 -2.55943035176377775349e-006
1.62000000000000000000e+010 -7.01427694789933664499e-002 -1.86348087491376209889e-006 +3.47575548848223607468e-003 -3.80296081973685801483e-003 +3.47575548848223607468e-003 -3.80296081973685801483e-003 -7.01427694789933664499e-002 -1.86348087491376209889e-006
1.71500000000000000000e+010 -7.01428585055635794854e-002 -1.35607081924794004215e-006 +2.82272177728126651836e-003 -3.40769266738609639955e-003 +2.82272177728126651836e-003 -3.40769266738609639955e-003 -7.01428585055635794854e-002 -1.35607081924794004215e-006
1.81000000000000000000e+010 -7.01428898607365097773e-002 -9.85320871686920765330e-007 +2.28853284329681412948e-003 -3.05398327222800025638e-003 +2.28853284329681412948e-003 -3.05398327222800025638e-003 -7.01428898607365097773e-002 -9.85320871686920765330e-007
1.90500000000000000000e+010 -7.01428884513744521634e-002 -7.14042143090735808734e-007 +1.85029587915771869498e-003 -2.73734025606664922031e-003 +1.85029587915771869498e-003 -2.73734025606664922031e-003 -7.01428884513744521634e-002 -7.14042143090735808734e-007
2.00000000000000000000e+010 -7.01428695258126955192e-002 -5.15418530193255497142e-007 +1.48995943412123950898e-003 -2.45375787267120698543e-003 +1.48995943412123950898e-003 -2.45375787267120698543e-003 -7.01428695258126955192e-002 -5.15418530193255497142e-007
