<Qucs Dataset 0.0.19>
<indep frequency 100>
  +2.00000000000000000000e+008
  +4.00000000000000000000e+008
  +6.00000000000000000000e+008
  +8.00000000000000000000e+008
  +1.00000000000000000000e+009
  +1.20000000000000000000e+009
  +1.40000000000000000000e+009
  +1.60000000000000000000e+009
  +1.80000000000000000000e+009
  +2.00000000000000000000e+009
  +2.20000000000000000000e+009
  +2.40000000000000000000e+009
  +2.60000000000000000000e+009
  +2.80000000000000000000e+009
  +3.00000000000000000000e+009
  +3.20000000000000000000e+009
  +3.40000000000000000000e+009
  +3.60000000000000000000e+009
  +3.80000000000000000000e+009
  +4.00000000000000000000e+009
  +4.20000000000000000000e+009
  +4.40000000000000000000e+009
  +4.60000000000000000000e+009
  +4.80000000000000000000e+009
  +5.00000000000000000000e+009
  +5.20000000000000000000e+009
  +5.40000000000000000000e+009
  +5.60000000000000000000e+009
  +5.80000000000000000000e+009
  +6.00000000000000000000e+009
  +6.20000000000000000000e+009
  +6.40000000000000000000e+009
  +6.60000000000000000000e+009
  +6.80000000000000000000e+009
  +7.00000000000000000000e+009
  +7.20000000000000000000e+009
  +7.40000000000000000000e+009
  +7.60000000000000000000e+009
  +7.80000000000000000000e+009
  +8.00000000000000000000e+009
  +8.20000000000000000000e+009
  +8.40000000000000000000e+009
  +8.60000000000000000000e+009
  +8.80000000000000000000e+009
  +9.00000000000000000000e+009
  +9.20000000000000000000e+009
  +9.40000000000000000000e+009
  +9.60000000000000000000e+009
  +9.80000000000000000000e+009
  +1.00000000000000000000e+010
  +1.02000000000000000000e+010
  +1.04000000000000000000e+010
  +1.06000000000000000000e+010
  +1.08000000000000000000e+010
  +1.10000000000000000000e+010
  +1.12000000000000000000e+010
  +1.14000000000000000000e+010
  +1.16000000000000000000e+010
  +1.18000000000000000000e+010
  +1.20000000000000000000e+010
  +1.22000000000000000000e+010
  +1.24000000000000000000e+010
  +1.26000000000000000000e+010
  +1.28000000000000000000e+010
  +1.30000000000000000000e+010
  +1.32000000000000000000e+010
  +1.34000000000000000000e+010
  +1.36000000000000000000e+010
  +1.38000000000000000000e+010
  +1.40000000000000000000e+010
  +1.42000000000000000000e+010
  +1.44000000000000000000e+010
  +1.46000000000000000000e+010
  +1.48000000000000000000e+010
  +1.50000000000000000000e+010
  +1.52000000000000000000e+010
  +1.54000000000000000000e+010
  +1.56000000000000000000e+010
  +1.58000000000000000000e+010
  +1.60000000000000000000e+010
  +1.62000000000000000000e+010
  +1.64000000000000000000e+010
  +1.66000000000000000000e+010
  +1.68000000000000000000e+010
  +1.70000000000000000000e+010
  +1.72000000000000000000e+010
  +1.74000000000000000000e+010
  +1.76000000000000000000e+010
  +1.78000000000000000000e+010
  +1.80000000000000000000e+010
  +1.82000000000000000000e+010
  +1.84000000000000000000e+010
  +1.86000000000000000000e+010
  +1.88000000000000000000e+010
  +1.90000000000000000000e+010
  +1.92000000000000000000e+010
  +1.94000000000000000000e+010
  +1.96000000000000000000e+010
  +1.98000000000000000000e+010
  +2.00000000000000000000e+010
</indep>
<dep S21_phi frequency>
  -1.73796421253215899183e-001
  -3.47590851377714893378e-001
  -5.21380924595821859668e-001
  -6.95166004199372911110e-001
  -8.68948515771289176080e-001
  -1.04273461506750653172e+000
  -1.21653432185037146951e+000
  -1.39036115253703562722e+000
  -1.56423130968124324269e+000
  -1.73816252501128798436e+000
  -1.91217268719489119633e+000
  -2.08627840882295734204e+000
  -2.26049369570494640413e+000
  -2.43482887368690992247e+000
  -2.60928990363522617102e+000
  -2.78387817539829818259e+000
  -2.95859081965864278985e+000
  -3.13342151760030063201e+000
  +2.97482357845114497863e+000
  +2.79978310287270470980e+000
  +2.62465069233539294302e+000
  +2.44943220658768279208e+000
  +2.27412974977539761312e+000
  +2.09874081043067883812e+000
  +1.92325794194906496415e+000
  +1.74766903700053077841e+000
  +1.57195818065863157642e+000
  +1.39610699865985199430e+000
  +1.22009635658968940142e+000
  +1.04390821949853451756e+000
  +8.67527454785652962777e-001
  +6.90943357947426450849e-001
  +5.14150702922072877499e-001
  +3.37150165915093502633e-001
  +1.59948040524553330988e-001
  -1.74447537743676155120e-002
  -1.95014277761347998297e-001
  -3.72745617277279173152e-001
  -5.50625125145366212109e-001
  -7.28642581866597471851e-001
  -9.06792995503602483609e-001
  -1.08507779690424199792e+000
  -1.26350525506012911769e+000
  -1.44209003024636417400e+000
  -1.62085188803004198732e+000
  -1.79981370264133699877e+000
  -1.97899897150131409695e+000
  -2.15842913332902019974e+000
  -2.33812102159060231088e+000
  -2.51808478675418534465e+000
  -2.69832258138996383678e+000
  -2.87882822204387522902e+000
  -3.05958792667081747041e+000
  +3.04260321918146159348e+000
  +2.86139740812650522628e+000
  +2.68000278867255037341e+000
  +2.49843893544272033225e+000
  +2.31671916184960657858e+000
  +2.13484825069511163775e+000
  +1.95282124482651053832e+000
  +1.77062350102277821229e+000
  +1.58823204877182955208e+000
  +1.40561812564412957904e+000
  +1.22275060325930406968e+000
  +1.03959989039899491914e+000
  +8.56141817381416481147e-001
  +6.72360979908964373486e-001
  +4.88253059175187631435e-001
  +3.03825740831539570230e-001
  +1.19098023298017996474e-001
  -6.59020799648693533790e-002
  -2.51141206530995364510e-001
  -4.36585225820763866977e-001
  -6.22204120557125039959e-001
  -8.07976481199536133992e-001
  -9.93892955439533598572e-001
  -1.17995812493967422441e+000
  -1.36619049092437960802e+000
  -1.55262050610524693361e+000
  -1.73928685617118405915e+000
  -1.92623143620058256964e+000
  -2.11349365869929384232e+000
  -2.30110484952612903697e+000
  -2.48908351927919424540e+000
  -2.67743222858985552293e+000
  -2.86613659118972918805e+000
  -3.05516668657449130819e+000
  +3.03870449557068722513e+000
  +2.84915417171470597424e+000
  +2.65941480919295791807e+000
  +2.46952593478045079323e+000
  +2.27951335992722325940e+000
  +2.08938492048500590315e+000
  +1.89912872322619263876e+000
  +1.70871422420337015780e+000
  +1.51809606047248157878e+000
  +1.32722016829399214188e+000
  +1.13603139410097142559e+000
  +9.44481572291504756222e-001
  +7.52536930405987347648e-001
</dep>
<dep S21_dB frequency>
  -2.03477892619045030997e-002
  -3.56734460030542280262e-002
  -5.03679480170329541000e-002
  -6.47728460368612313225e-002
  -7.89526558150947521675e-002
  -9.28851641531865807044e-002
  -1.06519254141760527643e-001
  -1.19803315554338041249e-001
  -1.32702608654444137448e-001
  -1.45210028624888604076e-001
  -1.57351437831432849901e-001
  -1.69185968540376541203e-001
  -1.80801705607133961218e-001
  -1.92307428489659620885e-001
  -2.03821427291825368888e-001
  -2.15458705747747725212e-001
  -2.27318078789927768835e-001
  -2.39470718799578263791e-001
  -2.51951578674446341477e-001
  -2.64754820919532174450e-001
  -2.77833934998117593196e-001
  -2.91106678726894330111e-001
  -3.04464399272090624482e-001
  -3.17784748024893981544e-001
  -3.30946369519915184476e-001
  -3.43843871242381082798e-001
  -3.56401301248558621815e-001
  -3.68582483526900539506e-001
  -3.80396875007434576155e-001
  -3.91900083127908360758e-001
  -4.03188774421264273240e-001
  -4.14390356286371830397e-001
  -4.25648459546741630977e-001
  -4.37105815070852665727e-001
  -4.48886528569390763632e-001
  -4.61079946482407687647e-001
  -4.73728225694681093216e-001
  -4.86819356753091236900e-001
  -5.00286772194111106771e-001
  -5.14015869075237441521e-001
  -5.27856892093115814824e-001
  -5.41642781372622450498e-001
  -5.55209902936364185777e-001
  -5.68419141991355791887e-001
  -5.81174705565081439751e-001
  -5.93438168502125718007e-001
  -6.05235786662053021345e-001
  -6.16657845828824324741e-001
  -6.27849743887696098987e-001
  -6.38995526777818234621e-001
  -6.50295606400331682728e-001
  -6.61941256619147599949e-001
  -6.74089082186829946508e-001
  -6.86838869318227129845e-001
  -7.00217980116547678016e-001
  -7.14174736040303015372e-001
  -7.28582118694878100307e-001
  -7.43251747122504191623e-001
  -7.57956669560448048628e-001
  -7.72460247390110543719e-001
  -7.86547493851123102893e-001
  -8.00054784297342447275e-001
  -8.12893930442750267673e-001
  -8.25067193893905370672e-001
  -8.36670839163108359671e-001
  -8.47886192116734105362e-001
  -8.58958745873178441954e-001
  -8.70167481088867544869e-001
  -8.81788046897764687948e-001
  -8.94054563653863931805e-001
  -9.07125344278382095276e-001
  -9.21057624767752880501e-001
  -9.35795390705024709987e-001
  -9.51172676674436390343e-001
  -9.66932540093460191066e-001
  -9.82759617318197831182e-001
  -9.98322133602686068166e-001
  -1.01331777888596730186e+000
  -1.02751718042981221579e+000
  -1.04079886700449120163e+000
  -1.05317057827299764838e+000
  -1.06477340228414463219e+000
  -1.07586735604349792439e+000
  -1.08679945876662209514e+000
  -1.09795783933599055970e+000
  -1.10971766249060355136e+000
  -1.12238629334226058809e+000
  -1.13615578769917124902e+000
  -1.15107023274071074148e+000
  -1.16701360903581519146e+000
  -1.18372091492262754286e+000
  -1.20081176299816538844e+000
  -1.21784215524594552349e+000
  -1.23436728777693494052e+000
  -1.25000648434544370247e+000
  -1.26450091989321933283e+000
  -1.27775564649333484013e+000
  -1.28985939170723762359e+000
  -1.30107841183919648032e+000
  -1.31182407716610938131e+000
</dep>
<dep S11_phi frequency>
  -1.75783169245999881802e+000
  -1.92952857495123630827e+000
  -2.10201066698679328582e+000
  -2.27460475241636839172e+000
  -2.44713025879269574503e+000
  -2.61950385245786465660e+000
  -2.79166785881965351379e+000
  -2.96356538808316249956e+000
  -3.13512389758598786216e+000
  +2.97694925643770869073e+000
  +2.80645609016838415428e+000
  +2.63687710310561440608e+000
  +2.46875220049394705768e+000
  +2.30316574658666572972e+000
  +2.14263138734077207559e+000
  +1.99455100700267329294e+000
  +1.89412857010399404700e+000
  +2.86155383689903786149e+000
  -1.90805437676763989252e+000
  -1.99783591660856707506e+000
  -2.14363555097893865309e+000
  -2.30301519365207552070e+000
  -2.46762432891365168786e+000
  -2.63466874543874407522e+000
  -2.80291017530100683430e+000
  -2.97166863070672837566e+000
  -3.14047760979349943611e+000
  +2.97426310690087136734e+000
  +2.80666391224198452647e+000
  +2.64060338777626224527e+000
  +2.47725949235215026079e+000
  +2.31894882882890618347e+000
  +2.17108923490640792764e+000
  +2.05017006528931400311e+000
  +2.04037559768147813699e+000
  -2.84120594067380949355e+000
  -2.03480445527010322948e+000
  -2.08547546031018615764e+000
  -2.21447872955851599031e+000
  -2.36514456688191110345e+000
  -2.52462650125360221764e+000
  -2.68837187435069724373e+000
  -2.85429568609319428418e+000
  -3.02122688404507000470e+000
  +3.09483754898768248509e+000
  +2.92826629859825082747e+000
  +2.76311842075002456198e+000
  +2.60068721585828699361e+000
  +2.44325615269157303544e+000
  +2.29557728398088434218e+000
  +2.16978442207489008453e+000
  +2.10887893651429836339e+000
  +2.40844814567111287218e+000
  -2.34109444066318950206e+000
  -2.12328146887750568439e+000
  -2.19539518791139753873e+000
  -2.32460890965685784693e+000
  -2.47381059438764205893e+000
  -2.63202238810823807569e+000
  -2.79477897099976591022e+000
  -2.95981936419848334907e+000
  -3.12573724474035552490e+000
  +2.99176706430873728948e+000
  +2.82748892483638103457e+000
  +2.66619539368672819890e+000
  +2.51052280591004217669e+000
  +2.36570111590694454051e+000
  +2.24430965251060943189e+000
  +2.18636853888336268881e+000
  +2.39835900290270220836e+000
  -2.64218926624005678860e+000
  -2.21221188553203296223e+000
  -2.23289492263364985902e+000
  -2.34321671790808938596e+000
  -2.48359792033105097886e+000
  -2.63717839039997015149e+000
  -2.79732501845353809244e+000
  -2.96076907426420410374e+000
  -3.12552826749487877578e+000
  +2.99311764951564462933e+000
  +2.83038080155530602511e+000
  +2.67159013345068885315e+000
  +2.52035216042854637308e+000
  +2.38394695006436885265e+000
  +2.28032493520504919715e+000
  +2.26829686696892141029e+000
  +2.63464508521882123659e+000
  -2.57330816118597338615e+000
  -2.27522952310818027399e+000
  -2.30205136778054519908e+000
  -2.41055908689159359426e+000
  -2.54915725337853871224e+000
  -2.70149394364694828141e+000
  -2.86070892228788942191e+000
  -3.02323746623248590382e+000
  +3.09641090149029585277e+000
  +2.93381516525566965470e+000
  +2.77438606240691498783e+000
  +2.62143238658572652611e+000
  +2.48100097531422525421e+000
</dep>
<dep S11_dB frequency>
  -4.43997896321897727034e+001
  -3.85184696314457966082e+001
  -3.52208025124336288059e+001
  -3.30346965771015135260e+001
  -3.15022470531230780466e+001
  -3.04235511306589181402e+001
  -2.96968737808242551068e+001
  -2.92675449011639656760e+001
  -2.91080214667322856315e+001
  -2.92097174190119623916e+001
  -2.95806818635162152020e+001
  -3.02476814888974345763e+001
  -3.12639627220634039872e+001
  -3.27282144483394361600e+001
  -3.48326696369330974790e+001
  -3.80102002205911233546e+001
  -4.35907303555370617687e+001
  -5.96664103527353617551e+001
  -4.42688342746279133166e+001
  -3.82177013737591337872e+001
  -3.48188204096688593836e+001
  -3.25587351570020473446e+001
  -3.09665165924248029228e+001
  -2.98373947783839490455e+001
  -2.90675737185871554402e+001
  -2.86015594529374226340e+001
  -2.84116985077723356312e+001
  -2.84898685225586270064e+001
  -2.88452372067393980615e+001
  -2.95066694691075461776e+001
  -3.05312737604021151583e+001
  -3.20252889735502463964e+001
  -3.41975458488737871221e+001
  -3.75247253156788289630e+001
  -4.34762080193824260732e+001
  -5.29431759459707791393e+001
  -4.17506382636510267048e+001
  -3.64363753179964220408e+001
  -3.32736773832250989358e+001
  -3.11326865091547979603e+001
  -2.96175544626815998583e+001
  -2.85484485637564375793e+001
  -2.78327819540683485400e+001
  -2.74215558238734580243e+001
  -2.72920403856730722225e+001
  -2.74410307904783898891e+001
  -2.78839039538580699684e+001
  -2.86588544910605875771e+001
  -2.98390571094873919833e+001
  -3.15623420583863669719e+001
  -3.41104530682881161852e+001
  -3.81681526634029069101e+001
  -4.56956414638532351091e+001
  -4.46290958925071521435e+001
  -3.74191972591422370442e+001
  -3.34192311214049695423e+001
  -3.08263755406853903196e+001
  -2.90217827090451905292e+001
  -2.77457583508187433097e+001
  -2.68703553969400630308e+001
  -2.63282006338906562348e+001
  -2.60855813903453359615e+001
  -2.61316252595973566031e+001
  -2.64751375542081319736e+001
  -2.71469776566165492682e+001
  -2.82094545048971596657e+001
  -2.97795490329758330006e+001
  -3.20875984288829414481e+001
  -3.56453295325059187348e+001
  -4.16348616249008216528e+001
  -4.36605544298674104198e+001
  -3.67994395064349006930e+001
  -3.25701853599998543132e+001
  -2.98390542667791613951e+001
  -2.79508584474831032196e+001
  -2.66229760555378724973e+001
  -2.57164078139326832684e+001
  -2.51582778127400246149e+001
  -2.49122127022275208219e+001
  -2.49664340631951944260e+001
  -2.53302626188584447675e+001
  -2.60366616013641660743e+001
  -2.71523822635165501538e+001
  -2.88029092853468817736e+001
  -3.12338211130930041293e+001
  -3.49642426880250241084e+001
  -4.06176169372799051871e+001
  -3.99679310165929635446e+001
  -3.43067640558711488552e+001
  -3.06024130074576881100e+001
  -2.81303489589335953269e+001
  -2.64094650669927979436e+001
  -2.52115699752966477831e+001
  -2.44199544202650784541e+001
  -2.39734777976804949162e+001
  -2.38438891951300675487e+001
  -2.40269815822161980634e+001
  -2.45412682228916168015e+001
  -2.54332436657866232110e+001
  -2.67924830938538462988e+001
</dep>
<dep S[1,1] frequency>
  -1.12046731979395693124e-003-j5.92065175617384736179e-003
  -4.16381900505151999331e-003-j1.11048151174674095826e-002
  -8.78230513543005325561e-003-j1.49473477254920619761e-002
  -1.44295876815244989572e-002-j1.69995914368249317894e-002
  -2.04396661043890169596e-002-j1.70235024399900368441e-002
  -2.61054405374828019104e-002-j1.50194707962734604056e-002
  -3.07614053378146394546e-002-j1.12261678894237902637e-002
  -3.38613204578145920998e-002-j6.09274189437857775081e-003
  -3.50420770426123559527e-002-j2.26681808082662992814e-004
  -3.41665426139738034883e-002+j5.67668203529874803442e-003
  -3.13405039129214871285e-002+j1.09150900389346008912e-002
  -2.69016449575675518913e-002+j1.48615780736620958086e-002
  -2.13815385484948869421e-002+j1.70386899012125864195e-002
  -1.54446239905451192242e-002+j1.71760823487226259310e-002
  -9.81081552158810654696e-003+j1.52445873843985914980e-002
  -5.17044868324704771229e-003+j1.14622848752344887180e-002
  -2.10144884804364150480e-003+j6.27126510674162578052e-003
  -9.98672463155929768935e-004+j2.87214557802351879920e-004
  -2.02421284459765923186e-003-j5.77266527206944136952e-003
  -5.08512964169895425454e-003-j1.11750581961620673588e-002
  -9.84179839675961183609e-003-j1.52590384422642486029e-002
  -1.57463020795159738818e-002-j1.75168843398089517371e-002
  -2.21065244388455942048e-002-j1.76572258308001911464e-002
  -2.81683854493860776069e-002-j1.56426676270534879831e-002
  -3.32064145987074135769e-002-j1.16971317117505729105e-002
  -3.66118498496921657148e-002-j6.28181020885706063728e-003
  -3.79677450493573487300e-002-j4.23357161222044712763e-005
  -3.71020617504445454626e-002+j6.26686970738400250108e-003
  -3.41121922964654766819e-002+j1.18724491081002910681e-002
  -2.93575308589007696880e-002+j1.60758226093207640117e-002
  -2.34202786430858546363e-002+j1.83397545492689148516e-002
  -1.70383274135279365324e-002+j1.83572697935002644709e-002
  -1.10174764922294984859e-002+j1.60940830646385535374e-002
  -6.13303227375091956908e-003+j1.17984880400206840201e-002
  -3.03262611805500768153e-003+j5.97636314981728981183e-003
  -2.15251199813429761748e-003-j6.66762153950877867539e-004
  -3.65844126379850269684e-003-j7.31029258231096889381e-003
  -7.41945283370589250826e-003-j1.31197458049266500041e-002
  -1.30188415514977170323e-002-j1.73519007711395688298e-002
  -1.98017267242697921070e-002-j1.94504077299545614921e-002
  -2.69537658529899401549e-002-j1.91193517731100340318e-002
  -3.36013954864939415335e-002-j1.63650083453992997717e-002
  -3.89211387178855922064e-002-j1.15000838879469879927e-002
  -4.22443440786115648189e-002-j5.10947205455435701088e-003
  -4.31442690083719757044e-002+j2.01868600087163046347e-003
  -4.14945081242949417866e-002+j8.98863971947045682642e-003
  -3.74910658773774038699e-002+j1.49081207936844241380e-002
  -3.16345111405142362382e-002+j1.90016192391396325501e-002
  -2.46732558989063988086e-002+j2.07119323078202507982e-002
  -1.75136932508842720069e-002+j1.97769186760638274181e-002
  -1.11072827683266414645e-002+j1.62707757855322619756e-002
  -6.32817052667876064898e-003+j1.06030361133146889402e-002
  -3.85700181628198957712e-003+j3.47360195799420630458e-003
  -4.08669572104166951149e-003-j4.21201620716777670739e-003
  -7.06378523258104941418e-003-j1.14573308836150838247e-002
  -1.24745518334961284085e-002-j1.73047443004020647106e-002
  -1.96791387299932764299e-002-j2.09632801952925260092e-002
  -2.77900624139822277625e-002-j2.19166447527522345595e-002
  -3.57852081811732489203e-002-j1.99965832531973086716e-002
  -4.26405502835578639753e-002-j1.54112242972210509995e-002
  -4.74651905122855308217e-002-j8.72420313960115510754e-003
  -4.96210944249368540726e-002-j7.86828675435665564342e-004
  -4.88119247060092298351e-002+j7.36849333076664524123e-003
  -4.51291635272343047425e-002+j1.46605832346558741935e-002
  -3.90487454459266386531e-002+j2.01013000284742775203e-002
  -3.13772062273113688802e-002+j2.29290376792363227720e-002
  -2.31524642488025005072e-002+j2.27163930536126226767e-002
  -1.55103239364694275165e-002+j1.94367718022457301730e-002
  -9.53300245065264936772e-003+j1.34790561959463924685e-002
  -6.09961540912981083074e-003+j5.60577080857654549972e-003
  -5.75972453265699395331e-003-j3.14209142303226987222e-003
