# HZ S RI R 50
7.50000000000e+10 +8.78939439458e-01 +5.25944718183e-02 +2.69085730219e-02 -2.48177954464e-01 +2.69085730219e-02 -2.48177954464e-01 +8.78939439458e-01 +5.25944718183e-02
7.53500000000e+10 +8.79257901011e-01 +5.12821981344e-02 +2.60324173245e-02 -2.47990804672e-01 +2.60324173245e-02 -2.47990804672e-01 +8.79257901011e-01 +5.12821981344e-02
7.57000000000e+10 +8.79566739113e-01 +4.99707922797e-02 +2.51603026070e-02 -2.47807748423e-01 +2.51603026070e-02 -2.47807748423e-01 +8.79566739113e-01 +4.99707922797e-02
7.60500000000e+10 +8.79866015336e-01 +4.86602466529e-02 +2.42921068054e-02 -2.47628797016e-01 +2.42921068054e-02 -2.47628797016e-01 +8.79866015336e-01 +4.86602466529e-02
7.64000000000e+10 +8.80155789408e-01 +4.73505530371e-02 +2.34277088550e-02 -2.47453961084e-01 +2.34277088550e-02 -2.47453961084e-01 +8.80155789408e-01 +4.73505530371e-02
7.67500000000e+10 +8.80436119224e-01 +4.60417026263e-02 +2.25669886604e-02 -2.47283250607e-01 +2.25669886604e-02 -2.47283250607e-01 +8.80436119224e-01 +4.60417026263e-02
7.71000000000e+10 +8.80707060869e-01 +4.47336860513e-02 +2.17098270677e-02 -2.47116674937e-01 +2.17098270677e-02 -2.47116674937e-01 +8.80707060869e-01 +4.47336860513e-02
7.74500000000e+10 +8.80968668626e-01 +4.34264934046e-02 +2.08561058356e-02 -2.46954242815e-01 +2.08561058356e-02 -2.46954242815e-01 +8.80968668626e-01 +4.34264934046e-02
7.78000000000e+10 +8.81220994995e-01 +4.21201142651e-02 +2.00057076074e-02 -2.46795962392e-01 +2.00057076074e-02 -2.46795962392e-01 +8.81220994995e-01 +4.21201142651e-02
7.81500000000e+10 +8.81464090707e-01 +4.08145377220e-02 +1.91585158826e-02 -2.46641841246e-01 +1.91585158826e-02 -2.46641841246e-01 +8.81464090707e-01 +4.08145377220e-02
7.85000000000e+10 +8.81698004736e-01 +3.95097523983e-02 +1.83144149890e-02 -2.46491886399e-01 +1.83144149890e-02 -2.46491886399e-01 +8.81698004736e-01 +3.95097523983e-02
7.88500000000e+10 +8.81922784316e-01 +3.82057464733e-02 +1.74732900552e-02 -2.46346104335e-01 +1.74732900552e-02 -2.46346104335e-01 +8.81922784316e-01 +3.82057464733e-02
7.92000000000e+10 +8.82138474948e-01 +3.69025077050e-02 +1.66350269830e-02 -2.46204501013e-01 +1.66350269830e-02 -2.46204501013e-01 +8.82138474948e-01 +3.69025077050e-02
7.95500000000e+10 +8.82345120421e-01 +3.56000234520e-02 +1.57995124198e-02 -2.46067081883e-01 +1.57995124198e-02 -2.46067081883e-01 +8.82345120421e-01 +3.56000234520e-02
7.99000000000e+10 +8.82542762818e-01 +3.42982806945e-02 +1.49666337313e-02 -2.45933851904e-01 +1.49666337313e-02 -2.45933851904e-01 +8.82542762818e-01 +3.42982806945e-02
8.02500000000e+10 +8.82731442530e-01 +3.29972660554e-02 +1.41362789749e-02 -2.45804815550e-01 +1.41362789749e-02 -2.45804815550e-01 +8.82731442530e-01 +3.29972660554e-02
8.06000000000e+10 +8.82911198268e-01 +3.16969658203e-02 +1.33083368724e-02 -2.45679976831e-01 +1.33083368724e-02 -2.45679976831e-01 +8.82911198268e-01 +3.16969658203e-02
8.09500000000e+10 +8.83082067075e-01 +3.03973659580e-02 +1.24826967833e-02 -2.45559339299e-01 +1.24826967833e-02 -2.45559339299e-01 +8.83082067075e-01 +3.03973659580e-02
8.13000000000e+10 +8.83244084332e-01 +2.90984521396e-02 +1.16592486786e-02 -2.45442906064e-01 +1.16592486786e-02 -2.45442906064e-01 +8.83244084332e-01 +2.90984521396e-02
8.16500000000e+10 +8.83397283776e-01 +2.78002097576e-02 +1.08378831136e-02 -2.45330679801e-01 +1.08378831136e-02 -2.45330679801e-01 +8.83397283776e-01 +2.78002097576e-02
8.20000000000e+10 +8.83541697503e-01 +2.65026239453e-02 +1.00184912027e-02 -2.45222662764e-01 +1.00184912027e-02 -2.45222662764e-01 +8.83541697503e-01 +2.65026239453e-02
8.23500000000e+10 +8.83677355980e-01 +2.52056795948e-02 +9.20096459214e-03 -2.45118856794e-01 +9.20096459214e-03 -2.45118856794e-01 +8.83677355980e-01 +2.52056795948e-02
8.27000000000e+10 +8.83804288057e-01 +2.39093613752e-02 +8.38519543493e-03 -2.45019263327e-01 +8.38519543493e-03 -2.45019263327e-01 +8.83804288057e-01 +2.39093613752e-02
8.30500000000e+10 +8.83922520968e-01 +2.26136537508e-02 +7.57107636443e-03 -2.44923883403e-01 +7.57107636443e-03 -2.44923883403e-01 +8.83922520968e-01 +2.26136537508e-02
8.34000000000e+10 +8.84032080350e-01 +2.13185409982e-02 +6.75850046888e-03 -2.44832717676e-01 +6.75850046888e-03 -2.44832717676e-01 +8.84032080350e-01 +2.13185409982e-02
8.37500000000e+10 +8.84132990240e-01 +2.00240072243e-02 +5.94736126571e-03 -2.44745766419e-01 +5.94736126571e-03 -2.44745766419e-01 +8.84132990240e-01 +2.00240072243e-02
8.41000000000e+10 +8.84225273091e-01 +1.87300363826e-02 +5.13755267611e-03 -2.44663029531e-01 +5.13755267611e-03 -2.44663029531e-01 +8.84225273091e-01 +1.87300363826e-02
8.44500000000e+10 +8.84308949775e-01 +1.74366122907e-02 +4.32896899967e-03 -2.44584506543e-01 +4.32896899967e-03 -2.44584506543e-01 +8.84308949775e-01 +1.74366122907e-02
8.48000000000e+10 +8.84384039588e-01 +1.61437186467e-02 +3.52150488913e-03 -2.44510196626e-01 +3.52150488913e-03 -2.44510196626e-01 +8.84384039588e-01 +1.61437186467e-02
8.51500000000e+10 +8.84450560261e-01 +1.48513390458e-02 +2.71505532524e-03 -2.44440098593e-01 +2.71505532524e-03 -2.44440098593e-01 +8.84450560261e-01 +1.48513390458e-02
8.55000000000e+10 +8.84508527962e-01 +1.35594569962e-02 +1.90951559177e-03 -2.44374210903e-01 +1.90951559177e-03 -2.44374210903e-01 +8.84508527962e-01 +1.35594569962e-02
8.58500000000e+10 +8.84557957304e-01 +1.22680559359e-02 +1.10478125056e-03 -2.44312531670e-01 +1.10478125056e-03 -2.44312531670e-01 +8.84557957304e-01 +1.22680559359e-02
8.62000000000e+10 +8.84598861348e-01 +1.09771192483e-02 +3.00748116653e-04 -2.44255058661e-01 +3.00748116653e-04 -2.44255058661e-01 +8.84598861348e-01 +1.09771192483e-02
8.65500000000e+10 +8.84631251609e-01 +9.68663027781e-03 -5.02687766376e-04 -2.44201789300e-01 -5.02687766376e-04 -2.44201789300e-01 +8.84631251609e-01 +9.68663027781e-03
8.69000000000e+10 +8.84655138059e-01 +8.39657234639e-03 -1.30563015114e-03 -2.44152720673e-01 -1.30563015114e-03 -2.44152720673e-01 +8.84655138059e-01 +8.39657234639e-03
8.72500000000e+10 +8.84670529133e-01 +7.10692876858e-03 -2.10818261100e-03 -2.44107849527e-01 -2.10818261100e-03 -2.44107849527e-01 +8.84670529133e-01 +7.10692876858e-03
8.76000000000e+10 +8.84677431729e-01 +5.81768286743e-03 -2.91044856457e-03 -2.44067172274e-01 -2.91044856457e-03 -2.44067172274e-01 +8.84677431729e-01 +5.81768286743e-03
8.79500000000e+10 +8.84675851217e-01 +4.52881798996e-03 -3.71253130014e-03 -2.44030684988e-01 -3.71253130014e-03 -2.44030684988e-01 +8.84675851217e-01 +4.52881798996e-03
8.83000000000e+10 +8.84665791433e-01 +3.24031752273e-03 -4.51453400006e-03 -2.43998383408e-01 -4.51453400006e-03 -2.43998383408e-01 +8.84665791433e-01 +3.24031752273e-03
8.86500000000e+10 +8.84647254692e-01 +1.95216490731e-03 -5.31655976505e-03 -2.43970262939e-01 -5.31655976505e-03 -2.43970262939e-01 +8.84647254692e-01 +1.95216490731e-03
8.90000000000e+10 +8.84620241779e-01 +6.64343655810e-04 -6.11871163847e-03 -2.43946318648e-01 -6.11871163847e-03 -2.43946318648e-01 +8.84620241779e-01 +6.64343655810e-04
8.93500000000e+10 +8.84584751958e-01 -6.23162633662e-04 -6.92109263046e-03 -2.43926545264e-01 -6.92109263046e-03 -2.43926545264e-01 +8.84584751958e-01 -6.23162633662e-04
8.97000000000e+10 +8.84540782972e-01 -1.91037026145e-03 -7.72380574219e-03 -2.43910937178e-01 -7.72380574219e-03 -2.43910937178e-01 +8.84540782972e-01 -1.91037026145e-03
9.00500000000e+10 +8.84488331040e-01 -3.19729541078e-03 -8.52695398991e-03 -2.43899488437e-01 -8.52695398991e-03 -2.43899488437e-01 +8.84488331040e-01 -3.19729541078e-03
9.04000000000e+10 +8.84427390863e-01 -4.48395413217e-03 -9.33064042903e-03 -2.43892192746e-01 -9.33064042903e-03 -2.43892192746e-01 +8.84427390863e-01 -4.48395413217e-03
9.07500000000e+10 +8.84357955618e-01 -5.77036232769e-03 -1.01349681782e-02 -2.43889043461e-01 -1.01349681782e-02 -2.43889043461e-01 +8.84357955618e-01 -5.77036232769e-03
9.11000000000e+10 +8.84280016964e-01 -7.05653573523e-03 -1.09400404434e-02 -2.43890033585e-01 -1.09400404434e-02 -2.43890033585e-01 +8.84280016964e-01 -7.05653573523e-03
9.14500000000e+10 +8.84193565034e-01 -8.34248991259e-03 -1.17459605417e-02 -2.43895155767e-01 -1.17459605417e-02 -2.43895155767e-01 +8.84193565034e-01 -8.34248991259e-03
9.18000000000e+10 +8.84098588442e-01 -9.62824022148e-03 -1.25528319255e-02 -2.43904402295e-01 -1.25528319255e-02 -2.43904402295e-01 +8.84098588442e-01 -9.62824022148e-03
9.21500000000e+10 +8.83995074273e-01 -1.09138018114e-02 -1.33607582063e-02 -2.43917765088e-01 -1.33607582063e-02 -2.43917765088e-01 +8.83995074273e-01 -1.09138018114e-02
9.25000000000e+10 +8.83883008090e-01 -1.21991896032e-02 -1.41698431789e-02 -2.43935235697e-01 -1.41698431789e-02 -2.43935235697e-01 +8.83883008090e-01 -1.21991896032e-02
9.28500000000e+10 +8.83762373923e-01 -1.34844182730e-02 -1.49801908451e-02 -2.43956805292e-01 -1.49801908451e-02 -2.43956805292e-01 +8.83762373923e-01 -1.34844182730e-02
9.32000000000e+10 +8.83633154274e-01 -1.47695022351e-02 -1.57919054377e-02 -2.43982464656e-01 -1.57919054377e-02 -2.43982464656e-01 +8.83633154274e-01 -1.47695022351e-02
9.35500000000e+10 +8.83495330109e-01 -1.60544556253e-02 -1.66050914445e-02 -2.44012204182e-01 -1.66050914445e-02 -2.44012204182e-01 +8.83495330109e-01 -1.60544556253e-02
9.39000000000e+10 +8.83348880855e-01 -1.73392922839e-02 -1.74198536322e-02 -2.44046013859e-01 -1.74198536322e-02 -2.44046013859e-01 +8.83348880855e-01 -1.73392922839e-02
9.42500000000e+10 +8.83193784401e-01 -1.86240257386e-02 -1.82362970706e-02 -2.44083883269e-01 -1.82362970706e-02 -2.44083883269e-01 +8.83193784401e-01 -1.86240257386e-02
9.46000000000e+10 +8.83030017087e-01 -1.99086691863e-02 -1.90545271560e-02 -2.44125801572e-01 -1.90545271560e-02 -2.44125801572e-01 +8.83030017087e-01 -1.99086691863e-02
9.49500000000e+10 +8.82857553706e-01 -2.11932354759e-02 -1.98746496359e-02 -2.44171757501e-01 -1.98746496359e-02 -2.44171757501e-01 +8.82857553706e-01 -2.11932354759e-02
9.53000000000e+10 +8.82676367495e-01 -2.24777370900e-02 -2.06967706326e-02 -2.44221739349e-01 -2.06967706326e-02 -2.44221739349e-01 +8.82676367495e-01 -2.24777370900e-02
9.56500000000e+10 +8.82486430131e-01 -2.37621861264e-02 -2.15209966670e-02 -2.44275734959e-01 -2.15209966670e-02 -2.44275734959e-01 +8.82486430131e-01 -2.37621861264e-02
9.60000000000e+10 +8.82287711727e-01 -2.50465942793e-02 -2.23474346833e-02 -2.44333731713e-01 -2.23474346833e-02 -2.44333731713e-01 +8.82287711727e-01 -2.50465942793e-02
9.63500000000e+10 +8.82080180825e-01 -2.63309728206e-02 -2.31761920725e-02 -2.44395716518e-01 -2.31761920725e-02 -2.44395716518e-01 +8.82080180825e-01 -2.63309728206e-02
9.67000000000e+10 +8.81863804387e-01 -2.76153325800e-02 -2.40073766969e-02 -2.44461675796e-01 -2.40073766969e-02 -2.44461675796e-01 +8.81863804387e-01 -2.76153325800e-02
9.70500000000e+10 +8.81638547796e-01 -2.88996839254e-02 -2.48410969138e-02 -2.44531595467e-01 -2.48410969138e-02 -2.44531595467e-01 +8.81638547796e-01 -2.88996839254e-02
9.74000000000e+10 +8.81404374840e-01 -3.01840367428e-02 -2.56774616001e-02 -2.44605460940e-01 -2.56774616001e-02 -2.44605460940e-01 +8.81404374840e-01 -3.01840367428e-02
9.77500000000e+10 +8.81161247714e-01 -3.14684004154e-02 -2.65165801764e-02 -2.44683257092e-01 -2.65165801764e-02 -2.44683257092e-01 +8.81161247714e-01 -3.14684004154e-02
9.81000000000e+10 +8.80909127004e-01 -3.27527838026e-02 -2.73585626311e-02 -2.44764968259e-01 -2.73585626311e-02 -2.44764968259e-01 +8.80909127004e-01 -3.27527838026e-02
9.84500000000e+10 +8.80647971684e-01 -3.40371952189e-02 -2.82035195445e-02 -2.44850578214e-01 -2.82035195445e-02 -2.44850578214e-01 +8.80647971684e-01 -3.40371952189e-02
9.88000000000e+10 +8.80377739110e-01 -3.53216424111e-02 -2.90515621138e-02 -2.44940070158e-01 -2.90515621138e-02 -2.44940070158e-01 +8.80377739110e-01 -3.53216424111e-02
9.91500000000e+10 +8.80098385004e-01 -3.66061325365e-02 -2.99028021768e-02 -2.45033426693e-01 -2.99028021768e-02 -2.45033426693e-01 +8.80098385004e-01 -3.66061325365e-02
9.95000000000e+10 +8.79809863453e-01 -3.78906721395e-02 -3.07573522363e-02 -2.45130629812e-01 -3.07573522363e-02 -2.45130629812e-01 +8.79809863453e-01 -3.78906721395e-02
9.98500000000e+10 +8.79512126894e-01 -3.91752671283e-02 -3.16153254850e-02 -2.45231660876e-01 -3.16153254850e-02 -2.45231660876e-01 +8.79512126894e-01 -3.91752671283e-02
1.00200000000e+11 +8.79205126112e-01 -4.04599227506e-02 -3.24768358296e-02 -2.45336500596e-01 -3.24768358296e-02 -2.45336500596e-01 +8.79205126112e-01 -4.04599227506e-02
1.00550000000e+11 +8.78888810220e-01 -4.17446435688e-02 -3.33419979155e-02 -2.45445129012e-01 -3.33419979155e-02 -2.45445129012e-01 +8.78888810220e-01 -4.17446435688e-02
1.00900000000e+11 +8.78563126658e-01 -4.30294334349e-02 -3.42109271508e-02 -2.45557525472e-01 -3.42109271508e-02 -2.45557525472e-01 +8.78563126658e-01 -4.30294334349e-02
1.01250000000e+11 +8.78228021179e-01 -4.43142954645e-02 -3.50837397318e-02 -2.45673668609e-01 -3.50837397318e-02 -2.45673668609e-01 +8.78228021179e-01 -4.43142954645e-02
1.01600000000e+11 +8.77883437839e-01 -4.55992320101e-02 -3.59605526667e-02 -2.45793536320e-01 -3.59605526667e-02 -2.45793536320e-01 +8.77883437839e-01 -4.55992320101e-02
1.01950000000e+11 +8.77529318986e-01 -4.68842446339e-02 -3.68414838008e-02 -2.45917105744e-01 -3.68414838008e-02 -2.45917105744e-01 +8.77529318986e-01 -4.68842446339e-02
1.02300000000e+11 +8.77165605248e-01 -4.81693340798e-02 -3.77266518409e-02 -2.46044353231e-01 -3.77266518409e-02 -2.46044353231e-01 +8.77165605248e-01 -4.81693340798e-02
1.02650000000e+11 +8.76792235526e-01 -4.94545002445e-02 -3.86161763799e-02 -2.46175254326e-01 -3.86161763799e-02 -2.46175254326e-01 +8.76792235526e-01 -4.94545002445e-02
1.03000000000e+11 +8.76409146975e-01 -5.07397421484e-02 -3.95101779218e-02 -2.46309783733e-01 -3.95101779218e-02 -2.46309783733e-01 +8.76409146975e-01 -5.07397421484e-02
1.03350000000e+11 +8.76016275001e-01 -5.20250579050e-02 -4.04087779059e-02 -2.46447915295e-01 -4.04087779059e-02 -2.46447915295e-01 +8.76016275001e-01 -5.20250579050e-02
1.03700000000e+11 +8.75613553240e-01 -5.33104446899e-02 -4.13120987322e-02 -2.46589621964e-01 -4.13120987322e-02 -2.46589621964e-01 +8.75613553240e-01 -5.33104446899e-02
1.04050000000e+11 +8.75200913553e-01 -5.45958987090e-02 -4.22202637853e-02 -2.46734875770e-01 -4.22202637853e-02 -2.46734875770e-01 +8.75200913553e-01 -5.45958987090e-02
1.04400000000e+11 +8.74778286011e-01 -5.58814151656e-02 -4.31333974597e-02 -2.46883647794e-01 -4.31333974597e-02 -2.46883647794e-01 +8.74778286011e-01 -5.58814151656e-02
1.04750000000e+11 +8.74345598881e-01 -5.71669882268e-02 -4.40516251843e-02 -2.47035908135e-01 -4.40516251843e-02 -2.47035908135e-01 +8.74345598881e-01 -5.71669882268e-02
1.05100000000e+11 +8.73902778615e-01 -5.84526109889e-02 -4.49750734469e-02 -2.47191625877e-01 -4.49750734469e-02 -2.47191625877e-01 +8.73902778615e-01 -5.84526109889e-02
1.05450000000e+11 +8.73449749835e-01 -5.97382754416e-02 -4.59038698191e-02 -2.47350769059e-01 -4.59038698191e-02 -2.47350769059e-01 +8.73449749835e-01 -5.97382754416e-02
1.05800000000e+11 +8.72986435323e-01 -6.10239724319e-02 -4.68381429807e-02 -2.47513304637e-01 -4.68381429807e-02 -2.47513304637e-01 +8.72986435323e-01 -6.10239724319e-02
1.06150000000e+11 +8.72512756005e-01 -6.23096916261e-02 -4.77780227441e-02 -2.47679198452e-01 -4.77780227441e-02 -2.47679198452e-01 +8.72512756005e-01 -6.23096916261e-02
1.06500000000e+11 +8.72028630939e-01 -6.35954214714e-02 -4.87236400793e-02 -2.47848415191e-01 -4.87236400793e-02 -2.47848415191e-01 +8.72028630939e-01 -6.35954214714e-02
1.06850000000e+11 +8.71533977300e-01 -6.48811491562e-02 -4.96751271376e-02 -2.48020918351e-01 -4.96751271376e-02 -2.48020918351e-01 +8.71533977300e-01 -6.48811491562e-02
1.07200000000e+11 +8.71028710368e-01 -6.61668605691e-02 -5.06326172765e-02 -2.48196670199e-01 -5.06326172765e-02 -2.48196670199e-01 +8.71028710368e-01 -6.61668605691e-02
1.07550000000e+11 +8.70512743513e-01 -6.74525402571e-02 -5.15962450836e-02 -2.48375631731e-01 -5.15962450836e-02 -2.48375631731e-01 +8.70512743513e-01 -6.74525402571e-02
1.07900000000e+11 +8.69985988183e-01 -6.87381713825e-02 -5.25661464006e-02 -2.48557762632e-01 -5.25661464006e-02 -2.48557762632e-01 +8.69985988183e-01 -6.87381713825e-02
1.08250000000e+11 +8.69448353887e-01 -7.00237356780e-02 -5.35424583476e-02 -2.48743021234e-01 -5.35424583476e-02 -2.48743021234e-01 +8.69448353887e-01 -7.00237356780e-02
1.08600000000e+11 +8.68899748185e-01 -7.13092134016e-02 -5.45253193464e-02 -2.48931364468e-01 -5.45253193464e-02 -2.48931364468e-01 +8.68899748185e-01 -7.13092134016e-02
1.08950000000e+11 +8.68340076671e-01 -7.25945832894e-02 -5.55148691447e-02 -2.49122747825e-01 -5.55148691447e-02 -2.49122747825e-01 +8.68340076671e-01 -7.25945832894e-02
1.09300000000e+11 +8.67769242961e-01 -7.38798225074e-02 -5.65112488390e-02 -2.49317125301e-01 -5.65112488390e-02 -2.49317125301e-01 +8.67769242961e-01 -7.38798225074e-02
1.09650000000e+11 +8.67187148679e-01 -7.51649066013e-02 -5.75146008980e-02 -2.49514449355e-01 -5.75146008980e-02 -2.49514449355e-01 +8.67187148679e-01 -7.51649066013e-02
1.10000000000e+11 +8.66593693444e-01 -7.64498094461e-02 -5.85250691857e-02 -2.49714670857e-01 -5.85250691857e-02 -2.49714670857e-01 +8.66593693444e-01 -7.64498094461e-02
