<Qucs Dataset 0.0.19>
<indep frequency 100>
  +2.00000000000000000000e+008
  +4.00000000000000000000e+008
  +6.00000000000000000000e+008
  +8.00000000000000000000e+008
  +1.00000000000000000000e+009
  +1.20000000000000000000e+009
  +1.40000000000000000000e+009
  +1.60000000000000000000e+009
  +1.80000000000000000000e+009
  +2.00000000000000000000e+009
  +2.20000000000000000000e+009
  +2.40000000000000000000e+009
  +2.60000000000000000000e+009
  +2.80000000000000000000e+009
  +3.00000000000000000000e+009
  +3.20000000000000000000e+009
  +3.40000000000000000000e+009
  +3.60000000000000000000e+009
  +3.80000000000000000000e+009
  +4.00000000000000000000e+009
  +4.20000000000000000000e+009
  +4.40000000000000000000e+009
  +4.60000000000000000000e+009
  +4.80000000000000000000e+009
  +5.00000000000000000000e+009
  +5.20000000000000000000e+009
  +5.40000000000000000000e+009
  +5.60000000000000000000e+009
  +5.80000000000000000000e+009
  +6.00000000000000000000e+009
  +6.20000000000000000000e+009
  +6.40000000000000000000e+009
  +6.60000000000000000000e+009
  +6.80000000000000000000e+009
  +7.00000000000000000000e+009
  +7.20000000000000000000e+009
  +7.40000000000000000000e+009
  +7.60000000000000000000e+009
  +7.80000000000000000000e+009
  +8.00000000000000000000e+009
  +8.20000000000000000000e+009
  +8.40000000000000000000e+009
  +8.60000000000000000000e+009
  +8.80000000000000000000e+009
  +9.00000000000000000000e+009
  +9.20000000000000000000e+009
  +9.40000000000000000000e+009
  +9.60000000000000000000e+009
  +9.80000000000000000000e+009
  +1.00000000000000000000e+010
  +1.02000000000000000000e+010
  +1.04000000000000000000e+010
  +1.06000000000000000000e+010
  +1.08000000000000000000e+010
  +1.10000000000000000000e+010
  +1.12000000000000000000e+010
  +1.14000000000000000000e+010
  +1.16000000000000000000e+010
  +1.18000000000000000000e+010
  +1.20000000000000000000e+010
  +1.22000000000000000000e+010
  +1.24000000000000000000e+010
  +1.26000000000000000000e+010
  +1.28000000000000000000e+010
  +1.30000000000000000000e+010
  +1.32000000000000000000e+010
  +1.34000000000000000000e+010
  +1.36000000000000000000e+010
  +1.38000000000000000000e+010
  +1.40000000000000000000e+010
  +1.42000000000000000000e+010
  +1.44000000000000000000e+010
  +1.46000000000000000000e+010
  +1.48000000000000000000e+010
  +1.50000000000000000000e+010
  +1.52000000000000000000e+010
  +1.54000000000000000000e+010
  +1.56000000000000000000e+010
  +1.58000000000000000000e+010
  +1.60000000000000000000e+010
  +1.62000000000000000000e+010
  +1.64000000000000000000e+010
  +1.66000000000000000000e+010
  +1.68000000000000000000e+010
  +1.70000000000000000000e+010
  +1.72000000000000000000e+010
  +1.74000000000000000000e+010
  +1.76000000000000000000e+010
  +1.78000000000000000000e+010
  +1.80000000000000000000e+010
  +1.82000000000000000000e+010
  +1.84000000000000000000e+010
  +1.86000000000000000000e+010
  +1.88000000000000000000e+010
  +1.90000000000000000000e+010
  +1.92000000000000000000e+010
  +1.94000000000000000000e+010
  +1.96000000000000000000e+010
  +1.98000000000000000000e+010
  +2.00000000000000000000e+010
</indep>
<dep S21_phi frequency>
  -1.90927633426109910619e-001
  -3.81886501560171010006e-001
  -5.72909037314632385574e-001
  -7.64029313923422992438e-001
  -9.55283220033616875533e-001
  -1.14670809091823411308e+000
  -1.33834187026821571642e+000
  -1.53022199377824130728e+000
  -1.72238425458747701491e+000
  -1.91486191174405884219e+000
  -2.10768523538314012100e+000
  -2.30088156317618341973e+000
  -2.49447580278099501072e+000
  -2.68849119209899045657e+000
  -2.88295005775152368699e+000
  -3.07787431440036751695e+000
  +3.00989978112066269844e+000
  +2.81398082042874220221e+000
  +2.61753487155361197480e+000
  +2.42054515116741564285e+000
  +2.22299803040576371416e+000
  +2.02488323690307359115e+000
  +1.82619338674100406550e+000
  +1.62692286659282236982e+000
  +1.42706630483118046548e+000
  +1.22661705149308697393e+000
  +1.02556617092354374066e+000
  +8.23902397528400665117e-001
  +6.21613307628702593810e-001
  +4.18687651231258561868e-001
  +2.15118433934755048931e-001
  +1.09060308014099407309e-002
  -1.93939556292274245530e-001
  -3.99398145268309467948e-001
  -6.05441089066212745351e-001
  -8.12035330313020331516e-001
  -1.01914925848905024708e+000
  -1.22675925848614286728e+000
  -1.43485546037340472303e+000
  -1.64344514355071780187e+000
  -1.85255256753192565355e+000
  -2.06221465936911929617e+000
  -2.27247286822023486508e+000
  -2.48336243317426941246e+000
  -2.69490110977621322164e+000
  -2.90707987048890448278e+000
  -3.11985806462776471548e+000
  +2.95002041661658465088e+000
  +2.73627748540542592437e+000
  +2.52219826431293414615e+000
  +2.30787193906510834651e+000
  +2.09335932417747683232e+000
  +1.87867927963042991024e+000
  +1.66380265466997734336e+000
  +1.44865573116237422724e+000
  +1.23313329311638142372e+000
  +1.01711952669335681243e+000
  +8.00513263477011793867e-001
  +5.83252856059171653769e-001
  +3.65335449234483966574e-001
  +1.46825841011744007147e-001
  -7.21482784194692056134e-002
  -2.91415210278766600993e-001
  -5.10789414051567192132e-001
  -7.30107067839387169350e-001
  -9.49259393278454433052e-001
  -1.16821632022179611177e+000
  -1.38703512433155351502e+000
  -1.60585185611766267932e+000
  -1.82485676299124066624e+000
  -2.04425780464481920973e+000
  -2.26423850575270835250e+000
  -2.48491774322296521404e+000
  -2.70631951027614414684e+000
  -2.92835986140733339766e+000
  +3.13232965092286486097e+000
  +2.90962998920888615828e+000
  +2.68699889563385774238e+000
  +2.46467519580819383052e+000
  +2.24281491187204551352e+000
  +2.02145830856719843638e+000
  +1.80052008200880209188e+000
  +1.57980430555055373354e+000
  +1.35904092556357536381e+000
  +1.13793713511791638737e+000
  +9.16234828690312252952e-001
  +6.93764168650513601833e-001
  +4.70482993834942408995e-001
  +2.46492914849793687271e-001
  +2.20263179824939578366e-002
  -2.02595569882658949057e-001
  -4.27026034464076387209e-001
  -6.50963839851751435717e-001
  -8.74215498517232902920e-001
  -1.09673496221796762384e+000
  -1.31863300423799434391e+000
  -1.54015577169864248397e+000
  -1.76163785346578283253e+000
  -1.98343880966373853347e+000
  -2.20587390302020969202e+000
</dep>
<dep S21_dB frequency>
  -1.77252073531409468088e-002
  -3.31642291183609563832e-002
  -4.82665782443776059107e-002
  -6.31806916501196635938e-002
  -7.79385666628064771588e-002
  -9.25446401287814413017e-002
  -1.07003104798492690297e-001
  -1.21328450672559484680e-001
  -1.35547342343636911810e-001
  -1.49694863427622115726e-001
  -1.63807610484889232261e-001
  -1.77916221027279414235e-001
  -1.92039740151082327646e-001
  -2.06183541016922156075e-001
  -2.20341396615698847938e-001
  -2.34501015053250827513e-001
  -2.48651241229094793761e-001
  -2.62788517064568072357e-001
  -2.76920287205770276895e-001
  -2.91063861422932612655e-001
  -3.05240618331801549790e-001
  -3.19467003201220345332e-001
  -3.33745086235102406125e-001
  -3.48056076584500773130e-001
  -3.62359844605233960557e-001
  -3.76602148828868443786e-001
  -3.90729143026462499844e-001
  -4.04706356528614086265e-001
  -4.18537345785683412291e-001
  -4.32276238788337707764e-001
  -4.46028883763281425168e-001
  -4.59939395677093965098e-001
  -4.74162294663009464823e-001
  -4.88824473441935858364e-001
  -5.03984931295727744960e-001
  -5.19602479697678143467e-001
  -5.35521559572008309935e-001
  -5.51483519498723540053e-001
  -5.67165514563376382817e-001
  -5.82242636762024923236e-001
  -5.96462481794500121168e-001
  -6.09716659526178372808e-001
  -6.22092018849574990291e-001
  -6.33886289322055374029e-001
  -6.45578516366335342092e-001
  -6.57753483025053653499e-001
  -6.70989916959266130547e-001
  -6.85732533540122757287e-001
  -7.02175147407789079779e-001
  -7.20183574841691265256e-001
  -7.39281360674933663013e-001
  -7.58709063047846465899e-001
  -7.77551696543767656422e-001
  -7.94913071370675128335e-001
  -8.10104071632721911556e-001
  -8.22806811140783245229e-001
  -8.33178709929031313663e-001
  -8.41869248544109716192e-001
  -8.49936450505997420635e-001
  -8.58668762106186367333e-001
  -8.69338832963111429741e-001
  -8.82934888167336118237e-001
  -8.99927290130053458839e-001
  -9.20126857917273666132e-001
  -9.42674976831983091330e-001
  -9.66176528959701963473e-001
  -9.88953499622101217525e-001
  -1.00936968902136414705e+000
  -1.02616220522055634490e+000
  -1.03871481253188435723e+000
  -1.04721891322518478873e+000
  -1.05268604002372700990e+000
  -1.05679890773749995958e+000
  -1.06161569651437526218e+000
  -1.06917300945747273389e+000
  -1.08106184012201067546e+000
  -1.09806838956599706059e+000
  -1.11996727484902369731e+000
  -1.14552413755683080154e+000
  -1.17271473642534851400e+000
  -1.19911485438090958944e+000
  -1.22237745317469803652e+000
  -1.24069987580398533034e+000
  -1.25319253011949083287e+000
  -1.26008253168637551767e+000
  -1.26271304470843870327e+000
  -1.26332865587739329172e+000
  -1.26467063878842433944e+000
  -1.26944430713867206784e+000
  -1.27975819370555554677e+000
  -1.29665775637266311726e+000
  -1.31986872315045333792e+000
  -1.34782044453871963086e+000
  -1.37794906930614180496e+000
  -1.40720981975552783538e+000
  -1.43268255646860431796e+000
  -1.45214570967504741361e+000
  -1.46451335233189516849e+000
  -1.47006312233138869416e+000
  -1.47041690277469783155e+000
</dep>
<dep S11_phi frequency>
  -1.77225473780023001780e+000
  -1.96214110573443822894e+000
  -2.15225755280313180151e+000
  -2.34235280853617577890e+000
  -2.53236810088339447944e+000
  -2.72227337686840975550e+000
  -2.91203226282263649694e+000
  -3.10158183376960217004e+000
  +2.99237729567026367050e+000
  +2.80368205501908063226e+000
  +2.61590522735353969708e+000
  +2.42981810112273688418e+000
  +2.24714532473724259987e+000
  +2.07259748503244711770e+000
  +1.92500736807896677405e+000
  +2.03471610391697277365e+000
  -1.91527832079565984991e+000
  +1.15442428697591470410e+000
  +9.91652196260879414957e-001
  +8.11659933226738128376e-001
  +6.25391003343613971488e-001
  +4.36157596699749849911e-001
  +2.45382617487594878458e-001
  +5.38805147056485092549e-002
  -1.37710381627771966118e-001
  -3.28691849655931178642e-001
  -5.18046417355265353955e-001
  -7.03922820114368685829e-001
  -8.82195130500645352534e-001
  -1.04094317397332325470e+000
  -1.12512429839827121647e+000
  -1.92409826423022844999e-001
  +1.10611063228692785287e+000
  +1.03919393787744152036e+000
  +8.82124835450569411144e-001
  +7.02546571015738474664e-001
  +5.14147174537385676096e-001
  +3.21619548479494532511e-001
  +1.27160688719594350271e-001
  -6.78598760797332889450e-002
  -2.62244864757321283211e-001
  -4.54490976393551127099e-001
  -6.42046268453656421293e-001
  -8.19401967056912261533e-001
  -9.71103537035080899287e-001
  -1.03029604319991774375e+000
  -2.53129297568763678150e-001
  +9.93768773260649829204e-001
  +9.80457522568692896314e-001
  +8.37010513049634807814e-001
  +6.61397590189973016983e-001
  +4.73564168292150977635e-001
  +2.80303665384948885730e-001
  +8.47645708286408339216e-002
  -1.11096855240691474997e-001
  -3.05518722117550767248e-001
  -4.96131170857495029658e-001
  -6.78562229270770700396e-001
  -8.42453049369072282104e-001
  -9.54597731683763606192e-001
  -8.31126047701603809514e-001
  +5.47835099855340734720e-001
  +9.49061703260051792164e-001
  +8.75722154627120441539e-001
  +7.22744592248764194942e-001
  +5.44569958933185049865e-001
  +3.56077477980653978040e-001
  +1.63154621522454829075e-001
  -3.11103533476272085811e-002
  -2.24440145995360940123e-001
  -4.14250499881544775871e-001
  -5.96245841205677362673e-001
  -7.61047561860638932529e-001
  -8.81925066391486045525e-001
  -8.44010849605958402009e-001
  +6.54642001124377814758e-002
  +8.51014033779976641902e-001
  +8.62093301972967518410e-001
  +7.35265647717329495769e-001
  +5.68854960691346112078e-001
  +3.87003211142517622445e-001
  +1.98552224416429418108e-001
  +7.79242390550345404715e-003
  -1.82411332607775061865e-001
  -3.69115441778387176619e-001
  -5.47735536726418392739e-001
  -7.08709537316109861038e-001
  -8.26350257004680344153e-001
  -8.02936284769530383976e-001
  -1.27619197109330367867e-001
  +7.44791266463339707293e-001
  +8.26727349397751276605e-001
  +7.24273630068171136998e-001
  +5.69720959673226223785e-001
  +3.95173466056589983708e-001
  +2.12079198888295017422e-001
  +2.58208891329289765004e-002
  -1.60165157110551931163e-001
  -3.42528330150728976822e-001
  -5.16252858882621290526e-001
</dep>
<dep S11_dB frequency>
  -4.98275208807873610795e+001
  -4.40716725742351229655e+001
  -4.09850191806245973680e+001
  -3.90992942428934071586e+001
  -3.79630010085840652323e+001
  -3.73856382906966402402e+001
  -3.72787770860773761683e+001
  -3.76064947168597996097e+001
  -3.83680292876718880279e+001
  -3.95941688712241699477e+001
  -4.13534836923986262036e+001
  -4.37719538097987168612e+001
  -4.70815058166880646695e+001
  -5.17531426915679162448e+001
  -5.89834907418411091840e+001
  -7.43348022284353362465e+001
  -7.65630607397679199266e+001
  -7.37758265822299392767e+001
  -5.82626307458136523110e+001
  -5.09307389526696070448e+001
  -4.61187536535759647904e+001
  -4.26639515437694143429e+001
  -4.01119311487212684142e+001
  -3.82441566068268130607e+001
  -3.69501269903998164068e+001
  -3.61832435614907836907e+001
  -3.59481286335299472512e+001
  -3.63091121591357932630e+001
  -3.74314252010345285271e+001
  -3.97179786517687105629e+001
  -4.43977058134502726716e+001
  -5.58848065504473012766e+001
  -4.38784876388423725757e+001
  -3.74348923726654732036e+001
  -3.36176638318185680987e+001
  -3.10018996922755718515e+001
  -2.91283704884298586535e+001
  -2.77990255700403352535e+001
  -2.69190048787216831272e+001
  -2.64469757096807320806e+001
  -2.63785330522608383319e+001
  -2.67450788349289751977e+001
  -2.76270321938067375811e+001
  -2.91943884494187280154e+001
  -3.18290711152453873467e+001
  -3.65958835375791196043e+001
  -4.59688571924517503930e+001
  -3.75020132655614659711e+001
  -3.14221705859227320445e+001
  -2.78973134541369560679e+001
  -2.55696089942241258086e+001
  -2.39815735099991975687e+001
  -2.29360332841120460046e+001
  -2.23406297525537027582e+001
  -2.21586953622976423617e+001
  -2.23938400939832114034e+001
  -2.30915696902583000849e+001
  -2.43592175974104918623e+001
  -2.64255638109829540383e+001
  -2.98284553701505927847e+001
  -3.60689830317561259676e+001
  -3.89665232238913645801e+001
  -3.10364541067182528877e+001
  -2.66060719828223533057e+001
  -2.38531583106280464790e+001
  -2.20306260337189705467e+001
  -2.08396860934906129614e+001
  -2.01429542863027997157e+001
  -1.98790146183253710888e+001
  -2.00340298855374001619e+001
  -2.06362627147227968294e+001
  -2.17677956716113669700e+001
  -2.36048028296399508008e+001
  -2.65350551608295077699e+001
  -3.15054678202511198037e+001
  -3.72457375267856463097e+001
  -3.07177114125638865971e+001
  -2.57998417814576725959e+001
  -2.28001134616492642238e+001
  -2.08451201659363789531e+001
  -1.95756789635355481494e+001
  -1.88271645658250079691e+001
  -1.85235242722388413483e+001
  -1.86411377996690958980e+001
  -1.91993475515447329371e+001
  -2.02680989185157933719e+001
  -2.19994443864324509263e+001
  -2.47153273463296301315e+001
  -2.91238370772528263331e+001
  -3.46592168280824424187e+001
  -3.01058135173378893512e+001
  -2.51436697173145091710e+001
  -2.20593110039649822340e+001
  -2.00545805417324807252e+001
  -1.87563267881774820012e+001
  -1.79896632918138728030e+001
  -1.76720971555752299764e+001
  -1.77752863385196455681e+001
  -1.83139145096721591699e+001
  -1.93511208846560336383e+001
</dep>
<dep S[1,1] frequency>
  -6.45457571718057549967e-004-j3.16046264628840794034e-003
  -2.38689517994750523625e-003-j5.78462056474094918346e-003
  -4.90360678336016972412e-003-j7.46069283277347918698e-003
  -7.73436989055735577697e-003-j7.95150261138057902477e-003
  -1.03684186574667779740e-002-j7.23472217043925891478e-003
  -1.23413613782974041638e-002-j5.50123978709973066037e-003
  -1.33203606983843050870e-002-j3.11269789278404004559e-003
  -1.31621715770197187517e-002-j5.26910476392962196651e-004
  -1.19328904934391175074e-002+j1.79390422299047897457e-003
  -9.88576237393265500053e-003+j3.47373592691186750328e-003
  -7.40169993240577094723e-003+j4.29401111877601021627e-003
  -4.90473097655990102756e-003+j4.23091391082170819454e-003
  -2.76990132066901257116e-003+j3.45098576361789434117e-003
  -1.24306214227200739937e-003+j2.26570101483576603549e-003
  -3.89913057095547072820e-004+j1.05436616166585577295e-003
  -8.59035691147964615508e-005+j1.71690300760494991101e-004
  -5.01637263038710165737e-005-j1.39814492135542617996e-004
  +8.28072338697067445020e-005+j1.87250053317959203525e-004
  +6.68498022215234435212e-004+j1.02225281368220773624e-003
  +1.95540986962099627364e-003+j2.06090978686279853449e-003
  +4.00812128941919251085e-003+j2.89418079345646773320e-003
  +6.66981071166562571040e-003+j3.10876521272331627146e-003
  +9.57624121118645296735e-003+j2.39817085531056177483e-003
  +1.22225398557686531359e-002+j6.59194766877352735304e-004
  +1.40722180469685740484e-002-j1.95023431017814457937e-003
  +1.46873207107557600393e-002-j5.00931480110469555533e-003
  +1.38518408050044145030e-002-j7.89514347431359564400e-003
  +1.16593819523100571123e-002-j9.89900776719189121056e-003
  +8.54113158104173077201e-003-j1.03782073874532192181e-002
  +5.22085950596059243656e-003-j8.91357911056963811425e-003
  +2.59810578354950421839e-003-j5.43845903694209053397e-003
  +1.57641459905992964083e-003-j3.07117028462483706523e-004
  +2.86741872590955517233e-003+j5.71998515328410363917e-003
  +6.81068403938427189420e-003+j1.15813872264865849737e-002
  +1.32507534491667685467e-002+j1.60984953628630564348e-002
  +2.15051710267040105395e-002+j1.82073741795336675742e-002
  +3.04408118579974421025e-002+j1.71934624121441795297e-002
  +3.86535100183440019639e-002+j1.28788770978495378805e-002
  +4.47228030970817022616e-002+j5.71783454157445171495e-003
  +4.74952842461545537978e-002-j3.22798053520302130961e-003
  +4.63409827554285280726e-002-j1.24391575497011953183e-002
  +4.13291715695663086638e-002-j2.01936835134606598730e-002
  +3.32821621038252024594e-002-j2.48860473733216389092e-002
  +2.36855772973689100713e-002-j2.53537437348738785292e-002
  +1.44585554308118459377e-002-j2.11479501344759186765e-002
  +7.61458233338434438420e-003-j1.26886470392109183131e-002
  +4.86958979695698186696e-003-j1.25965537896101441133e-003
  +7.27314252556348923157e-003+j1.11734919314021349107e-002
  +1.49440339675633616923e-002+j2.23029821203968407761e-002
  +2.69777365270466376601e-002+j2.99168078411809444661e-002
  +4.15595294523745176218e-002+j3.23477250556210779719e-002
  +5.62712008383994197191e-002+j2.88366201244658650060e-002
  +6.85344342414112572826e-002+j1.97299073857793334785e-002
  +7.61038154258926319295e-002+j6.46640177867646107762e-003
  +7.75138946076890378301e-002-j8.64715510557052639828e-003
  +7.23961889416133569375e-002-j2.28332841052095829315e-002
  +6.16060252698713353703e-002-j3.33467003160008088058e-002
  +4.71285777950091536170e-002-j3.79991199377578414698e-002
  +3.17656260959118183496e-002-j3.56141483292532479155e-002
  +1.86405102873478910330e-002-j2.63215020501600116543e-002
  +1.05983765274708149201e-002-j1.16148489243508099694e-002
  +9.61514335748651395586e-003+j5.86649198639833339280e-003
  +1.63468096406309236490e-002+j2.28138218543495127633e-002
  +2.99348082959164790706e-002+j3.58972456844383822072e-002
  +4.81281741192103734717e-002+j4.24459450153754497270e-002
  +6.77037361856627772916e-002+j4.10053601008736820499e-002
  +8.50904991731716575654e-002+j3.16478088692098077916e-002
  +9.70613039351838485791e-002+j1.59780278805088590821e-002
  +1.01353574148588712611e-001-j3.15416316037242820333e-003
  +9.71106762163518877351e-002-j2.21690334943468354834e-002
  +8.50758766093126367336e-002-j3.74073546731490610973e-002
