# HZ S RI R 50
2.00000000000000000000e+008 -6.72633240153144395905e-004 -3.23441026881317360633e-003 +9.79104901925084813996e-001 -1.92804145613447358576e-001 +9.79104901925084813996e-001 -1.92804145613447358576e-001 -6.72633240153144395905e-004 -3.23441026881317360633e-003
4.00000000000000000000e+008 -2.51336806862850542163e-003 -5.97133002051386963666e-003 +9.21713291698375347671e-001 -3.77653481447606464982e-001 +9.21713291698375347671e-001 -3.77653481447606464982e-001 -2.51336806862850542163e-003 -5.97133002051386963666e-003
6.00000000000000000000e+008 -5.25246632678284895018e-003 -7.81234483834003772679e-003 +8.29882449729477333911e-001 -5.47646352443183603853e-001 +8.29882449729477333911e-001 -5.47646352443183603853e-001 -5.25246632678284895018e-003 -7.81234483834003772679e-003
8.00000000000000000000e+008 -8.48827617941001234814e-003 -8.48982747869599617407e-003 +7.07160027871708285474e-001 -6.96447677652465069187e-001 +7.07160027871708285474e-001 -6.96447677652465069187e-001 -8.48827617941001234814e-003 -8.48982747869599617407e-003
1.00000000000000000000e+009 -1.17483886942867307712e-002 -7.90547073187680866824e-003 +5.58252713520247412227e-001 -8.18536637362020536024e-001 +5.58252713520247412227e-001 -8.18536637362020536024e-001 -1.17483886942867307712e-002 -7.90547073187680866824e-003
1.20000000000000000000e+009 -1.45576533485261630507e-002 -6.14442433315349600259e-003 +3.88835765478754535884e-001 -9.09410974360718271647e-001 +3.88835765478754535884e-001 -9.09410974360718271647e-001 -1.45576533485261630507e-002 -6.14442433315349600259e-003
1.40000000000000000000e+009 -1.65065381061065552526e-002 -3.46338145624423658642e-003 +2.05335179461134775813e-001 -9.65750265996546231051e-001 +2.05335179461134775813e-001 -9.65750265996546231051e-001 -1.65065381061065552526e-002 -3.46338145624423658642e-003
1.60000000000000000000e+009 -1.73103690106330976306e-002 -2.54257608198635363765e-004 +1.46858867562865216816e-002 -9.85534224384295387544e-001 +1.46858867562865216816e-002 -9.85534224384295387544e-001 -1.73103690106330976306e-002 -2.54257608198635363765e-004
1.80000000000000000000e+009 -1.68511384138538659883e-002 +3.01156869365943203470e-003 -1.75926117623110167543e-001 -9.68113181695997138121e-001 -1.75926117623110167543e-001 -9.68113181695997138121e-001 -1.68511384138538659883e-002 +3.01156869365943203470e-003
2.00000000000000000000e+009 -1.51958956527408449444e-002 +5.85079373402465005571e-003 -3.59329185807766626759e-001 -9.14229301131330829300e-001 -3.59329185807766626759e-001 -9.14229301131330829300e-001 -1.51958956527408449444e-002 +5.85079373402465005571e-003
2.20000000000000000000e+009 -1.25888827824540468908e-002 +7.83814972039592605668e-003 -5.28630436697947514446e-001 -8.25988279315780671297e-001 -5.28630436697947514446e-001 -8.25988279315780671297e-001 -1.25888827824540468908e-002 +7.83814972039592605668e-003
2.40000000000000000000e+009 -9.41815219715576475157e-003 +8.66896149850346180166e-003 -6.77470740465445531164e-001 -7.06782399355915913475e-001 -6.77470740465445531164e-001 -7.06782399355915913475e-001 -9.41815219715576475157e-003 +8.66896149850346180166e-003
2.60000000000000000000e+009 -6.16095384537580694623e-003 +8.20530797910646453319e-003 -8.00261861464218848816e-001 -5.61166902852841431582e-001 -8.00261861464218848816e-001 -5.61166902852841431582e-001 -6.16095384537580694623e-003 +8.20530797910646453319e-003
2.80000000000000000000e+009 -3.31524659500303294640e-003 +6.49887741754018484486e-003 -8.92397387122419893934e-001 -3.94692932358270409665e-001 -8.92397387122419893934e-001 -3.94692932358270409665e-001 -3.31524659500303294640e-003 +6.49887741754018484486e-003
3.00000000000000000000e+009 -1.32684480507595488688e-003 +3.78670632696236769688e-003 -9.50429263201594598520e-001 -2.13701846328454181378e-001 -9.50429263201594598520e-001 -2.13701846328454181378e-001 -1.32684480507595488688e-003 +3.78670632696236769688e-003
3.20000000000000000000e+009 -5.22618169837390329421e-004 +4.59742833184596094969e-004 -9.72202323811343194215e-001 -2.50875021850806255441e-002 -9.72202323811343194215e-001 -2.50875021850806255441e-002 -5.22618169837390329421e-004 +4.59742833184596094969e-004
3.40000000000000000000e+009 -1.05962402551523717127e-003 -2.99191254507988118813e-003 -9.56940342052701176101e-001 +1.63965019445767440365e-001 -9.56940342052701176101e-001 +1.63965019445767440365e-001 -1.05962402551523717127e-003 -2.99191254507988118813e-003
3.60000000000000000000e+009 -2.89806126354165242975e-003 -6.04971657876882725619e-003 -9.05278930595789121938e-001 +3.46254082764103798819e-001 -9.05278930595789121938e-001 +3.46254082764103798819e-001 -2.89806126354165242975e-003 -6.04971657876882725619e-003
3.80000000000000000000e+009 -5.80270598168237863174e-003 -8.24338624046218847174e-003 -8.19243036679125125055e-001 +5.14838192718217291244e-001 -8.19243036679125125055e-001 +5.14838192718217291244e-001 -5.80270598168237863174e-003 -8.24338624046218847174e-003
4.00000000000000000000e+009 -9.37344110309414405013e-003 -9.22242298952060009232e-003 -7.02169587397553973673e-001 +6.63302920073409407742e-001 -7.02169587397553973673e-001 +6.63302920073409407742e-001 -9.37344110309414405013e-003 -9.22242298952060009232e-003
4.20000000000000000000e+009 -1.31012011312710077715e-002 -8.81168988782192984244e-003 -5.58578711450052778353e-001 +7.86006725836585706801e-001 -5.58578711450052778353e-001 +7.86006725836585706801e-001 -1.31012011312710077715e-002 -8.81168988782192984244e-003
4.40000000000000000000e+009 -1.64417614184472135608e-002 -7.04229693178715955570e-003 -3.93999515849155212965e-001 +8.78295687178969886055e-001 -3.93999515849155212965e-001 +8.78295687178969886055e-001 -1.64417614184472135608e-002 -7.04229693178715955570e-003
4.60000000000000000000e+009 -1.88969105487123006926e-002 -4.15244199919052175973e-003 -2.14758315187099202426e-001 +9.36679101141235759265e-001 -2.14758315187099202426e-001 +9.36679101141235759265e-001 -1.88969105487123006926e-002 -4.15244199919052175973e-003
4.80000000000000000000e+009 -2.00911148506845819994e-002 -5.57145599300850149528e-004 -2.77383317453807481945e-002 +9.58960213512806580738e-001 -2.77383317453807481945e-002 +9.58960213512806580738e-001 -2.00911148506845819994e-002 -5.57145599300850149528e-004
5.00000000000000000000e+009 -1.98320623734391209003e-002 +3.20960236397737491698e-003 +1.59879762244239387314e-001 +9.44318515997589202904e-001 +1.59879762244239387314e-001 +9.44318515997589202904e-001 -1.98320623734391209003e-002 +3.20960236397737491698e-003
5.20000000000000000000e+009 -1.81454620567175206602e-002 +6.57255186042823586617e-003 +3.40887290986874258447e-001 +8.93341884945421660369e-001 +3.40887290986874258447e-001 +8.93341884945421660369e-001 -1.81454620567175206602e-002 +6.57255186042823586617e-003
5.40000000000000000000e+009 -1.52779379276237938651e-002 +9.00178910917986269125e-003 +5.08318276165510396503e-001 +8.08008178051937364650e-001 +5.08318276165510396503e-001 +8.08008178051937364650e-001 -1.52779379276237938651e-002 +9.00178910917986269125e-003
5.60000000000000000000e+009 -1.16663625703169130526e-002 +1.00954821770413653154e-002 +6.55713005644372848302e-001 +6.91616843500684086443e-001 +6.55713005644372848302e-001 +6.91616843500684086443e-001 -1.16663625703169130526e-002 +1.00954821770413653154e-002
5.80000000000000000000e+009 -7.87693241468511926029e-003 +9.64605375419773543311e-003 +7.77366136073835312104e-001 +5.48671883533609849870e-001 +7.77366136073835312104e-001 +5.48671883533609849870e-001 -7.87693241468511926029e-003 +9.64605375419773543311e-003
6.00000000000000000000e+009 -4.52201984426170346815e-003 +7.67896091092071242379e-003 +8.68550748444228193357e-001 +3.84718486855326391449e-001 +8.68550748444228193357e-001 +3.84718486855326391449e-001 -4.52201984426170346815e-003 +7.67896091092071242379e-003
6.20000000000000000000e+009 -2.16663871738249436474e-003 +4.45690372348016023568e-003 +9.25709441684595901734e-001 +2.06137090198152322928e-001 +9.25709441684595901734e-001 +2.06137090198152322928e-001 -2.16663871738249436474e-003 +4.45690372348016023568e-003
6.40000000000000000000e+009 -1.23858584148071426516e-003 +4.47257052831395078649e-004 +9.46603508159461592975e-001 +1.99006647274141447446e-002 +9.46603508159461592975e-001 +1.99006647274141447446e-002 -1.23858584148071426516e-003 +4.47257052831395078649e-004
6.60000000000000000000e+009 -1.95649166291925885597e-003 -3.74383910618816210386e-003 +9.30411909694703886942e-001 -1.66696489479946530210e-001 +9.30411909694703886942e-001 -1.66696489479946530210e-001 -1.95649166291925885597e-003 -3.74383910618816210386e-003
6.80000000000000000000e+009 -4.28792615387179124053e-003 -7.46183673381523807772e-003 +8.77773474187320101869e-001 -3.46327608329553227051e-001 +8.77773474187320101869e-001 -3.46327608329553227051e-001 -4.28792615387179124053e-003 -7.46183673381523807772e-003
7.00000000000000000000e+009 -7.94552273528200889152e-003 -1.01053336456919246045e-002 +7.90768519075564335630e-001 -5.11927094856061914996e-001 +7.90768519075564335630e-001 -5.11927094856061914996e-001 -7.94552273528200889152e-003 -1.01053336456919246045e-002
7.20000000000000000000e+009 -1.24233576239300320954e-002 -1.12231358044795528212e-002 +6.72839716168545320940e-001 -6.56974995949502482695e-001 +6.72839716168545320940e-001 -6.56974995949502482695e-001 -1.24233576239300320954e-002 -1.12231358044795528212e-002
7.40000000000000000000e+009 -1.70694359685326924048e-002 -1.05911572514255578059e-002 +5.28655898086210385145e-001 -7.75758759777317785655e-001 +5.28655898086210385145e-001 -7.75758759777317785655e-001 -1.70694359685326924048e-002 -1.05911572514255578059e-002
7.60000000000000000000e+009 -2.11841468060390766825e-002 -8.25607864559193237175e-003 +3.63925990148807332325e-001 -8.63600464094985920127e-001 +3.63925990148807332325e-001 -8.63600464094985920127e-001 -2.11841468060390766825e-002 -8.25607864559193237175e-003
7.80000000000000000000e+009 -2.41299822872954039532e-002 -4.53751007397840307178e-003 +1.85172728180466594772e-001 -9.17040507157604434241e-001 +1.85172728180466594772e-001 -9.17040507157604434241e-001 -2.41299822872954039532e-002 -4.53751007397840307178e-003
8.00000000000000000000e+009 -2.54354658645273186413e-002 +1.32773065566609851061e-005 -5.23037193074845133643e-004 -9.33971973664394106152e-001 -5.23037193074845133643e-004 -9.33971973664394106152e-001 -2.54354658645273186413e-002 +1.32773065566609851061e-005
8.20000000000000000000e+009 -2.48765195833915882251e-002 +4.69316029057655417778e-003 -1.85796784537485076827e-001 -9.13722823841931375277e-001 -1.85796784537485076827e-001 -9.13722823841931375277e-001 -2.48765195833915882251e-002 +4.69316029057655417778e-003
8.40000000000000000000e+009 -2.25214218821867991072e-002 +8.75434327389131017316e-003 -3.63283824446813397024e-001 -8.57085157206707304312e-001 -3.63283824446813397024e-001 -8.57085157206707304312e-001 -2.25214218821867991072e-002 +8.75434327389131017316e-003
8.60000000000000000000e+009 -1.87306777386043558919e-002 +1.15229627979227203932e-002 -5.25903327256327934869e-001 -7.66291872470486912228e-001 -5.25903327256327934869e-001 -7.66291872470486912228e-001 -1.87306777386043558919e-002 +1.15229627979227203932e-002
8.80000000000000000000e+009 -1.41098501480507992206e-002 +1.25106481145924007536e-002 -6.67135024795702746836e-001 -6.44941302039148012248e-001 -6.67135024795702746836e-001 -6.44941302039148012248e-001 -1.41098501480507992206e-002 +1.25106481145924007536e-002
9.00000000000000000000e+009 -9.42077499337468961260e-003 +1.15007709252075689815e-002 -7.81280547064188257700e-001 -4.97870417386586106012e-001 -7.81280547064188257700e-001 -4.97870417386586106012e-001 -9.42077499337468961260e-003 +1.15007709252075689815e-002
9.20000000000000000000e+009 -5.46355058274110901712e-003 +8.59419183638425975003e-003 -8.63700321378491175928e-001 -3.30977707423059708258e-001 -8.63700321378491175928e-001 -3.30977707423059708258e-001 -5.46355058274110901712e-003 +8.59419183638425975003e-003
9.40000000000000000000e+009 -2.94715716233530074589e-003 +4.20502575985514173706e-003 -9.11015570082374770422e-001 -1.50998431086852902272e-001 -9.11015570082374770422e-001 -1.50998431086852902272e-001 -2.94715716233530074589e-003 +4.20502575985514173706e-003
9.60000000000000000000e+009 -2.36949656548137745082e-003 -9.95358930738457882773e-004 -9.21264009384107795952e-001 +3.47621429562448430728e-002 -9.21264009384107795952e-001 +3.47621429562448430728e-002 -2.36949656548137745082e-003 -9.95358930738457882773e-004
9.80000000000000000000e+009 -3.92728948286138503099e-003 -6.17931925789254928721e-003 -8.93998246168148380519e-001 +2.18727994720104595983e-001 -8.93998246168148380519e-001 +2.18727994720104595983e-001 -3.92728948286138503099e-003 -6.17931925789254928721e-003
1.00000000000000000000e+010 -7.47235560966019556062e-003 -1.04940825315899301240e-002 -8.30318175945289227435e-001 +3.93370536152731486990e-001 -8.30318175945289227435e-001 +3.93370536152731486990e-001 -7.47235560966019556062e-003 -1.04940825315899301240e-002
1.02000000000000000000e+010 -1.25237201121213021643e-002 -1.32022963199347181246e-002 -7.32832921331932340969e-001 +5.51529039192090175803e-001 -7.32832921331932340969e-001 +5.51529039192090175803e-001 -1.25237201121213021643e-002 -1.32022963199347181246e-002
1.04000000000000000000e+010 -1.83358237701586115898e-002 -1.38086250756062588196e-002 -6.05553370622596620620e-001 +6.86715474388879920653e-001 -6.05553370622596620620e-001 +6.86715474388879920653e-001 -1.83358237701586115898e-002 -1.38086250756062588196e-002
1.06000000000000000000e+010 -2.40134744452981177543e-002 -1.21504737653242728818e-002 -4.53722024931997924835e-001 +7.93387227585310994549e-001 -4.53722024931997924835e-001 +7.93387227585310994549e-001 -2.40134744452981177543e-002 -1.21504737653242728818e-002
1.08000000000000000000e+010 -2.86558501419565923862e-002 -8.43627536383354317828e-003 -2.83591349847494345049e-001 +8.67174689742508331136e-001 -2.83591349847494345049e-001 +8.67174689742508331136e-001 -2.86558501419565923862e-002 -8.43627536383354317828e-003
1.10000000000000000000e+010 -3.15063922087906386760e-002 -3.22314498941828194920e-003 -1.02164187868986178209e-001 +9.05055537880374849635e-001 -1.02164187868986178209e-001 +9.05055537880374849635e-001 -3.15063922087906386760e-002 -3.22314498941828194920e-003
1.12000000000000000000e+010 -3.20837763350633048409e-002 +2.66438531867810258699e-003 +8.30902583854561116450e-002 +9.05472318646251550511e-001 +8.30902583854561116450e-002 +9.05472318646251550511e-001 -3.20837763350633048409e-002 +2.66438531867810258699e-003
1.14000000000000000000e+010 -3.02715620594280233890e-002 +8.26304768175538037478e-003 +2.64533293624531651300e-001 +8.68393460952454510071e-001 +2.64533293624531651300e-001 +8.68393460952454510071e-001 -3.02715620594280233890e-002 +8.26304768175538037478e-003
1.16000000000000000000e+010 -2.63501787652871168055e-002 +1.26273051755177202760e-002 +4.34657544607256640656e-001 +7.95319360340012049271e-001 +4.34657544607256640656e-001 +7.95319360340012049271e-001 -2.63501787652871168055e-002 +1.26273051755177202760e-002
1.18000000000000000000e+010 -2.09637032977369359987e-002 +1.49887229486874804657e-002 +5.86384889451834090401e-001 +6.89234775045908021340e-001 +5.86384889451834090401e-001 +6.89234775045908021340e-001 -2.09637032977369359987e-002 +1.49887229486874804657e-002
1.20000000000000000000e+010 -1.50242117537048840842e-002 +1.48918027241973713326e-002 +7.13355079564571004092e-001 +5.54507322195532337261e-001 +7.13355079564571004092e-001 +5.54507322195532337261e-001 -1.50242117537048840842e-002 +1.48918027241973713326e-002
1.22000000000000000000e+010 -9.56693706519722540660e-003 +1.22823829013666493970e-002 +8.10197039975785182619e-001 +3.96730728985015601573e-001 +8.10197039975785182619e-001 +3.96730728985015601573e-001 -9.56693706519722540660e-003 +1.22823829013666493970e-002
1.24000000000000000000e+010 -5.57847972280987348948e-003 +7.53131071397786407140e-003 +8.72771802317229949963e-001 +2.22512046878230840274e-001 +8.72771802317229949963e-001 +2.22512046878230840274e-001 -5.57847972280987348948e-003 +7.53131071397786407140e-003
1.26000000000000000000e+010 -3.82629505326015926028e-003 +1.38614060798437303129e-003 +8.98372904771049807238e-001 +3.92050983271412106790e-002 +8.98372904771049807238e-001 +3.92050983271412106790e-002 -3.82629505326015926028e-003 +1.38614060798437303129e-003
1.28000000000000000000e+010 -4.71919674531084010899e-003 -5.14421994866667755403e-003 +8.85868586786073608508e-001 -1.45402145132146998208e-001 +8.85868586786073608508e-001 -1.45402145132146998208e-001 -4.71919674531084010899e-003 -5.14421994866667755403e-003
1.30000000000000000000e+010 -8.22483010791411235652e-003 -1.09547282884001704467e-002 +8.35771621338499470788e-001 -3.23431957695636873584e-001 +8.35771621338499470788e-001 -3.23431957695636873584e-001 -8.22483010791411235652e-003 -1.09547282884001704467e-002
1.32000000000000000000e+010 -1.38611318365589718943e-002 -1.50321536568077448320e-002 +7.50227649400037166494e-001 -4.87272904666989470357e-001 +7.50227649400037166494e-001 -4.87272904666989470357e-001 -1.38611318365589718943e-002 -1.50321536568077448320e-002
1.34000000000000000000e+010 -2.07660706333659336731e-002 -1.66332496120802364459e-002 +6.32920634514233082513e-001 -6.29924349915652048715e-001 +6.32920634514233082513e-001 -6.29924349915652048715e-001 -2.07660706333659336731e-002 -1.66332496120802364459e-002
1.36000000000000000000e+010 -2.78358581461440914018e-002 -1.54212593019406232070e-002 +4.88902658920036703449e-001 -7.45307171983885741184e-001 +4.88902658920036703449e-001 -7.45307171983885741184e-001 -2.78358581461440914018e-002 -1.54212593019406232070e-002
1.38000000000000000000e+010 -3.39091902386879848197e-002 -1.15355253240439978302e-002 +3.24362397536555935318e-001 -8.28523293113955006106e-001 +3.24362397536555935318e-001 -8.28523293113955006106e-001 -3.39091902386879848197e-002 -1.15355253240439978302e-002
1.40000000000000000000e+010 -3.79664525385687567915e-002 -5.58038040544077667410e-003 +1.46350329639471560261e-001 -8.76053954781982668898e-001 +1.46350329639471560261e-001 -8.76053954781982668898e-001 -3.79664525385687567915e-002 -5.58038040544077667410e-003
1.42000000000000000000e+010 -3.93097492284144867103e-002 +1.46663451837751547188e-003 -3.75216312580266900256e-002 -8.85894168124499059580e-001 -3.75216312580266900256e-002 -8.85894168124499059580e-001 -3.93097492284144867103e-002 +1.46663451837751547188e-003
1.44000000000000000000e+010 -3.76924052916932858515e-002 +8.41340022899359808728e-003 -2.19392125323868814046e-001 -8.57626142318639206330e-001 -2.19392125323868814046e-001 -8.57626142318639206330e-001 -3.76924052916932858515e-002 +8.41340022899359808728e-003
1.46000000000000000000e+010 -3.33745139019920797341e-002 +1.40534184643001658355e-002 -3.91465093648750206423e-001 -7.92436350759222030149e-001 -3.91465093648750206423e-001 -7.92436350759222030149e-001 -3.33745139019920797341e-002 +1.40534184643001658355e-002
1.48000000000000000000e+010 -2.70927818375630985459e-002 +1.73747738983927486889e-002 -5.46322528898186998703e-001 -6.93079247106750284679e-001 -5.46322528898186998703e-001 -6.93079247106750284679e-001 -2.70927818375630985459e-002 +1.73747738983927486889e-002
1.50000000000000000000e+010 -1.99467263010992303107e-002 +1.77424416607774582122e-002 -6.77231634123422354676e-001 -5.63786922204324580932e-001 -6.77231634123422354676e-001 -5.63786922204324580932e-001 -1.99467263010992303107e-002 +1.77424416607774582122e-002
1.52000000000000000000e+010 -1.32174169040647840334e-002 +1.50213533778927356421e-002 -7.78440277698543181550e-001 -4.10120551973388924871e-001 -7.78440277698543181550e-001 -4.10120551973388924871e-001 -1.32174169040647840334e-002 +1.50213533778927356421e-002
