# HZ S RI R 50
2.00000000000000000000e+008 -9.38976400558174089522e-004 -4.54170932311743959925e-003 +9.79336449938500774870e-001 -1.91668728857428166679e-001 +9.79336449938500774870e-001 -1.91668728857428166679e-001 -9.38976400558174089522e-004 -4.54170932311743959925e-003
4.00000000000000000000e+008 -3.50852554853612469410e-003 -8.39041973836364939066e-003 +9.22598123650500534509e-001 -3.75512035970354540737e-001 +9.22598123650500534509e-001 -3.75512035970354540737e-001 -3.50852554853612469410e-003 -8.39041973836364939066e-003
6.00000000000000000000e+008 -7.33374669946249609781e-003 -1.09909296291543518570e-002 +8.31795882610003811664e-001 -5.44742137172585905169e-001 +8.31795882610003811664e-001 -5.44742137172585905169e-001 -7.33374669946249609781e-003 -1.09909296291543518570e-002
8.00000000000000000000e+008 -1.18562938535134634183e-002 -1.19697907837151128890e-002 +7.10405711303539133539e-001 -6.93127247536013180174e-001 +7.10405711303539133539e-001 -6.93127247536013180174e-001 -1.18562938535134634183e-002 -1.19697907837151128890e-002
1.00000000000000000000e+009 -1.64195670115983988202e-002 -1.11886565596759426922e-002 +5.63036505358914474151e-001 -8.15232975490910782845e-001 +5.63036505358914474151e-001 -8.15232975490910782845e-001 -1.64195670115983988202e-002 -1.11886565596759426922e-002
1.20000000000000000000e+009 -2.03631136037136645234e-002 -8.76360568510772472428e-003 +3.95242204409266495446e-001 -9.06619307690420872525e-001 +3.95242204409266495446e-001 -9.06619307690420872525e-001 -2.03631136037136645234e-002 -8.76360568510772472428e-003
1.40000000000000000000e+009 -2.31172132510487522705e-002 -5.04833033148722066380e-003 +2.13309328633405931308e-001 -9.63996461519559089126e-001 +2.13309328633405931308e-001 -9.63996461519559089126e-001 -2.31172132510487522705e-002 -5.04833033148722066380e-003
1.60000000000000000000e+009 -2.42845534652941022480e-002 -5.83683241462336116663e-004 +2.40235511440559483531e-002 -9.85337006660528924584e-001 +2.40235511440559483531e-002 -9.85337006660528924584e-001 -2.42845534652941022480e-002 -5.83683241462336116663e-004
1.80000000000000000000e+009 -2.36976377967343596054e-002 +3.97936064311949725530e-003 -1.65577274785939448920e-001 -9.69942841479170425600e-001 -1.65577274785939448920e-001 -9.69942841479170425600e-001 -2.36976377967343596054e-002 +3.97936064311949725530e-003
2.00000000000000000000e+009 -2.14438709875594928078e-002 +7.97266625197476028197e-003 -3.48456280988782618468e-001 -9.18466671656517741340e-001 -3.48456280988782618468e-001 -9.18466671656517741340e-001 -2.14438709875594928078e-002 +7.97266625197476028197e-003
2.20000000000000000000e+009 -1.78546261029435479606e-002 +1.08069593751886263572e-002 -5.17830050381863027376e-001 -8.32888208105983629537e-001 -5.17830050381863027376e-001 -8.32888208105983629537e-001 -1.78546261029435479606e-002 +1.08069593751886263572e-002
2.40000000000000000000e+009 -1.34594695995737395622e-002 +1.20575055259581204181e-002 -6.67413651137400032454e-001 -7.16445578818769801543e-001 -6.67413651137400032454e-001 -7.16445578818769801543e-001 -1.34594695995737395622e-002 +1.20575055259581204181e-002
2.60000000000000000000e+009 -8.91151352140530719770e-003 +1.15272612785268478708e-002 -7.91651197789867588916e-001 -5.73522804643515127232e-001 -7.91651197789867588916e-001 -5.73522804643515127232e-001 -8.91151352140530719770e-003 +1.15272612785268478708e-002
2.80000000000000000000e+009 -4.89398295713033490428e-003 +9.27818259332340890266e-003 -8.85924255360719614671e-001 -4.09494989285070276619e-001 -8.85924255360719614671e-001 -4.09494989285070276619e-001 -4.89398295713033490428e-003 +9.27818259332340890266e-003
3.00000000000000000000e+009 -2.02097106790116026742e-003 +5.62560790208690205544e-003 -9.46729774108301835867e-001 -2.30534346478668605851e-001 -9.46729774108301835867e-001 -2.30534346478668605851e-001 -2.02097106790116026742e-003 +5.62560790208690205544e-003
3.20000000000000000000e+009 -7.46542566537720811773e-004 +1.09574193768382111697e-003 -9.71819076713733465134e-001 -4.33823257543248103074e-002 -9.71819076713733465134e-001 -4.33823257543248103074e-002 -7.46542566537720811773e-004 +1.09574193768382111697e-003
3.40000000000000000000e+009 -1.29556055800508166526e-003 -3.64841368972107244623e-003 -9.60290120927298929132e-001 +1.44904365437441506881e-001 -9.60290120927298929132e-001 +1.44904365437441506881e-001 -1.29556055800508166526e-003 -3.64841368972107244623e-003
3.60000000000000000000e+009 -3.62683686446262608383e-003 -7.90257502776997924898e-003 -9.12627047200013752359e-001 +3.27223586530985044440e-001 -9.12627047200013752359e-001 +3.27223586530985044440e-001 -3.62683686446262608383e-003 -7.90257502776997924898e-003
3.80000000000000000000e+009 -7.43474475233145502134e-003 -1.10245824655535711728e-002 -8.30683829031943488097e-001 +4.96701353347843821417e-001 -8.30683829031943488097e-001 +4.96701353347843821417e-001 -7.43474475233145502134e-003 -1.10245824655535711728e-002
4.00000000000000000000e+009 -1.21898944608970286052e-002 -1.25306230187933811959e-002 -7.17612315002701728339e-001 +6.46956388525951942015e-001 -7.17612315002701728339e-001 +6.46956388525951942015e-001 -1.21898944608970286052e-002 -1.25306230187933811959e-002
4.20000000000000000000e+009 -1.72136857747422211684e-002 -1.21699034652113357441e-002 -5.77738514308809958386e-001 +7.72343443452962019613e-001 -5.77738514308809958386e-001 +7.72343443452962019613e-001 -1.72136857747422211684e-002 -1.21699034652113357441e-002
4.40000000000000000000e+009 -2.17764196656121469808e-002 -9.96630192393248640070e-003 -4.16394006283567597038e-001 +8.68165058999018524055e-001 -4.16394006283567597038e-001 +8.68165058999018524055e-001 -2.17764196656121469808e-002 -9.96630192393248640070e-003
4.60000000000000000000e+009 -2.52049746453869641383e-002 -6.22017887498326881718e-003 -2.39711353648624475587e-001 +9.30844126854491693557e-001 -2.39711353648624475587e-001 +9.30844126854491693557e-001 -2.52049746453869641383e-002 -6.22017887498326881718e-003
4.80000000000000000000e+009 -2.69843904182403664105e-002 -1.46924551907329269465e-003 -5.43931547329307152339e-002 +9.58052545414675993385e-001 -5.43931547329307152339e-002 +9.58052545414675993385e-001 -2.69843904182403664105e-002 -1.46924551907329269465e-003
5.00000000000000000000e+009 -2.68382852610445053754e-002 +3.58666984642300873398e-003 +1.32535988355401562755e-001 +9.48793819071843902435e-001 +1.32535988355401562755e-001 +9.48793819071843902435e-001 -2.68382852610445053754e-002 +3.58666984642300873398e-003
5.20000000000000000000e+009 -2.47757700519346778234e-002 +8.18678210302626815920e-003 +3.13986350902379862671e-001 +9.03439185976418146495e-001 +3.13986350902379862671e-001 +9.03439185976418146495e-001 -2.47757700519346778234e-002 +8.18678210302626815920e-003
5.40000000000000000000e+009 -2.10970416676337160777e-002 +1.16222538241213032423e-002 +4.83061718020645847194e-001 +8.23717644014648309181e-001 +4.83061718020645847194e-001 +8.23717644014648309181e-001 -2.10970416676337160777e-002 +1.16222538241213032423e-002
5.60000000000000000000e+009 -1.63555712523676052839e-002 +1.33445234629768361839e-002 +6.33313343426725183782e-001 +7.12660294475087607857e-001 +6.33313343426725183782e-001 +7.12660294475087607857e-001 -1.63555712523676052839e-002 +1.33445234629768361839e-002
5.80000000000000000000e+009 -1.12810424904532732859e-002 +1.30528020313975742783e-002 +7.58982680916181817743e-001 +5.74499235824446286003e-001 +7.58982680916181817743e-001 +5.74499235824446286003e-001 -1.12810424904532732859e-002 +1.30528020313975742783e-002
6.00000000000000000000e+009 -6.67314734251876762183e-003 +1.07468589455747120381e-002 +8.55225412446818600287e-001 +4.14521435906732460541e-001 +8.55225412446818600287e-001 +4.14521435906732460541e-001 -6.67314734251876762183e-003 +1.07468589455747120381e-002
6.20000000000000000000e+009 -3.28117693391304608708e-003 +6.73574944554323432749e-003 +9.18307960885324736644e-001 +2.38879119775270043480e-001 +9.18307960885324736644e-001 +2.38879119775270043480e-001 -3.28117693391304608708e-003 +6.73574944554323432749e-003
6.40000000000000000000e+009 -1.68725476311686593302e-003 +1.59936381279939606077e-003 +9.45766583997502685577e-001 +5.43604694982900565892e-002 +9.45766583997502685577e-001 +5.43604694982900565892e-002 -1.68725476311686593302e-003 +1.59936381279939606077e-003
6.60000000000000000000e+009 -2.21141145533828003406e-003 -3.89318358675269649005e-003 +9.36519033789595445327e-001 -1.31872343078406811800e-001 +9.36519033789595445327e-001 -1.31872343078406811800e-001 -2.21141145533828003406e-003 -3.89318358675269649005e-003
6.80000000000000000000e+009 -4.85418270062687277899e-003 -8.89732434641187820701e-003 +8.90920187545490627201e-001 -3.12567185898983024295e-001 +8.90920187545490627201e-001 -3.12567185898983024295e-001 -4.85418270062687277899e-003 -8.89732434641187820701e-003
7.00000000000000000000e+009 -9.28718543916925293180e-003 -1.26223304601234247863e-002 +8.10756161599397784379e-001 -4.80674387715235351681e-001 +8.10756161599397784379e-001 -4.80674387715235351681e-001 -9.28718543916925293180e-003 -1.26223304601234247863e-002
7.20000000000000000000e+009 -1.48948881398350083810e-002 -1.44563001983042862392e-002 +6.99175833159614401602e-001 -6.29632206364688085110e-001 +6.99175833159614401602e-001 -6.29632206364688085110e-001 -1.48948881398350083810e-002 -1.44563001983042862392e-002
7.40000000000000000000e+009 -2.08626926604775393692e-002 -1.40669504052358240037e-002 +5.60563590514562948286e-001 -7.53630287667016673936e-001 +5.60563590514562948286e-001 -7.53630287667016673936e-001 -2.08626926604775393692e-002 -1.40669504052358240037e-002
7.60000000000000000000e+009 -2.62988752286526551727e-002 -1.14615611606713654197e-002 +4.00361462793039746266e-001 -8.47838341650958948748e-001 +4.00361462793039746266e-001 -8.47838341650958948748e-001 -2.62988752286526551727e-002 -1.14615611606713654197e-002
7.80000000000000000000e+009 -3.03722088244409577085e-002 -6.99544384821606992503e-003 +2.24851625721280090620e-001 -9.08590994499580029142e-001 +2.24851625721280090620e-001 -9.08590994499580029142e-001 -3.03722088244409577085e-002 -6.99544384821606992503e-003
8.00000000000000000000e+009 -3.24441700511291439279e-002 -1.32612749215790283464e-003 +4.09111572992908664737e-002 -9.33523983561735493097e-001 +4.09111572992908664737e-002 -9.33523983561735493097e-001 -3.24441700511291439279e-002 -1.32612749215790283464e-003
8.20000000000000000000e+009 -3.21749596827434827806e-002 +4.68118154154814787582e-003 -1.44250044388983089672e-001 -9.21660470980346646641e-001 -1.44250044388983089672e-001 -9.21660470980346646641e-001 -3.21749596827434827806e-002 +4.68118154154814787582e-003
8.40000000000000000000e+009 -2.95860415815745285417e-002 +1.00836808013883335450e-002 -3.23359368431560711965e-001 -8.73448435853460436462e-001 -3.23359368431560711965e-001 -8.73448435853460436462e-001 -2.95860415815745285417e-002 +1.00836808013883335450e-002
8.60000000000000000000e+009 -2.50680048432884300391e-002 +1.40075824128892568315e-002 -4.89353008456604676724e-001 -7.90750578165723028157e-001 -4.89353008456604676724e-001 -7.90750578165723028157e-001 -2.50680048432884300391e-002 +1.40075824128892568315e-002
8.80000000000000000000e+009 -1.93304695067141908693e-002 +1.57890165918821955005e-002 -6.35643547794826790920e-001 -6.76787284985697623618e-001 -6.35643547794826790920e-001 -6.76787284985697623618e-001 -1.93304695067141908693e-002 +1.57890165918821955005e-002
9.00000000000000000000e+009 -1.32994992968190825500e-002 +1.50868739724852526929e-002 -7.56377969584472009679e-001 -5.36031864510639999288e-001 -7.56377969584472009679e-001 -5.36031864510639999288e-001 -1.32994992968190825500e-002 +1.50868739724852526929e-002
9.20000000000000000000e+009 -7.97643434922898179884e-003 +1.19484353660690434396e-002 -8.46678559041313394395e-001 -3.74056591550268435764e-001 -8.46678559041313394395e-001 -3.74056591550268435764e-001 -7.97643434922898179884e-003 +1.19484353660690434396e-002
9.40000000000000000000e+009 -4.27898377539963781918e-003 +6.81501985111187310457e-003 -9.02856367398005899005e-001 -1.97329128009440968317e-001 -9.02856367398005899005e-001 -1.97329128009440968317e-001 -4.27898377539963781918e-003 +6.81501985111187310457e-003
9.60000000000000000000e+009 -2.88957454468264946651e-003 +4.63836183548828827859e-004 -9.22584413173739625869e-001 -1.29620427636727899440e-002 -9.22584413173739625869e-001 -1.29620427636727899440e-002 -2.88957454468264946651e-003 +4.63836183548828827859e-004
9.80000000000000000000e+009 -4.13628556966912606929e-003 -6.10742093945586435322e-003 -9.05016964667291756719e-001 +1.71576881068723846591e-001 -9.05016964667291756719e-001 +1.71576881068723846591e-001 -4.13628556966912606929e-003 -6.10742093945586435322e-003
1.00000000000000000000e+010 -7.92766236636935177351e-003 -1.18366171113476331689e-002 -8.50843081452681060384e-001 +3.48780230863242668438e-001 -8.50843081452681060384e-001 +3.48780230863242668438e-001 -7.92766236636935177351e-003 -1.18366171113476331689e-002
1.02000000000000000000e+010 -1.37545862257496334657e-002 -1.57694098649208032381e-002 -7.62267295170007241900e-001 +5.11424436419461003744e-001 -7.62267295170007241900e-001 +5.11424436419461003744e-001 -1.37545862257496334657e-002 -1.57694098649208032381e-002
1.04000000000000000000e+010 -2.07613868771179647943e-002 -1.72193209111552204826e-002 -6.42917088413059167884e-001 +6.52880934652773303739e-001 -6.42917088413059167884e-001 +6.52880934652773303739e-001 -2.07613868771179647943e-002 -1.72193209111552204826e-002
1.06000000000000000000e+010 -2.78765299578721779949e-002 -1.58883801233351586168e-002 -4.97684079536507006924e-001 +7.67396011501527142151e-001 -4.97684079536507006924e-001 +7.67396011501527142151e-001 -2.78765299578721779949e-002 -1.58883801233351586168e-002
1.08000000000000000000e+010 -3.39827628992133215502e-002 -1.19270575951543195137e-002 -3.32511655543910766841e-001 +8.50324661459791908413e-001 -3.32511655543910766841e-001 +8.50324661459791908413e-001 -3.39827628992133215502e-002 -1.19270575951543195137e-002
1.10000000000000000000e+010 -3.80995406417167989388e-002 -5.92197783298146780001e-003 -1.54144737237161877363e-001 +8.98310087088878828077e-001 -1.54144737237161877363e-001 +8.98310087088878828077e-001 -3.80995406417167989388e-002 -5.92197783298146780001e-003
1.12000000000000000000e+010 -3.95480671283647139402e-002 +1.18835557110728330665e-003 +3.01431008001813438568e-002 +9.09406782935521795785e-001 +3.01431008001813438568e-002 +9.09406782935521795785e-001 -3.95480671283647139402e-002 +1.18835557110728330665e-003
1.14000000000000000000e+010 -3.80716143318062874568e-002 +8.25794103554346008156e-003 +2.12833144089978609781e-001 +8.83149667935076210235e-001 +2.12833144089978609781e-001 +8.83149667935076210235e-001 -3.80716143318062874568e-002 +8.25794103554346008156e-003
1.16000000000000000000e+010 -3.38903437907563387377e-002 +1.41160831327977916161e-002 +3.86448050029900291857e-001 +8.20573311979669872684e-001 +3.86448050029900291857e-001 +8.20573311979669872684e-001 -3.38903437907563387377e-002 +1.41160831327977916161e-002
1.18000000000000000000e+010 -2.76795925967005772284e-002 +1.77602906423016508597e-002 +5.43837308859511869841e-001 +7.24183924446965221478e-001 +5.43837308859511869841e-001 +7.24183924446965221478e-001 -2.76795925967005772284e-002 +1.77602906423016508597e-002
1.20000000000000000000e+010 -2.04722194464236409428e-002 +1.85282787363838172268e-002 +6.78458777418993630448e-001 +5.97883551796596801609e-001 +6.78458777418993630448e-001 +5.97883551796596801609e-001 -2.04722194464236409428e-002 +1.85282787363838172268e-002
1.22000000000000000000e+010 -1.34977424614151457483e-002 +1.62198973891363104616e-002 +7.84651462074322791906e-001 +4.46842766113714706666e-001 +7.84651462074322791906e-001 +4.46842766113714706666e-001 -1.34977424614151457483e-002 +1.62198973891363104616e-002
1.24000000000000000000e+010 -7.98206603317790606977e-003 +1.11462546114411819448e-002 +8.57890202854823424872e-001 +2.77317059366712970192e-001 +8.57890202854823424872e-001 +2.77317059366712970192e-001 -7.98206603317790606977e-003 +1.11462546114411819448e-002
1.26000000000000000000e+010 -4.93978891944883875820e-003 +4.09404470751522503447e-003 +8.95007529989332195619e-001 +9.64046252075431431283e-002 +8.95007529989332195619e-001 +9.64046252075431431283e-002 -4.93978891944883875820e-003 +4.09404470751522503447e-003
1.28000000000000000000e+010 -4.99455538001872517001e-003 -3.79301437727835345781e-003 +8.94364122763577795716e-001 -8.82505996274389470369e-002 +8.94364122763577795716e-001 -8.82505996274389470369e-002 -4.99455538001872517001e-003 -3.79301437727835345781e-003
1.30000000000000000000e+010 -8.26022949705680978316e-003 -1.11988163866501462540e-002 +8.55949221346771760288e-001 -2.68798179986002416797e-001 +8.55949221346771760288e-001 -2.68798179986002416797e-001 -8.26022949705680978316e-003 -1.11988163866501462540e-002
1.32000000000000000000e+010 -1.43065000887466521606e-002 -1.68557435083749006244e-002 +7.81397137551953280266e-001 -4.37541839556956857482e-001 +7.81397137551953280266e-001 -4.37541839556956857482e-001 -1.43065000887466521606e-002 -1.68557435083749006244e-002
1.34000000000000000000e+010 -2.22180929456375318709e-002 -1.97638653404581636497e-002 +6.73915053944506570183e-001 -5.87295309102934259826e-001 +6.73915053944506570183e-001 -5.87295309102934259826e-001 -2.22180929456375318709e-002 -1.97638653404581636497e-002
1.36000000000000000000e+010 -3.07398412432494383406e-002 -1.93695322112159458439e-002 +5.38128262672504242836e-001 -7.11706966195057244562e-001 +5.38128262672504242836e-001 -7.11706966195057244562e-001 -3.07398412432494383406e-002 -1.93695322112159458439e-002
1.38000000000000000000e+010 -3.84840394207394964621e-002 -1.56709809859440080126e-002 +3.79858637657432163248e-001 -8.05532205343671425801e-001 +3.79858637657432163248e-001 -8.05532205343671425801e-001 -3.84840394207394964621e-002 -1.56709809859440080126e-002
1.40000000000000000000e+010 -4.41651120917760167672e-002 -9.23125939684678493979e-003 +2.05857569659983363763e-001 -8.64841673359711071711e-001 +2.05857569659983363763e-001 -8.64841673359711071711e-001 -4.41651120917760167672e-002 -9.23125939684678493979e-003
1.42000000000000000000e+010 -4.68217530397517858742e-002 -1.09482626486137406795e-003 +2.35144505969762419861e-002 -8.87163496754665659161e-001 +2.35144505969762419861e-002 -8.87163496754665659161e-001 -4.68217530397517858742e-002 -1.09482626486137406795e-003
1.44000000000000000000e+010 -4.59887607387922392466e-002 +7.37957275695225178858e-003 -1.59443248109405771862e-001 -8.71565141324856851313e-001 -1.59443248109405771862e-001 -8.71565141324856851313e-001 -4.59887607387922392466e-002 +7.37957275695225178858e-003
1.46000000000000000000e+010 -4.17888694005431049483e-002 +1.47433838008079690779e-002 -3.35249754498879282139e-001 -8.18683337877399552873e-001 -3.35249754498879282139e-001 -8.18683337877399552873e-001 -4.17888694005431049483e-002 +1.47433838008079690779e-002
1.48000000000000000000e+010 -3.49272998691408306793e-002 +1.97041436843447478888e-002 -4.96398767263757478840e-001 -7.30708182869448163999e-001 -4.96398767263757478840e-001 -7.30708182869448163999e-001 -3.49272998691408306793e-002 +1.97041436843447478888e-002
1.50000000000000000000e+010 -2.65867835893313052276e-002 +2.13524486211504362088e-002 -6.35940325555713004135e-001 -6.11321645048911954667e-001 -6.35940325555713004135e-001 -6.11321645048911954667e-001 -2.65867835893313052276e-002 +2.13524486211504362088e-002
1.52000000000000000000e+010 -1.82367774968405747804e-002 +1.93309149508076559554e-002 -7.47775653829050312993e-001 -4.65584279024091274302e-001 -7.47775653829050312993e-001 -4.65584279024091274302e-001 -1.82367774968405747804e-002 +1.93309149508076559554e-002
