# HZ S RI R 50
2.00000000000000000000e+008 -6.47930192664739968214e-004 -3.17200792336898296231e-003 +9.79820047960174411728e-001 -1.89418930507110339079e-001 +9.79820047960174411728e-001 -1.89418930507110339079e-001 -6.47930192664739968214e-004 -3.17200792336898296231e-003
4.00000000000000000000e+008 -2.42261305356052114579e-003 -5.86804711760015654254e-003 +9.24354423924071855190e-001 -3.71430303766898950446e-001 +9.24354423924071855190e-001 -3.71430303766898950446e-001 -2.42261305356052114579e-003 -5.86804711760015654254e-003
6.00000000000000000000e+008 -5.06849131879966597475e-003 -7.70329334308257011182e-003 +8.35398112478954679716e-001 -5.39492699022334876169e-001 +8.35398112478954679716e-001 -5.39492699022334876169e-001 -5.06849131879966597475e-003 -7.70329334308257011182e-003
8.00000000000000000000e+008 -8.20186539151223671651e-003 -8.41597609482656189295e-003 +7.16147361057339004731e-001 -6.87513867802244993399e-001 +7.16147361057339004731e-001 -6.87513867802244993399e-001 -8.20186539151223671651e-003 -8.41597609482656189295e-003
1.00000000000000000000e+009 -1.13685120998204096388e-002 -7.90577028702920195369e-003 +5.70909217974630345260e-001 -8.10089481784581288970e-001 +5.70909217974630345260e-001 -8.10089481784581288970e-001 -1.13685120998204096388e-002 -7.90577028702920195369e-003
1.20000000000000000000e+009 -1.41088013527576761758e-002 -6.24903157963112819429e-003 +4.04951031848730436113e-001 -9.02704740049925624668e-001 +4.04951031848730436113e-001 -9.02704740049925624668e-001 -1.41088013527576761758e-002 -6.24903157963112819429e-003
1.40000000000000000000e+009 -1.60241020227157027200e-002 -3.68875313694959046720e-003 +2.24320425908837328688e-001 -9.61904739600063285465e-001 +2.24320425908837328688e-001 -9.61904739600063285465e-001 -1.60241020227157027200e-002 -3.68875313694959046720e-003
1.60000000000000000000e+009 -1.68350541322302427183e-002 -6.00357422212229301789e-004 +3.56368791507966423127e-002 -9.85429348872911448076e-001 +3.56368791507966423127e-002 -9.85429348872911448076e-001 -1.68350541322302427183e-002 -6.00357422212229301789e-004
1.80000000000000000000e+009 -1.64231990901947538797e-002 +2.56211879339626573404e-003 -1.54139374702202486267e-001 -9.72308315087974772695e-001 -1.54139374702202486267e-001 -9.72308315087974772695e-001 -1.64231990901947538797e-002 +2.56211879339626573404e-003
2.00000000000000000000e+009 -1.48496569022038230751e-002 +5.33198400820590178578e-003 -3.37954362244152262118e-001 -9.22913066598011977426e-001 -3.37954362244152262118e-001 -9.22913066598011977426e-001 -1.48496569022038230751e-002 +5.33198400820590178578e-003
2.20000000000000000000e+009 -1.23477014881855917672e-002 +7.29860723138357671974e-003 -5.08915932672530879621e-001 -8.38962469753706252540e-001 -5.08915932672530879621e-001 -8.38962469753706252540e-001 -1.23477014881855917672e-002 +7.29860723138357671974e-003
2.40000000000000000000e+009 -9.28979917158288988344e-003 +8.16885639698920751339e-003 -6.60549881269417937801e-001 -7.23480669542698628938e-001 -6.60549881269417937801e-001 -7.23480669542698628938e-001 -9.28979917158288988344e-003 +8.16885639698920751339e-003
2.60000000000000000000e+009 -6.13343960842071059258e-003 +7.81201302649508176612e-003 -7.87047936712589990549e-001 -5.80706241689866065059e-001 -7.87047936712589990549e-001 -5.80706241689866065059e-001 -6.13343960842071059258e-003 +7.81201302649508176612e-003
2.80000000000000000000e+009 -3.35336451473033968565e-003 +6.28108940899812541458e-003 -8.83498226014977738885e-001 -4.15953372751707572963e-001 -8.83498226014977738885e-001 -4.15953372751707572963e-001 -3.35336451473033968565e-003 +6.28108940899812541458e-003
3.00000000000000000000e+009 -1.37007864169211876319e-003 +3.80679304381252017406e-003 -9.46088397300658745515e-001 -2.35427737205598369696e-001 -9.46088397300658745515e-001 -2.35427737205598369696e-001 -1.37007864169211876319e-003 +3.80679304381252017406e-003
3.20000000000000000000e+009 -4.85406779142887056817e-004 +7.64413770345468757995e-004 -9.72271677229224140504e-001 -4.60020845133170125374e-002 -9.72271677229224140504e-001 -4.60020845133170125374e-002 -4.85406779142887056817e-004 +7.64413770345468757995e-004
3.40000000000000000000e+009 -8.35120515048946594067e-004 -2.38192936075500233742e-003 -9.60886992447903875991e-001 +1.45040942072735823398e-001 -9.60886992447903875991e-001 +1.45040942072735823398e-001 -8.35120515048946594067e-004 -2.38192936075500233742e-003
3.60000000000000000000e+009 -2.36632299082132615750e-003 -5.14960279420025816149e-003 -9.12225985895393054470e-001 +3.30288897475329190634e-001 -9.12225985895393054470e-001 +3.30288897475329190634e-001 -2.36632299082132615750e-003 -5.14960279420025816149e-003
3.80000000000000000000e+009 -4.84364043229285490960e-003 -7.11174820656572653083e-003 -8.28042221111012444190e-001 +5.02490880771447767650e-001 -8.28042221111012444190e-001 +5.02490880771447767650e-001 -4.84364043229285490960e-003 -7.11174820656572653083e-003
4.00000000000000000000e+009 -7.88385738328899535188e-003 -7.96404783500411980746e-003 -7.11500829123550837529e-001 +6.54847502502845291161e-001 -7.11500829123550837529e-001 +6.54847502502845291161e-001 -7.88385738328899535188e-003 -7.96404783500411980746e-003
4.20000000000000000000e+009 -1.10141394934243682519e-002 -7.57336056860217522735e-003 -5.67069941416723510841e-001 +7.81286814605215651497e-001 -5.67069941416723510841e-001 +7.81286814605215651497e-001 -1.10141394934243682519e-002 -7.57336056860217522735e-003
4.40000000000000000000e+009 -1.37451450600600457580e-002 -6.00023878995209741100e-003 -4.00358089543190187598e-001 +8.76714398908023828660e-001 -4.00358089543190187598e-001 +8.76714398908023828660e-001 -1.37451450600600457580e-002 -6.00023878995209741100e-003
4.60000000000000000000e+009 -1.56477757808087328262e-002 -3.49129190054782044192e-003 -2.17904056063983331271e-001 +9.37227308315159879371e-001 -2.17904056063983331271e-001 +9.37227308315159879371e-001 -1.56477757808087328262e-002 -3.49129190054782044192e-003
4.80000000000000000000e+009 -1.64214975261863412037e-002 -4.42052894722598434685e-004 -2.69273225316086772807e-002 +9.60283374127789968178e-001 -2.69273225316086772807e-002 +9.60283374127789968178e-001 -1.64214975261863412037e-002 -4.42052894722598434685e-004
5.00000000000000000000e+009 -1.59432390291134214177e-002 +2.66430224088623881021e-003 +1.64951647464304462787e-001 +9.44819235897529807744e-001 +1.64951647464304462787e-001 +9.44819235897529807744e-001 -1.59432390291134214177e-002 +2.66430224088623881021e-003
5.20000000000000000000e+009 -1.42887203884226720446e-002 +5.33307556112624925326e-003 +3.50011321240041750613e-001 +8.91312141804965540892e-001 +3.50011321240041750613e-001 +8.91312141804965540892e-001 -1.42887203884226720446e-002 +5.33307556112624925326e-003
5.40000000000000000000e+009 -1.17222718119108660489e-002 +7.13711872646663643416e-003 +5.20738625496456886133e-001 +8.01782106942849348563e-001 +5.20738625496456886133e-001 +8.01782106942849348563e-001 -1.17222718119108660489e-002 +7.13711872646663643416e-003
5.60000000000000000000e+009 -8.65615781880098994483e-003 +7.78620051338740036539e-003 +6.70136852331524313087e-001 +6.79732562485615532388e-001 +6.70136852331524313087e-001 +6.79732562485615532388e-001 -8.65615781880098994483e-003 +7.78620051338740036539e-003
5.80000000000000000000e+009 -5.58536960313312132176e-003 +7.17525492185572440207e-003 +7.92019996069793674742e-001 +5.30029421141559708985e-001 +7.92019996069793674742e-001 +5.30029421141559708985e-001 -5.58536960313312132176e-003 +7.17525492185572440207e-003
6.00000000000000000000e+009 -3.00799862917881062271e-003 +5.40322386052622099378e-003 +8.81280994428526698314e-001 +3.58720731797403047381e-001 +8.81280994428526698314e-001 +3.58720731797403047381e-001 -3.00799862917881062271e-003 +5.40322386052622099378e-003
6.20000000000000000000e+009 -1.34394598545771980225e-003 +2.75880740955591246058e-003 +9.34121215092443946126e-001 +1.72801862829226465790e-001 +9.34121215092443946126e-001 +1.72801862829226465790e-001 -1.34394598545771980225e-003 +2.75880740955591246058e-003
6.40000000000000000000e+009 -8.65341879616376638551e-004 -3.25187623834382807941e-004 +9.48229193055015073810e-001 -2.00657090647529574856e-002 +9.48229193055015073810e-001 -2.00657090647529574856e-002 -8.65341879616376638551e-004 -3.25187623834382807941e-004
6.60000000000000000000e+009 -1.65044380768022123408e-003 -3.34192668557269003532e-003 +9.22898332771758367343e-001 -2.11870774192177618866e-001 +9.22898332771758367343e-001 -2.11870774192177618866e-001 -1.65044380768022123408e-003 -3.34192668557269003532e-003
6.80000000000000000000e+009 -3.56912473926954305903e-003 -5.79380604575578314619e-003 +8.59076077197817866704e-001 -3.94590006669332249434e-001 +8.59076077197817866704e-001 -3.94590006669332249434e-001 -3.56912473926954305903e-003 -5.79380604575578314619e-003
7.00000000000000000000e+009 -6.30290913361340483095e-003 -7.27516667910145520271e-003 +7.59340689994351558667e-001 -5.60531130392503684767e-001 +7.59340689994351558667e-001 -5.60531130392503684767e-001 -6.30290913361340483095e-003 -7.27516667910145520271e-003
7.20000000000000000000e+009 -9.39672025902028341948e-003 -7.54055715394109839916e-003 +6.27805858995728383043e-001 -7.02665396897992788894e-001 +6.27805858995728383043e-001 -7.02665396897992788894e-001 -9.39672025902028341948e-003 -7.54055715394109839916e-003
7.40000000000000000000e+009 -1.23340702379933428445e-002 -6.54684489559562415167e-003 +4.69957274777873357241e-001 -8.14933862974945522062e-001 +4.69957274777873357241e-001 -8.14933862974945522062e-001 -1.23340702379933428445e-002 -6.54684489559562415167e-003
7.60000000000000000000e+009 -1.46233136184727979118e-002 -4.46172911264819480742e-003 +2.92428695677847627632e-001 -8.92513729606575267894e-001 +2.92428695677847627632e-001 -8.92513729606575267894e-001 -1.46233136184727979118e-002 -4.46172911264819480742e-003
7.80000000000000000000e+009 -1.58805284442113010812e-002 -1.63680092727532672248e-003 +1.02727504258428373185e-001 -9.32033419363863191442e-001 +1.02727504258428373185e-001 -9.32033419363863191442e-001 -1.58805284442113010812e-002 -1.63680092727532672248e-003
8.00000000000000000000e+009 -1.58949600934460456847e-002 +1.45071872471545207546e-003 -9.10786262544797109442e-002 -9.31727679525836793850e-001 -9.10786262544797109442e-002 -9.31727679525836793850e-001 -1.58949600934460456847e-002 +1.45071872471545207546e-003
8.20000000000000000000e+009 -1.46657225022434074130e-002 +4.27806551388821253157e-003 -2.80701393315682834473e-001 -8.91526468449461373389e-001 -2.80701393315682834473e-001 -8.91526468449461373389e-001 -1.46657225022434074130e-002 +4.27806551388821253157e-003
8.40000000000000000000e+009 -1.24031626164502108839e-002 +6.36550183768211808727e-003 -4.57984696662386780996e-001 -8.13073595462066034401e-001 -4.57984696662386780996e-001 -8.13073595462066034401e-001 -1.24031626164502108839e-002 +6.36550183768211808727e-003
8.60000000000000000000e+009 -9.49420125781948870403e-003 +7.35837595342257733133e-003 -6.15256957257263259464e-001 -6.99673155201463559116e-001 -6.15256957257263259464e-001 -6.99673155201463559116e-001 -9.49420125781948870403e-003 +7.35837595342257733133e-003
8.80000000000000000000e+009 -6.43710639991382921332e-003 +7.08853207676012845445e-003 -7.45668683264215759188e-001 -5.56163996056856180239e-001 -7.45668683264215759188e-001 -5.56163996056856180239e-001 -6.43710639991382921332e-003 +7.08853207676012845445e-003
9.00000000000000000000e+009 -3.75650628534076247086e-003 +5.60422518378184651711e-003 -8.43500590258872362526e-001 -3.88725070107952208609e-001 -8.43500590258872362526e-001 -3.88725070107952208609e-001 -3.75650628534076247086e-003 +5.60422518378184651711e-003
9.20000000000000000000e+009 -1.91307105058009406170e-003 +3.16293939402280746553e-003 -9.04427574871853323657e-001 -2.04617664228513740365e-001 -9.04427574871853323657e-001 -2.04617664228513740365e-001 -1.91307105058009406170e-003 +3.16293939402280746553e-003
9.40000000000000000000e+009 -1.22349085480228454877e-003 +1.87867239399014645650e-004 -9.25724694487064625470e-001 -1.18740909338196053147e-002 -9.25724694487064625470e-001 -1.18740909338196053147e-002 -1.22349085480228454877e-003 +1.87867239399014645650e-004
9.60000000000000000000e+009 -1.80485362093746825284e-003 -2.80480505515543886846e-003 -9.06403343627854574116e-001 +1.81053962117492917017e-001 -9.06403343627854574116e-001 +1.81053962117492917017e-001 -1.80485362093746825284e-003 -2.80480505515543886846e-003
9.80000000000000000000e+009 -3.55345481242026620464e-003 -5.29539268431978519397e-003 -8.47269116913575093264e-001 +3.65671123194776237497e-001 -8.47269116913575093264e-001 +3.65671123194776237497e-001 -3.55345481242026620464e-003 -5.29539268431978519397e-003
1.00000000000000000000e+010 -6.16211883759901039859e-003 -6.85142005096197291569e-003 -7.50897166750133182589e-001 +5.33819747758065732413e-001 -7.50897166750133182589e-001 +5.33819747758065732413e-001 -6.16211883759901039859e-003 -6.85142005096197291569e-003
1.02000000000000000000e+010 -9.17332356546469995795e-003 -7.20356493596043066102e-003 -6.21525682384088007382e-001 +6.78048173144442656302e-001 -6.21525682384088007382e-001 +6.78048173144442656302e-001 -9.17332356546469995795e-003 -7.20356493596043066102e-003
1.04000000000000000000e+010 -1.20590294722014330919e-002 -6.29332285727673274023e-003 -4.64872786691260919678e-001 +7.91947914942566999486e-001 -4.64872786691260919678e-001 +7.91947914942566999486e-001 -1.20590294722014330919e-002 -6.29332285727673274023e-003
1.06000000000000000000e+010 -1.43132967716030207184e-002 -4.28378424516312038967e-003 -2.87886086566777499307e-001 +8.70444145088153486967e-001 -2.87886086566777499307e-001 +8.70444145088153486967e-001 -1.43132967716030207184e-002 -4.28378424516312038967e-003
1.08000000000000000000e+010 -1.55414085740510927308e-002 -1.53139628128546667965e-003 -9.84369801765028890062e-002 +9.10026802360975439754e-001 -9.84369801765028890062e-002 +9.10026802360975439754e-001 -1.55414085740510927308e-002 -1.53139628128546667965e-003
1.10000000000000000000e+010 -1.55297316191722080403e-002 +1.47652769873468734524e-003 +9.50264024555256686666e-002 +9.08912915353168759935e-001 +9.50264024555256686666e-002 +9.08912915353168759935e-001 -1.55297316191722080403e-002 +1.47652769873468734524e-003
1.12000000000000000000e+010 -1.42838471187435884363e-002 +4.20770304859648981710e-003 +2.83852814245774354163e-001 +8.67133754535677758746e-001 +2.83852814245774354163e-001 +8.67133754535677758746e-001 -1.42838471187435884363e-002 +4.20770304859648981710e-003
1.14000000000000000000e+010 -1.20280000270560766262e-002 +6.17910909588752395305e-003 +4.59572765087386370109e-001 +7.86543127198405356282e-001 +4.59572765087386370109e-001 +7.86543127198405356282e-001 -1.20280000270560766262e-002 +6.17910909588752395305e-003
1.16000000000000000000e+010 -9.16570114394625948262e-003 +7.04289636176088935243e-003 +6.14278992266889090068e-001 +6.70745619292512196274e-001 +6.14278992266889090068e-001 +6.70745619292512196274e-001 -9.16570114394625948262e-003 +7.04289636176088935243e-003
1.18000000000000000000e+010 -6.20821108472617826796e-003 +6.64861080397376180695e-003 +7.40986499382156105220e-001 +5.24946181078423501631e-001 +7.40986499382156105220e-001 +5.24946181078423501631e-001 -6.20821108472617826796e-003 +6.64861080397376180695e-003
1.20000000000000000000e+010 -3.68343772992018800294e-003 +5.07043412980323106309e-003 +8.33955936270086350959e-001 +3.55725457926722221647e-001 +8.33955936270086350959e-001 +3.55725457926722221647e-001 -3.68343772992018800294e-003 +5.07043412980323106309e-003
1.22000000000000000000e+010 -2.04143927705449992893e-003 +2.59428079012575651258e-003 +8.88964445864822150334e-001 +1.70748808838074417338e-001 +8.88964445864822150334e-001 +1.70748808838074417338e-001 -2.04143927705449992893e-003 +2.59428079012575651258e-003
1.24000000000000000000e+010 -1.57352906969853269595e-003 -3.33225535139067914527e-004 +9.03509462820832665031e-001 -2.15791401819796918593e-002 +9.03509462820832665031e-001 -2.15791401819796918593e-002 -1.57352906969853269595e-003 -3.33225535139067914527e-004
1.26000000000000000000e+010 -2.35970010728872407746e-003 -3.18493369098550539384e-003 +8.76933628225441852422e-001 -2.12498761211432213303e-001 +8.76933628225441852422e-001 -2.12498761211432213303e-001 -2.35970010728872407746e-003 -3.18493369098550539384e-003
1.28000000000000000000e+010 -4.25406978400466161822e-003 -5.44813986693467536965e-003 +8.10462997018654873749e-001 -3.93299802071599036157e-001 +8.10462997018654873749e-001 -3.93299802071599036157e-001 -4.25406978400466161822e-003 -5.44813986693467536965e-003
1.30000000000000000000e+010 -6.91117173696685020007e-003 -6.71717076790649160467e-003 +7.07155710539253634650e-001 -5.55725446203011230750e-001 +7.07155710539253634650e-001 -5.55725446203011230750e-001 -6.91117173696685020007e-003 -6.71717076790649160467e-003
1.32000000000000000000e+010 -9.84846048715844885058e-003 -6.76672612395565024890e-003 +5.71763653163727791906e-001 -6.92355580686941252111e-001 +5.71763653163727791906e-001 -6.92355580686941252111e-001 -9.84846048715844885058e-003 -6.76672612395565024890e-003
1.34000000000000000000e+010 -1.25337487232940972964e-002 -5.59258611531873121164e-003 +4.10514582172143205341e-001 -7.96950409851648555737e-001 +4.10514582172143205341e-001 -7.96950409851648555737e-001 -1.25337487232940972964e-002 -5.59258611531873121164e-003
1.36000000000000000000e+010 -1.44817150113029386588e-002 -3.41222103266394663837e-003 +2.30826219240709257230e-001 -8.64738434550185397498e-001 +2.30826219240709257230e-001 -8.64738434550185397498e-001 -1.44817150113029386588e-002 -3.41222103266394663837e-003
1.38000000000000000000e+010 -1.53419455388063580986e-002 -6.25140204654468334237e-004 +4.09665328328905550825e-002 -8.92636373123035231636e-001 +4.09665328328905550825e-002 -8.92636373123035231636e-001 -1.53419455388063580986e-002 -6.25140204654468334237e-004
1.40000000000000000000e+010 -1.49624957174700808776e-002 +2.25986130835304898506e-003 -1.50324004110260422973e-001 -8.79392235263494193021e-001 -1.50324004110260422973e-001 -8.79392235263494193021e-001 -1.49624957174700808776e-002 +2.25986130835304898506e-003
1.42000000000000000000e+010 -1.34173792863782823104e-002 +4.71738034562671840200e-003 -3.34231680922821905444e-001 -8.25646086715415838952e-001 -3.34231680922821905444e-001 -8.25646086715415838952e-001 -1.34173792863782823104e-002 +4.71738034562671840200e-003
1.44000000000000000000e+010 -1.09929103997306598650e-002 +6.30118275994008807811e-003 -5.02273530316538985296e-001 -7.33905986607932492305e-001 -5.02273530316538985296e-001 -7.33905986607932492305e-001 -1.09929103997306598650e-002 +6.30118275994008807811e-003
1.46000000000000000000e+010 -8.13528015169334706158e-003 +6.72562902718793886175e-003 -6.46688999828009425386e-001 -6.08439351588469512500e-001 -6.46688999828009425386e-001 -6.08439351588469512500e-001 -8.13528015169334706158e-003 +6.72562902718793886175e-003
1.48000000000000000000e+010 -5.36882352185157410429e-003 +5.91782189604204630906e-003 -7.60802132481904314076e-001 -4.55082950344552705779e-001 -7.60802132481904314076e-001 -4.55082950344552705779e-001 -5.36882352185157410429e-003 +5.91782189604204630906e-003
1.50000000000000000000e+010 -3.19985441253906911785e-003 +4.03081180083004943920e-003 -8.39337233210681432638e-001 -2.80978136819860779827e-001 -8.39337233210681432638e-001 -2.80978136819860779827e-001 -3.19985441253906911785e-003 +4.03081180083004943920e-003
1.52000000000000000000e+010 -2.02370311894573906911e-003 +1.41528911574757051278e-003 -8.78671917756696618795e-001 -9.42418160262370879776e-002 -8.78671917756696618795e-001 -9.42418160262370879776e-002 -2.02370311894573906911e-003 +1.41528911574757051278e-003
