# HZ S RI R 50
2.00000000000000000000e+008 -6.50260368019505438988e-004 -3.18345928511087113838e-003 +9.79820551973531128631e-001 -1.89416112751127685421e-001 +9.79820551973531128631e-001 -1.89416112751127685421e-001 -6.50260368019505438988e-004 -3.18345928511087113838e-003
4.00000000000000000000e+008 -2.44539175057955238818e-003 -5.92342451686058649868e-003 +9.24358684828010424006e-001 -3.71418651247054254494e-001 +9.24358684828010424006e-001 -3.71418651247054254494e-001 -2.44539175057955238818e-003 -5.92342451686058649868e-003
6.00000000000000000000e+008 -5.14620572704010091625e-003 -7.82201108340818337950e-003 +8.35416515415587923599e-001 -5.39461738497543863424e-001 +8.35416515415587923599e-001 -5.39461738497543863424e-001 -5.14620572704010091625e-003 -7.82201108340818337950e-003
8.00000000000000000000e+008 -8.36895176642695783065e-003 -8.58888827192202941596e-003 +7.16204787928858221946e-001 -6.87449889488461751696e-001 +7.16204787928858221946e-001 -6.87449889488461751696e-001 -8.36895176642695783065e-003 -8.58888827192202941596e-003
1.00000000000000000000e+009 -1.16400257253574685584e-002 -8.09761172374793246342e-003 +5.71050504864078378731e-001 -8.09984165945606182646e-001 +5.71050504864078378731e-001 -8.09984165945606182646e-001 -1.16400257253574685584e-002 -8.09761172374793246342e-003
1.20000000000000000000e+009 -1.44678119802301788366e-002 -6.41357752594377480970e-003 +4.05240835764046958278e-001 -9.02567898735514462238e-001 +4.05240835764046958278e-001 -9.02567898735514462238e-001 -1.44678119802301788366e-002 -6.41357752594377480970e-003
1.40000000000000000000e+009 -1.64212150561194383802e-002 -3.78934833998007501721e-003 +2.24836122212660943775e-001 -9.61777323471880163375e-001 +2.24836122212660943775e-001 -9.61777323471880163375e-001 -1.64212150561194383802e-002 -3.78934833998007501721e-003
1.60000000000000000000e+009 -1.72006695324896166643e-002 -6.27501486343540887392e-004 +3.64550893323933589141e-002 -9.85393175674115884277e-001 +3.64550893323933589141e-002 -9.85393175674115884277e-001 -1.72006695324896166643e-002 -6.27501486343540887392e-004
1.80000000000000000000e+009 -1.66886337690800683198e-002 +2.58315152015493746177e-003 -1.52960639876406429005e-001 -9.72489942537441587334e-001 -1.52960639876406429005e-001 -9.72489942537441587334e-001 -1.66886337690800683198e-002 +2.58315152015493746177e-003
2.00000000000000000000e+009 -1.49700949725764670406e-002 +5.34727237716878592289e-003 -3.36395304609005962870e-001 -9.23480473966825976539e-001 -3.36395304609005962870e-001 -9.23480473966825976539e-001 -1.49700949725764670406e-002 +5.34727237716878592289e-003
2.20000000000000000000e+009 -1.23188417717347200447e-002 +7.24489206307506964505e-003 -5.07013648877618350319e-001 -8.40114337949239953218e-001 -5.07013648877618350319e-001 -8.40114337949239953218e-001 -1.23188417717347200447e-002 +7.24489206307506964505e-003
2.40000000000000000000e+009 -9.15132046379849711792e-003 +8.00110660326546450916e-003 -6.58413780942338933144e-001 -7.25428832508121401723e-001 -6.58413780942338933144e-001 -7.25428832508121401723e-001 -9.15132046379849711792e-003 +8.00110660326546450916e-003
2.60000000000000000000e+009 -5.95575103725761497570e-003 +7.53108950546236156215e-003 -7.84869903602082086280e-001 -5.83652336536866878092e-001 -7.84869903602082086280e-001 -5.83652336536866878092e-001 -5.95575103725761497570e-003 +7.53108950546236156215e-003
2.80000000000000000000e+009 -3.20880001149325680063e-003 +5.95214545073256481866e-003 -8.81555732134354452789e-001 -4.20061050544590253164e-001 -8.81555732134354452789e-001 -4.20061050544590253164e-001 -3.20880001149325680063e-003 +5.95214545073256481866e-003
3.00000000000000000000e+009 -1.29460743046288769345e-003 +3.56036895803611913927e-003 -9.44738883546685559445e-001 -2.40792265562010721069e-001 -9.44738883546685559445e-001 -2.40792265562010721069e-001 -1.29460743046288769345e-003 +3.56036895803611913927e-003
3.20000000000000000000e+009 -4.40791516668803120497e-004 +7.75930724880038026441e-004 -9.71936765511647204896e-001 -5.26199015369185341129e-002 -9.71936765511647204896e-001 -5.26199015369185341129e-002 -4.40791516668803120497e-004 +7.75930724880038026441e-004
3.40000000000000000000e+009 -6.83124816862369318472e-004 -1.93310557700680806827e-003 -9.62025793602758971801e-001 +1.37299297562893163338e-001 -9.62025793602758971801e-001 +1.37299297562893163338e-001 -6.83124816862369318472e-004 -1.93310557700680806827e-003
3.60000000000000000000e+009 -1.86534741861132100961e-003 -4.13439238712946539184e-003 -9.15298069044898188196e-001 +3.21698406593940278153e-001 -9.15298069044898188196e-001 +3.21698406593940278153e-001 -1.86534741861132100961e-003 -4.13439238712946539184e-003
3.80000000000000000000e+009 -3.67400178055485174614e-003 -5.50675857170241159211e-003 -8.33462576530424770205e-001 +4.93480148827220577168e-001 -8.33462576530424770205e-001 +4.93480148827220577168e-001 -3.67400178055485174614e-003 -5.50675857170241159211e-003
4.00000000000000000000e+009 -5.70149965195008556068e-003 -5.89339948005701639439e-003 -7.19590949534414825450e-001 +6.45992229475364609925e-001 -7.19590949534414825450e-001 +6.45992229475364609925e-001 -5.70149965195008556068e-003 -5.89339948005701639439e-003
4.20000000000000000000e+009 -7.52517855799671696315e-003 -5.32289156202926314054e-003 -5.78010377606359315728e-001 +7.73287364472963534290e-001 -5.78010377606359315728e-001 +7.73287364472963534290e-001 -7.52517855799671696315e-003 -5.32289156202926314054e-003
4.40000000000000000000e+009 -8.78696717144998931670e-003 -3.99432718969826554972e-003 -4.14148023266785680896e-001 +8.70358522275290091841e-001 -4.14148023266785680896e-001 +8.70358522275290091841e-001 -8.78696717144998931670e-003 -3.99432718969826554972e-003
4.60000000000000000000e+009 -9.25810897645595702599e-003 -2.22987122923254009119e-003 -2.34332443501111126194e-001 +9.33341190115237528957e-001 -2.34332443501111126194e-001 +9.33341190115237528957e-001 -9.25810897645595702599e-003 -2.22987122923254009119e-003
4.80000000000000000000e+009 -8.87628169815010345522e-003 -4.04499823361997347133e-004 -4.55583169624457287594e-002 +9.59675443897761604184e-001 -4.55583169624457287594e-002 +9.59675443897761604184e-001 -8.87628169815010345522e-003 -4.04499823361997347133e-004
5.00000000000000000000e+009 -7.74790385028319671112e-003 +1.13268292300184865266e-003 +1.44778309841399666080e-001 +9.48221271776400809195e-001 +1.44778309841399666080e-001 +9.48221271776400809195e-001 -7.74790385028319671112e-003 +1.13268292300184865266e-003
5.20000000000000000000e+009 -6.11544074402865355661e-003 +2.12931325732625478797e-003 +3.29165749513689154249e-001 +8.99321301196446709625e-001 +3.29165749513689154249e-001 +8.99321301196446709625e-001 -6.11544074402865355661e-003 +2.12931325732625478797e-003
5.40000000000000000000e+009 -4.29676179687201158924e-003 +2.47800896161804286646e-003 +5.00273227129098496668e-001 +8.14806257270317302321e-001 +5.00273227129098496668e-001 +8.14806257270317302321e-001 -4.29676179687201158924e-003 +2.47800896161804286646e-003
5.60000000000000000000e+009 -2.60958969451409927495e-003 +2.23171126422511308107e-003 +6.51246494809129439219e-001 +6.97940467605139613916e-001 +6.51246494809129439219e-001 +6.97940467605139613916e-001 -2.60958969451409927495e-003 +2.23171126422511308107e-003
5.80000000000000000000e+009 -1.29751354897405732358e-003 +1.58270871130305719812e-003 +7.75989683421518194884e-001 +5.53307540921916807264e-001 +7.75989683421518194884e-001 +5.53307540921916807264e-001 -1.29751354897405732358e-003 +1.58270871130305719812e-003
6.00000000000000000000e+009 -4.74061923913507020541e-004 +8.09746834485551049421e-004 +8.69420530701918936600e-001 +3.86639634521941111256e-001 +8.69420530701918936600e-001 +3.86639634521941111256e-001 -4.74061923913507020541e-004 +8.09746834485551049421e-004
6.20000000000000000000e+009 -9.77807240070046197180e-005 +2.04781676718696531480e-004 +9.27687269152135951522e-001 +2.04596904385669992044e-001 +9.27687269152135951522e-001 +2.04596904385669992044e-001 -9.77807240070046197180e-005 +2.04781676718696531480e-004
6.40000000000000000000e+009 +1.52592225211687351142e-005 -4.16230518519813160442e-006 +9.48337547957207260829e-001 +1.45062371572342811016e-002 +9.48337547957207260829e-001 +1.45062371572342811016e-002 +1.52592225211687351142e-005 -4.16230518519813160442e-006
6.60000000000000000000e+009 +1.43305357795370192850e-004 +2.83911881439079575272e-004 +9.30432281345694889296e-001 -1.75930093134705700653e-001 +9.30432281345694889296e-001 -1.75930093134705700653e-001 +1.43305357795370192850e-004 +2.83911881439079575272e-004
6.80000000000000000000e+009 +5.85081652726777892010e-004 +1.00944577028343933714e-003 +8.74599712194021550182e-001 -3.58944510298310870411e-001 +8.74599712194021550182e-001 -3.58944510298310870411e-001 +5.85081652726777892010e-004 +1.00944577028343933714e-003
7.00000000000000000000e+009 +1.57661121964645803764e-003 +1.95789800707722424014e-003 +7.83026954027975619077e-001 -5.27021371030630181309e-001 +7.83026954027975619077e-001 -5.27021371030630181309e-001 +1.57661121964645803764e-003 +1.95789800707722424014e-003
7.20000000000000000000e+009 +3.21815476348896083517e-003 +2.80549565082939067820e-003 +6.59387927653868555211e-001 -6.73209455253024779964e-001 +6.59387927653868555211e-001 -6.73209455253024779964e-001 +3.21815476348896083517e-003 +2.80549565082939067820e-003
7.40000000000000000000e+009 +5.42965611273108720441e-003 +3.19700911229048746059e-003 +5.08708374830733722760e-001 -7.91417246915896210879e-001 +5.08708374830733722760e-001 -7.91417246915896210879e-001 +5.42965611273108720441e-003 +3.19700911229048746059e-003
7.60000000000000000000e+009 +7.94780461876520329112e-003 +2.83935494278747752386e-003 +3.37171007951302337258e-001 -8.76677915749459413242e-001 +3.37171007951302337258e-001 -8.76677915749459413242e-001 +7.94780461876520329112e-003 +2.83935494278747752386e-003
7.80000000000000000000e+009 +1.03691706709429405653e-002 +1.58985804755853109803e-003 +1.51867055603140649334e-001 -9.25370831130173598922e-001 +1.51867055603140649334e-001 -9.25370831130173598922e-001 +1.03691706709429405653e-002 +1.58985804755853109803e-003
8.00000000000000000000e+009 +1.22335175066040774405e-002 -4.82536962508329212752e-004 -3.94958161077790387283e-002 -9.35387598358089156214e-001 -3.94958161077790387283e-002 -9.35387598358089156214e-001 +1.22335175066040774405e-002 -4.82536962508329212752e-004
8.20000000000000000000e+009 +1.31315479955107124177e-002 -3.08044730738621114902e-003 -2.28915785311476688291e-001 -9.06233384771730765550e-001 -2.28915785311476688291e-001 -9.06233384771730765550e-001 +1.31315479955107124177e-002 -3.08044730738621114902e-003
8.40000000000000000000e+009 +1.28142830596335802890e-002 -5.71430106898949789762e-003 -4.08433747392406787391e-001 -8.39058457245459909934e-001 -4.08433747392406787391e-001 -8.39058457245459909934e-001 +1.28142830596335802890e-002 -5.71430106898949789762e-003
8.60000000000000000000e+009 +1.12787832841394000671e-002 -7.78900477916487365970e-003 -5.70468893362548135073e-001 -7.36619506148542768642e-001 -5.70468893362548135073e-001 -7.36619506148542768642e-001 +1.12787832841394000671e-002 -7.78900477916487365970e-003
8.80000000000000000000e+009 +8.80787785481149804179e-003 -8.72673671662734656840e-003 -7.08138711245513641224e-001 -6.03174303150467938650e-001 -7.08138711245513641224e-001 -6.03174303150467938650e-001 +8.80787785481149804179e-003 -8.72673671662734656840e-003
9.00000000000000000000e+009 +5.94966624811448137333e-003 -8.10211687271276091715e-003 -8.15551782064662389438e-001 -4.44315602484742777634e-001 -8.15551782064662389438e-001 -4.44315602484742777634e-001 +5.94966624811448137333e-003 -8.10211687271276091715e-003
9.20000000000000000000e+009 +3.43443586848276921283e-003 -5.76088465511362217419e-003 -8.88064157072313675734e-001 -2.66750779137654436823e-001 -8.88064157072313675734e-001 -2.66750779137654436823e-001 +3.43443586848276921283e-003 -5.76088465511362217419e-003
9.40000000000000000000e+009 +2.04011245758204100981e-003 -1.89381750314494053805e-003 -9.22491152878021414274e-001 -7.80332789895992751106e-002 -9.22491152878021414274e-001 -7.80332789895992751106e-002 +2.04011245758204100981e-003 -1.89381750314494053805e-003
9.60000000000000000000e+009 +2.42980268756919125586e-003 +2.95566847608849528686e-003 -9.17265766111667657512e-001 +1.13748033585863453365e-001 -9.17265766111667657512e-001 +1.13748033585863453365e-001 +2.42980268756919125586e-003 +2.95566847608849528686e-003
9.80000000000000000000e+009 +4.99371100220121540841e-003 +7.95972358185667062946e-003 -8.72533405227791103442e-001 +3.00313713029042028690e-001 -8.72533405227791103442e-001 +3.00313713029042028690e-001 +4.99371100220121540841e-003 +7.95972358185667062946e-003
1.00000000000000000000e+010 +9.73040228652713792834e-003 +1.21440426364922086228e-002 -7.90172001351613362274e-001 +4.73560645126662183024e-001 -7.90172001351613362274e-001 +4.73560645126662183024e-001 +9.73040228652713792834e-003 +1.21440426364922086228e-002
1.02000000000000000000e+010 +1.61976439170234513820e-002 +1.45735902102268072983e-002 -6.73728686607121152186e-001 +6.25933226095880534956e-001 -6.73728686607121152186e-001 +6.25933226095880534956e-001 +1.61976439170234513820e-002 +1.45735902102268072983e-002
1.04000000000000000000e+010 +2.35510005924024039270e-002 +1.45511946835949791679e-002 -5.28270132425746052895e-001 +7.50775942057801626284e-001 -5.28270132425746052895e-001 +7.50775942057801626284e-001 +2.35510005924024039270e-002 +1.45511946835949791679e-002
1.06000000000000000000e+010 +3.06709397292559901582e-002 +1.17878421795587686599e-002 -3.60152652925887661883e-001 +8.42642679627816471033e-001 -3.60152652925887661883e-001 +8.42642679627816471033e-001 +3.06709397292559901582e-002 +1.17878421795587686599e-002
1.08000000000000000000e+010 +3.63600703799560331930e-002 +6.50593278703037909694e-003 -1.76727874133632834042e-001 +8.97541346560267738752e-001 -1.76727874133632834042e-001 +8.97541346560267738752e-001 +3.63600703799560331930e-002 +6.50593278703037909694e-003
1.10000000000000000000e+010 +3.95757042676792569758e-002 -5.52039563154584642449e-004 +1.39931700804292371426e-002 +9.13100550803913058040e-001 +1.39931700804292371426e-002 +9.13100550803913058040e-001 +3.95757042676792569758e-002 -5.52039563154584642449e-004
1.12000000000000000000e+010 +3.96530806584864878306e-002 -8.21917861480789269102e-003 +2.03692946918061695838e-001 +8.88655827423872390902e-001 +2.03692946918061695838e-001 +8.88655827423872390902e-001 +3.96530806584864878306e-002 -8.21917861480789269102e-003
1.14000000000000000000e+010 +3.64735458664354472713e-002 -1.50935373771407341931e-002 +3.84097121082390524638e-001 +8.25262453559905240219e-001 +3.84097121082390524638e-001 +8.25262453559905240219e-001 +3.64735458664354472713e-002 -1.50935373771407341931e-002
1.16000000000000000000e+010 +3.05398368574201564685e-002 -1.97912723383300258317e-002 +5.47309346308868738262e-001 +7.25646680966519408429e-001 +5.47309346308868738262e-001 +7.25646680966519408429e-001 +3.05398368574201564685e-002 -1.97912723383300258317e-002
1.18000000000000000000e+010 +2.29358257521908859289e-002 -2.12193640815627158902e-002 +6.86128275123646824696e-001 +5.94105531839560607743e-001 +6.86128275123646824696e-001 +5.94105531839560607743e-001 +2.29358257521908859289e-002 -2.12193640815627158902e-002
1.20000000000000000000e+010 +1.51682154209031080233e-002 -1.88163594456698599067e-002 +7.94348681935075684457e-001 +4.36358268075376365402e-001 +7.94348681935075684457e-001 +4.36358268075376365402e-001 +1.51682154209031080233e-002 -1.88163594456698599067e-002
1.22000000000000000000e+010 +8.90999352252867804491e-003 -1.27107886450628353864e-002 +8.67046432575185543890e-001 +2.59344054855216721300e-001 +8.67046432575185543890e-001 +2.59344054855216721300e-001 +8.90999352252867804491e-003 -1.27107886450628353864e-002
1.24000000000000000000e+010 +5.68681134207281793747e-003 -3.75748070614553278043e-003 +9.00838021604701166822e-001 +7.09553605529638087290e-002 +9.00838021604701166822e-001 +7.09553605529638087290e-002 +5.68681134207281793747e-003 -3.75748070614553278043e-003
1.26000000000000000000e+010 +6.56391341834105471881e-003 +6.56806531225217517245e-003 +8.94093127496766948425e-001 -1.20300337703483722906e-001 +8.94093127496766948425e-001 -1.20300337703483722906e-001 +6.56391341834105471881e-003 +6.56806531225217517245e-003
1.28000000000000000000e+010 +1.18981596409718330676e-002 +1.64096956785498085396e-002 +8.47069273562901181585e-001 -3.05705604749046289115e-001 +8.47069273562901181585e-001 -3.05705604749046289115e-001 +1.18981596409718330676e-002 +1.64096956785498085396e-002
1.30000000000000000000e+010 +2.12129916029812626288e-002 +2.38673817430320768518e-002 +7.61937531021805725118e-001 -4.76781372791103830178e-001 +7.61937531021805725118e-001 -4.76781372791103830178e-001 +2.12129916029812626288e-002 +2.38673817430320768518e-002
1.32000000000000000000e+010 +3.32327000414928130922e-002 +2.73678926207049609542e-002 +6.42680460304587475306e-001 -6.25737517574425639033e-001 +6.42680460304587475306e-001 -6.25737517574425639033e-001 +3.32327000414928130922e-002 +2.73678926207049609542e-002
1.34000000000000000000e+010 +4.60796341018109220644e-002 +2.59939950461092507406e-002 +4.94865827671431168788e-001 -7.45876462053924993434e-001 +4.94865827671431168788e-001 -7.45876462053924993434e-001 +4.60796341018109220644e-002 +2.59939950461092507406e-002
1.36000000000000000000e+010 +5.76022514440780106226e-002 +1.97019672548407881463e-002 +3.25324318356119246420e-001 -8.31907048504961665891e-001 +3.25324318356119246420e-001 -8.31907048504961665891e-001 +5.76022514440780106226e-002 +1.97019672548407881463e-002
1.38000000000000000000e+010 +6.57730491747358092525e-002 +9.37915617065896226046e-003 +1.41776561206818835226e-001 -8.80146102946198438666e-001 +1.41776561206818835226e-001 -8.80146102946198438666e-001 +6.57730491747358092525e-002 +9.37915617065896226046e-003
1.40000000000000000000e+010 +6.90808301520046824651e-002 -3.27442900731778757661e-003 -4.75430320236979800375e-002 -8.88611653479198793093e-001 -4.75430320236979800375e-002 -8.88611653479198793093e-001 +6.90808301520046824651e-002 -3.27442900731778757661e-003
1.42000000000000000000e+010 +6.68434170759723278454e-002 -1.60228256644986515045e-002 -2.34231848310597789986e-001 -8.57034116955849745167e-001 -2.34231848310597789986e-001 -8.57034116955849745167e-001 +6.68434170759723278454e-002 -1.60228256644986515045e-002
1.44000000000000000000e+010 +5.93816655523507833103e-002 -2.64836192804580317084e-002 -4.10024188900008079717e-001 -7.86820999364623907546e-001 -4.10024188900008079717e-001 -7.86820999364623907546e-001 +5.93816655523507833103e-002 -2.64836192804580317084e-002
1.46000000000000000000e+010 +4.80181927712583639378e-002 -3.25658558627751962278e-002 -5.67070025958002599253e-001 -6.81003173966870489764e-001 -5.67070025958002599253e-001 -6.81003173966870489764e-001 +4.80181927712583639378e-002 -3.25658558627751962278e-002
1.48000000000000000000e+010 +3.48906993757092942499e-002 -3.28819341022178607270e-002 -6.98215338618796033110e-001 -5.44169632663073721268e-001 -6.98215338618796033110e-001 -5.44169632663073721268e-001 +3.48906993757092942499e-002 -3.28819341022178607270e-002
1.50000000000000000000e+010 +2.25987945837253338677e-002 -2.70572951821314196252e-002 -7.97308769689951901682e-001 -3.82371364001203917216e-001 -7.97308769689951901682e-001 -3.82371364001203917216e-001 +2.25987945837253338677e-002 -2.70572951821314196252e-002
1.52000000000000000000e+010 +1.37343552130681570422e-002 -1.58700114013134614688e-002 -8.59538316310857974933e-001 -2.02955356807911907469e-001 -8.59538316310857974933e-001 -2.02955356807911907469e-001 +1.37343552130681570422e-002 -1.58700114013134614688e-002
