# HZ S RI R 50
2.00000000000000000000e+008 -6.45457571718057549967e-004 -3.16046264628840794034e-003 +9.79827056029697440742e-001 -1.89382887191945986638e-001 +9.79827056029697440742e-001 -1.89382887191945986638e-001 -6.45457571718057549967e-004 -3.16046264628840794034e-003
4.00000000000000000000e+008 -2.38689517994750523625e-003 -5.78462056474094918346e-003 +9.24426872796483944938e-001 -3.71251523507665492918e-001 +9.24426872796483944938e-001 -3.71251523507665492918e-001 -2.38689517994750523625e-003 -5.78462056474094918346e-003
6.00000000000000000000e+008 -4.90360678336016972412e-003 -7.46069283277347918698e-003 +8.35670943176964442500e-001 -5.39074961751498937801e-001 +8.35670943176964442500e-001 -5.39074961751498937801e-001 -4.90360678336016972412e-003 -7.46069283277347918698e-003
8.00000000000000000000e+008 -7.73436989055735577697e-003 -7.95150261138057902477e-003 +7.16821125712448381506e-001 -6.86822314096564690011e-001 +7.16821125712448381506e-001 -6.86822314096564690011e-001 -7.73436989055735577697e-003 -7.95150261138057902477e-003
1.00000000000000000000e+009 -1.03684186574667779740e-002 -7.23472217043925891478e-003 +5.72219898774778745754e-001 -8.09183811058294844010e-001 +5.72219898774778745754e-001 -8.09183811058294844010e-001 -1.03684186574667779740e-002 -7.23472217043925891478e-003
1.20000000000000000000e+009 -1.23413613782974041638e-002 -5.50123978709973066037e-003 +4.07128972535499122909e-001 -9.01755091762682758905e-001 +4.07128972535499122909e-001 -9.01755091762682758905e-001 -1.23413613782974041638e-002 -5.50123978709973066037e-003
1.40000000000000000000e+009 -1.33203606983843050870e-002 -3.11269789278404004559e-003 +2.27546135121912546095e-001 -9.61189590171690588782e-001 +2.27546135121912546095e-001 -9.61189590171690588782e-001 -1.33203606983843050870e-002 -3.11269789278404004559e-003
1.60000000000000000000e+009 -1.31621715770197187517e-002 -5.26910476392962196651e-004 +4.00005348955590894766e-002 -9.85317043234934963891e-001 +4.00005348955590894766e-002 -9.85317043234934963891e-001 -1.31621715770197187517e-002 -5.26910476392962196651e-004
1.80000000000000000000e+009 -1.19328904934391175074e-002 +1.79390422299047897457e-003 -1.48669782126490707119e-001 -9.73225770323814964868e-001 -1.48669782126490707119e-001 -9.73225770323814964868e-001 -1.19328904934391175074e-002 +1.79390422299047897457e-003
2.00000000000000000000e+009 -9.88576237393265500053e-003 +3.47373592691186750328e-003 -3.31553571797949586664e-001 -9.25305887487739786579e-001 -3.31553571797949586664e-001 -9.25305887487739786579e-001 -9.88576237393265500053e-003 +3.47373592691186750328e-003
2.20000000000000000000e+009 -7.40169993240577094723e-003 +4.29401111877601021627e-003 -5.01909738530090576702e-001 -8.43250251082682922288e-001 -5.01909738530090576702e-001 -8.43250251082682922288e-001 -7.40169993240577094723e-003 +4.29401111877601021627e-003
2.40000000000000000000e+009 -4.90473097655990102756e-003 +4.23091391082170819454e-003 -6.53411077019491082218e-001 -7.30010297421191389766e-001 -6.53411077019491082218e-001 -7.30010297421191389766e-001 -4.90473097655990102756e-003 +4.23091391082170819454e-003
2.60000000000000000000e+009 -2.76990132066901257116e-003 +3.45098576361789434117e-003 -7.80379466379926833852e-001 -5.89705436918783854061e-001 -7.80379466379926833852e-001 -5.89705436918783854061e-001 -2.76990132066901257116e-003 +3.45098576361789434117e-003
2.80000000000000000000e+009 -1.24306214227200739937e-003 +2.26570101483576603549e-003 -8.78002594410515646572e-001 -4.27487154161689753007e-001 -8.78002594410515646572e-001 -4.27487154161689753007e-001 -1.24306214227200739937e-003 +2.26570101483576603549e-003
3.00000000000000000000e+009 -3.89913057095547072820e-004 +1.05436616166585577295e-003 -9.42522534739137829440e-001 -2.49361868692248356272e-001 -9.42522534739137829440e-001 -2.49361868692248356272e-001 -3.89913057095547072820e-004 +1.05436616166585577295e-003
3.20000000000000000000e+009 -8.59035691147964615508e-005 +1.71690300760494991101e-004 -9.71387987234611616216e-001 -6.19791309438284185318e-002 -9.71387987234611616216e-001 -6.19791309438284185318e-002 -8.59035691147964615508e-005 +1.71690300760494991101e-004
3.40000000000000000000e+009 -5.01637263038710165737e-005 -1.39814492135542617996e-004 -9.63364224655143264187e-001 +1.27606751482630648153e-001 -9.63364224655143264187e-001 +1.27606751482630648153e-001 -5.01637263038710165737e-005 -1.39814492135542617996e-004
3.60000000000000000000e+009 +8.28072338697067445020e-005 +1.87250053317959203525e-004 -9.18596998649358953415e-001 +3.12193171676129088699e-001 -9.18596998649358953415e-001 +3.12193171676129088699e-001 +8.28072338697067445020e-005 +1.87250053317959203525e-004
3.80000000000000000000e+009 +6.68498022215234435212e-004 +1.02225281368220773624e-003 -8.38628205764726297744e-001 +4.84695604095451759719e-001 -8.38628205764726297744e-001 +4.84695604095451759719e-001 +6.68498022215234435212e-004 +1.02225281368220773624e-003
4.00000000000000000000e+009 +1.95540986962099627364e-003 +2.06090978686279853449e-003 -7.26361833730788997165e-001 +6.38416046785957758125e-001 -7.26361833730788997165e-001 +6.38416046785957758125e-001 +1.95540986962099627364e-003 +2.06090978686279853449e-003
4.20000000000000000000e+009 +4.00812128941919251085e-003 +2.89418079345646773320e-003 -5.85979021164205082783e-001 +7.67305292312623787865e-001 -5.85979021164205082783e-001 +7.67305292312623787865e-001 +4.00812128941919251085e-003 +2.89418079345646773320e-003
4.40000000000000000000e+009 +6.66981071166562571040e-003 +3.10876521272331627146e-003 -4.22801774303976196645e-001 +8.66209595146757216355e-001 -4.22801774303976196645e-001 +8.66209595146757216355e-001 +6.66981071166562571040e-003 +3.10876521272331627146e-003
4.60000000000000000000e+009 +9.57624121118645296735e-003 +2.39817085531056177483e-003 -2.43106737840640796389e-001 +9.31090780403653561770e-001 -2.43106737840640796389e-001 +9.31090780403653561770e-001 +9.57624121118645296735e-003 +2.39817085531056177483e-003
4.80000000000000000000e+009 +1.22225398557686531359e-002 +6.59194766877352735304e-004 -5.38936283022412518373e-002 +9.59207977403372713532e-001 -5.38936283022412518373e-002 +9.59207977403372713532e-001 +1.22225398557686531359e-002 +6.59194766877352735304e-004
5.00000000000000000000e+009 +1.40722180469685740484e-002 -1.95023431017814457937e-003 +1.37383055025202677202e-001 +9.49249943461586975779e-001 +1.37383055025202677202e-001 +9.49249943461586975779e-001 +1.40722180469685740484e-002 -1.95023431017814457937e-003
5.20000000000000000000e+009 +1.46873207107557600393e-002 -5.00931480110469555533e-003 +3.23106815440291628150e-001 +9.01409780741884270050e-001 +3.23106815440291628150e-001 +9.01409780741884270050e-001 +1.46873207107557600393e-002 -5.00931480110469555533e-003
5.40000000000000000000e+009 +1.38518408050044145030e-002 -7.89514347431359564400e-003 +4.95802285011825272232e-001 +8.17398236351469020811e-001 +4.95802285011825272232e-001 +8.17398236351469020811e-001 +1.38518408050044145030e-002 -7.89514347431359564400e-003
5.60000000000000000000e+009 +1.16593819523100571123e-002 -9.89900776719189121056e-003 +6.48434992705241519673e-001 +7.00396393656778637471e-001 +6.48434992705241519673e-001 +7.00396393656778637471e-001 +1.16593819523100571123e-002 -9.89900776719189121056e-003
5.80000000000000000000e+009 +8.54113158104173077201e-003 -1.03782073874532192181e-002 +7.74696566076618964303e-001 +5.54951849951767162139e-001 +7.74696566076618964303e-001 +5.54951849951767162139e-001 +8.54113158104173077201e-003 -1.03782073874532192181e-002
6.00000000000000000000e+009 +5.22085950596059243656e-003 -8.91357911056963811425e-003 +8.69267303216872289084e-001 +3.86823429013965658374e-001 +8.69267303216872289084e-001 +3.86823429013965658374e-001 +5.22085950596059243656e-003 -8.91357911056963811425e-003
6.20000000000000000000e+009 +2.59810578354950421839e-003 -5.43845903694209053397e-003 +9.28050033664496565322e-001 +2.02778280969627994201e-001 +9.28050033664496565322e-001 +2.02778280969627994201e-001 +2.59810578354950421839e-003 -5.43845903694209053397e-003
6.40000000000000000000e+009 +1.57641459905992964083e-003 -3.07117028462483706523e-004 +9.48368677757545963658e-001 +1.03433480984409745945e-002 +9.48368677757545963658e-001 +1.03433480984409745945e-002 +1.57641459905992964083e-003 -3.07117028462483706523e-004
6.60000000000000000000e+009 +2.86741872590955517233e-003 +5.71998515328410363917e-003 +9.29121915767845640843e-001 -1.82487185947993291180e-001 +9.29121915767845640843e-001 -1.82487185947993291180e-001 +2.86741872590955517233e-003 +5.71998515328410363917e-003
6.80000000000000000000e+009 +6.81068403938427189420e-003 +1.15813872264865849737e-002 +8.70878532207177702418e-001 -3.67583859896459141936e-001 +8.70878532207177702418e-001 -3.67583859896459141936e-001 +6.81068403938427189420e-003 +1.15813872264865849737e-002
7.00000000000000000000e+009 +1.32507534491667685467e-002 +1.60984953628630564348e-002 +7.75899084154171858607e-001 -5.37042032183700390746e-001 +7.75899084154171858607e-001 -5.37042032183700390746e-001 +1.32507534491667685467e-002 +1.60984953628630564348e-002
7.20000000000000000000e+009 +2.15051710267040105395e-002 +1.82073741795336675742e-002 +6.48071216309131892253e-001 -6.83550230702619221468e-001 +6.48071216309131892253e-001 -6.83550230702619221468e-001 +2.15051710267040105395e-002 +1.82073741795336675742e-002
7.40000000000000000000e+009 +3.04408118579974421025e-002 +1.71934624121441795297e-002 +4.92754232306078843173e-001 -8.00739825268225846600e-001 +4.92754232306078843173e-001 -8.00739825268225846600e-001 +3.04408118579974421025e-002 +1.71934624121441795297e-002
7.60000000000000000000e+009 +3.86535100183440019639e-002 +1.28788770978495378805e-002 +3.16540812887130762476e-001 -8.83487338938417687828e-001 +3.16540812887130762476e-001 -8.83487338938417687828e-001 +3.86535100183440019639e-002 +1.28788770978495378805e-002
7.80000000000000000000e+009 +4.47228030970817022616e-002 +5.71783454157445171495e-003 +1.26956023708537368844e-001 -9.28146304859229998030e-001 +1.26956023708537368844e-001 -9.28146304859229998030e-001 +4.47228030970817022616e-002 +5.71783454157445171495e-003
8.00000000000000000000e+009 +4.74952842461545537978e-002 -3.22798053520302130961e-003 -6.78788260419219413588e-002 -9.32697446815975439449e-001 -6.78788260419219413588e-002 -9.32697446815975439449e-001 +4.74952842461545537978e-002 -3.22798053520302130961e-003
8.20000000000000000000e+009 +4.63409827554285280726e-002 -1.24391575497011953183e-002 -2.59590589761081791398e-001 -8.96819961059019621352e-001 -2.59590589761081791398e-001 -8.96819961059019621352e-001 +4.63409827554285280726e-002 -1.24391575497011953183e-002
8.40000000000000000000e+009 +4.13291715695663086638e-002 -2.01936835134606598730e-002 -4.39888738675578594428e-001 -8.21897208324647077227e-001 -4.39888738675578594428e-001 -8.21897208324647077227e-001 +4.13291715695663086638e-002 -2.01936835134606598730e-002
8.60000000000000000000e+009 +3.32821621038252024594e-002 -2.48860473733216389092e-002 -6.00884526478705716102e-001 -7.10972673294932300259e-001 -6.00884526478705716102e-001 -7.10972673294932300259e-001 +3.32821621038252024594e-002 -2.48860473733216389092e-002
8.80000000000000000000e+009 +2.36855772973689100713e-002 -2.53537437348738785292e-002 -7.35400525473859034697e-001 -5.68665380124803276907e-001 -7.35400525473859034697e-001 -5.68665380124803276907e-001 +2.36855772973689100713e-002 -2.53537437348738785292e-002
9.00000000000000000000e+009 +1.44585554308118459377e-002 -2.11479501344759186765e-002 -8.37279437358443456851e-001 -4.01041028427793933009e-001 -8.37279437358443456851e-001 -4.01041028427793933009e-001 +1.44585554308118459377e-002 -2.11479501344759186765e-002
9.20000000000000000000e+009 +7.61458233338434438420e-003 -1.26886470392109183131e-002 -9.01693516165545494445e-001 -2.15422351603636236250e-001 -9.01693516165545494445e-001 -2.15422351603636236250e-001 +7.61458233338434438420e-003 -1.26886470392109183131e-002
9.40000000000000000000e+009 +4.86958979695698186696e-003 -1.25965537896101441133e-003 -9.25439255111452419023e-001 -2.01172096576365463938e-002 -9.25439255111452419023e-001 -2.01172096576365463938e-002 +4.86958979695698186696e-003 -1.25965537896101441133e-003
9.60000000000000000000e+009 +7.27314252556348923157e-003 +1.11734919314021349107e-002 -9.07182907012118566747e-001 +1.75948779084029782727e-001 -9.07182907012118566747e-001 +1.75948779084029782727e-001 +7.27314252556348923157e-003 +1.11734919314021349107e-002
9.80000000000000000000e+009 +1.49440339675633616923e-002 +2.23029821203968407761e-002 -8.47610713332648368912e-001 +3.63686588052353376721e-001 -8.47610713332648368912e-001 +3.63686588052353376721e-001 +1.49440339675633616923e-002 +2.23029821203968407761e-002
1.00000000000000000000e+010 +2.69777365270466376601e-002 +2.99168078411809444661e-002 -7.49441988826258675971e-001 +5.34348489526182413023e-001 -7.49441988826258675971e-001 +5.34348489526182413023e-001 +2.69777365270466376601e-002 +2.99168078411809444661e-002
1.02000000000000000000e+010 +4.15595294523745176218e-002 +3.23477250556210779719e-002 -6.17285791539796013794e-001 +6.80023948000444522499e-001 -6.17285791539796013794e-001 +6.80023948000444522499e-001 +4.15595294523745176218e-002 +3.23477250556210779719e-002
1.04000000000000000000e+010 +5.62712008383994197191e-002 +2.88366201244658650060e-002 -4.57356109622599205089e-001 +7.94062303238720845755e-001 -4.57356109622599205089e-001 +7.94062303238720845755e-001 +5.62712008383994197191e-002 +2.88366201244658650060e-002
1.06000000000000000000e+010 +6.85344342414112572826e-002 +1.97299073857793334785e-002 -2.77092633160976153928e-001 +8.71374712043542665185e-001 -2.77092633160976153928e-001 +8.71374712043542665185e-001 +6.85344342414112572826e-002 +1.97299073857793334785e-002
1.08000000000000000000e+010 +7.61038154258926319295e-002 +6.46640177867646107762e-003 -8.47501631210637179636e-002 +9.08601124703361184842e-001 -8.47501631210637179636e-002 +9.08601124703361184842e-001 +7.61038154258926319295e-002 +6.46640177867646107762e-003
1.10000000000000000000e+010 +7.75138946076890378301e-002 -8.64715510557052639828e-003 +1.10987601996738113885e-001 +9.04164052551990060635e-001 +1.10987601996738113885e-001 +9.04164052551990060635e-001 +7.75138946076890378301e-002 -8.64715510557052639828e-003
1.12000000000000000000e+010 +7.23961889416133569375e-002 -2.28332841052095829315e-002 +3.01341403476518887583e-001 +8.58254392717317626804e-001 +3.01341403476518887583e-001 +8.58254392717317626804e-001 +7.23961889416133569375e-002 -2.28332841052095829315e-002
1.14000000000000000000e+010 +6.16060252698713353703e-002 -3.33467003160008088058e-002 +4.77723626886979169104e-001 +7.72796033415670047262e-001 +4.77723626886979169104e-001 +7.72796033415670047262e-001 +6.16060252698713353703e-002 -3.33467003160008088058e-002
1.16000000000000000000e+010 +4.71285777950091536170e-002 -3.79991199377578414698e-002 +6.32014290694009717164e-001 +6.51414929285254462599e-001 +6.32014290694009717164e-001 +6.51414929285254462599e-001 +4.71285777950091536170e-002 -3.79991199377578414698e-002
1.18000000000000000000e+010 +3.17656260959118183496e-002 -3.56141483292532479155e-002 +7.56869296013082282215e-001 +4.99403194332671274136e-001 +7.56869296013082282215e-001 +4.99403194332671274136e-001 +3.17656260959118183496e-002 -3.56141483292532479155e-002
1.20000000000000000000e+010 +1.86405102873478910330e-002 -2.63215020501600116543e-002 +8.46087510397361075576e-001 +3.23634004766716165680e-001 +8.46087510397361075576e-001 +3.23634004766716165680e-001 +1.86405102873478910330e-002 -2.63215020501600116543e-002
1.22000000000000000000e+010 +1.05983765274708149201e-002 -1.16148489243508099694e-002 +8.95024489863258998490e-001 +1.32365262441201780863e-001 +8.95024489863258998490e-001 +1.32365262441201780863e-001 +1.05983765274708149201e-002 -1.16148489243508099694e-002
1.24000000000000000000e+010 +9.61514335748651395586e-003 +5.86649198639833339280e-003 +9.00994087317608771670e-001 -6.51181996915027039297e-002 +9.00994087317608771670e-001 -6.51181996915027039297e-002 +9.61514335748651395586e-003 +5.86649198639833339280e-003
1.26000000000000000000e+010 +1.63468096406309236490e-002 +2.28138218543495127633e-002 +8.63566534755138337509e-001 -2.59030818227065640080e-001 +8.63566534755138337509e-001 -2.59030818227065640080e-001 +1.63468096406309236490e-002 +2.28138218543495127633e-002
1.28000000000000000000e+010 +2.99348082959164790706e-002 +3.58972456844383822072e-002 +7.84673226108392629641e-001 -4.39727408706802214144e-001 +7.84673226108392629641e-001 -4.39727408706802214144e-001 +2.99348082959164790706e-002 +3.58972456844383822072e-002
1.30000000000000000000e+010 +4.81281741192103734717e-002 +4.24459450153754497270e-002 +6.68470985643661808062e-001 -5.98355307131780755903e-001 +6.68470985643661808062e-001 -5.98355307131780755903e-001 +4.81281741192103734717e-002 +4.24459450153754497270e-002
1.32000000000000000000e+010 +6.77037361856627772916e-002 +4.10053601008736820499e-002 +5.20987181359313544782e-001 -7.27400223672882706438e-001 +5.20987181359313544782e-001 -7.27400223672882706438e-001 +6.77037361856627772916e-002 +4.10053601008736820499e-002
1.34000000000000000000e+010 +8.50904991731716575654e-002 +3.16478088692098077916e-002 +3.49630592681399732236e-001 -8.21041819412262396938e-001 +3.49630592681399732236e-001 -8.21041819412262396938e-001 +8.50904991731716575654e-002 +3.16478088692098077916e-002
1.36000000000000000000e+010 +9.70613039351838485791e-002 +1.59780278805088590821e-002 +1.62681571909083111382e-001 -8.75300556521223849238e-001 +1.62681571909083111382e-001 -8.75300556521223849238e-001 +9.70613039351838485791e-002 +1.59780278805088590821e-002
1.38000000000000000000e+010 +1.01353574148588712611e-001 -3.15416316037242820333e-003 -3.11429296852637690907e-002 -8.88024575914422742429e-001 -3.11429296852637690907e-002 -8.88024575914422742429e-001 +1.01353574148588712611e-001 -3.15416316037242820333e-003
1.40000000000000000000e+010 +9.71106762163518877351e-002 -2.21690334943468354834e-002 -2.23007340693593680836e-001 -8.58805249726630304252e-001 -2.23007340693593680836e-001 -8.58805249726630304252e-001 +9.71106762163518877351e-002 -2.21690334943468354834e-002
1.42000000000000000000e+010 +8.50758766093126367336e-002 -3.74073546731490610973e-002 -4.04180212363957014343e-001 -7.88908734934036348641e-001 -4.04180212363957014343e-001 -7.88908734934036348641e-001 +8.50758766093126367336e-002 -3.74073546731490610973e-002
1.44000000000000000000e+010 +6.75074558832102766814e-002 -4.58132351557328301728e-002 -5.66232024741628259257e-001 -6.81271916037239022579e-001 -5.66232024741628259257e-001 -6.81271916037239022579e-001 +6.75074558832102766814e-002 -4.58132351557328301728e-002
1.46000000000000000000e+010 +4.78152860159955991892e-002 -4.55415416793507818460e-002 -7.01293450903423654097e-001 -5.40550460807659005624e-001 -7.01293450903423654097e-001 -5.40550460807659005624e-001 +4.78152860159955991892e-002 -4.55415416793507818460e-002
1.48000000000000000000e+010 +2.99554873419461201167e-002 -3.63784586728634964925e-002 -8.02433641246412254766e-001 -3.73146741522309477457e-001 -8.02433641246412254766e-001 -3.73146741522309477457e-001 +2.99554873419461201167e-002 -3.63784586728634964925e-002
1.50000000000000000000e+010 +1.76686154498043208882e-002 -1.98714634837271718337e-002 -8.64156319165929276416e-001 -1.87110966088272934194e-001 -8.64156319165929276416e-001 -1.87110966088272934194e-001 +1.76686154498043208882e-002 -1.98714634837271718337e-002
1.52000000000000000000e+010 +1.37019336559192593528e-002 +8.98269690208592362125e-004 -8.82934070857561370538e-001 +8.17885457842888914659e-003 -8.82934070857561370538e-001 +8.17885457842888914659e-003 +1.37019336559192593528e-002 +8.98269690208592362125e-004
