# HZ S RI R 50
2.00000000000000000000e+008 -6.47933046310581188705e-004 -3.17201502814909571878e-003 +9.79819962732432103714e-001 -1.89419371241641265602e-001 +9.79819962732432103714e-001 -1.89419371241641265602e-001 -6.47933046310581188705e-004 -3.17201502814909571878e-003
4.00000000000000000000e+008 -2.42252993041380728506e-003 -5.86796038533829358158e-003 +9.24357055303571040206e-001 -3.71423757054885284035e-001 +9.24357055303571040206e-001 -3.71423757054885284035e-001 -2.42252993041380728506e-003 -5.86796038533829358158e-003
6.00000000000000000000e+008 -5.06796285017932675310e-003 -7.70305479771009413842e-003 +8.35416621441379958490e-001 -5.39464045311708106922e-001 +8.35416621441379958490e-001 -5.39464045311708106922e-001 -5.06796285017932675310e-003 -7.70305479771009413842e-003
8.00000000000000000000e+008 -8.20033368625135497543e-003 -8.41591343822862061885e-003 +7.16209931364920060481e-001 -6.87448704404266974777e-001 +7.16209931364920060481e-001 -6.87448704404266974777e-001 -8.20033368625135497543e-003 -8.41591343822862061885e-003
1.00000000000000000000e+009 -1.13655777877790242769e-002 -7.90681751285041839461e-003 +5.71059549238737140797e-001 -8.09983545607641297615e-001 +5.71059549238737140797e-001 -8.09983545607641297615e-001 -1.13655777877790242769e-002 -7.90681751285041839461e-003
1.20000000000000000000e+009 -1.41047350396299210618e-002 -6.25264939242500122907e-003 +4.05244639423297914327e-001 -9.02573008773306928454e-001 +4.05244639423297914327e-001 -9.02573008773306928454e-001 -1.41047350396299210618e-002 -6.25264939242500122907e-003
1.40000000000000000000e+009 -1.60202885606896411330e-002 -3.69647464810880614638e-003 +2.24817095758033463904e-001 -9.61788811850349811827e-001 +2.24817095758033463904e-001 -9.61788811850349811827e-001 -1.60202885606896411330e-002 -3.69647464810880614638e-003
1.60000000000000000000e+009 -1.68341267412548435678e-002 -6.13028310124231904168e-004 +3.63900326732005396924e-002 -9.85401831596403154911e-001 +3.63900326732005396924e-002 -9.85401831596403154911e-001 -1.68341267412548435678e-002 -6.13028310124231904168e-004
1.80000000000000000000e+009 -1.64286829382878224459e-002 +2.54519570457862817636e-003 -1.53095288132556045513e-001 -9.72473212133983522243e-001 -1.53095288132556045513e-001 -9.72473212133983522243e-001 -1.64286829382878224459e-002 +2.54519570457862817636e-003
2.00000000000000000000e+009 -1.48650780614165197585e-002 +5.31369715258427424698e-003 -3.36617047957458226382e-001 -9.23401531201048397790e-001 -3.36617047957458226382e-001 -9.23401531201048397790e-001 -1.48650780614165197585e-002 +5.31369715258427424698e-003
2.20000000000000000000e+009 -1.23752946468868429281e-002 +7.28416575530603255945e-003 -5.07327441000457346476e-001 -8.39923726076830634568e-001 -5.07327441000457346476e-001 -8.39923726076830634568e-001 -1.23752946468868429281e-002 +7.28416575530603255945e-003
2.40000000000000000000e+009 -9.32911831937573675366e-003 +8.16517791173998128129e-003 -6.58806194645968901114e-001 -7.25068395185203828923e-001 -6.58806194645968901114e-001 -7.25068395185203828923e-001 -9.32911831937573675366e-003 +8.16517791173998128129e-003
2.60000000000000000000e+009 -6.18028835269244895823e-003 +7.82632400517427676001e-003 -7.85304440398374103971e-001 -5.83061200605705987066e-001 -7.85304440398374103971e-001 -5.83061200605705987066e-001 -6.18028835269244895823e-003 +7.82632400517427676001e-003
2.80000000000000000000e+009 -3.39947417309554352632e-003 +6.31892114619211041349e-003 -8.81969794155030850646e-001 -4.19183556881892904755e-001 -8.81969794155030850646e-001 -4.19183556881892904755e-001 -3.39947417309554352632e-003 +6.31892114619211041349e-003
3.00000000000000000000e+009 -1.40385176683349949082e-003 +3.86978026077258513080e-003 -9.45043213048090913198e-001 -2.39587670324643509101e-001 -9.45043213048090913198e-001 -2.39587670324643509101e-001 -1.40385176683349949082e-003 +3.86978026077258513080e-003
3.20000000000000000000e+009 -4.93820292850874042329e-004 +8.48459517691250953916e-004 -9.72018413598975894452e-001 -5.10732171662402548162e-002 -9.72018413598975894452e-001 -5.10732171662402548162e-002 -4.93820292850874042329e-004 +8.48459517691250953916e-004
3.40000000000000000000e+009 -8.06586960964875468970e-004 -2.28752466054463589676e-003 -9.61755570178071450549e-001 +1.39166701787915653155e-001 -9.61755570178071450549e-001 +1.39166701787915653155e-001 -8.06586960964875468970e-004 -2.28752466054463589676e-003
3.60000000000000000000e+009 -2.29400688761183723860e-003 -5.06156922306779093884e-003 -9.14542741515863899515e-001 +3.23820540490862451843e-001 -9.14542741515863899515e-001 +3.23820540490862451843e-001 -2.29400688761183723860e-003 -5.06156922306779093884e-003
3.80000000000000000000e+009 -4.72849725566650697095e-003 -7.05061945097026909757e-003 -8.32100901085322752770e-001 +4.95742818336873003471e-001 -8.32100901085322752770e-001 +4.95742818336873003471e-001 -4.72849725566650697095e-003 -7.05061945097026909757e-003
4.00000000000000000000e+009 -7.73657616410686893582e-003 -7.95043978610883092517e-003 -7.17531316627069926106e-001 +6.48235948576274645383e-001 -7.17531316627069926106e-001 +6.48235948576274645383e-001 -7.73657616410686893582e-003 -7.95043978610883092517e-003
4.20000000000000000000e+009 -1.08552712200198579057e-002 -7.62331623640017264770e-003 -5.75206977601157243285e-001 +7.75317269900662742188e-001 -5.75206977601157243285e-001 +7.75317269900662742188e-001 -1.08552712200198579057e-002 -7.62331623640017264770e-003
4.40000000000000000000e+009 -1.36029927412485342891e-002 -6.12053595661936518380e-003 -4.10612447710773598164e-001 +8.71960097832627734071e-001 -4.10612447710773598164e-001 +8.71960097832627734071e-001 -1.36029927412485342891e-002 -6.12053595661936518380e-003
4.60000000000000000000e+009 -1.55540673730987597662e-002 -3.67579047402598899433e-003 -2.30138660884639467685e-001 +9.34299141118550169338e-001 -2.30138660884639467685e-001 +9.34299141118550169338e-001 -1.55540673730987597662e-002 -3.67579047402598899433e-003
4.80000000000000000000e+009 -1.64053785199710991383e-002 -6.70118921580760743516e-004 -4.08406850329953718948e-002 +9.59792442186876981758e-001 -4.08406850329953718948e-002 +9.59792442186876981758e-001 -1.64053785199710991383e-002 -6.70118921580760743516e-004
5.00000000000000000000e+009 -1.60245994811558309379e-002 +2.42654300897416101354e-003 +1.49832575325474726124e-001 +9.47333813620750087026e-001 +1.49832575325474726124e-001 +9.47333813620750087026e-001 -1.60245994811558309379e-002 +2.42654300897416101354e-003
5.20000000000000000000e+009 -1.44721981461700816007e-002 +5.12840180478447635326e-003 +3.34327177463249913814e-001 +8.97311384921432031447e-001 +3.34327177463249913814e-001 +8.97311384921432031447e-001 -1.44721981461700816007e-002 +5.12840180478447635326e-003
5.40000000000000000000e+009 -1.19933542400227511476e-002 +7.01017954103943900790e-003 +5.05281413835410697644e-001 +8.11609339783201932939e-001 +5.05281413835410697644e-001 +8.11609339783201932939e-001 -1.19933542400227511476e-002 +7.01017954103943900790e-003
5.60000000000000000000e+009 -8.98058376181328638088e-003 +7.77482062899258023758e-003 +6.55821026252576544380e-001 +6.93551358069161461017e-001 +6.55821026252576544380e-001 +6.93551358069161461017e-001 -8.98058376181328638088e-003 +7.77482062899258023758e-003
5.80000000000000000000e+009 -5.91251480775806855655e-003 +7.30164475836629894151e-003 +7.79841257918039154617e-001 +5.47785902877386932097e-001 +7.79841257918039154617e-001 +5.47785902877386932097e-001 -5.91251480775806855655e-003 +7.30164475836629894151e-003
6.00000000000000000000e+009 -3.27818063159642089296e-003 +5.66692817059624796144e-003 +8.72264164105709727259e-001 +3.80115511236512382265e-001 +8.72264164105709727259e-001 +3.80115511236512382265e-001 -3.27818063159642089296e-003 +5.66692817059624796144e-003
6.20000000000000000000e+009 -1.49873891875447321810e-003 +3.13313670755265352708e-003 +9.29259501867785941975e-001 +1.97274729721596986387e-001 +9.29259501867785941975e-001 +1.97274729721596986387e-001 -1.49873891875447321810e-003 +3.13313670755265352708e-003
6.40000000000000000000e+009 -8.59219532838263245524e-004 +1.08021882809471902109e-004 +9.48418113632147341541e-001 +6.66416547786778841467e-003 +9.48418113632147341541e-001 +6.66416547786778841467e-003 -8.59219532838263245524e-004 +1.08021882809471902109e-004
6.60000000000000000000e+009 -1.46155045908636510577e-003 -2.92026436333726012451e-003 +9.28868243850425656660e-001 -1.83949008822738818703e-001 +9.28868243850425656660e-001 -1.83949008822738818703e-001 -1.46155045908636510577e-003 -2.92026436333726012451e-003
6.80000000000000000000e+009 -3.20685495268251260712e-003 -5.46181173230477195329e-003 +8.71327731030419716518e-001 -3.66751276241348789231e-001 +8.71327731030419716518e-001 -3.66751276241348789231e-001 -3.20685495268251260712e-003 -5.46181173230477195329e-003
7.00000000000000000000e+009 -5.81033556348535887293e-003 -7.10465779134383280946e-003 +7.78088317056752742928e-001 -5.34209230887830344159e-001 +7.78088317056752742928e-001 -5.34209230887830344159e-001 -5.81033556348535887293e-003 -7.10465779134383280946e-003
7.20000000000000000000e+009 -8.84672116977544033267e-003 -7.58247096339676168036e-003 +6.52932029471365416029e-001 -6.79387200910914534902e-001 +6.52932029471365416029e-001 -6.79387200910914534902e-001 -8.84672116977544033267e-003 -7.58247096339676168036e-003
7.40000000000000000000e+009 -1.18191530436965001882e-002 -6.81891894718086085531e-003 +5.00983240616436287240e-001 -7.96241560998262154492e-001 +5.00983240616436287240e-001 -7.96241560998262154492e-001 -1.18191530436965001882e-002 -6.81891894718086085531e-003
7.60000000000000000000e+009 -1.42404021892788348880e-002 -4.94114810411226939441e-003 +3.28503151129427073407e-001 -8.79878828794875000874e-001 +3.28503151129427073407e-001 -8.79878828794875000874e-001 -1.42404021892788348880e-002 -4.94114810411226939441e-003
7.80000000000000000000e+009 -1.57131313246881426648e-002 -2.25982837438590223808e-003 +1.42635810195027384895e-001 -9.26766840537564307034e-001 +1.42635810195027384895e-001 -9.26766840537564307034e-001 -1.57131313246881426648e-002 -2.25982837438590223808e-003
8.00000000000000000000e+009 -1.59959200198157812378e-002 +7.81273643037879318013e-004 -4.88836726472896623830e-002 -9.34890720279971110251e-001 -4.88836726472896623830e-002 -9.34890720279971110251e-001 -1.59959200198157812378e-002 +7.81273643037879318013e-004
8.20000000000000000000e+009 -1.50439736649671459978e-002 +3.67815235261702332473e-003 -2.38047181011916936244e-001 -9.03847667926511832981e-001 -2.38047181011916936244e-001 -9.03847667926511832981e-001 -1.50439736649671459978e-002 +3.67815235261702332473e-003
8.40000000000000000000e+009 -1.30174926874253287651e-002 +5.94999615844453693531e-003 -4.16905845799271534968e-001 -8.34876652322486534352e-001 -4.16905845799271534968e-001 -8.34876652322486534352e-001 -1.30174926874253287651e-002 +5.94999615844453693531e-003
8.60000000000000000000e+009 -1.02559500642040116875e-002 +7.21942476506829116517e-003 -5.77904008224101373159e-001 -7.30820977794820358930e-001 -5.77904008224101373159e-001 -7.30820977794820358930e-001 -1.02559500642040116875e-002 +7.21942476506829116517e-003
8.80000000000000000000e+009 -7.22217760946825427376e-003 +7.27608657571465321928e-003 -7.14201935028422330021e-001 -5.96023623531945045961e-001 -7.14201935028422330021e-001 -5.96023623531945045961e-001 -7.22217760946825427376e-003 +7.27608657571465321928e-003
9.00000000000000000000e+009 -4.42528012531732267698e-003 +6.11274073008403941859e-003 -8.19973902453264402723e-001 -4.36157500452124868850e-001 -8.19973902453264402723e-001 -4.36157500452124868850e-001 -4.42528012531732267698e-003 +6.11274073008403941859e-003
9.20000000000000000000e+009 -2.33511850576013663822e-003 +3.92739991775124634710e-003 -8.90668147861612857774e-001 -2.57995493485636495645e-001 -8.90668147861612857774e-001 -2.57995493485636495645e-001 -2.33511850576013663822e-003 +3.92739991775124634710e-003
9.40000000000000000000e+009 -1.30275465041583288911e-003 +1.09075844693152937750e-003 -9.23215749025542709028e-001 -6.91283129060098061602e-002 -9.23215749025542709028e-001 -6.91283129060098061602e-002 -1.30275465041583288911e-003 +1.09075844693152937750e-003
9.60000000000000000000e+009 -1.50047589897358852468e-003 -1.91595154234282054849e-003 -9.16177054544833224803e-001 +1.22358521321761004597e-001 -9.16177054544833224803e-001 +1.22358521321761004597e-001 -1.50047589897358852468e-003 -1.91595154234282054849e-003
9.80000000000000000000e+009 -2.89186654132490318647e-003 -4.58236857061032707567e-003 -8.69816989374357030229e-001 +3.08234263534780450478e-001 -8.69816989374357030229e-001 +3.08234263534780450478e-001 -2.89186654132490318647e-003 -4.58236857061032707567e-003
1.00000000000000000000e+010 -5.23735356398967542152e-003 -6.45589561280836450596e-003 -7.86104258229374686096e-001 +4.80482663662139708460e-001 -7.86104258229374686096e-001 +4.80482663662139708460e-001 -5.23735356398967542152e-003 -6.45589561280836450596e-003
1.02000000000000000000e+010 -8.13457621603912509056e-003 -7.21918272993013823702e-003 -6.68633764293763643849e-001 +6.31654502325128208717e-001 -6.68633764293763643849e-001 +6.31654502325128208717e-001 -8.13457621603912509056e-003 -7.21918272993013823702e-003
1.04000000000000000000e+010 -1.10868844277973721546e-002 -6.74478408569507796588e-003 -5.22475891140285253478e-001 +7.55196110145963328542e-001 -5.22475891140285253478e-001 +7.55196110145963328542e-001 -1.10868844277973721546e-002 -6.74478408569507796588e-003
1.06000000000000000000e+010 -1.35883404701876778220e-002 -5.11742142951448607952e-003 -3.53960109983393500510e-001 +8.45738769410704360752e-001 -3.53960109983393500510e-001 +8.45738769410704360752e-001 -1.35883404701876778220e-002 -5.11742142951448607952e-003
1.08000000000000000000e+010 -1.52106622654067328432e-002 -2.61982841822133195875e-003 -1.70403291476127372039e-001 +8.99336464084226072657e-001 -1.70403291476127372039e-001 +8.99336464084226072657e-001 -1.52106622654067328432e-002 -2.61982841822133195875e-003
1.10000000000000000000e+010 -1.56771228677366966653e-002 +3.15581097237381774483e-004 +2.02049893313379635984e-002 +9.13642358333649151625e-001 +2.02049893313379635984e-002 +9.13642358333649151625e-001 -1.56771228677366966653e-002 +3.15581097237381774483e-004
1.12000000000000000000e+010 -1.49105806785713220636e-002 +3.18106742751996006760e-003 +2.09546807003161333904e-001 +8.88017221010316881724e-001 +2.09546807003161333904e-001 +8.88017221010316881724e-001 -1.49105806785713220636e-002 +3.18106742751996006760e-003
1.14000000000000000000e+010 -1.30471901954423846748e-002 +5.48124685247375949965e-003 +3.89336016753391744860e-001 +8.23565556243733953856e-001 +3.89336016753391744860e-001 +8.23565556243733953856e-001 -1.30471901954423846748e-002 +5.48124685247375949965e-003
1.16000000000000000000e+010 -1.04132001158788803363e-002 +6.81900630940983267653e-003 +5.51679937857947333413e-001 +7.23097484646842869616e-001 +5.51679937857947333413e-001 +7.23097484646842869616e-001 -1.04132001158788803363e-002 +6.81900630940983267653e-003
1.18000000000000000000e+010 -7.46860846842197900058e-003 +6.96472324821880740819e-003 +6.89428025795411070220e-001 +5.91016681031885426911e-001 +6.89428025795411070220e-001 +5.91016681031885426911e-001 -7.46860846842197900058e-003 +6.96472324821880740819e-003
1.20000000000000000000e+010 -4.72724232820211347911e-003 +5.89660625671629360506e-003 +7.96492684172190990033e-001 +4.33137211329921667513e-001 +7.96492684172190990033e-001 +4.33137211329921667513e-001 -4.72724232820211347911e-003 +5.89660625671629360506e-003
1.22000000000000000000e+010 -2.66705779697678320092e-003 +3.80487613561592170897e-003 +8.68127415535543844882e-001 +2.56435119373877695725e-001 +8.68127415535543844882e-001 +2.56435119373877695725e-001 -2.66705779697678320092e-003 +3.80487613561592170897e-003
1.24000000000000000000e+010 -1.64633896265415670401e-003 +1.05877429754530974493e-003 +9.01148293589485338551e-001 +6.87440559944497847633e-002 +9.01148293589485338551e-001 +6.87440559944497847633e-002 -1.64633896265415670401e-003 +1.05877429754530974493e-003
1.26000000000000000000e+010 -1.84061434294892963676e-003 -1.85805559249276595370e-003 +8.94086613988650302787e-001 -1.21592194367090317142e-001 +8.94086613988650302787e-001 -1.21592194367090317142e-001 -1.84061434294892963676e-003 -1.85805559249276595370e-003
1.28000000000000000000e+010 -3.21158627309305446176e-003 -4.43258821722519909259e-003 +8.47263690338085129206e-001 -3.06094271203583678798e-001 +8.47263690338085129206e-001 -3.06094271203583678798e-001 -3.21158627309305446176e-003 -4.43258821722519909259e-003
1.30000000000000000000e+010 -5.51376164495479166583e-003 -6.21287344778446819216e-003 +7.62782940030379497109e-001 -4.76530668384518907299e-001 +7.62782940030379497109e-001 -4.76530668384518907299e-001 -5.51376164495479166583e-003 -6.21287344778446819216e-003
1.32000000000000000000e+010 -8.33777373452281207744e-003 -6.88788341061803439241e-003 +6.44439189325942352049e-001 -6.25291033667259021911e-001 +6.44439189325942352049e-001 -6.25291033667259021911e-001 -8.33777373452281207744e-003 -6.88788341061803439241e-003
1.34000000000000000000e+010 -1.11828166376019312589e-002 -6.34251701481962446710e-003 +4.97549887153315495425e-001 -7.45731082044053805724e-001 +4.97549887153315495425e-001 -7.45731082044053805724e-001 -1.11828166376019312589e-002 -6.34251701481962446710e-003
1.36000000000000000000e+010 -1.35453844581159728311e-002 -4.67791861368347956091e-003 +3.28717042941797932265e-001 -8.32472961373924458250e-001 +3.28717042941797932265e-001 -8.32472961373924458250e-001 -1.35453844581159728311e-002 -4.67791861368347956091e-003
1.38000000000000000000e+010 -1.50085703289780710706e-002 -2.19343219265929209941e-003 +1.45531791222324596857e-001 -8.81647888780374255902e-001 +1.45531791222324596857e-001 -8.81647888780374255902e-001 -1.50085703289780710706e-002 -2.19343219265929209941e-003
1.40000000000000000000e+010 -1.53160551874718768584e-002 +6.66666175102925435275e-004 -4.37645603305589769860e-002 -8.91071188079658682568e-001 -4.37645603305589769860e-002 -8.91071188079658682568e-001 -1.53160551874718768584e-002 +6.66666175102925435275e-004
1.42000000000000000000e+010 -1.44176083583926663984e-002 +3.39225394428743342451e-003 -2.30648123110658881396e-001 -8.60343044565507253374e-001 -2.30648123110658881396e-001 -8.60343044565507253374e-001 -1.44176083583926663984e-002 +3.39225394428743342451e-003
1.44000000000000000000e+010 -1.24779442503790850144e-002 +5.49825849925851973393e-003 -4.06693329394455238557e-001 -7.90871136990131229361e-001 -4.06693329394455238557e-001 -7.90871136990131229361e-001 -1.24779442503790850144e-002 +5.49825849925851973393e-003
1.46000000000000000000e+010 -9.84725368851881686927e-003 +6.61120953629786966416e-003 -5.63951567343960347145e-001 -6.85813871061067059642e-001 -5.63951567343960347145e-001 -6.85813871061067059642e-001 -9.84725368851881686927e-003 +6.61120953629786966416e-003
1.48000000000000000000e+010 -6.99853635111582963318e-003 +6.53598310961276806469e-003 -6.95311758186427764095e-001 -5.49945491134864794525e-001 -6.95311758186427764095e-001 -5.49945491134864794525e-001 -6.99853635111582963318e-003 +6.53598310961276806469e-003
1.50000000000000000000e+010 -4.44281980343930269634e-003 +5.29070951328383665135e-003 -7.94826988978479365144e-001 -3.89447195995033967897e-001 -7.94826988978479365144e-001 -3.89447195995033967897e-001 -4.44281980343930269634e-003 +5.29070951328383665135e-003
1.52000000000000000000e+010 -2.63739871336095884485e-003 +3.10343831187536497301e-003 -8.57991661491165680253e-001 -2.11631700204877232219e-001 -8.57991661491165680253e-001 -2.11631700204877232219e-001 -2.63739871336095884485e-003 +3.10343831187536497301e-003
