# HZ S RI R 50
7.50000000000e+10 +9.85044499308e-01 -3.50805923673e-02 +6.00438341866e-03 +1.66298345293e-01 +6.00438341866e-03 +1.66298345293e-01 +9.85044499308e-01 -3.50805923673e-02
7.53500000000e+10 +9.83968871761e-01 -4.56138019885e-02 +7.98447321747e-03 +1.69922633216e-01 +7.98447321747e-03 +1.69922633216e-01 +9.83968871761e-01 -4.56138019885e-02
7.57000000000e+10 +9.82620265310e-01 -5.65297162030e-02 +1.01559058810e-02 +1.74193203284e-01 +1.01559058810e-02 +1.74193203284e-01 +9.82620265310e-01 -5.65297162030e-02
7.60500000000e+10 +9.80959191189e-01 -6.79094393585e-02 +1.25672530786e-02 +1.79160828349e-01 +1.25672530786e-02 +1.79160828349e-01 +9.80959191189e-01 -6.79094393585e-02
7.64000000000e+10 +9.78934661024e-01 -7.98433455908e-02 +1.52771461683e-02 +1.84889355483e-01 +1.52771461683e-02 +1.84889355483e-01 +9.78934661024e-01 -7.98433455908e-02
7.67500000000e+10 +9.76481056255e-01 -9.24336960643e-02 +1.83576663083e-02 +1.91457709130e-01 +1.83576663083e-02 +1.91457709130e-01 +9.76481056255e-01 -9.24336960643e-02
7.71000000000e+10 +9.73513783173e-01 -1.05797729420e-01 +2.18988946188e-02 +1.98962480024e-01 +2.18988946188e-02 +1.98962480024e-01 +9.73513783173e-01 -1.05797729420e-01
7.74500000000e+10 +9.69923210442e-01 -1.20071346499e-01 +2.60151381493e-02 +2.07521197463e-01 +2.60151381493e-02 +2.07521197463e-01 +9.69923210442e-01 -1.20071346499e-01
7.78000000000e+10 +9.65566131511e-01 -1.35413505360e-01 +3.08535986247e-02 +2.17276382868e-01 +3.08535986247e-02 +2.17276382868e-01 +9.65566131511e-01 -1.35413505360e-01
7.81500000000e+10 +9.60253597989e-01 -1.52011402791e-01 +3.66066449499e-02 +2.28400446813e-01 +3.66066449499e-02 +2.28400446813e-01 +9.60253597989e-01 -1.52011402791e-01
7.85000000000e+10 +9.53733342935e-01 -1.70086395865e-01 +4.35294758913e-02 +2.41101372085e-01 +4.35294758913e-02 +2.41101372085e-01 +9.53733342935e-01 -1.70086395865e-01
7.88500000000e+10 +9.45664007132e-01 -1.89900306964e-01 +5.19659639446e-02 +2.55628817567e-01 +5.19659639446e-02 +2.55628817567e-01 +9.45664007132e-01 -1.89900306964e-01
7.92000000000e+10 +9.35576751579e-01 -2.11761029500e-01 +6.23871003316e-02 +2.72279553315e-01 +6.23871003316e-02 +2.72279553315e-01 +9.35576751579e-01 -2.11761029500e-01
7.95500000000e+10 +9.22817186912e-01 -2.36024703904e-01 +7.54491128421e-02 +2.91399490892e-01 +7.54491128421e-02 +2.91399490892e-01 +9.22817186912e-01 -2.36024703904e-01
7.99000000000e+10 +9.06456266319e-01 -2.63088032580e-01 +9.20826119018e-02 +3.13375873283e-01 +9.20826119018e-02 +3.13375873283e-01 +9.06456266319e-01 -2.63088032580e-01
8.02500000000e+10 +8.85152096446e-01 -2.93355980739e-01 +1.13630811840e-01 +3.38604867717e-01 +1.13630811840e-01 +3.38604867717e-01 +8.85152096446e-01 -2.93355980739e-01
8.06000000000e+10 +8.56935164411e-01 -3.27151293631e-01 +1.42064330466e-01 +3.67400989003e-01 +1.42064330466e-01 +3.67400989003e-01 +8.56935164411e-01 -3.27151293631e-01
8.09500000000e+10 +8.18880148212e-01 -3.64489612727e-01 +1.80309400569e-01 +3.99772133579e-01 +1.80309400569e-01 +3.99772133579e-01 +8.18880148212e-01 -3.64489612727e-01
8.13000000000e+10 +7.66635600542e-01 -4.04548613837e-01 +2.32718204126e-01 +4.34888645253e-01 +2.32718204126e-01 +4.34888645253e-01 +7.66635600542e-01 -4.04548613837e-01
8.16500000000e+10 +6.93880097708e-01 -4.44458776164e-01 +3.05612738073e-01 +4.69874020053e-01 +3.05612738073e-01 +4.69874020053e-01 +6.93880097708e-01 -4.44458776164e-01
8.20000000000e+10 +5.92210565994e-01 -4.76700394881e-01 +4.07396499806e-01 +4.97201861361e-01 +4.07396499806e-01 +4.97201861361e-01 +5.92210565994e-01 -4.76700394881e-01
8.23500000000e+10 +4.53438134523e-01 -4.84255427429e-01 +5.46258643735e-01 +4.99847674417e-01 +5.46258643735e-01 +4.99847674417e-01 +4.53438134523e-01 -4.84255427429e-01
8.27000000000e+10 +2.79579211512e-01 -4.35126494678e-01 +7.20182912272e-01 +4.45807820348e-01 +7.20182912272e-01 +4.45807820348e-01 +2.79579211512e-01 -4.35126494678e-01
8.30500000000e+10 +1.05789368994e-01 -2.89570105913e-01 +8.94013756453e-01 +2.95332697835e-01 +8.94013756453e-01 +2.95332697835e-01 +1.05789368994e-01 -2.89570105913e-01
8.34000000000e+10 +1.21945078786e-02 -4.57298803498e-02 +9.87625174461e-01 +4.65599244304e-02 +9.87625174461e-01 +4.65599244304e-02 +1.21945078786e-02 -4.57298803498e-02
8.37500000000e+10 +5.97343520683e-02 +2.14287322085e-01 +9.40077219504e-01 -2.18409570408e-01 +9.40077219504e-01 -2.18409570408e-01 +5.97343520683e-02 +2.14287322085e-01
8.41000000000e+10 +2.10350856797e-01 +3.93310035602e-01 +7.89427591954e-01 -4.02410215988e-01 +7.89427591954e-01 -4.02410215988e-01 +2.10350856797e-01 +3.93310035602e-01
8.44500000000e+10 +3.81394757230e-01 +4.72351733028e-01 +6.18325089771e-01 -4.86461379280e-01 +6.18325089771e-01 -4.86461379280e-01 +3.81394757230e-01 +4.72351733028e-01
8.48000000000e+10 +5.26203724036e-01 +4.85016096431e-01 +4.73431450537e-01 -5.04172669017e-01 +4.73431450537e-01 -5.04172669017e-01 +5.26203724036e-01 +4.85016096431e-01
8.51500000000e+10 +6.35846618186e-01 +4.65258306788e-01 +3.63677092833e-01 -4.89505258315e-01 +3.63677092833e-01 -4.89505258315e-01 +6.35846618186e-01 +4.65258306788e-01
8.55000000000e+10 +7.16008607251e-01 +4.32981830983e-01 +2.83375994656e-01 -4.62368704506e-01 +2.83375994656e-01 -4.62368704506e-01 +7.16008607251e-01 +4.32981830983e-01
8.58500000000e+10 +7.74514342847e-01 +3.97688742440e-01 +2.24702509175e-01 -4.32271302887e-01 +2.24702509175e-01 -4.32271302887e-01 +7.74514342847e-01 +3.97688742440e-01
8.62000000000e+10 +8.17727715433e-01 +3.63410106818e-01 +1.81291601511e-01 -4.03250506189e-01 +1.81291601511e-01 -4.03250506189e-01 +8.17727715433e-01 +3.63410106818e-01
8.65500000000e+10 +8.50188328163e-01 +3.31627806155e-01 +1.48602364745e-01 -3.76794783548e-01 +1.48602364745e-01 -3.76794783548e-01 +8.50188328163e-01 +3.31627806155e-01
8.69000000000e+10 +8.75010675172e-01 +3.02705534977e-01 +1.23518829580e-01 -3.53274652887e-01 +1.23518829580e-01 -3.53274652887e-01 +8.75010675172e-01 +3.02705534977e-01
8.72500000000e+10 +8.94319990187e-01 +2.76545156544e-01 +1.03914101605e-01 -3.32599075306e-01 +1.03914101605e-01 -3.32599075306e-01 +8.94319990187e-01 +2.76545156544e-01
8.76000000000e+10 +9.09578743996e-01 +2.52879355443e-01 +8.83238473635e-02 -3.14508148107e-01 +8.83238473635e-02 -3.14508148107e-01 +9.09578743996e-01 +2.52879355443e-01
8.79500000000e+10 +9.21807669783e-01 +2.31398827134e-01 +7.57252499379e-02 -2.98700337577e-01 +7.57252499379e-02 -2.98700337577e-01 +9.21807669783e-01 +2.31398827134e-01
8.83000000000e+10 +9.31730805937e-01 +2.11804899912e-01 +6.53919440950e-02 -2.84885147464e-01 +6.53919440950e-02 -2.84885147464e-01 +9.31730805937e-01 +2.11804899912e-01
8.86500000000e+10 +9.39870247290e-01 +1.93828805521e-01 +5.67992396247e-02 -2.72802439986e-01 +5.67992396247e-02 -2.72802439986e-01 +9.39870247290e-01 +1.93828805521e-01
8.90000000000e+10 +9.46608480570e-01 +1.77236321741e-01 +4.95617565742e-02 -2.62227133324e-01 +4.95617565742e-02 -2.62227133324e-01 +9.46608480570e-01 +1.77236321741e-01
8.93500000000e+10 +9.52229899828e-01 +1.61826313976e-01 +4.33918760510e-02 -2.52967803327e-01 +4.33918760510e-02 -2.52967803327e-01 +9.52229899828e-01 +1.61826313976e-01
8.97000000000e+10 +9.56948857939e-01 +1.47427040445e-01 +3.80716497731e-02 -2.44863054859e-01 +3.80716497731e-02 -2.44863054859e-01 +9.56948857939e-01 +1.47427040445e-01
9.00500000000e+10 +9.60928908798e-01 +1.33891935286e-01 +3.34335129020e-02 -2.37777377996e-01 +3.34335129020e-02 -2.37777377996e-01 +9.60928908798e-01 +1.33891935286e-01
9.04000000000e+10 +9.64296204952e-01 +1.21095588682e-01 +2.93468344196e-02 -2.31597209257e-01 +2.93468344196e-02 -2.31597209257e-01 +9.64296204952e-01 +1.21095588682e-01
9.07500000000e+10 +9.67148959905e-01 +1.08930185665e-01 +2.57083945939e-02 -2.26227460695e-01 +2.57083945939e-02 -2.26227460695e-01 +9.67148959905e-01 +1.08930185665e-01
9.11000000000e+10 +9.69564220732e-01 +9.73024601530e-02 +2.24355424365e-02 -2.21588574820e-01 +2.24355424365e-02 -2.21588574820e-01 +9.69564220732e-01 +9.73024601530e-02
9.14500000000e+10 +9.71602774939e-01 +8.61311342924e-02 +1.94612074664e-02 -2.17614077002e-01 +1.94612074664e-02 -2.17614077002e-01 +9.71602774939e-01 +8.61311342924e-02
9.18000000000e+10 +9.73312744083e-01 +7.53447818548e-02 +1.67302111362e-02 -2.14248565994e-01 +1.67302111362e-02 -2.14248565994e-01 +9.73312744083e-01 +7.53447818548e-02
9.21500000000e+10 +9.74732239564e-01 +6.48800480584e-02 +1.41964999040e-02 -2.11446077066e-01 +1.41964999040e-02 -2.11446077066e-01 +9.74732239564e-01 +6.48800480584e-02
9.25000000000e+10 +9.75891338863e-01 +5.46801622521e-02 +1.18210385507e-02 -2.09168756750e-01 +1.18210385507e-02 -2.09168756750e-01 +9.75891338863e-01 +5.46801622521e-02
9.28500000000e+10 +9.76813561776e-01 +4.46936877191e-02 +9.57018029086e-03 -2.07385796356e-01 +9.57018029086e-03 -2.07385796356e-01 +9.76813561776e-01 +4.46936877191e-02
9.32000000000e+10 +9.77516972658e-01 +3.48734612857e-02 +7.41438293028e-03 -2.06072580427e-01 +7.41438293028e-03 -2.06072580427e-01 +9.77516972658e-01 +3.48734612857e-02
9.35500000000e+10 +9.78014997576e-01 +2.51756831800e-02 +5.32717628300e-03 -2.05210014587e-01 +5.32717628300e-03 -2.05210014587e-01 +9.78014997576e-01 +2.51756831800e-02
9.39000000000e+10 +9.78317019150e-01 +1.55591242046e-02 +3.28431075824e-03 -2.04784004620e-01 +3.28431075824e-03 -2.04784004620e-01 +9.78317019150e-01 +1.55591242046e-02
9.42500000000e+10 +9.78428793119e-01 +5.98442269747e-03 +1.26303399574e-03 -2.04785064810e-01 +1.26303399574e-03 -2.04785064810e-01 +9.78428793119e-01 +5.98442269747e-03
9.46000000000e+10 +9.78352716749e-01 -3.58655197547e-03 -7.58546013837e-04 -2.05208038854e-01 -7.58546013837e-04 -2.05208038854e-01 +9.78352716749e-01 -3.58655197547e-03
9.49500000000e+10 +9.78087968623e-01 -1.31912893705e-02 -2.80204523801e-03 -2.06051921077e-01 -2.80204523801e-03 -2.06051921077e-01 +9.78087968623e-01 -1.31912893705e-02
9.53000000000e+10 +9.77630530752e-01 -2.28671989077e-02 -4.88936455063e-03 -2.07319769451e-01 -4.88936455063e-03 -2.07319769451e-01 +9.77630530752e-01 -2.28671989077e-02
9.56500000000e+10 +9.76973096615e-01 -3.26521576417e-02 -7.04325417905e-03 -2.09018705156e-01 -7.04325417905e-03 -2.09018705156e-01 +9.76973096615e-01 -3.26521576417e-02
9.60000000000e+10 +9.76104861826e-01 -4.25850595837e-02 -9.28790820767e-03 -2.11159996315e-01 -9.28790820767e-03 -2.11159996315e-01 +9.76104861826e-01 -4.25850595837e-02
9.63500000000e+10 +9.75011187128e-01 -5.27063806764e-02 -1.16496173570e-02 -2.13759226049e-01 -1.16496173570e-02 -2.13759226049e-01 +9.75011187128e-01 -5.27063806764e-02
9.67000000000e+10 +9.73673115629e-01 -6.30587732641e-02 -1.41575120081e-02 -2.16836547353e-01 -1.41575120081e-02 -2.16836547353e-01 +9.73673115629e-01 -6.30587732641e-02
9.70500000000e+10 +9.72066716978e-01 -7.36877038839e-02 -1.68444336255e-02 -2.20417029268e-01 -1.68444336255e-02 -2.20417029268e-01 +9.72066716978e-01 -7.36877038839e-02
9.74000000000e+10 +9.70162219620e-01 -8.46421482149e-02 -1.97479819506e-02 -2.24531100554e-01 -1.97479819506e-02 -2.24531100554e-01 +9.70162219620e-01 -8.46421482149e-02
9.77500000000e+10 +9.67922877303e-01 -9.59753567443e-02 -2.29117985290e-02 -2.29215098076e-01 -2.29117985290e-02 -2.29215098076e-01 +9.67922877303e-01 -9.59753567443e-02
9.81000000000e+10 +9.65303496077e-01 -1.07745703631e-01 -2.63871656939e-02 -2.34511927167e-01 -2.63871656939e-02 -2.34511927167e-01 +9.65303496077e-01 -1.07745703631e-01
9.84500000000e+10 +9.62248520967e-01 -1.20017628439e-01 -3.02350260978e-02 -2.40471839279e-01 -3.02350260978e-02 -2.40471839279e-01 +9.62248520967e-01 -1.20017628439e-01
9.88000000000e+10 +9.58689544326e-01 -1.32862674351e-01 -3.45285642258e-02 -2.47153326903e-01 -3.45285642258e-02 -2.47153326903e-01 +9.58689544326e-01 -1.32862674351e-01
9.91500000000e+10 +9.54542046213e-01 -1.46360614461e-01 -3.93565423362e-02 -2.54624124322e-01 -3.93565423362e-02 -2.54624124322e-01 +9.54542046213e-01 -1.46360614461e-01
9.95000000000e+10 +9.49701104679e-01 -1.60600635107e-01 -4.48276551930e-02 -2.62962280612e-01 -4.48276551930e-02 -2.62962280612e-01 +9.49701104679e-01 -1.60600635107e-01
9.98500000000e+10 +9.44035711644e-01 -1.75682503822e-01 -5.10762697504e-02 -2.72257230315e-01 -5.10762697504e-02 -2.72257230315e-01 +9.44035711644e-01 -1.75682503822e-01
1.00200000000e+11 +9.37381185157e-01 -1.91717575024e-01 -5.82700605026e-02 -2.82610713080e-01 -5.82700605026e-02 -2.82610713080e-01 +9.37381185157e-01 -1.91717575024e-01
1.00550000000e+11 +9.29528963193e-01 -2.08829353672e-01 -6.66202565850e-02 -2.94137260969e-01 -6.66202565850e-02 -2.94137260969e-01 +9.29528963193e-01 -2.08829353672e-01
1.00900000000e+11 +9.20212773269e-01 -2.27153100622e-01 -7.63955073672e-02 -3.06963735849e-01 -7.63955073672e-02 -3.06963735849e-01 +9.20212773269e-01 -2.27153100622e-01
1.01250000000e+11 +9.09089765482e-01 -2.46833542041e-01 -8.79407797802e-02 -3.21226978088e-01 -8.79407797802e-02 -3.21226978088e-01 +9.09089765482e-01 -2.46833542041e-01
1.01600000000e+11 +8.95714642930e-01 -2.68018991844e-01 -1.01703254122e-01 -3.37067874591e-01 -1.01703254122e-01 -3.37067874591e-01 +8.95714642930e-01 -2.68018991844e-01
1.01950000000e+11 +8.79504111997e-01 -2.90848843693e-01 -1.18267896446e-01 -3.54618801852e-01 -1.18267896446e-01 -3.54618801852e-01 +8.79504111997e-01 -2.90848843693e-01
1.02300000000e+11 +8.59688177641e-01 -3.15428953195e-01 -1.38406182881e-01 -3.73978963979e-01 -1.38406182881e-01 -3.73978963979e-01 +8.59688177641e-01 -3.15428953195e-01
1.02650000000e+11 +8.35244251423e-01 -3.41785045357e-01 -1.63142008558e-01 -3.95167760105e-01 -1.63142008558e-01 -3.95167760105e-01 +8.35244251423e-01 -3.41785045357e-01
1.03000000000e+11 +8.04810745780e-01 -3.69776452325e-01 -1.93838107988e-01 -4.18038485701e-01 -1.93838107988e-01 -4.18038485701e-01 +8.04810745780e-01 -3.69776452325e-01
1.03350000000e+11 +7.66581623551e-01 -3.98938854598e-01 -2.32301518158e-01 -4.42121040485e-01 -2.32301518158e-01 -4.42121040485e-01 +7.66581623551e-01 -3.98938854598e-01
1.03700000000e+11 +7.18199494793e-01 -4.28202392742e-01 -2.80890492574e-01 -4.66340009565e-01 -2.80890492574e-01 -4.66340009565e-01 +7.18199494793e-01 -4.28202392742e-01
1.04050000000e+11 +6.56709499094e-01 -4.55400390339e-01 -3.42560628215e-01 -4.88523358181e-01 -3.42560628215e-01 -4.88523358181e-01 +6.56709499094e-01 -4.55400390339e-01
1.04400000000e+11 +5.78745540097e-01 -4.76460352982e-01 -4.20678638892e-01 -5.04593404521e-01 -4.20678638892e-01 -5.04593404521e-01 +5.78745540097e-01 -4.76460352982e-01
1.04750000000e+11 +4.81350974580e-01 -4.84230089983e-01 -5.18201672778e-01 -5.07392917029e-01 -5.18201672778e-01 -5.07392917029e-01 +4.81350974580e-01 -4.84230089983e-01
1.05100000000e+11 +3.64192115802e-01 -4.67277449918e-01 -6.35463814533e-01 -4.85484827027e-01 -6.35463814533e-01 -4.85484827027e-01 +3.64192115802e-01 -4.67277449918e-01
1.05450000000e+11 +2.33999882000e-01 -4.10177838328e-01 -7.65734441245e-01 -4.23439724782e-01 -7.65734441245e-01 -4.23439724782e-01 +2.33999882000e-01 -4.10177838328e-01
1.05800000000e+11 +1.10276271541e-01 -2.98731094294e-01 -8.89511750729e-01 -3.07052715496e-01 -8.89511750729e-01 -3.07052715496e-01 +1.10276271541e-01 -2.98731094294e-01
1.06150000000e+11 +2.56773434255e-02 -1.32714612409e-01 -9.74139783594e-01 -1.36096521571e-01 -9.74139783594e-01 -1.36096521571e-01 +2.56773434255e-02 -1.32714612409e-01
1.06500000000e+11 +1.11061106277e-02 +6.20374390160e-02 -9.88715531605e-01 +6.35993182151e-02 -9.88715531605e-01 +6.35993182151e-02 +1.11061106277e-02 +6.20374390160e-02
1.06850000000e+11 +7.18749922901e-02 +2.41938924841e-01 -9.27926486377e-01 +2.48453274091e-01 -9.27926486377e-01 +2.48453274091e-01 +7.18749922901e-02 +2.41938924841e-01
1.07200000000e+11 +1.83132500807e-01 +3.73476101778e-01 -8.16623952375e-01 +3.84956202110e-01 -8.16623952375e-01 +3.84956202110e-01 +1.83132500807e-01 +3.73476101778e-01
1.07550000000e+11 +3.10820911201e-01 +4.49283532405e-01 -6.88865376842e-01 +4.65747276081e-01 -6.88865376842e-01 +4.65747276081e-01 +3.10820911201e-01 +4.49283532405e-01
1.07900000000e+11 +4.31078837769e-01 +4.80373469065e-01 -5.68511771663e-01 +5.01843389326e-01 -5.68511771663e-01 +5.01843389326e-01 +4.31078837769e-01 +4.80373469065e-01
1.08250000000e+11 +5.33677081501e-01 +4.82216270936e-01 -4.65791863650e-01 +5.08719589672e-01 -4.65791863650e-01 +5.08719589672e-01 +5.33677081501e-01 +4.82216270936e-01
1.08600000000e+11 +6.17084232457e-01 +4.67377261057e-01 -3.82236489057e-01 +4.98945954635e-01 -3.82236489057e-01 +4.98945954635e-01 +6.17084232457e-01 +4.67377261057e-01
1.08950000000e+11 +6.83504905028e-01 +4.44129361038e-01 -3.15640354329e-01 +4.80800244648e-01 -3.15640354329e-01 +4.80800244648e-01 +6.83504905028e-01 +4.44129361038e-01
1.09300000000e+11 +7.36105248627e-01 +4.17363728191e-01 -2.62836520532e-01 +4.59178559225e-01 -2.62836520532e-01 +4.59178559225e-01 +7.36105248627e-01 +4.17363728191e-01
1.09650000000e+11 +7.77864627686e-01 +3.89782959963e-01 -2.20844717485e-01 +4.36788561102e-01 -2.20844717485e-01 +4.36788561102e-01 +7.77864627686e-01 +3.89782959963e-01
1.10000000000e+11 +8.11236542343e-01 +3.62793176477e-01 -1.87210416165e-01 +4.15041579321e-01 -1.87210416165e-01 +4.15041579321e-01 +8.11236542343e-01 +3.62793176477e-01
