!Created with mwavepy.
# GHz S RI R 50.0 
!freq	ReS11	ImS11	ReS21	ImS21	ReS12	ImS12	ReS22	ImS22	
75.0	0.0	0.0	0.52275549736	-0.852482662568	0.52275549736	-0.852482662568	0.0	0.0	
! Port Impedance	50.00000000000000	0.00000000000000	50.00000000000000	0.00000000000000	
75.175	0.0	0.0	0.517424428542	-0.855728906107	0.517424428542	-0.855728906107	0.0	0.0	
! Port Impedance	50.00000000000000	0.00000000000000	50.00000000000000	0.00000000000000	
75.35	0.0	0.0	0.512093207875	-0.858929884477	0.512093207875	-0.858929884477	0.0	0.0	
! Port Impedance	50.00000000000000	0.00000000000000	50.00000000000000	0.00000000000000	
75.525	0.0	0.0	0.506761904782	-0.862086058269	0.506761904782	-0.862086058269	0.0	0.0	
! Port Impedance	50.00000000000000	0.00000000000000	50.00000000000000	0.00000000000000	
75.7	0.0	0.0	0.501430588672	-0.865197876063	0.501430588672	-0.865197876063	0.0	0.0	
! Port Impedance	50.00000000000000	0.00000000000000	50.00000000000000	0.00000000000000	
75.875	0.0	0.0	0.496099328941	-0.868265774878	0.496099328941	-0.868265774878	0.0	0.0	
! Port Impedance	50.00000000000000	0.00000000000000	50.00000000000000	0.00000000000000	
76.05	0.0	0.0	0.49076819497	-0.871290180598	0.49076819497	-0.871290180598	0.0	0.0	
! Port Impedance	50.00000000000000	0.00000000000000	50.00000000000000	0.00000000000000	
76.225	0.0	0.0	0.485437256126	-0.87427150838	0.485437256126	-0.87427150838	0.0	0.0	
! Port Impedance	50.00000000000000	0.00000000000000	50.00000000000000	0.00000000000000	
76.4	0.0	0.0	0.480106581757	-0.877210163048	0.480106581757	-0.877210163048	0.0	0.0	
! Port Impedance	50.00000000000000	0.00000000000000	50.00000000000000	0.00000000000000	
76.575	0.0	0.0	0.474776241195	-0.880106539458	0.474776241195	-0.880106539458	0.0	0.0	
! Port Impedance	50.00000000000000	0.00000000000000	50.00000000000000	0.00000000000000	
76.75	0.0	0.0	0.469446303753	-0.882961022862	0.469446303753	-0.882961022862	0.0	0.0	
! Port Impedance	50.00000000000000	0.00000000000000	50.00000000000000	0.00000000000000	
76.925	0.0	0.0	0.464116838725	-0.885773989239	0.464116838725	-0.885773989239	0.0	0.0	
! Port Impedance	50.00000000000000	0.00000000000000	50.00000000000000	0.00000000000000	
77.1	0.0	0.0	0.458787915385	-0.888545805627	0.458787915385	-0.888545805627	0.0	0.0	
! Port Impedance	50.00000000000000	0.00000000000000	50.00000000000000	0.00000000000000	
77.275	0.0	0.0	0.453459602983	-0.891276830431	0.453459602983	-0.891276830431	0.0	0.0	
! Port Impedance	50.00000000000000	0.00000000000000	50.00000000000000	0.00000000000000	
77.45	0.0	0.0	0.44813197075	-0.893967413719	0.44813197075	-0.893967413719	0.0	0.0	
! Port Impedance	50.00000000000000	0.00000000000000	50.00000000000000	0.00000000000000	
77.625	0.0	0.0	0.442805087891	-0.896617897511	0.442805087891	-0.896617897511	0.0	0.0	
! Port Impedance	50.00000000000000	0.00000000000000	50.00000000000000	0.00000000000000	
77.8	0.0	0.0	0.437479023589	-0.899228616048	0.437479023589	-0.899228616048	0.0	0.0	
! Port Impedance	50.00000000000000	0.00000000000000	50.00000000000000	0.00000000000000	
77.975	0.0	0.0	0.432153846999	-0.901799896054	0.432153846999	-0.901799896054	0.0	0.0	
! Port Impedance	50.00000000000000	0.00000000000000	50.00000000000000	0.00000000000000	
78.15	0.0	0.0	0.426829627252	-0.90433205699	0.426829627252	-0.90433205699	0.0	0.0	
! Port Impedance	50.00000000000000	0.00000000000000	50.00000000000000	0.00000000000000	
78.325	0.0	0.0	0.42150643345	-0.906825411289	0.42150643345	-0.906825411289	0.0	0.0	
! Port Impedance	50.00000000000000	0.00000000000000	50.00000000000000	0.00000000000000	
78.5	0.0	0.0	0.416184334669	-0.909280264592	0.416184334669	-0.909280264592	0.0	0.0	
! Port Impedance	50.00000000000000	0.00000000000000	50.00000000000000	0.00000000000000	
78.675	0.0	0.0	0.410863399953	-0.911696915964	0.410863399953	-0.911696915964	0.0	0.0	
! Port Impedance	50.00000000000000	0.00000000000000	50.00000000000000	0.00000000000000	
78.85	0.0	0.0	0.405543698318	-0.914075658113	0.405543698318	-0.914075658113	0.0	0.0	
! Port Impedance	50.00000000000000	0.00000000000000	50.00000000000000	0.00000000000000	
79.025	0.0	0.0	0.400225298748	-0.916416777587	0.400225298748	-0.916416777587	0.0	0.0	
! Port Impedance	50.00000000000000	0.00000000000000	50.00000000000000	0.00000000000000	
79.2	0.0	0.0	0.394908270194	-0.918720554974	0.394908270194	-0.918720554974	0.0	0.0	
! Port Impedance	50.00000000000000	0.00000000000000	50.00000000000000	0.00000000000000	
79.375	0.0	0.0	0.389592681577	-0.920987265092	0.389592681577	-0.920987265092	0.0	0.0	
! Port Impedance	50.00000000000000	0.00000000000000	50.00000000000000	0.00000000000000	
79.55	0.0	0.0	0.384278601781	-0.923217177166	0.384278601781	-0.923217177166	0.0	0.0	
! Port Impedance	50.00000000000000	0.00000000000000	50.00000000000000	0.00000000000000	
79.725	0.0	0.0	0.378966099655	-0.925410555004	0.378966099655	-0.925410555004	0.0	0.0	
! Port Impedance	50.00000000000000	0.00000000000000	50.00000000000000	0.00000000000000	
79.9	0.0	0.0	0.373655244014	-0.927567657166	0.373655244014	-0.927567657166	0.0	0.0	
! Port Impedance	50.00000000000000	0.00000000000000	50.00000000000000	0.00000000000000	
80.075	0.0	0.0	0.368346103634	-0.929688737125	0.368346103634	-0.929688737125	0.0	0.0	
! Port Impedance	50.00000000000000	0.00000000000000	50.00000000000000	0.00000000000000	
80.25	0.0	0.0	0.363038747255	-0.93177404342	0.363038747255	-0.93177404342	0.0	0.0	
! Port Impedance	50.00000000000000	0.00000000000000	50.00000000000000	0.00000000000000	
80.425	0.0	0.0	0.357733243577	-0.933823819807	0.357733243577	-0.933823819807	0.0	0.0	
! Port Impedance	50.00000000000000	0.00000000000000	50.00000000000000	0.00000000000000	
80.6	0.0	0.0	0.352429661261	-0.935838305405	0.352429661261	-0.935838305405	0.0	0.0	
! Port Impedance	50.00000000000000	0.00000000000000	50.00000000000000	0.00000000000000	
80.775	0.0	0.0	0.347128068925	-0.937817734831	0.347128068925	-0.937817734831	0.0	0.0	
! Port Impedance	50.00000000000000	0.00000000000000	50.00000000000000	0.00000000000000	
80.95	0.0	0.0	0.341828535149	-0.939762338338	0.341828535149	-0.939762338338	0.0	0.0	
! Port Impedance	50.00000000000000	0.00000000000000	50.00000000000000	0.00000000000000	
81.125	0.0	0.0	0.336531128466	-0.941672341939	0.336531128466	-0.941672341939	0.0	0.0	
! Port Impedance	50.00000000000000	0.00000000000000	50.00000000000000	0.00000000000000	
81.3	0.0	0.0	0.331235917369	-0.943547967538	0.331235917369	-0.943547967538	0.0	0.0	
! Port Impedance	50.00000000000000	0.00000000000000	50.00000000000000	0.00000000000000	
81.475	0.0	0.0	0.325942970304	-0.945389433043	0.325942970304	-0.945389433043	0.0	0.0	
! Port Impedance	50.00000000000000	0.00000000000000	50.00000000000000	0.00000000000000	
81.65	0.0	0.0	0.320652355672	-0.947196952488	0.320652355672	-0.947196952488	0.0	0.0	
! Port Impedance	50.00000000000000	0.00000000000000	50.00000000000000	0.00000000000000	
81.825	0.0	0.0	0.315364141829	-0.948970736139	0.315364141829	-0.948970736139	0.0	0.0	
! Port Impedance	50.00000000000000	0.00000000000000	50.00000000000000	0.00000000000000	
82.0	0.0	0.0	0.310078397082	-0.950710990608	0.310078397082	-0.950710990608	0.0	0.0	
! Port Impedance	50.00000000000000	0.00000000000000	50.00000000000000	0.00000000000000	
82.175	0.0	0.0	0.304795189688	-0.952417918953	0.304795189688	-0.952417918953	0.0	0.0	
! Port Impedance	50.00000000000000	0.00000000000000	50.00000000000000	0.00000000000000	
82.35	0.0	0.0	0.299514587858	-0.95409172078	0.299514587858	-0.95409172078	0.0	0.0	
! Port Impedance	50.00000000000000	0.00000000000000	50.00000000000000	0.00000000000000	
82.525	0.0	0.0	0.29423665975	-0.955732592339	0.29423665975	-0.955732592339	0.0	0.0	
! Port Impedance	50.00000000000000	0.00000000000000	50.00000000000000	0.00000000000000	
82.7	0.0	0.0	0.288961473471	-0.957340726622	0.288961473471	-0.957340726622	0.0	0.0	
! Port Impedance	50.00000000000000	0.00000000000000	50.00000000000000	0.00000000000000	
82.875	0.0	0.0	0.283689097078	-0.958916313449	0.283689097078	-0.958916313449	0.0	0.0	
! Port Impedance	50.00000000000000	0.00000000000000	50.00000000000000	0.00000000000000	
83.05	0.0	0.0	0.278419598572	-0.960459539559	0.278419598572	-0.960459539559	0.0	0.0	
! Port Impedance	50.00000000000000	0.00000000000000	50.00000000000000	0.00000000000000	
83.225	0.0	0.0	0.273153045901	-0.961970588695	0.273153045901	-0.961970588695	0.0	0.0	
! Port Impedance	50.00000000000000	0.00000000000000	50.00000000000000	0.00000000000000	
83.4	0.0	0.0	0.267889506958	-0.963449641684	0.267889506958	-0.963449641684	0.0	0.0	
! Port Impedance	50.00000000000000	0.00000000000000	50.00000000000000	0.00000000000000	
83.575	0.0	0.0	0.262629049579	-0.96489687652	0.262629049579	-0.96489687652	0.0	0.0	
! Port Impedance	50.00000000000000	0.00000000000000	50.00000000000000	0.00000000000000	
83.75	0.0	0.0	0.257371741544	-0.966312468436	0.257371741544	-0.966312468436	0.0	0.0	
! Port Impedance	50.00000000000000	0.00000000000000	50.00000000000000	0.00000000000000	
83.925	0.0	0.0	0.252117650574	-0.967696589985	0.252117650574	-0.967696589985	0.0	0.0	
! Port Impedance	50.00000000000000	0.00000000000000	50.00000000000000	0.00000000000000	
84.1	0.0	0.0	0.246866844331	-0.969049411109	0.246866844331	-0.969049411109	0.0	0.0	
! Port Impedance	50.00000000000000	0.00000000000000	50.00000000000000	0.00000000000000	
84.275	0.0	0.0	0.24161939042	-0.970371099205	0.24161939042	-0.970371099205	0.0	0.0	
! Port Impedance	50.00000000000000	0.00000000000000	50.00000000000000	0.00000000000000	
84.45	0.0	0.0	0.236375356381	-0.971661819203	0.236375356381	-0.971661819203	0.0	0.0	
! Port Impedance	50.00000000000000	0.00000000000000	50.00000000000000	0.00000000000000	
84.625	0.0	0.0	0.231134809694	-0.972921733619	0.231134809694	-0.972921733619	0.0	0.0	
! Port Impedance	50.00000000000000	0.00000000000000	50.00000000000000	0.00000000000000	
84.8	0.0	0.0	0.225897817777	-0.974151002629	0.225897817777	-0.974151002629	0.0	0.0	
! Port Impedance	50.00000000000000	0.00000000000000	50.00000000000000	0.00000000000000	
84.975	0.0	0.0	0.220664447984	-0.975349784127	0.220664447984	-0.975349784127	0.0	0.0	
! Port Impedance	50.00000000000000	0.00000000000000	50.00000000000000	0.00000000000000	
85.15	0.0	0.0	0.215434767603	-0.976518233782	0.215434767603	-0.976518233782	0.0	0.0	
! Port Impedance	50.00000000000000	0.00000000000000	50.00000000000000	0.00000000000000	
85.325	0.0	0.0	0.210208843858	-0.9776565051	0.210208843858	-0.9776565051	0.0	0.0	
! Port Impedance	50.00000000000000	0.00000000000000	50.00000000000000	0.00000000000000	
85.5	0.0	0.0	0.204986743907	-0.978764749479	0.204986743907	-0.978764749479	0.0	0.0	
! Port Impedance	50.00000000000000	0.00000000000000	50.00000000000000	0.00000000000000	
85.675	0.0	0.0	0.199768534838	-0.979843116263	0.199768534838	-0.979843116263	0.0	0.0	
! Port Impedance	50.00000000000000	0.00000000000000	50.00000000000000	0.00000000000000	
85.85	0.0	0.0	0.194554283673	-0.980891752797	0.194554283673	-0.980891752797	0.0	0.0	
! Port Impedance	50.00000000000000	0.00000000000000	50.00000000000000	0.00000000000000	
86.025	0.0	0.0	0.189344057363	-0.981910804473	0.189344057363	-0.981910804473	0.0	0.0	
! Port Impedance	50.00000000000000	0.00000000000000	50.00000000000000	0.00000000000000	
86.2	0.0	0.0	0.184137922791	-0.982900414788	0.184137922791	-0.982900414788	0.0	0.0	
! Port Impedance	50.00000000000000	0.00000000000000	50.00000000000000	0.00000000000000	
86.375	0.0	0.0	0.178935946767	-0.983860725385	0.178935946767	-0.983860725385	0.0	0.0	
! Port Impedance	50.00000000000000	0.00000000000000	50.00000000000000	0.00000000000000	
86.55	0.0	0.0	0.173738196029	-0.984791876104	0.173738196029	-0.984791876104	0.0	0.0	
! Port Impedance	50.00000000000000	0.00000000000000	50.00000000000000	0.00000000000000	
86.725	0.0	0.0	0.168544737243	-0.985694005028	0.168544737243	-0.985694005028	0.0	0.0	
! Port Impedance	50.00000000000000	0.00000000000000	50.00000000000000	0.00000000000000	
86.9	0.0	0.0	0.163355636999	-0.986567248524	0.163355636999	-0.986567248524	0.0	0.0	
! Port Impedance	50.00000000000000	0.00000000000000	50.00000000000000	0.00000000000000	
87.075	0.0	0.0	0.158170961815	-0.987411741291	0.158170961815	-0.987411741291	0.0	0.0	
! Port Impedance	50.00000000000000	0.00000000000000	50.00000000000000	0.00000000000000	
87.25	0.0	0.0	0.15299077813	-0.988227616396	0.15299077813	-0.988227616396	0.0	0.0	
! Port Impedance	50.00000000000000	0.00000000000000	50.00000000000000	0.00000000000000	
87.425	0.0	0.0	0.147815152308	-0.98901500532	0.147815152308	-0.98901500532	0.0	0.0	
! Port Impedance	50.00000000000000	0.00000000000000	50.00000000000000	0.00000000000000	
87.6	0.0	0.0	0.142644150637	-0.989774037995	0.142644150637	-0.989774037995	0.0	0.0	
! Port Impedance	50.00000000000000	0.00000000000000	50.00000000000000	0.00000000000000	
87.775	0.0	0.0	0.137477839322	-0.990504842843	0.137477839322	-0.990504842843	0.0	0.0	
! Port Impedance	50.00000000000000	0.00000000000000	50.00000000000000	0.00000000000000	
87.95	0.0	0.0	0.132316284492	-0.991207546813	0.132316284492	-0.991207546813	0.0	0.0	
! Port Impedance	50.00000000000000	0.00000000000000	50.00000000000000	0.00000000000000	
88.125	0.0	0.0	0.127159552195	-0.991882275417	0.127159552195	-0.991882275417	0.0	0.0	
! Port Impedance	50.00000000000000	0.00000000000000	50.00000000000000	0.00000000000000	
88.3	0.0	0.0	0.122007708396	-0.992529152767	0.122007708396	-0.992529152767	0.0	0.0	
! Port Impedance	50.00000000000000	0.00000000000000	50.00000000000000	0.00000000000000	
88.475	0.0	0.0	0.116860818979	-0.993148301608	0.116860818979	-0.993148301608	0.0	0.0	
! Port Impedance	50.00000000000000	0.00000000000000	50.00000000000000	0.00000000000000	
88.65	0.0	0.0	0.111718949745	-0.993739843353	0.111718949745	-0.993739843353	0.0	0.0	
! Port Impedance	50.00000000000000	0.00000000000000	50.00000000000000	0.00000000000000	
88.825	0.0	0.0	0.10658216641	-0.994303898113	0.10658216641	-0.994303898113	0.0	0.0	
! Port Impedance	50.00000000000000	0.00000000000000	50.00000000000000	0.00000000000000	
89.0	0.0	0.0	0.101450534606	-0.994840584731	0.101450534606	-0.994840584731	0.0	0.0	
! Port Impedance	50.00000000000000	0.00000000000000	50.00000000000000	0.00000000000000	
89.175	0.0	0.0	0.0963241198768	-0.995350020812	0.0963241198768	-0.995350020812	0.0	0.0	
! Port Impedance	50.00000000000000	0.00000000000000	50.00000000000000	0.00000000000000	
89.35	0.0	0.0	0.0912029876818	-0.995832322752	0.0912029876818	-0.995832322752	0.0	0.0	
! Port Impedance	50.00000000000000	0.00000000000000	50.00000000000000	0.00000000000000	
89.525	0.0	0.0	0.0860872033915	-0.996287605771	0.0860872033915	-0.996287605771	0.0	0.0	
! Port Impedance	50.00000000000000	0.00000000000000	50.00000000000000	0.00000000000000	
89.7	0.0	0.0	0.0809768322875	-0.996715983936	0.0809768322875	-0.996715983936	0.0	0.0	
! Port Impedance	50.00000000000000	0.00000000000000	50.00000000000000	0.00000000000000	
89.875	0.0	0.0	0.0758719395623	-0.997117570193	0.0758719395623	-0.997117570193	0.0	0.0	
! Port Impedance	50.00000000000000	0.00000000000000	50.00000000000000	0.00000000000000	
90.05	0.0	0.0	0.0707725903173	-0.997492476393	0.0707725903173	-0.997492476393	0.0	0.0	
! Port Impedance	50.00000000000000	0.00000000000000	50.00000000000000	0.00000000000000	
90.225	0.0	0.0	0.0656788495629	-0.997840813316	0.0656788495629	-0.997840813316	0.0	0.0	
! Port Impedance	50.00000000000000	0.00000000000000	50.00000000000000	0.00000000000000	
90.4	0.0	0.0	0.0605907822169	-0.998162690702	0.0605907822169	-0.998162690702	0.0	0.0	
! Port Impedance	50.00000000000000	0.00000000000000	50.00000000000000	0.00000000000000	
90.575	0.0	0.0	0.0555084531038	-0.99845821727	0.0555084531038	-0.99845821727	0.0	0.0	
! Port Impedance	50.00000000000000	0.00000000000000	50.00000000000000	0.00000000000000	
90.75	0.0	0.0	0.0504319269541	-0.998727500745	0.0504319269541	-0.998727500745	0.0	0.0	
! Port Impedance	50.00000000000000	0.00000000000000	50.00000000000000	0.00000000000000	
90.925	0.0	0.0	0.0453612684031	-0.998970647882	0.0453612684031	-0.998970647882	0.0	0.0	
! Port Impedance	50.00000000000000	0.00000000000000	50.00000000000000	0.00000000000000	
91.1	0.0	0.0	0.0402965419902	-0.999187764489	0.0402965419902	-0.999187764489	0.0	0.0	
! Port Impedance	50.00000000000000	0.00000000000000	50.00000000000000	0.00000000000000	
91.275	0.0	0.0	0.0352378121579	-0.999378955449	0.0352378121579	-0.999378955449	0.0	0.0	
! Port Impedance	50.00000000000000	0.00000000000000	50.00000000000000	0.00000000000000	
91.45	0.0	0.0	0.0301851432509	-0.999544324743	0.0301851432509	-0.999544324743	0.0	0.0	
! Port Impedance	50.00000000000000	0.00000000000000	50.00000000000000	0.00000000000000	
91.625	0.0	0.0	0.0251385995153	-0.999683975471	0.0251385995153	-0.999683975471	0.0	0.0	
! Port Impedance	50.00000000000000	0.00000000000000	50.00000000000000	0.00000000000000	
91.8	0.0	0.0	0.0200982450975	-0.999798009872	0.0200982450975	-0.999798009872	0.0	0.0	
! Port Impedance	50.00000000000000	0.00000000000000	50.00000000000000	0.00000000000000	
91.975	0.0	0.0	0.0150641440436	-0.999886529344	0.0150641440436	-0.999886529344	0.0	0.0	
! Port Impedance	50.00000000000000	0.00000000000000	50.00000000000000	0.00000000000000	
92.15	0.0	0.0	0.0100363602983	-0.999949634468	0.0100363602983	-0.999949634468	0.0	0.0	
! Port Impedance	50.00000000000000	0.00000000000000	50.00000000000000	0.00000000000000	
92.325	0.0	0.0	0.00501495770396	-0.999987425021	0.00501495770396	-0.999987425021	0.0	0.0	
! Port Impedance	50.00000000000000	0.00000000000000	50.00000000000000	0.00000000000000	
92.5	0.0	0.0	6.12303176911e-17	-1.0	6.12303176911e-17	-1.0	0.0	0.0	
! Port Impedance	50.00000000000000	0.00000000000000	50.00000000000000	0.00000000000000	
92.675	0.0	0.0	-0.0050084491783	-0.99998745764	-0.0050084491783	-0.99998745764	0.0	0.0	
! Port Impedance	50.00000000000000	0.00000000000000	50.00000000000000	0.00000000000000	
92.85	0.0	0.0	-0.0100103263005	-0.999949895428	-0.0100103263005	-0.999949895428	0.0	0.0	
! Port Impedance	50.00000000000000	0.00000000000000	50.00000000000000	0.00000000000000	
93.025	0.0	0.0	-0.0150055679421	-0.999887410127	-0.0150055679421	-0.999887410127	0.0	0.0	
! Port Impedance	50.00000000000000	0.00000000000000	50.00000000000000	0.00000000000000	
93.2	0.0	0.0	-0.019994110785	-0.999800097787	-0.019994110785	-0.999800097787	0.0	0.0	
! Port Impedance	50.00000000000000	0.00000000000000	50.00000000000000	0.00000000000000	
93.375	0.0	0.0	-0.0249758916189	-0.999688053764	-0.0249758916189	-0.999688053764	0.0	0.0	
! Port Impedance	50.00000000000000	0.00000000000000	50.00000000000000	0.00000000000000	
93.55	0.0	0.0	-0.0299508473418	-0.999551372739	-0.0299508473418	-0.999551372739	0.0	0.0	
! Port Impedance	50.00000000000000	0.00000000000000	50.00000000000000	0.00000000000000	
93.725	0.0	0.0	-0.034918914961	-0.99939014873	-0.034918914961	-0.99939014873	0.0	0.0	
! Port Impedance	50.00000000000000	0.00000000000000	50.00000000000000	0.00000000000000	
93.9	0.0	0.0	-0.0398800315941	-0.99920447511	-0.0398800315941	-0.99920447511	0.0	0.0	
! Port Impedance	50.00000000000000	0.00000000000000	50.00000000000000	0.00000000000000	
94.075	0.0	0.0	-0.0448341344695	-0.998994444622	-0.0448341344695	-0.998994444622	0.0	0.0	
! Port Impedance	50.00000000000000	0.00000000000000	50.00000000000000	0.00000000000000	
94.25	0.0	0.0	-0.0497811609278	-0.998760149394	-0.0497811609278	-0.998760149394	0.0	0.0	
! Port Impedance	50.00000000000000	0.00000000000000	50.00000000000000	0.00000000000000	
94.425	0.0	0.0	-0.0547210484224	-0.99850168095	-0.0547210484224	-0.99850168095	0.0	0.0	
! Port Impedance	50.00000000000000	0.00000000000000	50.00000000000000	0.00000000000000	
94.6	0.0	0.0	-0.0596537345201	-0.99821913023	-0.0596537345201	-0.99821913023	0.0	0.0	
! Port Impedance	50.00000000000000	0.00000000000000	50.00000000000000	0.00000000000000	
94.775	0.0	0.0	-0.0645791569026	-0.997912587602	-0.0645791569026	-0.997912587602	0.0	0.0	
! Port Impedance	50.00000000000000	0.00000000000000	50.00000000000000	0.00000000000000	
94.95	0.0	0.0	-0.0694972533666	-0.997582142871	-0.0694972533666	-0.997582142871	0.0	0.0	
