!Created with mwavepy.
!
!Created with skrf (http://scikit-rf.org).
# GHz S RI R 50.0 
!freq ReS11 ImS11
500.0 0.04771157387 -0.205878949771
501.25 0.0613094709692 -0.197077138751
502.5 0.0443028217713 -0.200078566466
503.75 0.0523238543196 -0.202600216213
505.0 0.0549271491225 -0.201768976656
506.25 0.0523918515751 -0.204314583699
507.5 0.051179482524 -0.202894108453
508.75 0.0529413055677 -0.20596889285
510.0 0.0494880305205 -0.205275620038
511.25 0.0507567734893 -0.200802231414
512.5 0.0572095130372 -0.202965240767
513.75 0.053804668016 -0.205460965889
515.0 0.0514228086353 -0.207982569667
516.25 0.0481150861834 -0.20270536764
517.5 0.0509882217018 -0.205755147751
518.75 0.0498916664844 -0.207306465986
520.0 0.0503807242867 -0.205620804327
521.25 0.0548419072721 -0.206155249923
522.5 0.049691958594 -0.208097634776
523.75 0.0489235367366 -0.204992513775
525.0 0.0485663626868 -0.206438948771
526.25 0.0508742735973 -0.207083452412
527.5 0.0507097389722 -0.207036801533
528.75 0.0508611327429 -0.207463766055
530.0 0.0504946251575 -0.207752777855
531.25 0.0499357879747 -0.207879481278
532.5 0.0498215158368 -0.207080819208
533.75 0.0497585916474 -0.207238045031
535.0 0.050121377628 -0.207000176483
536.25 0.0494520556741 -0.207328118191
537.5 0.0497419247165 -0.207366675554
538.75 0.0493874032368 -0.206978625355
540.0 0.0501212052786 -0.207158548859
541.25 0.0493448133462 -0.207941046272
542.5 0.0487116260376 -0.20778904124
543.75 0.0493798509033 -0.209109542683
545.0 0.0486601400156 -0.208412461634
546.25 0.0482218152576 -0.208095646088
547.5 0.0481274771432 -0.20854944377
548.75 0.0473532078944 -0.208390417692
550.0 0.0466170423414 -0.207628634762
551.25 0.0462573221019 -0.206991680613
552.5 0.0462148198241 -0.208113369084
553.75 0.0483047999751 -0.20492148798
555.0 0.0475066737825 -0.204922359791
556.25 0.0476870469435 -0.20526678568
557.5 0.0519033706896 -0.203652382844
558.75 0.0502757995656 -0.206991797432
560.0 0.0469231670731 -0.208142392969
561.25 0.0463969256067 -0.207488215515
562.5 0.046109140609 -0.206727937518
563.75 0.0469202853098 -0.206390116536
565.0 0.0487835041058 -0.207215379999
566.25 0.0456199997238 -0.207163239819
567.5 0.0469817796465 -0.206263996029
568.75 0.0453331648115 -0.207844067942
570.0 0.0446278423095 -0.207929692785
571.25 0.0439110477824 -0.208162251768
572.5 0.04337654212 -0.206980924509
573.75 0.042880234102 -0.20703572268
575.0 0.0423656113405 -0.20726970256
576.25 0.0421608375246 -0.207238759501
577.5 0.0408419997164 -0.207528395115
578.75 0.0406030828716 -0.2070751574
580.0 0.0411853517715 -0.206716208117
581.25 0.0411066143288 -0.206547084044
582.5 0.0408836761736 -0.206541834712
583.75 0.0401067399643 -0.206524703933
585.0 0.0403312688235 -0.20640036238
586.25 0.0398210080498 -0.206429387314
587.5 0.0389726591065 -0.206328140828
588.75 0.0385567213478 -0.206154456533
590.0 0.0387463494127 -0.205704228505
591.25 0.03878333966 -0.20605555747
592.5 0.0385294592353 -0.206031114685
593.75 0.0381509014066 -0.205398002101
595.0 0.0380422151681 -0.205460103055
596.25 0.0386296662108 -0.205541994603
597.5 0.0372916640472 -0.20499457415
598.75 0.0372480190358 -0.204975216677
600.0 0.0367216432336 -0.204906691758
601.25 0.0370214490793 -0.204008536374
602.5 0.0357265988352 -0.20472370957
603.75 0.0348584970634 -0.204207071864
605.0 0.0348804216643 -0.204403594437
606.25 0.0350182314175 -0.204115856525
607.5 0.0347479759023 -0.203562058311
608.75 0.0345904853266 -0.20387580452
610.0 0.034286875563 -0.2039823951
611.25 0.0335798612869 -0.20395257062
612.5 0.0325450211626 -0.203130648479
613.75 0.0335565971099 -0.203185105034
615.0 0.0328754814016 -0.203199223043
616.25 0.0330008107403 -0.20283709128
617.5 0.0324045730985 -0.202737486123
618.75 0.0321177053589 -0.202459478177
620.0 0.0314788214914 -0.202001765186
621.25 0.0316230012471 -0.201805818987
622.5 0.0313575781493 -0.201775862245
623.75 0.0304632419253 -0.201724184512
625.0 0.0302337704538 -0.201582995412
626.25 0.0300949500621 -0.201043786665
627.5 0.0304461072777 -0.201186253335
628.75 0.0295977329738 -0.200671728953
630.0 0.0298298511944 -0.199751978323
631.25 0.029554939821 -0.200236917821
632.5 0.0269718099363 -0.200552281759
633.75 0.0278968386844 -0.199761526433
635.0 0.0280520566822 -0.199740571462
636.25 0.0276433658529 -0.199486599676
637.5 0.027634640579 -0.199259649018
638.75 0.0273959050884 -0.199008024566
640.0 0.0271624597844 -0.198986411088
641.25 0.0270381107259 -0.19875544042
642.5 0.0265065205294 -0.198482245168
643.75 0.0262163435651 -0.198108355476
645.0 0.0259915964454 -0.197941371115
646.25 0.0252392317141 -0.198020801825
647.5 0.0250105778277 -0.19758072942
648.75 0.0248140404943 -0.197381413756
650.0 0.0244286614521 -0.197050861792
651.25 0.0244804832843 -0.197025798199
652.5 0.0239938019906 -0.196772763314
653.75 0.0235726337981 -0.196486081076
655.0 0.0224156883338 -0.197137424209
656.25 0.0220528912135 -0.196326509649
657.5 0.0234846505201 -0.195473297908
658.75 0.0227901120482 -0.195549235852
660.0 0.0220141806502 -0.195383822235
661.25 0.0218171743776 -0.19512837279
662.5 0.021747992557 -0.194502653988
663.75 0.0217227491582 -0.194366405125
665.0 0.0210734053487 -0.194266297456
666.25 0.0207024377594 -0.194109500668
667.5 0.0205233948772 -0.193793745295
668.75 0.0201054471716 -0.193440161431
670.0 0.0194791088023 -0.193377232357
671.25 0.0192626747868 -0.193139352577
672.5 0.0191089151134 -0.192738748658
673.75 0.0187209079723 -0.192553185102
675.0 0.0187416216533 -0.192071585215
676.25 0.0179234442113 -0.191816934025
677.5 0.0176017496252 -0.19148164081
678.75 0.0174672704179 -0.191657247805
680.0 0.0174494112128 -0.191175750186
681.25 0.0172739672878 -0.190789990153
682.5 0.0169917193386 -0.19069688861
683.75 0.0165980733183 -0.190438181441
685.0 0.0162666984343 -0.190119692137
686.25 0.0163910527415 -0.189877180121
687.5 0.0161582221829 -0.189744314109
688.75 0.0155209031045 -0.189513128754
690.0 0.015293919506 -0.189141850993
691.25 0.0151278565504 -0.188759723161
692.5 0.0134164525614 -0.188679847578
693.75 0.0109019500454 -0.187815386832
695.0 0.0129368046383 -0.188139097623
696.25 0.0132325171739 -0.188595769024
697.5 0.0126533094686 -0.187660840728
698.75 0.0124039385076 -0.187322391042
700.0 0.0128011798633 -0.186963906853
701.25 0.0127297180691 -0.186782631533
702.5 0.0124609994787 -0.186260373616
703.75 0.0113307379434 -0.186088609453
705.0 0.0121793844548 -0.185892230624
706.25 0.0117981911989 -0.185447679661
707.5 0.0115090117446 -0.18527745771
708.75 0.0106391118977 -0.184991873018
710.0 0.0110145176249 -0.184932950963
711.25 0.0108966515773 -0.184487966375
712.5 0.0105711952964 -0.183987894377
713.75 0.0101958638442 -0.18404825889
715.0 0.00832247520829 -0.183320568395
716.25 0.00889343210818 -0.183293255439
717.5 0.00878585167226 -0.183316599527
718.75 0.00829841821332 -0.182983810922
720.0 0.00888857986185 -0.182713541566
721.25 0.00845850752412 -0.182032503838
722.5 0.0082392066891 -0.182281867105
723.75 0.00683967295213 -0.182159467168
725.0 0.00670854768864 -0.181414872872
726.25 0.00668265247275 -0.180751940166
727.5 0.00682212313933 -0.180929703991
728.75 0.00596858827041 -0.181123940338
730.0 0.00585997339325 -0.180352329758
731.25 0.00586225648392 -0.179311708209
732.5 0.00596791131944 -0.179709391235
733.75 0.00542838248847 -0.179317185134
735.0 0.00581117384968 -0.179050351778
736.25 0.00559717809958 -0.178589977422
737.5 0.00541916933987 -0.178505278199
738.75 0.0040327398712 -0.17837758535
740.0 0.0043666183113 -0.178160625419
741.25 0.00479373357318 -0.177527412856
742.5 0.00424435129361 -0.177288203879
743.75 0.00403537827924 -0.177026660951
745.0 0.00361190828409 -0.177377012186
746.25 0.00353996287968 -0.176434991007
747.5 0.00368238445375 -0.176107904956
748.75 0.00273388612821 -0.175533213434
750.0 0.00250327390796 -0.175080228499
