!Created with mwavepy.
!
!Created with skrf (http://scikit-rf.org).
# GHz S RI R 50.0 
!freq ReS11 ImS11
500.0 0.0530865747136 -0.211515444489
501.25 0.0483976721376 -0.199478316618
502.5 0.0592195523109 -0.200926863014
503.75 0.0507977985676 -0.201859344476
505.0 0.0510125952161 -0.204767123039
506.25 0.0507499558654 -0.203229927051
507.5 0.0503997016859 -0.203717492138
508.75 0.0472670726933 -0.200199241847
510.0 0.0543442105979 -0.204006975194
511.25 0.0539180056306 -0.202794570778
512.5 0.0520136145334 -0.199299070085
513.75 0.0536285818648 -0.204547321316
515.0 0.050074649287 -0.204063951473
516.25 0.0490027093258 -0.207223551931
517.5 0.0497057212981 -0.206287612761
518.75 0.0506878977945 -0.204899912053
520.0 0.0518771292415 -0.206640936559
521.25 0.0544221128256 -0.206307775254
522.5 0.0530675992858 -0.207166825824
523.75 0.0501083689391 -0.211202827671
525.0 0.0519609340754 -0.206137711496
526.25 0.0519432469222 -0.206989644209
527.5 0.0518119845832 -0.207288431992
528.75 0.0528498135561 -0.208451119169
530.0 0.052259606475 -0.208525722009
531.25 0.0500747120948 -0.208069283953
532.5 0.0504588594653 -0.207667497922
533.75 0.0507714515759 -0.206938093426
535.0 0.0505541023031 -0.206927580707
536.25 0.0505816899353 -0.20731560084
537.5 0.0505031091564 -0.207213597087
538.75 0.0503286001626 -0.206509051403
540.0 0.051050006892 -0.206433030351
541.25 0.0512696308908 -0.207081621738
542.5 0.0500019456051 -0.208112369355
543.75 0.0503186198686 -0.209544412674
545.0 0.049508774058 -0.20853388943
546.25 0.049040247376 -0.207982886504
547.5 0.0492278521499 -0.208600805276
548.75 0.0487188845596 -0.208755993063
550.0 0.0472446030897 -0.20778927623
551.25 0.0468387795314 -0.206169684044
552.5 0.0472252575753 -0.207706710565
553.75 0.0500469580914 -0.204900873613
555.0 0.0488338156798 -0.204257704814
556.25 0.048771459552 -0.205558631461
557.5 0.053326566467 -0.20475377868
558.75 0.0519027410331 -0.207602564711
560.0 0.0471462685288 -0.208919059271
561.25 0.046276106919 -0.208105478193
562.5 0.0465505900263 -0.206556903336
563.75 0.0472172062396 -0.206557679784
565.0 0.0491982225879 -0.207319700705
566.25 0.0463638225615 -0.20731392017
567.5 0.0471909977301 -0.206309417212
568.75 0.0460494930162 -0.207563071658
570.0 0.0451345196092 -0.208259107993
571.25 0.0440811657845 -0.208680484311
572.5 0.0434095487693 -0.207102726186
573.75 0.0430447596588 -0.207275764797
575.0 0.0428778885062 -0.207093948245
576.25 0.0427633454801 -0.206823675781
577.5 0.042182569167 -0.207205319879
578.75 0.0418933066336 -0.206751572572
580.0 0.0421377854604 -0.206854545874
581.25 0.0415130412932 -0.206612436144
582.5 0.0414044497366 -0.206535688074
583.75 0.0409848796122 -0.206451401071
585.0 0.0406317055998 -0.206322981963
586.25 0.0403755806668 -0.206213581856
587.5 0.0401572151867 -0.206657832186
588.75 0.0391407977708 -0.205828299794
590.0 0.0393259327913 -0.205773175409
591.25 0.0390102859934 -0.205859440681
592.5 0.0389178254182 -0.205699529744
593.75 0.038678910498 -0.205463803462
595.0 0.0384957538189 -0.205312939331
596.25 0.0386468180724 -0.205259376014
597.5 0.0377290141685 -0.205312366376
598.75 0.0375449593628 -0.205079209741
600.0 0.0371165099918 -0.204824515074
601.25 0.0374217807203 -0.20366707752
602.5 0.0363067190473 -0.204694254953
603.75 0.0357491385312 -0.204455986654
605.0 0.0355032713692 -0.20422272972
606.25 0.0355460577651 -0.203939361418
607.5 0.0352147131159 -0.203734032385
608.75 0.034917100498 -0.203661403786
610.0 0.0348002310028 -0.203489804538
611.25 0.0342908574225 -0.203363294166
612.5 0.0325920872965 -0.203069285076
613.75 0.0345403117171 -0.203190040107
615.0 0.0335203002243 -0.202866209877
616.25 0.0332147512389 -0.202652735407
617.5 0.0328458493408 -0.202436071126
618.75 0.0327748871762 -0.202291286983
620.0 0.03231698519 -0.202315892061
621.25 0.0318557556411 -0.202012634168
622.5 0.0315604696146 -0.201650686781
623.75 0.0313486621535 -0.201510163915
625.0 0.0312142693368 -0.201134716857
626.25 0.0307004978877 -0.2012188283
627.5 0.0312097044167 -0.201342572072
628.75 0.0300138288451 -0.200728937192
630.0 0.0299935218729 -0.199282755695
631.25 0.0302723087485 -0.200051281842
632.5 0.027708013944 -0.199838125072
633.75 0.0285823849979 -0.200095433347
635.0 0.0284121352187 -0.199592798065
636.25 0.0280860412335 -0.19950236116
637.5 0.0279882020593 -0.199315743553
638.75 0.027962942469 -0.198731461287
640.0 0.0277633867101 -0.198736981398
641.25 0.0271455223559 -0.198698733945
642.5 0.0269388234267 -0.198375171408
643.75 0.0265633777106 -0.198019842742
645.0 0.026246137291 -0.198019482245
646.25 0.0257765416957 -0.197698365357
647.5 0.0256370715659 -0.197479271034
648.75 0.0252148811682 -0.197168059167
650.0 0.024954160391 -0.196876042736
651.25 0.0248190381593 -0.196729980723
652.5 0.0247178968089 -0.196740844569
653.75 0.023834465645 -0.196369804983
655.0 0.022837406504 -0.197047443164
656.25 0.022411392987 -0.196394021547
657.5 0.0237971199526 -0.195421301523
658.75 0.0233523858349 -0.195416965607
660.0 0.0227539985993 -0.195137181849
661.25 0.0222627845985 -0.194836468379
662.5 0.0221463054955 -0.194385612531
663.75 0.0222828435978 -0.194032697342
665.0 0.0220421795899 -0.194520155595
666.25 0.0210783434064 -0.194017493486
667.5 0.0208361289332 -0.193427713883
668.75 0.0204480799881 -0.193238981619
670.0 0.020213879984 -0.19298457565
671.25 0.0199000273919 -0.192987557235
672.5 0.0194701736773 -0.192790258481
673.75 0.019057659031 -0.192310698629
675.0 0.0188457614744 -0.192113808492
676.25 0.018604626841 -0.192175814472
677.5 0.0178092069773 -0.191415328771
678.75 0.0175539280038 -0.191420280117
680.0 0.01811837203 -0.19092384947
681.25 0.0176450835626 -0.190809746566
682.5 0.0173616770489 -0.190999664856
683.75 0.0170880352062 -0.190527522631
685.0 0.0166373605868 -0.189915159177
686.25 0.0166297275635 -0.18924748425
687.5 0.0166747907119 -0.189394534288
688.75 0.0160180016464 -0.189594641061
690.0 0.0156842828258 -0.189025796711
691.25 0.0151061101088 -0.188545368939
692.5 0.0135306679761 -0.188358777835
693.75 0.010807686603 -0.187521704284
695.0 0.0130716904644 -0.188012406507
696.25 0.0134162874894 -0.188295482491
697.5 0.0127949061097 -0.187812826979
698.75 0.0130015083493 -0.18705206472
700.0 0.0132480450772 -0.187042452914
701.25 0.012946374368 -0.186705243667
702.5 0.0127941105969 -0.186326526624
703.75 0.0116833001831 -0.186252615571
705.0 0.0124374053313 -0.185858182643
706.25 0.0121152450714 -0.185563996169
707.5 0.011892939728 -0.185199421394
708.75 0.0120221546934 -0.184801609114
710.0 0.0115889774877 -0.184696054511
711.25 0.0109517625638 -0.184383151912
712.5 0.0107197312078 -0.183809650395
713.75 0.01077475312 -0.183625346663
715.0 0.00881595588534 -0.183145698636
716.25 0.00915802336189 -0.183096268581
717.5 0.00942470249214 -0.18313747117
718.75 0.00922653455194 -0.182875459708
720.0 0.00974166827473 -0.182523479536
721.25 0.00864008138724 -0.181969808254
722.5 0.00837694748965 -0.182071967767
723.75 0.00770799557704 -0.181792901916
725.0 0.00762843706116 -0.181691080873
726.25 0.00724498043092 -0.181054685437
727.5 0.00747227760949 -0.180798254038
728.75 0.00669323043092 -0.180710757561
730.0 0.00651862473867 -0.180452968625
731.25 0.00596968900413 -0.179483565255
732.5 0.00645808553843 -0.179340434029
733.75 0.00622852357773 -0.179397471197
735.0 0.00653367389283 -0.178964091442
736.25 0.00622323637937 -0.178734763269
737.5 0.00570716706068 -0.178372700561
738.75 0.00454800191995 -0.17828503662
740.0 0.00511878523292 -0.177795327308
741.25 0.0052981495574 -0.177731535904
742.5 0.00494662285433 -0.177048434968
743.75 0.0047791375705 -0.176975956141
745.0 0.00456985835777 -0.176370579316
746.25 0.00391786379699 -0.176756834014
747.5 0.00416619361558 -0.176066171859
748.75 0.00358502120695 -0.175402283983
750.0 0.00352775405747 -0.175700544226
