!Created with mwavepy.
# GHz S RI R 50.0 
!freq	ReS11	ImS11	
500.0	0.0455151856134	-0.205129418825	
! Port Impedance	50.00000000000000	0.00000000000000	
501.25	0.050033463352	-0.20754403395	
! Port Impedance	50.00000000000000	0.00000000000000	
502.5	0.05206160191	-0.209721134922	
! Port Impedance	50.00000000000000	0.00000000000000	
503.75	0.0504325108534	-0.205672779391	
! Port Impedance	50.00000000000000	0.00000000000000	
505.0	0.0504506745215	-0.198990618856	
! Port Impedance	50.00000000000000	0.00000000000000	
506.25	0.0474356954271	-0.203963577348	
! Port Impedance	50.00000000000000	0.00000000000000	
507.5	0.0518465131704	-0.205102293311	
! Port Impedance	50.00000000000000	0.00000000000000	
508.75	0.0534793618191	-0.202022552444	
! Port Impedance	50.00000000000000	0.00000000000000	
510.0	0.0517654267558	-0.202231242517	
! Port Impedance	50.00000000000000	0.00000000000000	
511.25	0.0517531254422	-0.205710851674	
! Port Impedance	50.00000000000000	0.00000000000000	
512.5	0.0519334192509	-0.207772765376	
! Port Impedance	50.00000000000000	0.00000000000000	
513.75	0.0497279908182	-0.203908415559	
! Port Impedance	50.00000000000000	0.00000000000000	
515.0	0.0514226070112	-0.203716619356	
! Port Impedance	50.00000000000000	0.00000000000000	
516.25	0.0534266932729	-0.20749142554	
! Port Impedance	50.00000000000000	0.00000000000000	
517.5	0.0500464300519	-0.205344430787	
! Port Impedance	50.00000000000000	0.00000000000000	
518.75	0.0516101434213	-0.206078606507	
! Port Impedance	50.00000000000000	0.00000000000000	
520.0	0.0517355674945	-0.204795562872	
! Port Impedance	50.00000000000000	0.00000000000000	
521.25	0.0487783598719	-0.199690360047	
! Port Impedance	50.00000000000000	0.00000000000000	
522.5	0.0514976776543	-0.204434685366	
! Port Impedance	50.00000000000000	0.00000000000000	
523.75	0.0497294431513	-0.206915063339	
! Port Impedance	50.00000000000000	0.00000000000000	
525.0	0.0514554513641	-0.207668269536	
! Port Impedance	50.00000000000000	0.00000000000000	
526.25	0.0507407840764	-0.206266426213	
! Port Impedance	50.00000000000000	0.00000000000000	
527.5	0.0503800778864	-0.206309418129	
! Port Impedance	50.00000000000000	0.00000000000000	
528.75	0.0503101401339	-0.205975224958	
! Port Impedance	50.00000000000000	0.00000000000000	
530.0	0.0504741421659	-0.206511316504	
! Port Impedance	50.00000000000000	0.00000000000000	
531.25	0.0503115306488	-0.206755345125	
! Port Impedance	50.00000000000000	0.00000000000000	
532.5	0.0505737459364	-0.206709214676	
! Port Impedance	50.00000000000000	0.00000000000000	
533.75	0.050395622182	-0.206915726826	
! Port Impedance	50.00000000000000	0.00000000000000	
535.0	0.0500083276453	-0.20701850899	
! Port Impedance	50.00000000000000	0.00000000000000	
536.25	0.0501139180411	-0.207232740373	
! Port Impedance	50.00000000000000	0.00000000000000	
537.5	0.0499141460645	-0.207286014027	
! Port Impedance	50.00000000000000	0.00000000000000	
538.75	0.0497393460063	-0.207145712268	
! Port Impedance	50.00000000000000	0.00000000000000	
540.0	0.0495217373168	-0.207396466761	
! Port Impedance	50.00000000000000	0.00000000000000	
541.25	0.0500537931466	-0.207463776136	
! Port Impedance	50.00000000000000	0.00000000000000	
542.5	0.0497231533883	-0.20752566698	
! Port Impedance	50.00000000000000	0.00000000000000	
543.75	0.0490537118551	-0.206977590588	
! Port Impedance	50.00000000000000	0.00000000000000	
545.0	0.0489574412787	-0.207258257285	
! Port Impedance	50.00000000000000	0.00000000000000	
546.25	0.0490373564396	-0.207246837899	
! Port Impedance	50.00000000000000	0.00000000000000	
547.5	0.0487266895469	-0.207335695767	
! Port Impedance	50.00000000000000	0.00000000000000	
548.75	0.0489624902033	-0.207511376184	
! Port Impedance	50.00000000000000	0.00000000000000	
550.0	0.0488972275548	-0.207634914101	
! Port Impedance	50.00000000000000	0.00000000000000	
551.25	0.0486550774635	-0.207838299831	
! Port Impedance	50.00000000000000	0.00000000000000	
552.5	0.048856518479	-0.207517016111	
! Port Impedance	50.00000000000000	0.00000000000000	
553.75	0.0484160043161	-0.209404261009	
! Port Impedance	50.00000000000000	0.00000000000000	
555.0	0.0478120661371	-0.209682383902	
! Port Impedance	50.00000000000000	0.00000000000000	
556.25	0.0466138295571	-0.209605244401	
! Port Impedance	50.00000000000000	0.00000000000000	
557.5	0.0446857266439	-0.210681987709	
! Port Impedance	50.00000000000000	0.00000000000000	
558.75	0.0440248793162	-0.209792101201	
! Port Impedance	50.00000000000000	0.00000000000000	
560.0	0.0455235523345	-0.208058566116	
! Port Impedance	50.00000000000000	0.00000000000000	
561.25	0.045477084708	-0.208056097339	
! Port Impedance	50.00000000000000	0.00000000000000	
562.5	0.0449881178336	-0.208404085737	
! Port Impedance	50.00000000000000	0.00000000000000	
563.75	0.0444618868948	-0.208265319811	
! Port Impedance	50.00000000000000	0.00000000000000	
565.0	0.042859513028	-0.20804275388	
! Port Impedance	50.00000000000000	0.00000000000000	
566.25	0.0441092694799	-0.207687130432	
! Port Impedance	50.00000000000000	0.00000000000000	
567.5	0.0430643006636	-0.20804476978	
! Port Impedance	50.00000000000000	0.00000000000000	
568.75	0.0438604083013	-0.207552757529	
! Port Impedance	50.00000000000000	0.00000000000000	
570.0	0.0436316654018	-0.207225179116	
! Port Impedance	50.00000000000000	0.00000000000000	
571.25	0.0435879450515	-0.207012053222	
! Port Impedance	50.00000000000000	0.00000000000000	
572.5	0.0437402471209	-0.207300486926	
! Port Impedance	50.00000000000000	0.00000000000000	
573.75	0.0438018215832	-0.206932582662	
! Port Impedance	50.00000000000000	0.00000000000000	
575.0	0.0432949698969	-0.206896443797	
! Port Impedance	50.00000000000000	0.00000000000000	
576.25	0.0428632616032	-0.206784602065	
! Port Impedance	50.00000000000000	0.00000000000000	
577.5	0.0428836973701	-0.20646457225	
! Port Impedance	50.00000000000000	0.00000000000000	
578.75	0.0425972840897	-0.206716914428	
! Port Impedance	50.00000000000000	0.00000000000000	
580.0	0.0422828640684	-0.206686240896	
! Port Impedance	50.00000000000000	0.00000000000000	
581.25	0.0417765205822	-0.206771863149	
! Port Impedance	50.00000000000000	0.00000000000000	
582.5	0.0417451799197	-0.206463992697	
! Port Impedance	50.00000000000000	0.00000000000000	
583.75	0.0417393911596	-0.206291514719	
! Port Impedance	50.00000000000000	0.00000000000000	
585.0	0.0409479263633	-0.206237602131	
! Port Impedance	50.00000000000000	0.00000000000000	
586.25	0.0407371387913	-0.205928060534	
! Port Impedance	50.00000000000000	0.00000000000000	
587.5	0.0409147568403	-0.205611893101	
! Port Impedance	50.00000000000000	0.00000000000000	
588.75	0.0411342535552	-0.205715608365	
! Port Impedance	50.00000000000000	0.00000000000000	
590.0	0.040034515455	-0.206101686058	
! Port Impedance	50.00000000000000	0.00000000000000	
591.25	0.0397677845894	-0.205581024854	
! Port Impedance	50.00000000000000	0.00000000000000	
592.5	0.039624548173	-0.205331014004	
! Port Impedance	50.00000000000000	0.00000000000000	
593.75	0.0390638133129	-0.205234047902	
! Port Impedance	50.00000000000000	0.00000000000000	
595.0	0.0388695221584	-0.205115644063	
! Port Impedance	50.00000000000000	0.00000000000000	
596.25	0.0386064276557	-0.204952688014	
! Port Impedance	50.00000000000000	0.00000000000000	
597.5	0.0383896825555	-0.204846212901	
! Port Impedance	50.00000000000000	0.00000000000000	
598.75	0.0379647710253	-0.205074759832	
! Port Impedance	50.00000000000000	0.00000000000000	
600.0	0.0376371636064	-0.20472144323	
! Port Impedance	50.00000000000000	0.00000000000000	
601.25	0.0370307859317	-0.204533832626	
! Port Impedance	50.00000000000000	0.00000000000000	
602.5	0.0373479490027	-0.204203324826	
! Port Impedance	50.00000000000000	0.00000000000000	
603.75	0.0372518284794	-0.20428109342	
! Port Impedance	50.00000000000000	0.00000000000000	
605.0	0.0370554358962	-0.203902530122	
! Port Impedance	50.00000000000000	0.00000000000000	
606.25	0.0361378206935	-0.203887754232	
! Port Impedance	50.00000000000000	0.00000000000000	
607.5	0.0357617421362	-0.203992311528	
! Port Impedance	50.00000000000000	0.00000000000000	
608.75	0.0355388389623	-0.203558615104	
! Port Impedance	50.00000000000000	0.00000000000000	
610.0	0.0354375014996	-0.202979518595	
! Port Impedance	50.00000000000000	0.00000000000000	
611.25	0.0351173430889	-0.20292721727	
! Port Impedance	50.00000000000000	0.00000000000000	
612.5	0.0354815778245	-0.203310077018	
! Port Impedance	50.00000000000000	0.00000000000000	
613.75	0.0343084019389	-0.202983544441	
! Port Impedance	50.00000000000000	0.00000000000000	
615.0	0.0340486639381	-0.20268608101	
! Port Impedance	50.00000000000000	0.00000000000000	
616.25	0.0335550243399	-0.202515977556	
! Port Impedance	50.00000000000000	0.00000000000000	
617.5	0.033546652203	-0.202314014152	
! Port Impedance	50.00000000000000	0.00000000000000	
618.75	0.0333559887535	-0.202172330659	
! Port Impedance	50.00000000000000	0.00000000000000	
620.0	0.0331116516001	-0.201969816313	
! Port Impedance	50.00000000000000	0.00000000000000	
621.25	0.0322351902798	-0.201969899918	
! Port Impedance	50.00000000000000	0.00000000000000	
622.5	0.0321195788202	-0.201488928535	
! Port Impedance	50.00000000000000	0.00000000000000	
623.75	0.0319757462434	-0.201331605156	
! Port Impedance	50.00000000000000	0.00000000000000	
625.0	0.0318232033984	-0.201158885159	
! Port Impedance	50.00000000000000	0.00000000000000	
626.25	0.0313410681986	-0.201164928276	
! Port Impedance	50.00000000000000	0.00000000000000	
627.5	0.030760939582	-0.200706040013	
! Port Impedance	50.00000000000000	0.00000000000000	
628.75	0.0304697469455	-0.200875763019	
! Port Impedance	50.00000000000000	0.00000000000000	
630.0	0.0299116408372	-0.200907008234	
! Port Impedance	50.00000000000000	0.00000000000000	
631.25	0.0298285096223	-0.200210125298	
! Port Impedance	50.00000000000000	0.00000000000000	
632.5	0.0307607339336	-0.200160093099	
! Port Impedance	50.00000000000000	0.00000000000000	
633.75	0.0297791729061	-0.200201155203	
! Port Impedance	50.00000000000000	0.00000000000000	
635.0	0.0291759141314	-0.200034096168	
! Port Impedance	50.00000000000000	0.00000000000000	
636.25	0.0288042231141	-0.199462691447	
! Port Impedance	50.00000000000000	0.00000000000000	
637.5	0.0285222030882	-0.199385130846	
! Port Impedance	50.00000000000000	0.00000000000000	
638.75	0.0281739775924	-0.198794059812	
! Port Impedance	50.00000000000000	0.00000000000000	
640.0	0.0279681961204	-0.198750772926	
! Port Impedance	50.00000000000000	0.00000000000000	
641.25	0.0276388689233	-0.198692094832	
! Port Impedance	50.00000000000000	0.00000000000000	
642.5	0.0270713208418	-0.198284396881	
! Port Impedance	50.00000000000000	0.00000000000000	
643.75	0.0266847299128	-0.197978455532	
! Port Impedance	50.00000000000000	0.00000000000000	
645.0	0.0266097958483	-0.19789640615	
! Port Impedance	50.00000000000000	0.00000000000000	
646.25	0.0267134283561	-0.197418054831	
! Port Impedance	50.00000000000000	0.00000000000000	
647.5	0.0261396725529	-0.197220112393	
! Port Impedance	50.00000000000000	0.00000000000000	
648.75	0.0256660187224	-0.196982040078	
! Port Impedance	50.00000000000000	0.00000000000000	
650.0	0.0253558749243	-0.197028942242	
! Port Impedance	50.00000000000000	0.00000000000000	
651.25	0.0252014769752	-0.196691593213	
! Port Impedance	50.00000000000000	0.00000000000000	
652.5	0.0249021804708	-0.196658774427	
! Port Impedance	50.00000000000000	0.00000000000000	
653.75	0.0244753670456	-0.196369180339	
! Port Impedance	50.00000000000000	0.00000000000000	
655.0	0.0242424656369	-0.195489423853	
! Port Impedance	50.00000000000000	0.00000000000000	
656.25	0.0245783928494	-0.195473247488	
! Port Impedance	50.00000000000000	0.00000000000000	
657.5	0.0234215896438	-0.195251058918	
! Port Impedance	50.00000000000000	0.00000000000000	
658.75	0.0234071773899	-0.195342848694	
! Port Impedance	50.00000000000000	0.00000000000000	
660.0	0.0228685401421	-0.195216518183	
! Port Impedance	50.00000000000000	0.00000000000000	
661.25	0.0222811100183	-0.194710975277	
! Port Impedance	50.00000000000000	0.00000000000000	
662.5	0.0221133863805	-0.19456717616	
! Port Impedance	50.00000000000000	0.00000000000000	
663.75	0.0218538393474	-0.194375018103	
! Port Impedance	50.00000000000000	0.00000000000000	
665.0	0.0216860540526	-0.1939644164	
! Port Impedance	50.00000000000000	0.00000000000000	
666.25	0.0212642254096	-0.193895414081	
! Port Impedance	50.00000000000000	0.00000000000000	
667.5	0.0209294103462	-0.193862473798	
! Port Impedance	50.00000000000000	0.00000000000000	
668.75	0.020785099641	-0.193272634143	
! Port Impedance	50.00000000000000	0.00000000000000	
670.0	0.0205670454946	-0.193026291123	
! Port Impedance	50.00000000000000	0.00000000000000	
671.25	0.0203352593856	-0.192852511204	
! Port Impedance	50.00000000000000	0.00000000000000	
672.5	0.0198531355164	-0.192622902746	
! Port Impedance	50.00000000000000	0.00000000000000	
673.75	0.0196713731586	-0.192449361894	
! Port Impedance	50.00000000000000	0.00000000000000	
675.0	0.0195458576028	-0.19212709183	
! Port Impedance	50.00000000000000	0.00000000000000	
676.25	0.0188597133503	-0.191711367889	
! Port Impedance	50.00000000000000	0.00000000000000	
677.5	0.0189376106035	-0.191876185589	
! Port Impedance	50.00000000000000	0.00000000000000	
678.75	0.0185696558553	-0.19132146518	
! Port Impedance	50.00000000000000	0.00000000000000	
680.0	0.01806894321	-0.190786954431	
! Port Impedance	50.00000000000000	0.00000000000000	
681.25	0.0178746729516	-0.19079718604	
! Port Impedance	50.00000000000000	0.00000000000000	
682.5	0.0174978351188	-0.190501699776	
! Port Impedance	50.00000000000000	0.00000000000000	
683.75	0.0172856240083	-0.190276005608	
! Port Impedance	50.00000000000000	0.00000000000000	
685.0	0.0169420641716	-0.190221600023	
! Port Impedance	50.00000000000000	0.00000000000000	
686.25	0.0164749327717	-0.18987589325	
! Port Impedance	50.00000000000000	0.00000000000000	
687.5	0.015925397778	-0.18949996842	
! Port Impedance	50.00000000000000	0.00000000000000	
688.75	0.0162347439838	-0.189376614901	
! Port Impedance	50.00000000000000	0.00000000000000	
690.0	0.0157613784405	-0.188866164807	
! Port Impedance	50.00000000000000	0.00000000000000	
691.25	0.0155628497892	-0.188694793819	
! Port Impedance	50.00000000000000	0.00000000000000	
692.5	0.0157042528764	-0.188645448189	
! Port Impedance	50.00000000000000	0.00000000000000	
693.75	0.0166956869715	-0.18865854577	
! Port Impedance	50.00000000000000	0.00000000000000	
695.0	0.0152229216054	-0.187808369471	
! Port Impedance	50.00000000000000	0.00000000000000	
696.25	0.0145628757184	-0.187087286823	
! Port Impedance	50.00000000000000	0.00000000000000	
697.5	0.014724672041	-0.187360684275	
! Port Impedance	50.00000000000000	0.00000000000000	
698.75	0.0143434412073	-0.186944716019	
! Port Impedance	50.00000000000000	0.00000000000000	
700.0	0.0138018406341	-0.186903724174	
! Port Impedance	50.00000000000000	0.00000000000000	
701.25	0.0134912548608	-0.186649287096	
! Port Impedance	50.00000000000000	0.00000000000000	
702.5	0.0132217625447	-0.186377807136	
! Port Impedance	50.00000000000000	0.00000000000000	
703.75	0.0133852613867	-0.186008103489	
! Port Impedance	50.00000000000000	0.00000000000000	
705.0	0.0123905068867	-0.185608479478	
! Port Impedance	50.00000000000000	0.00000000000000	
706.25	0.0122848925119	-0.185643560257	
! Port Impedance	50.00000000000000	0.00000000000000	
707.5	0.0122838053714	-0.185202814249	
! Port Impedance	50.00000000000000	0.00000000000000	
708.75	0.0118577243042	-0.184860739319	
! Port Impedance	50.00000000000000	0.00000000000000	
710.0	0.0115898172861	-0.184521599432	
! Port Impedance	50.00000000000000	0.00000000000000	
711.25	0.0112398821694	-0.184443518591	
! Port Impedance	50.00000000000000	0.00000000000000	
712.5	0.0109071278139	-0.184252472611	
! Port Impedance	50.00000000000000	0.00000000000000	
713.75	0.0107640023194	-0.183658438249	
! Port Impedance	50.00000000000000	0.00000000000000	
715.0	0.011233748567	-0.183603150435	
! Port Impedance	50.00000000000000	0.00000000000000	
716.25	0.0105342475456	-0.183252642033	
! Port Impedance	50.00000000000000	0.00000000000000	
717.5	0.0103929053925	-0.182905622372	
! Port Impedance	50.00000000000000	0.00000000000000	
718.75	0.0100888625657	-0.182545185393	
! Port Impedance	50.00000000000000	0.00000000000000	
720.0	0.00933521263613	-0.181991327276	
! Port Impedance	50.00000000000000	0.00000000000000	
721.25	0.00973366687439	-0.18209851282	
! Port Impedance	50.00000000000000	0.00000000000000	
722.5	0.00911996604899	-0.181523167127	
! Port Impedance	50.00000000000000	0.00000000000000	
723.75	0.00890249156428	-0.181220123119	
! Port Impedance	50.00000000000000	0.00000000000000	
725.0	0.00900671625128	-0.181429850878	
! Port Impedance	50.00000000000000	0.00000000000000	
726.25	0.00847802603877	-0.180912777219	
! Port Impedance	50.00000000000000	0.00000000000000	
727.5	0.00827891135007	-0.180612806605	
! Port Impedance	50.00000000000000	0.00000000000000	
728.75	0.00845648995014	-0.180341455547	
! Port Impedance	50.00000000000000	0.00000000000000	
730.0	0.00802752314552	-0.18001854778	
! Port Impedance	50.00000000000000	0.00000000000000	
731.25	0.00800380912654	-0.180097673452	
! Port Impedance	50.00000000000000	0.00000000000000	
732.5	0.00738696744607	-0.179712301251	
! Port Impedance	50.00000000000000	0.00000000000000	
733.75	0.00703247856454	-0.179131874221	
! Port Impedance	50.00000000000000	0.00000000000000	
735.0	0.00651935917058	-0.178863232507	
! Port Impedance	50.00000000000000	0.00000000000000	
736.25	0.0064153006634	-0.178597674816	
! Port Impedance	50.00000000000000	0.00000000000000	
737.5	0.00620780135479	-0.17833583599	
! Port Impedance	50.00000000000000	0.00000000000000	
738.75	0.00658514128007	-0.177672169447	
! Port Impedance	50.00000000000000	0.00000000000000	
740.0	0.0057166596088	-0.177730247784	
! Port Impedance	50.00000000000000	0.00000000000000	
741.25	0.00507711976136	-0.177386695041	
! Port Impedance	50.00000000000000	0.00000000000000	
742.5	0.00533548195907	-0.177146076677	
! Port Impedance	50.00000000000000	0.00000000000000	
743.75	0.00479878326275	-0.176669507684	
! Port Impedance	50.00000000000000	0.00000000000000	
745.0	0.00490760356141	-0.176122549273	
! Port Impedance	50.00000000000000	0.00000000000000	
746.25	0.00425369083609	-0.176305542742	
! Port Impedance	50.00000000000000	0.00000000000000	
747.5	0.00454109512865	-0.176157974448	
! Port Impedance	50.00000000000000	0.00000000000000	
748.75	0.00450148362815	-0.176078968724	
! Port Impedance	50.00000000000000	0.00000000000000	
750.0	0.00392004369675	-0.175686895311	
! Port Impedance	50.00000000000000	0.00000000000000	
