!Created with mwavepy.
!
!Created with skrf (http://scikit-rf.org).
# GHz S RI R 50.0 
!freq ReS11 ImS11
500.0 0.0455151856134 -0.205129418825
501.25 0.050033463352 -0.20754403395
502.5 0.05206160191 -0.209721134922
503.75 0.0504325108534 -0.205672779391
505.0 0.0504506745215 -0.198990618856
506.25 0.0474356954271 -0.203963577348
507.5 0.0518465131704 -0.205102293311
508.75 0.0534793618191 -0.202022552444
510.0 0.0517654267558 -0.202231242517
511.25 0.0517531254422 -0.205710851674
512.5 0.0519334192509 -0.207772765376
513.75 0.0497279908182 -0.203908415559
515.0 0.0514226070112 -0.203716619356
516.25 0.0534266932729 -0.20749142554
517.5 0.0500464300519 -0.205344430787
518.75 0.0516101434213 -0.206078606507
520.0 0.0517355674945 -0.204795562872
521.25 0.0487783598719 -0.199690360047
522.5 0.0514976776543 -0.204434685366
523.75 0.0497294431513 -0.206915063339
525.0 0.0514554513641 -0.207668269536
526.25 0.0507407840764 -0.206266426213
527.5 0.0503800778864 -0.206309418129
528.75 0.0503101401339 -0.205975224958
530.0 0.0504741421659 -0.206511316504
531.25 0.0503115306488 -0.206755345125
532.5 0.0505737459364 -0.206709214676
533.75 0.050395622182 -0.206915726826
535.0 0.0500083276453 -0.20701850899
536.25 0.0501139180411 -0.207232740373
537.5 0.0499141460645 -0.207286014027
538.75 0.0497393460063 -0.207145712268
540.0 0.0495217373168 -0.207396466761
541.25 0.0500537931466 -0.207463776136
542.5 0.0497231533883 -0.20752566698
543.75 0.0490537118551 -0.206977590588
545.0 0.0489574412787 -0.207258257285
546.25 0.0490373564396 -0.207246837899
547.5 0.0487266895469 -0.207335695767
548.75 0.0489624902033 -0.207511376184
550.0 0.0488972275548 -0.207634914101
551.25 0.0486550774635 -0.207838299831
552.5 0.048856518479 -0.207517016111
553.75 0.0484160043161 -0.209404261009
555.0 0.0478120661371 -0.209682383902
556.25 0.0466138295571 -0.209605244401
557.5 0.0446857266439 -0.210681987709
558.75 0.0440248793162 -0.209792101201
560.0 0.0455235523345 -0.208058566116
561.25 0.045477084708 -0.208056097339
562.5 0.0449881178336 -0.208404085737
563.75 0.0444618868948 -0.208265319811
565.0 0.042859513028 -0.20804275388
566.25 0.0441092694799 -0.207687130432
567.5 0.0430643006636 -0.20804476978
568.75 0.0438604083013 -0.207552757529
570.0 0.0436316654018 -0.207225179116
571.25 0.0435879450515 -0.207012053222
572.5 0.0437402471209 -0.207300486926
573.75 0.0438018215832 -0.206932582662
575.0 0.0432949698969 -0.206896443797
576.25 0.0428632616032 -0.206784602065
577.5 0.0428836973701 -0.20646457225
578.75 0.0425972840897 -0.206716914428
580.0 0.0422828640684 -0.206686240896
581.25 0.0417765205822 -0.206771863149
582.5 0.0417451799197 -0.206463992697
583.75 0.0417393911596 -0.206291514719
585.0 0.0409479263633 -0.206237602131
586.25 0.0407371387913 -0.205928060534
587.5 0.0409147568403 -0.205611893101
588.75 0.0411342535552 -0.205715608365
590.0 0.040034515455 -0.206101686058
591.25 0.0397677845894 -0.205581024854
592.5 0.039624548173 -0.205331014004
593.75 0.0390638133129 -0.205234047902
595.0 0.0388695221584 -0.205115644063
596.25 0.0386064276557 -0.204952688014
597.5 0.0383896825555 -0.204846212901
598.75 0.0379647710253 -0.205074759832
600.0 0.0376371636064 -0.20472144323
601.25 0.0370307859317 -0.204533832626
602.5 0.0373479490027 -0.204203324826
603.75 0.0372518284794 -0.20428109342
605.0 0.0370554358962 -0.203902530122
606.25 0.0361378206935 -0.203887754232
607.5 0.0357617421362 -0.203992311528
608.75 0.0355388389623 -0.203558615104
610.0 0.0354375014996 -0.202979518595
611.25 0.0351173430889 -0.20292721727
612.5 0.0354815778245 -0.203310077018
613.75 0.0343084019389 -0.202983544441
615.0 0.0340486639381 -0.20268608101
616.25 0.0335550243399 -0.202515977556
617.5 0.033546652203 -0.202314014152
618.75 0.0333559887535 -0.202172330659
620.0 0.0331116516001 -0.201969816313
621.25 0.0322351902798 -0.201969899918
622.5 0.0321195788202 -0.201488928535
623.75 0.0319757462434 -0.201331605156
625.0 0.0318232033984 -0.201158885159
626.25 0.0313410681986 -0.201164928276
627.5 0.030760939582 -0.200706040013
628.75 0.0304697469455 -0.200875763019
630.0 0.0299116408372 -0.200907008234
631.25 0.0298285096223 -0.200210125298
632.5 0.0307607339336 -0.200160093099
633.75 0.0297791729061 -0.200201155203
635.0 0.0291759141314 -0.200034096168
636.25 0.0288042231141 -0.199462691447
637.5 0.0285222030882 -0.199385130846
638.75 0.0281739775924 -0.198794059812
640.0 0.0279681961204 -0.198750772926
641.25 0.0276388689233 -0.198692094832
642.5 0.0270713208418 -0.198284396881
643.75 0.0266847299128 -0.197978455532
645.0 0.0266097958483 -0.19789640615
646.25 0.0267134283561 -0.197418054831
647.5 0.0261396725529 -0.197220112393
648.75 0.0256660187224 -0.196982040078
650.0 0.0253558749243 -0.197028942242
651.25 0.0252014769752 -0.196691593213
652.5 0.0249021804708 -0.196658774427
653.75 0.0244753670456 -0.196369180339
655.0 0.0242424656369 -0.195489423853
656.25 0.0245783928494 -0.195473247488
657.5 0.0234215896438 -0.195251058918
658.75 0.0234071773899 -0.195342848694
660.0 0.0228685401421 -0.195216518183
661.25 0.0222811100183 -0.194710975277
662.5 0.0221133863805 -0.19456717616
663.75 0.0218538393474 -0.194375018103
665.0 0.0216860540526 -0.1939644164
666.25 0.0212642254096 -0.193895414081
667.5 0.0209294103462 -0.193862473798
668.75 0.020785099641 -0.193272634143
670.0 0.0205670454946 -0.193026291123
671.25 0.0203352593856 -0.192852511204
672.5 0.0198531355164 -0.192622902746
673.75 0.0196713731586 -0.192449361894
675.0 0.0195458576028 -0.19212709183
676.25 0.0188597133503 -0.191711367889
677.5 0.0189376106035 -0.191876185589
678.75 0.0185696558553 -0.19132146518
680.0 0.01806894321 -0.190786954431
681.25 0.0178746729516 -0.19079718604
682.5 0.0174978351188 -0.190501699776
683.75 0.0172856240083 -0.190276005608
685.0 0.0169420641716 -0.190221600023
686.25 0.0164749327717 -0.18987589325
687.5 0.015925397778 -0.18949996842
688.75 0.0162347439838 -0.189376614901
690.0 0.0157613784405 -0.188866164807
691.25 0.0155628497892 -0.188694793819
692.5 0.0157042528764 -0.188645448189
693.75 0.0166956869715 -0.18865854577
695.0 0.0152229216054 -0.187808369471
696.25 0.0145628757184 -0.187087286823
697.5 0.014724672041 -0.187360684275
698.75 0.0143434412073 -0.186944716019
700.0 0.0138018406341 -0.186903724174
701.25 0.0134912548608 -0.186649287096
702.5 0.0132217625447 -0.186377807136
703.75 0.0133852613867 -0.186008103489
705.0 0.0123905068867 -0.185608479478
706.25 0.0122848925119 -0.185643560257
707.5 0.0122838053714 -0.185202814249
708.75 0.0118577243042 -0.184860739319
710.0 0.0115898172861 -0.184521599432
711.25 0.0112398821694 -0.184443518591
712.5 0.0109071278139 -0.184252472611
713.75 0.0107640023194 -0.183658438249
715.0 0.011233748567 -0.183603150435
716.25 0.0105342475456 -0.183252642033
717.5 0.0103929053925 -0.182905622372
718.75 0.0100888625657 -0.182545185393
720.0 0.00933521263613 -0.181991327276
721.25 0.00973366687439 -0.18209851282
722.5 0.00911996604899 -0.181523167127
723.75 0.00890249156428 -0.181220123119
725.0 0.00900671625128 -0.181429850878
726.25 0.00847802603877 -0.180912777219
727.5 0.00827891135007 -0.180612806605
728.75 0.00845648995014 -0.180341455547
730.0 0.00802752314552 -0.18001854778
731.25 0.00800380912654 -0.180097673452
732.5 0.00738696744607 -0.179712301251
733.75 0.00703247856454 -0.179131874221
735.0 0.00651935917058 -0.178863232507
736.25 0.0064153006634 -0.178597674816
737.5 0.00620780135479 -0.17833583599
738.75 0.00658514128007 -0.177672169447
740.0 0.0057166596088 -0.177730247784
741.25 0.00507711976136 -0.177386695041
742.5 0.00533548195907 -0.177146076677
743.75 0.00479878326275 -0.176669507684
745.0 0.00490760356141 -0.176122549273
746.25 0.00425369083609 -0.176305542742
747.5 0.00454109512865 -0.176157974448
748.75 0.00450148362815 -0.176078968724
750.0 0.00392004369675 -0.175686895311
