!Created with skrf (http://scikit-rf.org).
# GHz S RI R 50.0 
!freq ReS11 ImS11 ReS21 ImS21 ReS12 ImS12 ReS22 ImS22
60.0 -0.0155523717403 -0.047615583986 -0.0918823704123 0.420208454132 0.604791552598 0.991388105384 -0.140756154691 0.858439196929
60.0416666667 -0.0345051251352 -0.0366503484547 0.147216245532 0.410942286253 0.493768598698 -0.880104722073 -0.643070993286 -0.454746565815
60.0833333333 -0.040772497654 -0.0178258828819 0.30858245492 0.264060735703 0.236306285997 -0.0119457598283 0.148424119115 -0.427755140727
60.125 -0.0395719185472 -0.00240637222305 0.38330668211 0.0868064761162 0.454567244743 -0.939985037771 -0.26379893656 -0.99269940276
60.1666666667 -0.0332798585296 0.00874564889818 0.374826043844 -0.107099398971 0.788158740049 -0.681056920463 0.249801477675 0.430242751157
60.2083333333 -0.0248437970877 0.014424290508 0.285654425621 -0.288188666105 0.461664251131 0.819599004875 -0.979985716125 0.533466561849
60.25 -0.0189627688378 0.0143647603691 0.0860808417201 -0.398097813129 -0.479666981167 0.701279697437 -0.579303534997 0.999682583912
60.2916666667 -0.0206963159144 0.0167639795691 -0.132617905736 -0.391146600246 -0.466179695253 0.779453378405 0.651441272186 -0.81050717037
60.3333333333 -0.0192978475243 0.0311262663454 -0.365222394466 -0.24963709712 -0.666067871884 0.936399377228 -0.973785173051 0.00800983676688
60.375 -0.000405690632761 0.041274741292 -0.413614958525 0.0486725717783 0.365008225469 -0.407712792856 -0.126661214062 0.102863804191
60.4166666667 0.0223774109036 0.0347421616316 -0.283431500196 0.287821352482 0.98503051605 -0.887618642054 -0.407495654721 0.911812411245
60.4583333333 0.0329139381647 0.0152739789337 -0.0553010776639 0.401739418507 0.315013353162 0.102930750428 0.319291268597 0.644821503275
60.5 0.0266008768231 -0.000416054128436 0.186341911554 0.354850888252 -0.952144646754 -0.353842778536 0.423907782865 -0.885253013458
60.5416666667 0.0164911653847 -0.00438653910533 0.349531829357 0.192794755101 -0.91005788847 -0.897699204815 -0.0906620028122 -0.495642154788
60.5833333333 0.0128787020221 0.000103245387436 0.420514494181 -0.0011494839564 -0.72833739527 -0.261805129251 -0.842125908726 0.045141839843
60.625 0.0174303874373 0.00197315006517 0.371407389641 -0.256679445505 -0.130951046001 0.268098773326 -0.258144993901 -0.109998742744
60.6666666667 0.0232247747481 -0.00335250678472 0.132027998567 -0.445272892714 0.33341386612 0.295301989107 -0.172718410307 -0.311083099482
60.7083333333 0.0257476381958 -0.0121167572215 -0.127614706755 -0.429904431105 -0.725326644205 -0.666771232551 0.609638541442 0.541788470231
60.75 0.0235702507198 -0.025055386126 -0.348068326712 -0.304653197527 -0.509243473758 0.450461004418 -0.327408417366 0.234357740644
60.7916666667 0.00972525775433 -0.0350725986063 -0.443863332272 -0.0501385368407 -0.133353013127 0.460221904984 -0.04972413868 -0.091042980117
60.8333333333 -0.00650767795742 -0.0345364958048 -0.400102138519 0.179617345333 0.761312448872 -0.853552779729 -0.925653109443 -0.245663723291
60.875 -0.017554230988 -0.022554660216 -0.246442779899 0.361335784197 -0.680286394006 -0.406594734807 -0.153958359328 -0.603734690588
60.9166666667 -0.0147070800886 -0.0106621710584 0.0173484813422 0.449901401997 -0.707254472462 -0.932862441151 -0.174183943762 0.946455169287
60.9583333333 -0.00696965493262 -0.0129907159135 0.26089695096 0.360584557056 -0.614605709649 -0.197688446245 -0.221349286967 -0.101075703688
61.0 -0.0116073880345 -0.0253823902458 0.4241527915 0.158666074276 -0.491143943889 -0.482754220725 -0.922936598238 -0.157061445989
61.0416666667 -0.0323075763881 -0.0271053016186 0.441098749638 -0.105665802956 -0.337699867109 -0.487663473533 -0.625548096727 -0.873366800355
61.0833333333 -0.0488177761436 -0.0106976656243 0.316557496786 -0.293861806393 -0.586672704823 -0.752934392723 0.950532032526 0.413583005065
61.125 -0.0485155247152 0.0141038028523 0.131678238511 -0.390918552876 0.478799071197 -0.188284567674 -0.45133665614 -0.100546196724
61.1666666667 -0.0332374423742 0.0313761085272 -0.0660434439778 -0.385606139898 0.568537591926 0.893407886602 0.00766709187557 -0.179698062039
61.2083333333 -0.0153193678707 0.0366408675909 -0.242578908801 -0.306959450245 -0.861883696976 -0.0819357970464 0.27997750058 0.668484804141
61.25 -0.00136418000329 0.0361248254776 -0.380736172199 -0.136094674468 -0.991419142971 -0.877446294305 -0.747044061228 -0.862033293013
61.2916666667 0.00548381870613 0.032767161727 -0.400301545858 0.0928356423974 -0.691292181196 0.0384780536353 -0.701013525822 0.0523229168751
61.3333333333 0.00810602214187 0.0305746309459 -0.27126032114 0.30479580164 -0.0695308498488 -0.970769314388 -0.874565419687 0.233545270897
61.375 0.0109373927116 0.0312670692801 -0.0676670670509 0.411636173725 -0.89307428269 -0.0341083258081 0.969944106386 0.975648609628
61.4166666667 0.0188971143216 0.0334602072835 0.154777944088 0.385983616114 0.793102356106 -0.366871986534 0.519748009649 -0.63444048758
61.4583333333 0.0350010469556 0.030590839684 0.328541487455 0.251630395651 -0.210331550112 -0.789356985688 0.319437023553 -0.167803873015
61.5 0.0494533441961 0.0143109699711 0.406796127558 0.0389894545078 0.892816323043 -0.664185986963 0.457634034061 0.864722760524
61.5416666667 0.0524911917746 -0.0111374808475 0.363393843174 -0.176358953118 0.423020612529 -0.807030896321 -0.900276512421 -0.501833865227
61.5833333333 0.0366008467972 -0.0332664325833 0.212327599525 -0.347098380327 0.0328598082016 0.491152233112 -0.652168026001 0.759102308346
61.625 0.0154594741762 -0.0356688089669 0.013266085647 -0.40297883749 0.170150056982 -0.58158546678 -0.181243234482 -0.0730026597276
61.6666666667 0.00530760968104 -0.0263966005296 -0.192555040121 -0.353667616844 -0.629900496287 -0.491520256842 -0.848585779933 0.068988686872
61.7083333333 0.00756960781291 -0.0222240798175 -0.349210530519 -0.198152154684 -0.602769900685 0.194691740265 -0.250746051284 0.558273152171
61.75 0.00974999368191 -0.0286908764392 -0.406676292419 0.0360602326691 0.577846150441 -0.318926771918 0.231808211292 0.69148269625
61.7916666667 0.00121398840565 -0.0386513546109 -0.317859113216 0.26543289423 0.859434579528 0.598583869176 0.672212471246 0.767594532421
61.8333333333 -0.0159033276141 -0.0447634756565 -0.135541200638 0.41440013051 0.438873868847 0.613171343142 0.491330038147 0.930020755096
61.875 -0.0317881703377 -0.0390691608191 0.0590172894299 0.425484359264 0.113959529328 0.846976273002 0.208445168708 0.284140129168
61.9166666667 -0.0441616214812 -0.0256150588393 0.255094230175 0.339030653238 -0.634412388909 0.0231793907838 0.988407551821 -0.861938101759
61.9583333333 -0.0496111772954 -0.00700679467991 0.390930145979 0.140449270606 -0.994537906045 -0.546370888506 0.888425575422 0.815870162395
62.0 -0.0442940816283 0.0117357028648 0.385316312313 -0.0992752611637 -0.767278533398 -0.495958451596 0.0396619096538 0.271332224388
62.0416666667 -0.0332385003567 0.0214516744018 0.263796061277 -0.277315378189 0.329974602167 -0.0304247319404 0.045887052341 -0.369777081849
62.0833333333 -0.0241293087602 0.024687608704 0.103966742754 -0.39493277669 0.152147614625 0.0469811428657 0.642632316359 0.652132243747
62.125 -0.0189332030714 0.0294496268034 -0.130215778947 -0.399194598198 -0.0705911621658 0.344877352227 0.100301747618 0.0571818911876
62.1666666667 -0.0170032046735 0.0374267846346 -0.309126198292 -0.273779422045 -0.209746859688 0.0699638329055 -0.0480976746679 -0.729065507882
62.2083333333 -0.00719735445455 0.0506159849465 -0.389394760132 -0.0657694116235 0.19126039308 -0.287322625533 0.130094675538 -0.793383669961
62.25 0.0158421769738 0.0571204461157 -0.364075452089 0.160389810801 0.924929718596 -0.210216677303 -0.396469288801 -0.279837967798
62.2916666667 0.0398298129439 0.0461769849062 -0.226193651557 0.329869955778 0.200950695562 -0.88043870262 -0.777333150922 0.386733175893
62.3333333333 0.0545317679644 0.025161717087 -0.0205976255238 0.410443067551 0.750286076108 -0.878338135041 -0.0972903313694 0.0264070182796
62.375 0.0554145053029 0.000139232302899 0.186777621508 0.367306649685 0.366329098657 -0.257241334973 0.481250254236 -0.850014275844
62.4166666667 0.0460644587874 -0.0154075380415 0.366736292839 0.205447345972 0.5559870702 0.995382302256 0.634105164902 0.181632177126
62.4583333333 0.0388991720974 -0.0244212690741 0.42000412941 -0.0217788834125 0.804468092631 0.912616888073 -0.469990453699 -0.972820179859
62.5 0.0303496476263 -0.032743178308 0.33324894309 -0.248064234853 0.176190804862 0.303184164915 -0.171697496649 -0.0594896125677
62.5416666667 0.0204300079495 -0.0388756021857 0.141988411546 -0.381360590458 -0.288213229995 0.198565672902 -0.538207208378 0.372283148414
62.5833333333 0.00981415808201 -0.0442048683763 -0.0774778500199 -0.395854085684 -0.170449968868 -0.375770101318 0.91986741706 -0.315382443086
62.625 -0.00479924399406 -0.0477186776698 -0.263742059469 -0.296387135983 -0.909528472894 -0.983789203527 0.26865854693 -0.747802009702
62.6666666667 -0.0220104455948 -0.0454861558974 -0.366175830364 -0.12030377239 0.690605696148 -0.0334557909576 -0.419530453611 0.683690460576
62.7083333333 -0.0384350158274 -0.0339868962765 -0.367774158716 0.0786892473698 0.206568263808 -0.55734649723 -0.674172827397 0.976481938163
62.75 -0.0463443286717 -0.0148669090122 -0.262555241585 0.247887805104 -0.218997827859 0.516421281946 0.740409607707 -0.98377229727
62.7916666667 -0.0421780645847 0.00667226547375 -0.079528555274 0.359489738941 0.614391642744 0.54735131694 -0.269139313132 0.787990054648
62.8333333333 -0.0304811242968 0.0215628482401 0.117284826934 0.36064106226 0.248445373729 0.043130299652 -0.345512698178 0.938709974384
62.875 -0.0168964900076 0.0223792400211 0.298392742872 0.242653936148 0.0501883162283 -0.909358731804 0.741552326009 0.218987074221
62.9166666667 -0.0130609162152 0.0193969439715 0.383319079876 0.0586372129619 -0.614168809922 -0.968456603214 0.343648705467 -0.859904251168
62.9583333333 -0.0141664249822 0.02143763192 0.387413650751 -0.151963442564 -0.535840713387 -0.0530026653962 0.0050569988547 -0.0101877968293
63.0 -0.0103070801124 0.0297092292458 0.256422877312 -0.329892933369 -0.0549694105847 0.441440085887 -0.35852453145 -0.445175236358
63.0416666667 0.00288781779818 0.0338959656656 0.0368563942611 -0.412682205439 -0.187680613579 -0.709525554215 -0.539825446963 0.653511381238
63.0833333333 0.0186093393713 0.0291938241571 -0.203416153789 -0.374235391617 0.95440844812 -0.51112126146 -0.0612201725837 -0.953371939059
63.125 0.0248417649418 0.0181401316077 -0.341067761183 -0.22656801343 0.237269594229 -0.794788405249 -0.734168618744 0.0832175874942
63.1666666667 0.0257066395134 0.00840874668211 -0.38988879323 -0.0284428428859 -0.286183212394 0.411965596314 0.640739722496 -0.280297505705
63.2083333333 0.02402821742 0.00027469242923 -0.354596078396 0.152183532715 0.59213951474 0.983485526509 -0.332853859767 -0.410456765146
63.25 0.0208725649863 -0.00604235660285 -0.252057939768 0.291880965233 -0.632317393097 0.3835605766 -0.709625004353 0.999969900463
63.2916666667 0.0172827895731 -0.00967283081263 -0.0859465897083 0.386753171682 0.648575338795 0.652797880283 -0.506080064122 -0.113249949255
63.3333333333 0.0148155698553 -0.0108300689608 0.137342587113 0.376467972994 -0.0944457692025 -0.862011478846 0.619209218706 -0.112539676569
63.375 0.0157912541181 -0.0132296970114 0.319325655699 0.235673114657 -0.358909995951 0.714055007158 0.213872688509 0.922073771956
63.4166666667 0.0156197585166 -0.0214362014085 0.388864278793 0.0371021553874 0.972257839653 -0.772730740623 -0.832668048271 0.815922532004
63.4583333333 0.00628421455622 -0.0325299948454 0.366888254881 -0.161938294768 0.843515868912 -0.177246987925 -0.530955421885 0.846437538114
63.5 -0.0103811565787 -0.0366802550852 0.255193382502 -0.326690196991 -0.262435418493 0.499533004714 -0.384903438248 -0.505811084857
63.5416666667 -0.027895713225 -0.0263133402914 0.0451332703233 -0.41441488266 -0.0825788175235 -0.914031271896 0.784724867492 -0.752008569343
63.5833333333 -0.0352132432163 -0.00855135172606 -0.200475618243 -0.373555779457 -0.924307775698 0.0853433792463 -0.23165737772 0.233918998609
63.625 -0.0282645337284 0.00670999847353 -0.382416814566 -0.180684790015 -0.698682175259 -0.754245534094 -0.513997026563 0.349857640841
63.6666666667 -0.0180252026767 0.0095122391358 -0.409742385149 0.038011521101 0.462848800513 -0.392147093473 -0.333827747375 -0.981402304617
63.7083333333 -0.014821623452 0.00815740693361 -0.343927979469 0.225722208619 -0.670011236053 -0.585745276738 0.927051888162 -0.0910000388089
63.75 -0.016127763316 0.0101362271234 -0.215338841081 0.344962447882 0.432846299072 0.847081811822 -0.141281462082 -0.114037675474
63.7916666667 -0.01587741822 0.017674991861 -0.0137554109097 0.423081964254 -0.675981689804 0.195684933079 0.393097594595 -0.0221791180572
63.8333333333 -0.0103434249759 0.0249024834484 0.180728167295 0.379390269518 -0.753330331187 -0.915614694163 0.409926657292 0.702836686083
63.875 -0.000632867857348 0.0277374759316 0.335552215576 0.242035552859 0.417403333227 0.165539248524 0.808658634068 -0.646965071022
63.9166666667 0.00943110324442 0.0262127052993 0.419214487076 0.0392746068537 -0.711145108708 0.0994235796924 -0.595137786544 0.416592357265
63.9583333333 0.0198094137013 0.0227141231298 0.390623927116 -0.186090603471 0.0618196166847 0.612731405291 0.450750544693 -0.464867161509
64.0 0.0263133309782 0.0120003372431 0.238070741296 -0.333740442991 -0.387886236215 0.681425234268 0.711927292139 0.853272402266
64.0416666667 0.0264845192432 -0.00185304682236 0.0349126793444 -0.398318201303 -0.429511984421 -0.283605527642 -0.508859765715 -0.451694799648
64.0833333333 0.0168037656695 -0.012050001882 -0.183169603348 -0.340646386147 0.960025738585 -0.856176094305 -0.147515746098 0.919929108994
64.125 0.00534700835124 -0.0110368151218 -0.339869320393 -0.167547672987 0.627778671195 -0.722180526218 0.0739495609002 -0.142538739211
64.1666666667 0.00324268010445 -0.00429033581167 -0.392520070076 0.052231464535 -0.215481211411 0.623589667147 -0.413990576872 0.415263593948
64.2083333333 0.00940934568644 -0.00355472741649 -0.334407866001 0.248491019011 0.759187990332 -0.684391450442 0.349222820301 0.808270884109
64.25 0.0119829345495 -0.0111072752625 -0.18418726325 0.382797598839 0.357335945491 0.136244670279 0.427046166451 -0.466357931512
64.2916666667 0.0046796859242 -0.0200258400291 0.0198678243905 0.417585551739 0.475748187224 -0.333828050367 0.157013163344 -0.26205088488
64.3333333333 -0.00766272004694 -0.0187291074544 0.206364914775 0.352851897478 -0.462792235767 0.0699896360342 0.258022070711 -0.303390042756
64.375 -0.0161567684263 -0.00863865204155 0.370244920254 0.169573456049 0.949863380204 -0.199167208551 0.807398879994 -0.434573605497
64.4166666667 -0.0133729400113 0.00298845442012 0.408482462168 -0.0562825426459 -0.322868439704 -0.0531079195976 0.825201132314 -0.131168119239
64.4583333333 -0.00494406512007 0.00698496634141 0.311430722475 -0.25261425972 -0.562545557768 0.985128395826 -0.938748647838 -0.0880639079892
64.5 0.00150611216668 0.00472976779565 0.132742881775 -0.32769665122 -0.033050159994 -0.953729951631 0.729315661254 0.936426855353
64.5416666667 0.00340552185662 0.000177557565621 -0.0413685627282 -0.343544751406 0.958292124589 -0.339849455179 -0.483683624926 0.535040338301
64.5833333333 0.00355751509778 -0.00365476938896 -0.243705824018 -0.325578927994 -0.123934285355 0.154530104059 0.848081868986 0.152463454454
64.625 0.00110145972576 -0.00954168476164 -0.420204430819 -0.165212795138 0.521797852436 0.873263383907 0.674349145333 -0.461868757271
64.6666666667 -0.00761519838125 -0.0121812671423 -0.464441806078 0.080691985786 0.618924152023 -0.394680790034 0.444390224933 -0.154267520345
64.7083333333 -0.0159320011735 -0.00586243579164 -0.365621984005 0.303420871496 -0.654770604623 -0.811303986496 -0.642744869676 -0.231033968485
64.75 -0.0147766470909 0.00368936429732 -0.186430111527 0.416670590639 0.298514438604 0.0751541176759 -0.703452892663 0.575167897464
64.7916666667 -0.00713924597949 0.00742216221988 0.0116757880896 0.434474527836 0.649528144875 -0.297712403203 -0.773920540546 -0.388542384235
64.8333333333 -0.00120950827841 0.00269133225083 0.199605360627 0.356757283211 -0.363983434616 -0.0259558782891 0.425448916166 0.797274778324
64.875 -0.00516467029229 -0.00402610423043 0.368415683508 0.187897697091 -0.508484502443 0.230031132194 0.45273902256 0.172836694461
64.9166666667 -0.0143280364573 -0.00176726037171 0.398197054863 -0.0512670464814 0.0987927578055 0.896890985021 -0.342286378351 0.370036143659
64.9583333333 -0.0162092186511 0.00780671928078 0.293449431658 -0.204234600067 -0.914792895029 -0.679789255817 0.345254886868 0.8209065181
65.0 -0.0099845835939 0.0163586791605 0.181976824999 -0.32640427351 0.939452586952 0.534429074317 0.885516531096 0.901089009318
65.0416666667 0.000352749251761 0.0192716605961 0.0359809882939 -0.398104578257 0.194639838443 -0.337879793751 -0.281284075067 0.366820755258
65.0833333333 0.00847085285932 0.0157677643001 -0.131584152579 -0.384560734034 0.694655025222 -0.266184489467 -0.367256301113 -0.2113859855
65.125 0.0110918963328 0.00993658788502 -0.298016786575 -0.268920153379 0.12309792507 -0.860260265646 -0.81501031092 -0.49582875006
65.1666666667 0.0110234059393 0.00542025128379 -0.389803022146 -0.0511445440352 0.503587961101 0.0877795735224 -0.988490731686 0.444207805548
65.2083333333 0.0099143749103 0.00322036398575 -0.368823379278 0.160965174437 -0.329236868751 0.443813053747 0.940695990341 -0.489293209895
65.25 0.00836564879864 0.00264475331642 -0.25293892622 0.306479215622 -0.360698369719 0.742940189308 -0.664015575442 -0.451826121978
65.2916666667 0.00840233918279 0.00209781969897 -0.067833095789 0.407583534718 -0.662910155025 0.943799714343 -0.52840895535 -0.789388644226
65.3333333333 0.00999119505286 0.00279850326478 0.140290662646 0.389375150204 -0.756991032449 -0.582591482155 -0.70191822499 0.632606483458
65.375 0.0145838232711 0.00120230834 0.315022408962 0.268591701984 0.18751515305 -0.532211289729 -0.515961852294 -0.28927447061
65.4166666667 0.0181766673923 -0.0058905868791 0.403757423162 0.0755498558283 0.293561467314 0.34046708606 -0.703789590232 0.981847161763
65.4583333333 0.0151508348063 -0.0164481177926 0.374967753887 -0.137137010694 -0.852536276342 0.397291831948 -0.283799857152 -0.201074718978
65.5 0.00374373374507 -0.0204763393849 0.258570432663 -0.28361004591 -0.00183963122019 -0.263268407553 -0.731072139738 0.403281729384
65.5416666667 -0.00634273886681 -0.014852900058 0.102217756212 -0.389525264502 -0.32633347216 0.891010092806 -0.21767672275 -0.00643782933853
65.5833333333 -0.0063947555609 -0.00699902744964 -0.0905936136842 -0.411078393459 0.233099776171 0.764961979914 0.72886507476 0.0615567456155
65.625 -0.000618538528215 -0.00525596644729 -0.2865036726 -0.325661927462 -0.771451432995 -0.134115000016 0.103424139924 0.584436130125
65.6666666667 0.00232089473866 -0.0104512451217 -0.421739339828 -0.133739888668 -0.364181959974 0.980445452952 -0.551492477015 0.680182706904
65.7083333333 -0.00189492246136 -0.0161182750016 -0.429611772299 0.120184101164 -0.218382423831 -0.150424734188 0.694070847352 0.68986950429
65.75 -0.0100258039311 -0.0175912305713 -0.325685620308 0.342233866453 0.277980951271 0.967487195888 -0.945732797562 0.0378547225894
65.7916666667 -0.0179861877114 -0.0150896385312 -0.145896941423 0.450825512409 -0.0536137779946 0.230273922849 0.180988473282 0.00728549472427
65.8333333333 -0.023466989398 -0.00754046905786 0.0858727395535 0.4599853158 -0.122453091974 -0.0877331540241 0.760351076289 0.807885296341
65.875 -0.0252268612385 0.000854334968608 0.294928073883 0.357098132372 0.861014157159 0.372479331906 0.472828587599 -0.331634684426
65.9166666667 -0.0239409580827 0.00882782414556 0.443722009659 0.166284203529 0.924044366301 0.430383487072 0.16173971242 0.628802086531
65.9583333333 -0.0184860061854 0.0163405332714 0.441676586866 -0.101991683245 0.715623104443 -0.0295581829392 0.980162477048 0.48203423441
