!Created with skrf (http://scikit-rf.org).
# GHz S RI R 50.0 
!freq ReS11 ImS11 ReS21 ImS21 ReS12 ImS12 ReS22 ImS22
60.0 -0.0179521944374 -0.0520825386047 -0.0954023823142 0.419915735722 -0.587378887687 0.666593922469 0.0115907539977 0.939089041609
60.0416666667 -0.0390824973583 -0.0393682196736 0.144418343902 0.41250243783 -0.776573317111 0.62959368921 -0.68291019108 -0.8490669043
60.0833333333 -0.0458681099117 -0.0177986584604 0.307059645653 0.266694188118 0.507647555324 0.0282225248115 0.335868467833 -0.736185939798
60.125 -0.0438087917864 2.3503720513e-05 0.383251100779 0.0894805267453 -0.0303296679427 0.0391320558619 -0.44786390955 -0.789299811068
60.1666666667 -0.0358124375343 0.0126658333465 0.375907599926 -0.104541517794 -0.725865948501 -0.723323048935 0.892885828431 0.0739514740794
60.2083333333 -0.0252725575119 0.0189226772636 0.287591665983 -0.286619067192 -0.122969926284 0.619782698198 0.27403436578 0.351204211888
60.25 -0.0172602627426 0.0182978659868 0.0885124504566 -0.397694468498 -0.649561753387 0.120016099511 -0.20391832786 -0.87345630293
60.2916666667 -0.0174391809851 0.0194346066564 -0.130040660501 -0.392077088356 0.776854662802 -0.111198369612 -0.632876122466 0.342397950687
60.3333333333 -0.0150007009506 0.031837105751 -0.363689273596 -0.25183570385 -0.613453380004 -0.171143975183 -0.777020663072 -0.701807012882
60.375 0.00339752109721 0.0397673770785 -0.414150327444 0.045710157603 0.18963861561 0.148414052491 0.376671214731 -0.227911489066
60.4166666667 0.0248789191246 0.0316710956395 -0.285467773676 0.286005467176 0.368744247703 0.083988134314 0.581392002165 -0.603538498895
60.4583333333 0.0336768738925 0.0114036016166 -0.0578861385584 0.401489377022 -0.152573496362 -0.955470711078 0.490776320557 -0.229296040844
60.5 0.0256745237857 -0.00414771819487 0.183682516217 0.356416553259 0.222066001494 0.411315979364 0.414939747726 0.490501749311
60.5416666667 0.0140064712614 -0.00739401299506 0.348204523325 0.195450142026 0.340908499399 0.0677371183689 -0.592755299196 0.864366573805
60.5833333333 0.00921315234154 -0.00173417502083 0.420674324036 0.00209122151136 -0.561107123122 -0.426036133175 -0.283586630148 0.350158491415
60.625 0.0131557313725 0.00228388491087 0.373332798481 -0.2542309165 0.316910364894 0.3483399409 -0.858231605301 0.641218246831
60.6666666667 0.0197278205305 -0.00102517753839 0.135189548135 -0.444567739964 0.589900301123 0.526430264477 -0.818107682682 0.402044708955
60.7083333333 0.0235080439597 -0.00864788331091 -0.124803327024 -0.431022405624 0.795721026485 0.0215576102176 -0.81370304917 0.308880279908
60.75 0.0230400692672 -0.0207641553134 -0.345938771963 -0.307309120893 0.370120952161 0.919233442096 -0.593195057216 0.864198077136
60.7916666667 0.0113365529105 -0.0310592390597 -0.443620115519 -0.0531685203314 0.177182145058 0.185976037577 -0.352112746045 0.500405196549
60.8333333333 -0.00331375002861 -0.0315605960786 -0.401539057493 0.176738411188 -0.351005742507 0.456385517519 0.483019206423 -0.507755118578
60.875 -0.013315089047 -0.0213599763811 -0.248638525605 0.359955579042 -0.160594166651 0.888930108123 0.818075466331 0.245459525935
60.9166666667 -0.0104186059907 -0.0116413738579 0.0142085514963 0.450093001127 0.8061534254 -0.373603771553 -0.205581937579 0.127457299109
60.9583333333 -0.00345546985045 -0.0157292466611 0.258303493261 0.362386822701 0.157034482503 0.861706339615 -0.0607539095377 0.00699209101281
61.0 -0.00940256845206 -0.0297009088099 0.423259347677 0.161520808935 0.193094227807 -0.0331690395405 -0.423231831198 -0.695258159725
61.0416666667 -0.0324343554676 -0.0322000570595 0.441931694746 -0.102710783482 0.471416759404 0.202211692589 -0.952554784202 -0.695206201981
61.0833333333 -0.0511743165553 -0.0152293778956 0.319046765566 -0.291478306055 -0.948670321758 0.95725960548 0.99754444088 -0.92641328785
61.125 -0.0525495745242 0.0110989715904 0.135080769658 -0.389885932207 0.63660707532 0.348055091401 -0.072545607086 -0.0418983068509
61.1666666667 -0.0380793251097 0.0306509342045 -0.0633495301008 -0.386160701513 -0.407532611487 -0.846953223945 0.202315224373 -0.42113021391
61.2083333333 -0.0198822598904 0.0383010320365 -0.240444749594 -0.308810800314 0.4323420279 0.82910573996 0.900538369143 0.58715802823
61.25 -0.00461413804442 0.0400531440973 -0.379984170198 -0.138482674956 -0.0036364948891 0.74195252475 0.362706456114 0.187456410708
61.2916666667 0.00419471692294 0.0379559248686 -0.401087164879 0.090205013752 -0.805975642439 -0.742793660494 -0.675229023726 -0.176230652518
61.3333333333 0.00906330440193 0.0359702073038 -0.273822277784 0.302739024162 0.954039555903 -0.691370252205 0.963515604804 -0.32250259203
61.375 0.0140050435439 0.0358682572842 -0.0708165615797 0.411307066679 -0.188661355801 -0.0917716602729 -0.476740518429 -0.992581723211
61.4166666667 0.0236999709159 0.0362242199481 0.151960447431 0.387311130762 0.205317144128 0.096796991894 0.859481166855 0.668090004413
61.4583333333 0.0406506247818 0.0307760536671 0.326858788729 0.254147708416 -0.1650355184 -0.1335740265 0.786450628819 0.167853336751
61.5 0.0544734708965 0.0119319697842 0.406639993191 0.0419939905405 0.773746583153 0.315902206476 0.474944813089 0.171758545292
61.5416666667 0.0560035407543 -0.0156988427043 0.364991039038 -0.173365101218 -0.121971422233 0.97698533011 0.244624526761 -0.0764908228246
61.5833333333 0.0374372117221 -0.0392161384225 0.214888483286 -0.345708668232 0.664001405753 -0.259566187415 -0.997884540153 -0.477438669924
61.625 0.0133952070028 -0.0415310263634 0.016510752961 -0.40305942297 0.864342398731 -0.637796439513 -0.310500504147 0.0386456312515
61.6666666667 0.000586630485486 -0.0306056402624 -0.189964130521 -0.355293691158 -0.637689089231 -0.502983411317 0.254656869037 -0.277014205101
61.7083333333 0.0011362102814 -0.023664670065 -0.348070144653 -0.200765311718 0.310515859985 0.962733472867 0.506943780412 -0.0764796446582
61.75 0.00333937490359 -0.0269276537001 -0.407200425863 0.033051777631 0.392349234452 -0.0669448898074 0.305878117406 0.808309092589
61.7916666667 -0.00361414370127 -0.0340315066278 -0.319966822863 0.263251036406 0.292532558935 -0.851230403376 -0.541128012192 -0.103047063532
61.8333333333 -0.0182501729578 -0.0378853678703 -0.138358518481 0.413697332144 0.460492117339 -0.631828477055 -0.579427360749 -0.286499974805
61.875 -0.0309533793479 -0.031791318208 0.0563224963844 0.426045060158 -0.895800487924 0.000270045368734 0.165914489326 0.0573217950084
61.9166666667 -0.0401144139469 -0.0194648467004 0.252896755934 0.341071128845 0.409349356527 0.149907778985 0.285869358936 0.217740393054
61.9583333333 -0.0431696474552 -0.00341539434157 0.390314429998 0.1431350559 -0.383646066196 0.908350093962 0.0253638657673 0.749231577056
62.0 -0.0370676666498 0.011804619804 0.386209636927 -0.096771247685 0.237519213064 0.764439939724 -0.951792129633 0.553632379379
62.0416666667 -0.0268036294729 0.0183442868292 0.265958577394 -0.275578171015 -0.186867079206 -0.0525450046577 -0.577525637693 0.0771530617461
62.0833333333 -0.0197343286127 0.0188427101821 0.10742340982 -0.394270688295 0.0699660536851 0.633326232495 -0.598958240682 -0.133755578769
62.125 -0.0184901319444 0.0215801279992 -0.127074494958 -0.400490045547 -0.655639186556 -0.635438535 0.81827990121 -0.224477714964
62.1666666667 -0.0203738790005 0.0301377605647 -0.307377368212 -0.276192873716 0.98029660617 -0.633014478634 0.814748485812 -0.186185672418
62.2083333333 -0.0136899147183 0.0454670749605 -0.389297246933 -0.0685365498066 -0.423823636188 -0.171341448527 -0.0842668690047 0.144626489988
62.25 0.007501733955 0.0555009804666 -0.365621298552 0.157954514027 -0.131886665077 -0.761722658767 -0.0690977361819 0.97084622442
62.2916666667 0.0316391699016 0.0485094338655 -0.228746518493 0.328570097685 -0.650394090438 -0.415760303873 -0.0138241736076 0.38842676793
62.3333333333 0.0480521582067 0.0311977472156 -0.0235633924603 0.410670608282 0.0265807147778 0.454118237914 0.76104934281 0.0949723434136
62.375 0.0526755824685 0.00893887504935 0.184385299683 0.368891537189 -0.0215066287962 0.360701436329 -0.695490048411 -0.955070153707
62.4166666667 0.0478884167969 -0.00632018409669 0.365808576345 0.208142533898 0.853388509189 -0.0835873688007 0.249180855713 0.972420362973
62.4583333333 0.0449274927378 -0.0168520528823 0.420685589314 -0.0190093591809 -0.759490164511 -0.370351788939 -0.729109980816 0.858562289002
62.5 0.0393625721335 -0.0290610920638 0.33574911952 -0.245510950685 -0.343168911408 -0.929941109888 -0.833056753833 -0.90335434728
62.5416666667 0.0299832168967 -0.0398971177638 0.144624963403 -0.381031543016 0.0839497286754 -0.961847702372 0.772787850456 -0.734617377018
62.5833333333 0.0179157368839 -0.0495343022048 -0.0751701444387 -0.396893948317 0.810228028637 -0.376701491919 -0.0513573608951 0.121339794742
62.625 -0.00019872764824 -0.0564374141395 -0.262226045132 -0.298591166735 -0.759430637043 0.909225248136 0.395795436149 -0.452456738826
62.6666666667 -0.0219201240689 -0.0553917214274 -0.365842223167 -0.122978150845 0.690453205356 0.687838116681 0.0797548524685 0.697511825925
62.7083333333 -0.042835149914 -0.0427889376879 -0.368838250637 0.0761417672038 -0.308237842137 0.884175119341 -0.647873491205 -0.0553201806035
62.75 -0.0540072359145 -0.020773626864 -0.264710128307 0.246328666806 0.586839983941 -0.747377232591 -0.0305760605401 0.904323529142
62.7916666667 -0.0516359694302 0.00513889594004 -0.0821414589882 0.359390109777 -0.633078914776 0.991592411234 0.964927832823 -0.406192810731
62.8333333333 -0.0401482842863 0.0252856872976 0.114789016545 0.362132310867 -0.706906319291 0.89701384704 0.31847086087 -0.214782344492
62.875 -0.0236697737128 0.030433639884 0.297000914812 0.245236456394 0.535704335785 0.595611559939 -0.771126503111 0.0202541449091
62.9166666667 -0.0152555629611 0.0302985869348 0.383522242308 0.061551284045 -0.571368708344 -0.749538840798 -0.628005687842 0.649159937821
62.9583333333 -0.0110740987584 0.0322036929429 0.389132171869 -0.149516716599 -0.43777744378 0.944972254868 0.384977541086 0.351119343563
63.0 -0.00264375982806 0.0379503183067 0.259208440781 -0.328705787659 -0.155574181196 -0.175186053773 -0.648303375131 0.0641525475208
63.0416666667 0.0134285204113 0.0374642163515 0.0394258871675 -0.413165658712 -0.434625326848 -0.438928203249 -0.841293441284 0.75378866211
63.0833333333 0.0299134403467 0.0267844516784 -0.200969129801 -0.376421242952 -0.656298615436 0.108771706004 -0.210545920977 0.5754577825
63.125 0.0337497666478 0.011070612818 -0.340454190969 -0.229070693254 0.0858493741947 0.198459382619 0.283555036146 0.713209236668
63.1666666667 0.0304190758616 -0.00200374377891 -0.39059150219 -0.0305752847344 0.509920313964 -0.0629083111307 -0.570338962322 0.843230771721
63.2083333333 0.0231663007289 -0.0111406231299 -0.356246352196 0.15036816895 -0.528934932809 -0.0123895551417 -0.755803441445 -0.640006151102
63.25 0.014151555486 -0.0155318584293 -0.254177182913 0.291034698486 0.110200893399 -0.185673426812 -0.0364438073605 -0.779983502661
63.2916666667 0.00662584370002 -0.0148864323273 -0.0886674746871 0.386836707592 0.175209849545 -0.535816693082 0.0590026796956 -0.513246015947
63.3333333333 0.00282749580219 -0.0103970458731 0.135601565242 0.377688854933 0.505330515742 -0.604963619252 -0.34461016327 0.839490362109
63.375 0.00533617846668 -0.00716518051922 0.318425327539 0.237739935517 -0.334420443043 -0.126414768916 -0.72461518519 0.589930122864
63.4166666667 0.00937713682652 -0.0111768189818 0.389192193747 0.0394628681242 0.822400725512 0.93209799421 0.89693277312 -0.507184303635
63.4583333333 0.00586680090055 -0.0205065924674 0.368390738964 -0.159676238894 0.974927856134 0.695687514857 0.959299062488 -0.955041087415
63.5 -0.00550567544997 -0.0254958514124 0.257585585117 -0.325464308262 0.295907231262 0.965462349581 -0.150992503624 0.305187081601
63.5416666667 -0.0184892416 -0.0187417324632 0.0473124086857 -0.414790332317 0.309858329731 -0.706093602139 -0.151436337995 -0.291033161764
63.5833333333 -0.0228838399053 -0.00593194644898 -0.198822915554 -0.375085502863 -0.944112304749 0.551581229755 -0.567761344138 -0.705052423765
63.625 -0.0162331573665 0.00325383176096 -0.38195219636 -0.183210894465 0.677387168709 0.0922749576162 0.531580947893 0.243625808316
63.6666666667 -0.00910669378936 0.00164948776364 -0.410594195127 0.0350312292576 0.323440287573 -0.780190724598 -0.605662511121 0.201136056039
63.7083333333 -0.0102093759924 -0.00269916676916 -0.34562921524 0.224209830165 -0.428318210473 -0.299874799926 -0.754148647837 -0.990543964408
63.75 -0.0168661139905 -0.00172972434666 -0.217519819736 0.344255387783 0.0778786659639 0.50781401446 -0.203742907387 0.0677220318286
63.7916666667 -0.0223899316043 0.00710455421358 -0.0163111817092 0.423641085625 0.172058550457 0.379391454805 -0.423798311523 0.940734833267
63.8333333333 -0.0207354687154 0.0182646308094 0.179034918547 0.380905121565 0.599544057388 -0.396569352198 0.165011460609 -0.0428858136258
63.875 -0.0124014224857 0.026119498536 0.334781289101 0.243988618255 -0.713908541281 0.705421047142 -0.546689844424 0.540940713779
63.9166666667 -0.00182594824582 0.0298848748207 0.419396966696 0.0407348796725 -0.350428476519 -0.73030269418 0.906219975885 0.524868836078
63.9583333333 0.0108650689945 0.0314791798592 0.391639351845 -0.184851646423 -0.802801727215 -0.24063295451 0.0527546222623 0.772985634068
64.0 0.0222375318408 0.0230954159051 0.23992434144 -0.332782417536 0.445802008657 -0.165611118754 -0.503641711541 0.860196611453
64.0416666667 0.0276108514518 0.00978995021433 0.037046931684 -0.398472130299 -0.301410472305 -0.877693447005 0.417511433381 0.72202759567
64.0833333333 0.0230420343578 -0.00245166313834 -0.181286856532 -0.341926306486 0.278759080354 0.0959712602321 0.526673409522 -0.830845355246
64.125 0.0152362929657 -0.00584655860439 -0.339162766933 -0.169462069869 0.611005533184 0.82380932023 -0.381416735807 0.441120337826
64.1666666667 0.0144983781502 -0.00476658018306 -0.393060982227 0.0502674952149 0.633167166626 -0.43984234045 0.0989509392089 -0.357807300099
64.2083333333 0.0192997250706 -0.00920004956424 -0.335886031389 0.246919706464 0.96044448296 -0.815809268217 0.0631881831433 0.263320546
64.25 0.0184873640537 -0.0199303049594 -0.186318531632 0.381941974163 0.0310807878109 0.569804885045 -0.87710042751 -0.495801517472
64.2916666667 0.00671693496406 -0.0309568122029 0.0177281294018 0.417856782675 -0.963576030854 -0.758723658958 -0.645008277552 0.911561615625
64.3333333333 -0.0102501194924 -0.0291150007397 0.204200431705 0.354218482971 0.366332600735 -0.503325245503 0.931869383974 -0.524331226016
64.375 -0.0235273335129 -0.0168463438749 0.369624733925 0.171596780419 0.349273799282 0.646889220074 0.330060893802 0.368270888361
64.4166666667 -0.0236343126744 -0.00084215082461 0.408987879753 -0.0540296025574 -0.984268308459 0.196227730747 0.307741764111 0.773317539084
64.4583333333 -0.015612709336 0.00805684085935 0.313019812107 -0.251102596521 -0.626432354998 -0.167389661293 -0.683371303079 -0.489509744334
64.5 -0.00779839977622 0.0109415501356 0.134511709213 -0.327268362045 -0.0752756831793 -0.38590963985 -0.492661647478 0.292501362727
64.5416666667 -0.00138096313458 0.00876609887928 -0.0397094152868 -0.343816608191 0.0317596750465 -0.417342197839 -0.244640947126 -0.282677078882
64.5833333333 0.00260285520926 0.00620936555788 -0.241719320416 -0.327005624771 -0.319757413175 -0.884982901195 0.541374551891 0.77827989134
64.625 0.00539418682456 0.00144476268906 -0.419072449207 -0.167578086257 -0.401226193206 -0.268201821011 0.302804479038 -0.543461098953
64.6666666667 0.00217965990305 -0.00395445106551 -0.464961260557 0.0775121375918 0.333363122759 -0.0225527403841 -0.104483673502 -0.839771331826
64.7083333333 -0.00328248087317 -0.00297416863032 -0.367730677128 0.300822675228 -0.498859547724 0.875281335232 -0.87093158892 0.920687901497
64.75 -0.00274363299832 0.00158562732395 -0.188933238387 0.415623903275 0.124618679963 -0.9106563047 0.876276657203 0.758682048271
64.7916666667 0.0028276196681 0.00125044432934 0.00906570348889 0.434586793184 0.752334271121 0.651797088924 -0.939080769635 -0.146330291847
64.8333333333 0.00508925272152 -0.00668922578916 0.197786971927 0.357861191034 0.232111850147 0.960667662638 0.327054324216 -0.622081748712
64.875 -0.00378599925898 -0.0160211343318 0.367276221514 0.190188929439 0.081605321511 0.270736844553 0.74178124955 -0.802084309469
64.9166666667 -0.0182106029242 -0.012519871816 0.398498803377 -0.0487723723054 -0.226169658918 0.807074473833 -0.741590466502 -0.331861329402
64.9583333333 -0.0231522861868 0.000592212658376 0.294810652733 -0.202193796635 -0.349654298584 0.789576873449 -0.855160663464 0.545228461844
65.0 -0.0187455695122 0.0131250377744 0.184073641896 -0.325213462114 -0.860224818397 0.00398445010667 -0.257738601798 0.59394236481
65.0416666667 -0.00914420839399 0.020443815738 0.0383989885449 -0.397816956043 0.615824438142 -0.761498316227 0.806392397634 -0.440713636748
65.0833333333 5.57572311664e-05 0.0214417036623 -0.129209384322 -0.385294884443 -0.358341619094 -0.277630018962 -0.244551085447 -0.279758007976
65.125 0.0059233433567 0.0189015325159 -0.296510517597 -0.27054426074 -0.150499777093 0.402941837048 -0.714923499619 -0.720561347305
65.1666666667 0.0108261704445 0.0157958548516 -0.389427781105 -0.0533126294613 0.646574403911 -0.18742645534 0.268387827968 -0.298658144603
65.2083333333 0.0139399431646 0.012392164208 -0.369751989841 0.158403918147 -0.891829236612 -0.162587294792 0.0786090944336 0.317812460217
65.25 0.014953404665 0.00947162602097 -0.254705578089 0.304832369089 -0.427125197576 -0.716092333391 0.970557715401 0.639958413324
65.2916666667 0.0179570745677 0.0051265838556 -0.0701557546854 0.407014071941 -0.188238269303 -0.741532499708 0.353327495878 -0.200688854214
65.3333333333 0.0201459750533 0.00118249165826 0.138089850545 0.390081316233 -0.918749775936 0.299702094692 0.616726103175 0.823950050457
65.375 0.0230533685535 -0.00486130919307 0.31325802207 0.27070826292 -0.412574230692 -0.113947595783 -0.0990370550211 0.0560487099255
65.4166666667 0.0231485422701 -0.0150722824037 0.403349369764 0.078019566834 -0.207022553395 0.497474764327 -0.0292167388847 0.926111982966
65.4583333333 0.015585466288 -0.0272594485432 0.37587594986 -0.134801656008 0.111996604587 -0.562189640192 0.804316137244 0.0606407426088
65.5 -0.000568629533518 -0.0299968756735 0.260287702084 -0.282037198544 0.741383832531 0.336739419951 0.552475606006 0.0799553394934
65.5416666667 -0.0146679468453 -0.0209893900901 0.104438699782 -0.38888913393 -0.623024528496 -0.983101874693 0.25879207398 0.398033721794
65.5833333333 -0.0167093034834 -0.00905019324273 -0.0880879238248 -0.411557763815 -0.312350243184 0.77608489832 -0.0118283948518 0.439108701205
65.625 -0.0112597774714 -0.00314426398836 -0.284221082926 -0.327636092901 0.42097839963 -0.895165910293 0.896651982679 -0.21806836072
65.6666666667 -0.00624925922602 -0.0037406925112 -0.420833915472 -0.136559471488 0.252473865609 -0.955391550861 -0.895265130844 -0.822624496108
65.7083333333 -0.00650366162881 -0.0066857743077 -0.43040767312 0.117173992097 -0.0735039181505 -0.840562801928 0.196645581667 0.988502201159
65.75 -0.0102314427495 -0.00711067719385 -0.327519237995 0.340123206377 -0.457316332092 0.103920992027 -0.818077630131 0.102162282648
65.7916666667 -0.013819665648 -0.00485510705039 -0.148535236716 0.449729263783 0.119969040295 0.632494070955 -0.720820078828 -0.550600551073
65.8333333333 -0.0150995701551 -0.000219970257604 0.0828336179256 0.460329473019 0.974367258867 -0.621816342943 -0.142591288538 0.578906733794
65.875 -0.0143420221284 0.00395428808406 0.292555391788 0.35877430439 0.294252016179 -0.606584569556 0.302314273529 0.318594768866
65.9166666667 -0.0122869210318 0.00687602488324 0.442286014557 0.169385403395 -0.701999794089 0.503606760122 -0.838379073951 0.424364849018
65.9583333333 -0.00915495119989 0.0085432138294 0.442259401083 -0.0989289879799 -0.597294031025 0.412404747893 0.246846360538 0.061054168204
