!Created with skrf (http://scikit-rf.org).
# GHz S RI R 50.0 
!freq ReS11 ImS11 ReS21 ImS21 ReS12 ImS12 ReS22 ImS22
60.0 -1.11085402966 1.39010703564 5.51333096155e-06 1.57373085585e-06 -0.687956904641 -0.457573627331 -0.651449196822 0.819771453296
60.0416666667 -0.241755917668 1.77424502373 -8.65160382091e-06 -2.64292839347e-06 0.511863372663 -0.11715355925 0.0110652636498 0.687979656306
60.0833333333 0.59574842453 1.51727688313 -4.51317191619e-06 -3.12167753691e-06 -0.47531825258 -0.521508666442 0.211038544343 -0.473771432884
60.125 1.1330395937 1.03961288929 -7.22507365936e-06 5.46098681298e-06 0.129767849795 0.0553738647684 -0.242145821457 0.870373486378
60.1666666667 1.43011236191 0.467467397451 1.14616104838e-05 3.62364801276e-07 -0.684396026149 -0.450198090943 0.642487314802 -0.325196360191
60.2083333333 1.51688122749 -0.210219398141 -4.53713937532e-07 -1.96656600338e-07 0.823187446771 0.870806095059 0.0423668234593 -0.172461929994
60.25 1.22183632851 -0.91134762764 -7.76619708631e-06 -4.37928611063e-06 0.405087639073 0.949408032101 0.860867783314 -0.497914288524
60.2916666667 0.662668883801 -1.39136600494 7.05796367129e-07 -9.38207813306e-06 0.357620712475 0.443568064694 0.0611869467456 -0.487984706101
60.3333333333 -0.149814158678 -1.6439293623 -3.46294854126e-07 -1.63456024893e-05 -0.270504017078 0.107322613868 -0.48160661688 -0.213466736918
60.375 -0.975559413433 -1.28011155128 -5.01356180393e-06 -5.8245245782e-07 -0.459032740476 0.19222483918 -0.378071713544 0.118222903586
60.4166666667 -1.49667453766 -0.613336205482 -2.23381834985e-06 -2.83347981167e-06 0.80853786218 -0.282855928932 0.21984806394 0.212162156463
60.4583333333 -1.64638280869 0.218877851963 1.12319930849e-05 -1.8552768779e-06 -0.168634780196 -0.28184115219 0.34504183867 -0.414723114179
60.5 -1.3584073782 0.969152390957 -1.02680660348e-05 -5.3641406339e-06 -0.788499314096 -0.0697045065662 0.579492256131 -0.90839822765
60.5416666667 -0.752398371696 1.54693973064 5.65129130337e-06 -1.12808993435e-05 0.231699400952 0.446731719338 0.16177015984 -0.198580249306
60.5833333333 0.0281167626381 1.82184946537 9.04323314899e-06 5.62632703804e-06 0.433364116673 -0.995505206798 0.248532223611 -0.311356156025
60.625 1.06211805344 1.55639541149 -6.07694937571e-06 3.75864146918e-06 0.722585521677 -0.366398204179 0.144229355161 -0.15998456043
60.6666666667 1.64693033695 0.711493968964 1.88479953067e-06 -1.04263847334e-06 -0.222382597194 -0.0131355079134 -0.503781188564 0.152299048391
60.7083333333 1.68590736389 -0.0819832459092 7.77258628659e-06 -2.02533055926e-06 0.760718573186 0.78917297211 0.142527407161 0.184767960222
60.75 1.49302351475 -0.822366952896 1.2641831745e-05 -3.45380897215e-08 -0.790181072852 -0.74626865198 -0.55109295456 0.642723550266
60.7916666667 0.86698693037 -1.37156045437 -1.52403817992e-05 -1.36570597533e-05 -0.171355743426 -0.131183231331 0.616528082663 0.445062046639
60.8333333333 0.220059379935 -1.57056856155 -1.09328429971e-05 3.34174751515e-06 -0.626078731625 -0.249274418077 0.455116939162 0.926930688627
60.875 -0.484742939472 -1.49151313305 -2.30026785175e-06 -8.59344072524e-06 -0.985113387447 0.469094691538 -0.885230085105 -0.715006814238
60.9166666667 -1.11442732811 -1.09527945518 5.97807047598e-06 1.64356533787e-05 -0.48388139439 0.0986182412558 0.359657774264 0.143619908653
60.9583333333 -1.47223687172 -0.544670283794 3.95368306272e-06 -1.73677744897e-05 0.381040997373 -0.125470544849 -0.292278666194 0.317394349471
61.0 -1.69982361794 0.120880723 -6.92812636771e-06 -1.8394412109e-06 -0.112436880737 -0.123522326713 -0.935352026546 0.275070105782
61.0416666667 -1.51443767548 0.941613912582 -2.31829289987e-06 9.40594588883e-07 -0.597896157901 0.735258479817 0.54459505984 -0.683082695135
61.0833333333 -0.975424051285 1.51563429832 -4.86072485728e-06 6.91928426022e-06 0.498901602775 0.493979641158 -0.229092244592 -0.684705247129
61.125 -0.174768432975 1.78133070469 3.67816028302e-06 -2.50805123869e-06 0.862354134419 0.704915223117 -0.331512613318 0.0438936177768
61.1666666667 0.699207901955 1.59762012959 -1.5797890228e-05 1.43065217344e-05 -0.462388337783 0.336184231639 0.180423050916 0.760818777152
61.2083333333 1.38764584064 0.992009043694 -1.35168011184e-06 1.22267410916e-05 0.389690519456 -0.73414150683 0.255764437429 0.0353222899263
61.25 1.73799073696 0.107961669564 -5.06970172864e-06 6.88804630045e-06 -0.154603048223 0.658777654913 -0.631558061073 0.0797775665498
61.2916666667 1.59858560562 -0.702331840992 1.90380342246e-05 6.65504421704e-06 -0.971260861769 0.469567507591 -0.504409179433 -0.154991534017
61.3333333333 1.13443040848 -1.25118732452 1.30583848659e-05 7.19721128917e-07 -0.0129649012014 0.981684992765 0.627074238953 0.546980429367
61.375 0.528110861778 -1.54840409756 -4.61234048998e-06 7.52396454118e-06 0.98086483704 0.602370280914 -0.945513599699 -0.817370445986
61.4166666667 -0.184382244945 -1.56724739075 1.73679453042e-07 7.04719013811e-07 -0.330764380681 -0.810860676496 -0.759646854053 0.579961187876
61.4583333333 -0.853701233864 -1.29024791718 4.55392410004e-06 -2.00919021154e-05 -0.201552836648 -0.547774656291 0.671544062066 -0.326164484574
61.5 -1.28925013542 -0.752770364285 1.52222355609e-05 -1.02116709968e-05 -0.315647873588 0.604405223198 -0.764990819103 0.999529263123
61.5416666667 -1.51005911827 -0.111480750144 -3.0073756534e-06 -5.83252949582e-06 0.128146891718 0.379598291016 0.195360840113 0.744576303326
61.5833333333 -1.42055761814 0.616267263889 -1.34899364639e-05 3.29700378643e-06 0.665601734868 -0.2393744146 -0.979429091638 -0.582652379767
61.625 -1.02737283707 1.2153428793 6.72143823977e-06 -3.95476490667e-06 0.369632145336 0.597183530143 0.642168223345 -0.638430525735
61.6666666667 -0.352826803923 1.6020026207 -2.99846078633e-06 1.17677573144e-05 0.383308831908 0.761807324601 0.361711479597 0.344557207751
61.7083333333 0.490531474352 1.65087258816 1.0950126125e-05 -5.74481737203e-06 -0.312515802575 0.17308192097 0.468173946168 0.0136784510215
61.75 1.25047767162 1.24257683754 -9.0011217253e-06 7.70703081798e-06 0.0698436816233 -0.0406549093045 -0.209211144945 0.326416452037
61.7916666667 1.71670436859 0.45640450716 2.22140852202e-06 8.17217187432e-06 -0.471380813687 -0.264617862607 -0.671729621492 -0.152137894209
61.8333333333 1.83521926403 -0.460644751787 -1.87576042663e-05 -3.12193856189e-06 -0.390214739221 0.516955418454 0.109801362918 -0.788858681288
61.875 1.41385030746 -1.20733833313 1.19763271869e-05 1.59601552241e-06 -0.249668454462 0.261453821004 -0.0898711211776 -0.519391493376
61.9166666667 0.682085096836 -1.65239906311 -1.28951896841e-05 -4.76650984638e-06 -0.792790459261 -0.653205025373 0.464072664355 0.995742485534
61.9583333333 -0.149526789784 -1.71434235573 -4.01504303227e-06 5.82443408348e-06 -0.235079689017 -0.16579463724 -0.502490516509 -0.11596673335
62.0 -0.886540353298 -1.37354385853 7.32465605324e-06 1.06124662125e-05 0.213958490529 0.0350150646936 -0.532070899873 -0.110204853556
62.0416666667 -1.32970309258 -0.83377456665 8.69629911904e-06 -8.55077632878e-06 -0.546126734019 0.225580791568 -0.172516717574 0.0445793830889
62.0833333333 -1.57194304466 -0.166136100888 2.99456587527e-06 -1.22255698898e-06 0.145308164028 -0.245098676651 -0.11281355068 0.0274192312724
62.125 -1.49002170563 0.721434295177 2.49130539487e-06 8.58638372847e-07 0.799920723381 -0.970735714569 -0.439336775898 0.26794975016
62.1666666667 -1.02469575405 1.32554209232 1.18801126519e-05 6.38998380964e-06 0.127548969403 0.286067878521 -0.955305374632 -0.169148867796
62.2083333333 -0.376859128475 1.6801956892 -1.5761005443e-06 -2.96495181829e-06 -0.792639266928 -0.409300603197 -0.32528433243 -0.216843542549
62.25 0.409414947033 1.72825455666 -6.59086799715e-06 -2.11460883293e-06 0.246178196729 0.251983516318 0.37736294173 -0.389896525541
62.2916666667 1.14118158817 1.38360762596 4.25076177635e-06 4.12056078858e-06 0.0290291972332 0.802844661746 -0.857680229264 -0.12016851189
62.3333333333 1.72424805164 0.74742859602 7.63098069001e-06 -1.72728250618e-05 0.675460383564 0.799102810591 0.714072993263 0.450206065784
62.375 1.92210829258 -0.232192188501 -6.0858001234e-06 -3.44122696561e-07 0.794597130541 -0.771595259064 0.172387009456 0.763895440484
62.4166666667 1.55284500122 -1.13899087906 -3.09203574034e-06 6.51394771012e-07 -0.108301498659 0.276779921283 -0.585673489463 -0.369731425209
62.4583333333 0.841886222363 -1.74669313431 6.80244556861e-06 -8.12673874862e-07 0.859729973727 0.181251342703 0.240293775369 0.295526712032
62.5 -0.116241060197 -1.87058413029 -3.58819306712e-07 -2.60645538219e-06 0.602749997884 0.110520152743 -0.633785259475 -0.281401834194
62.5416666667 -0.908137500286 -1.52072846889 -1.32048253363e-05 -5.81267204325e-06 -0.696899427624 0.620709366745 0.221345756029 0.198293144269
62.5833333333 -1.43647873402 -0.941179096699 -2.05174524126e-06 8.06018306321e-06 0.195822022785 -0.629915399615 0.917824880239 -0.793903167922
62.625 -1.66661655903 -0.194872677326 8.81568121258e-06 -1.18058396765e-05 -0.023605628869 -0.887659936348 0.145293310641 -0.850872705982
62.6666666667 -1.54864418507 0.519136548042 4.53857546745e-06 -2.29282613873e-06 0.0385470331329 -0.123580106276 -0.836546147089 -0.709562297785
62.7083333333 -1.16629958153 1.08499121666 -3.38328209182e-06 6.68162783768e-06 -0.347502629946 0.773693024606 -0.838343017498 -0.878590061884
62.75 -0.6219830513 1.42134547234 3.18619026984e-06 5.96850168222e-06 -0.202271509892 0.120193442498 0.796904156303 0.817336812869
62.7916666667 0.056733045727 1.52993416786 -4.47949150839e-06 -4.35730953541e-06 0.24411528904 -0.971290198119 -0.450812846683 0.719098262592
62.8333333333 0.835646867752 1.43216919899 6.50906531519e-06 -6.7703208515e-06 -0.534821174776 -0.26037360102 0.129060679598 0.416032742085
62.875 1.44842195511 0.911460757256 5.26003077539e-06 -1.17982299344e-05 -0.98831846122 0.134441987539 0.182954984645 0.379829968633
62.9166666667 1.82347249985 0.121631644666 -2.38965776589e-06 -2.0627160211e-06 -0.412719028649 0.29493685575 0.937535856896 0.54136534695
62.9583333333 1.69495499134 -0.75734180212 -6.09371818427e-06 7.98325709184e-06 -0.950104259388 -0.178794187754 -0.782400619683 0.364010668351
63.0 1.14305460453 -1.462266922 1.6152187527e-05 -5.92031256019e-06 -0.797934360533 -0.264185915389 0.0843463491695 -0.351250330805
63.0416666667 0.265011906624 -1.75946879387 5.98392125539e-06 -1.52339189299e-05 -0.0362208350044 -0.717717973983 -0.0880499722079 -0.0137096198569
63.0833333333 -0.672463059425 -1.64441931248 -2.98332565762e-07 4.76720333609e-06 -0.380027019091 -0.499557733881 -0.691356393364 0.328540299538
63.125 -1.24664080143 -1.12214374542 4.33351942775e-06 -1.64193970704e-05 -0.961786800293 0.254962371825 -0.588921111825 -0.546083197621
63.1666666667 -1.55339598656 -0.450026720762 -4.62112529931e-06 -9.14147040021e-06 0.402496980318 0.811116807178 0.326203682137 -0.438193916289
63.2083333333 -1.54203176498 0.27639734745 1.29966210807e-05 -1.37376650855e-06 -0.326117781669 -0.784911941749 -0.826732607576 -0.565054861132
63.25 -1.21862530708 0.961750090122 -1.58113493853e-06 2.32140905609e-06 -0.821654603993 -0.439380522803 -0.303092428818 -0.583428166069
63.2916666667 -0.686787247658 1.40230405331 -6.99233169144e-07 -2.40328176915e-06 -0.60019549566 -0.000825237340859 -0.76597663287 0.00286506021349
63.3333333333 -0.0139973908663 1.57131624222 1.47831560753e-05 -5.15687906955e-06 -0.92074467837 0.890614514814 0.0534436307729 -0.454153598919
63.375 0.664988815784 1.4452713728 -5.99790519118e-06 -4.9699488045e-06 -0.404954647513 -0.704349239879 0.729957031857 0.351670705822
63.4166666667 1.24280440807 1.027795434 -4.48136688647e-06 -6.63789205646e-06 -0.807843895189 -0.182017276233 0.0075558890587 0.384432929299
63.4583333333 1.61720073223 0.384948402643 2.7445712476e-06 -1.34378578878e-05 -0.953676696916 0.931596796501 0.0359265935886 -0.326953827108
63.5 1.71876442432 -0.326094329357 1.63399545272e-05 1.8749922674e-05 0.824009864932 0.71268472147 -0.201736982534 0.611023112223
63.5416666667 1.40557014942 -1.10995352268 7.9458241089e-06 -2.03681838684e-06 -0.419754527958 0.281069210675 0.870394227663 -0.76629093029
63.5833333333 0.796189665794 -1.73712539673 1.01893028841e-05 1.00841507447e-05 0.165166611051 0.0265115080107 0.608251920968 -0.0167365933029
63.625 -0.147408351302 -1.92080426216 6.321516139e-06 8.64166395331e-06 -0.810500629777 0.102075782999 0.635849799231 -0.585618793269
63.6666666667 -0.930395424366 -1.56453287601 5.86926125834e-06 -1.02429803519e-05 -0.49396117373 0.725285865302 0.274625557991 -0.0275431849957
63.7083333333 -1.49238634109 -0.956681013107 3.47794326672e-07 -4.18351646658e-06 -0.790665563672 -0.397658904223 -0.600036917781 0.410716407711
63.75 -1.71056818962 -0.191079825163 -9.95625850919e-06 -5.02315913309e-07 0.673238582358 -0.667829108232 -0.212493570002 -0.526694403011
63.7916666667 -1.61954927444 0.625027120113 8.19296565169e-06 2.85804958366e-07 -0.571467997449 0.0696047948545 -0.604685889697 -0.677020078889
63.8333333333 -1.1726193428 1.18712949753 -4.52359154224e-06 4.37984272139e-06 0.95038231936 0.972965380218 -0.674419559272 0.151551696225
63.875 -0.583877623081 1.45894265175 4.86473300043e-06 -1.24850748762e-06 0.320897848592 0.606304102862 0.837496442814 0.745803081861
63.9166666667 0.0377137623727 1.5459009409 1.3699509509e-05 -1.81441737368e-05 -0.159063061701 0.121368253657 0.0825169880747 -0.905273787188
63.9583333333 0.675893902779 1.47779476643 -6.09460357737e-06 8.36961771711e-06 -0.557755886687 -0.782402401621 0.973250286187 0.220248439245
64.0 1.13349699974 1.0634251833 1.10965879685e-06 7.35184448786e-06 -0.516319064547 0.523333548828 0.198759979393 0.0730905961405
64.0416666667 1.47180879116 0.551242768764 -4.75437843761e-07 -3.22448886436e-06 -0.268008468942 0.768732151582 -0.307442806849 -0.0161805631391
64.0833333333 1.58617508411 -0.127963274717 5.12489395987e-06 1.0627390111e-05 -0.226643587308 -0.838211206512 0.319650070211 -0.981904050816
64.125 1.37627780437 -0.859656095505 8.69362156664e-06 1.30726748466e-05 0.311015847116 -0.360650032881 0.834887551935 0.069384979726
64.1666666667 0.820237457752 -1.49932694435 1.42285298352e-05 8.6648406068e-06 0.205014368711 0.378594958426 0.892845695985 -0.000520983750353
64.2083333333 0.0173203311861 -1.78129005432 2.01937700695e-06 1.16866776807e-05 0.292170636531 -0.71065883699 0.151933002187 0.187435605331
64.25 -0.732831656933 -1.57276856899 -4.00214730689e-06 1.25494298118e-05 0.258327744677 -0.898945929003 0.813009693539 -0.338918726926
64.2916666667 -1.36861765385 -1.06746649742 2.60496926785e-06 1.34505751248e-06 -0.20419641398 0.985808775368 -0.22142908839 -0.479811668053
64.3333333333 -1.59578800201 -0.357273280621 3.66901185771e-05 6.26116570857e-06 -0.709936528953 0.223754144232 0.426381046458 0.245827685805
64.375 -1.57439124584 0.426574677229 4.96850452691e-06 1.25886458591e-06 0.928715350877 0.4168400119 -0.849319793605 -0.180157398592
64.4166666667 -1.17319703102 1.04845499992 -3.00962847177e-06 5.78003300689e-06 0.81433117992 0.472179755927 -0.830171199724 -0.74581364075
64.4583333333 -0.597409963608 1.37540149689 2.99585963148e-06 -1.68380247487e-05 -0.109624147169 0.839280093869 0.486490434396 0.710609794856
64.5 0.0510931238532 1.51943588257 -1.58832460784e-06 4.509813607e-06 -0.287911705653 0.416743162072 -0.144801486745 -0.664448442592
64.5416666667 0.590271294117 1.20132350922 -2.41489510699e-06 -8.89247257874e-06 -0.0654475517121 -0.617408853717 0.828306044775 -0.15248611913
64.5833333333 0.999522089958 0.911506891251 -1.05244243969e-05 2.05511114473e-05 -0.331772936617 0.933791494503 0.0128098478555 0.585469628804
64.625 1.52689349651 0.492106318474 -3.68179917132e-06 1.9144410544e-05 -0.70827796606 0.179952315346 -0.263079540652 0.628012189728
64.6666666667 1.73807990551 -0.239547595382 3.91874482375e-06 -6.03964338097e-07 -0.108565572306 -0.121999468862 0.48214751372 -0.779320485923
64.7083333333 1.54063105583 -0.985626637936 3.62948094335e-06 1.43605461744e-06 0.316022865756 -0.468096730208 0.436615961564 0.791364088266
64.75 1.03764820099 -1.45948839188 3.17135459227e-06 -9.01667772268e-06 -0.348683828205 -0.892728476543 0.820826071437 -0.0855548355806
64.7916666667 0.415998637676 -1.71571946144 -1.09734301077e-05 8.80607058207e-06 -0.191294337189 0.348804173466 0.687760665255 -0.562173668992
64.8333333333 -0.341870844364 -1.71219623089 -7.45930583435e-06 7.65381992096e-06 0.765249897951 -0.206434990058 0.140819515664 0.729971581609
64.875 -1.19369339943 -1.45154523849 -9.51238052949e-06 6.77885554978e-06 -0.756413949607 -0.312402094106 0.524843956372 -0.23619023974
64.9166666667 -1.62985229492 -0.727317750454 -7.09949745215e-06 6.56424208501e-06 -0.334532095002 0.675551367317 -0.490999273916 0.729351514428
64.9583333333 -1.53552734852 0.0159386508167 -5.78372237214e-07 9.08703168534e-06 -0.85089757005 0.485795140071 0.74181038055 0.829758433847
65.0 -1.26017415524 0.612206578255 1.21989955915e-06 3.92397942051e-06 0.500194427132 0.900713931368 0.63565618525 -0.822047928987
65.0416666667 -0.841573417187 1.10282099247 1.27101284306e-05 3.14564636028e-06 -0.385451249096 0.967777805042 0.149391027495 -0.95561626421
65.0833333333 -0.309200614691 1.38764047623 2.60993710981e-05 -1.16310593512e-05 0.300131311159 -0.199152309438 0.263720015976 0.724596539322
65.125 0.278337270021 1.3965691328 -5.39615894013e-06 -7.41385520087e-06 -0.0581931775639 -0.202192817851 -0.760210931012 0.808071313046
65.1666666667 0.865898907185 1.11485111713 1.65156336607e-06 2.49236200034e-05 -0.884765287705 -0.435054006053 -0.395320996155 -0.987071534185
65.2083333333 1.18546676636 0.68505179882 -2.47549578489e-05 -3.99818929964e-07 0.869982698652 0.0203870545422 -0.236017563006 0.605552087643
65.25 1.29024744034 0.274283587933 8.64908724907e-06 1.57567737915e-05 0.160789661194 0.548534910545 0.529738224745 -0.943351792147
65.2916666667 1.37809443474 -0.346279531717 -5.86615351494e-06 -1.73350708792e-05 0.269678803343 0.212581324863 0.56182761651 -0.333097369085
65.3333333333 1.1641317606 -0.944844782352 9.38024697916e-07 -2.4612127163e-06 0.058871297091 0.705602563508 0.834735890699 0.383860092444
65.375 0.665043890476 -1.41892421246 1.48061772052e-05 1.65752844623e-05 0.2711833674 -0.432045775579 -0.496238075105 -0.299996593415
65.4166666667 -0.0243481621146 -1.61800885201 3.8709636101e-06 -2.35163224716e-05 0.938134106735 -0.239776465824 -0.979581763808 0.28812063841
65.4583333333 -0.792038500309 -1.50770831108 -1.07434671008e-05 -2.01131024369e-06 -0.802861288664 0.147714148717 -0.604519314807 -0.414363591659
65.5 -1.36569857597 -0.957281589508 -2.031539168e-07 2.27455711865e-06 -0.567131352526 -0.969122447158 0.718533060723 0.695090189447
65.5416666667 -1.62744796276 -0.139106988907 4.83695112052e-06 -1.8068616555e-05 -0.225580629568 0.62777408635 0.349617405296 0.00154682035866
65.5833333333 -1.50906741619 0.574914455414 -5.29530325366e-06 2.04506795853e-05 -0.790142408952 -0.175391792124 -0.666302240395 -0.516830708582
65.625 -1.17814409733 1.10517370701 -3.75475292458e-06 7.62379977459e-06 -0.263046480447 -0.625044170413 0.423078496038 0.195814399986
65.6666666667 -0.559793770313 1.4751996994 -6.01120518695e-06 -1.2387345123e-05 -0.314338029084 -0.123565920537 0.689865312459 -0.360773065961
65.7083333333 0.10166849196 1.48032999039 1.2193116163e-05 -2.63682686636e-05 0.177846936334 -0.764991980045 0.765588902893 0.113461751549
65.75 0.664808869362 1.3070526123 -4.13606994698e-06 2.56611492659e-05 0.401990786677 0.770548474272 -0.137755529753 -0.759681566447
65.7916666667 1.11704778671 1.01779961586 1.40393046877e-06 -7.89162459114e-06 0.0543910560563 -0.863485430935 0.428826967009 -0.9351146861
65.8333333333 1.42488873005 0.481865823269 -1.95111766743e-07 2.31675812756e-06 -0.526603316861 -0.432410325356 -0.992080686643 -0.741113329591
65.875 1.53478217125 -0.100471541286 -5.57130817924e-07 7.2916868703e-06 0.563528479228 -0.625235586906 -0.408265664747 -0.692671329259
