!Created with skrf (http://scikit-rf.org).
# GHz S RI R 50.0 
!freq ReS11 ImS11 ReS21 ImS21 ReS12 ImS12 ReS22 ImS22
60.0 -0.883511900902 -1.44533252716 -8.34876118461e-06 1.33288849611e-05 -0.705963575399 -0.684623175984 0.916409479195 -0.800569661745
60.0416666667 -1.51923155785 -0.876346945763 1.43477461734e-06 1.38639256875e-06 -0.942354031537 0.418292612248 -0.899415693762 0.348488139165
60.0833333333 -1.66090106964 -0.06363209337 9.26601933315e-06 -1.17483450595e-05 0.217284984948 0.238310402033 0.932840430657 0.4101621824
60.125 -1.49857831001 0.65571475029 5.04499166709e-06 -2.39757664531e-05 -0.940950001291 0.855448427474 0.566466299328 -0.325760061043
60.1666666667 -1.09116256237 1.2482625246 -8.39539188746e-06 1.38037485158e-05 0.754424065386 -0.263846975367 0.595618437733 -0.30987652539
60.2083333333 -0.403503447771 1.67932713032 1.39156463774e-05 6.01965302849e-06 0.668115442938 -0.154679117889 -0.134795498588 -0.782680166399
60.25 0.515112102032 1.64453995228 1.00658562587e-05 -2.41106886278e-06 -0.528515954862 -0.878184536867 -0.0430242946763 0.526000885092
60.2916666667 1.25404250622 1.16744494438 -4.57815167465e-06 4.24750624006e-06 -0.0365148472716 -0.513543048093 -0.125053627441 0.870396274419
60.3333333333 1.74359536171 0.336746424437 2.37196072703e-05 -9.41666803556e-06 0.083668730536 0.387105104294 -0.891316955915 -0.979565163921
60.375 1.53713977337 -0.6144734025 -6.451934496e-06 -1.8089515379e-06 -0.299272445387 -0.906088152733 -0.433826029406 -0.95346554123
60.4166666667 0.976313829422 -1.24639821053 -8.52417360875e-06 -5.64010497328e-06 -0.640215445181 -0.407355303247 -0.109819959908 0.946518310355
60.4583333333 0.253057658672 -1.52797067165 1.67860946476e-07 9.48483648244e-06 0.2925424143 0.0948086950446 0.955330645288 -0.499282175123
60.5 -0.423179626465 -1.43525004387 -4.71946941616e-06 -5.44810916381e-07 -0.040565489567 0.223345777498 0.392020730454 0.104807404285
60.5416666667 -1.01516294479 -1.11723458767 -1.02654303191e-06 7.69356745423e-07 -0.316467058359 -0.979424218371 0.24009042089 0.872983298326
60.5833333333 -1.46310031414 -0.650734901428 8.83460961631e-06 1.71299222984e-06 -0.0848839322488 -0.0370301217997 -0.335925661569 -0.442211955517
60.625 -1.69086039066 0.194820553064 5.85451152801e-06 -1.25303347431e-06 -0.350131759881 0.0318328920574 -0.100550997546 -0.729024573804
60.6666666667 -1.36375570297 1.02723753452 -1.65958299476e-05 -3.96648556489e-06 -0.574250362924 0.730993853795 0.537690410139 0.22924203199
60.7083333333 -0.781201839447 1.52095007896 9.484740076e-06 2.39493033405e-06 -0.786435318959 0.905981163746 0.095658766773 0.251290231999
60.75 0.00643245037645 1.83337450027 -1.26055083456e-05 -5.2847308325e-06 -0.678406407942 -0.0107683470393 0.75841933941 -0.743585989088
60.7916666667 0.965377688408 1.54524183273 1.68813130585e-06 8.27944131743e-06 0.9806605274 -0.445891928439 0.0024971738212 -0.463903189797
60.8333333333 1.57046699524 0.906928658485 -9.25320478018e-07 1.24575126392e-05 0.31912606586 0.18657987992 0.453893595362 -0.424323083695
60.875 1.77963674068 0.0108897583559 7.37965046937e-06 8.83820121089e-06 0.650338641553 0.645445886275 0.207642515833 -0.391051435042
60.9166666667 1.48770821095 -0.870218575001 1.34576348501e-05 -6.26823634775e-07 0.919882948301 -0.971048955101 0.438660249028 -0.0291566535002
60.9583333333 0.911090791225 -1.38146364689 1.58182574523e-05 -2.02864634957e-06 -0.342710554329 -0.268130834236 0.93014550663 0.82108000245
61.0 0.246035009623 -1.69100236893 3.99517875849e-06 -4.11910332332e-06 -0.883896488624 -0.715245974521 -0.676355272813 0.728381365041
61.0416666667 -0.55076944828 -1.61062860489 1.45815374708e-05 8.40061602503e-06 0.518740441418 -0.0396535054162 -0.979871181162 -0.652032381578
61.0833333333 -1.10969018936 -1.22175717354 1.44504394939e-06 6.92738740327e-06 -0.769379553396 0.980133538983 -0.786276621021 0.96880045861
61.125 -1.46157157421 -0.643704771996 2.92636491395e-06 7.14020734449e-06 0.313308914256 -0.43113680069 -0.329936477206 -0.35550050741
61.1666666667 -1.5520106554 0.0406983606517 1.19488890959e-06 -1.2310702914e-05 -0.223092720441 -0.911062199235 0.182479471761 -0.196112075535
61.2083333333 -1.3718739748 0.743532538414 -3.92893116441e-06 -1.03673437479e-05 0.239520892237 0.615546366905 0.342182644274 -0.212727154693
61.25 -0.899283528328 1.41555273533 1.46426409628e-05 -7.23588618712e-06 -0.155444256875 0.719618406594 0.538049720065 -0.977943494034
61.2916666667 -0.206195518374 1.77877902985 6.91681952958e-06 -1.22731989904e-05 0.82566460929 0.617472061799 0.502759696557 -0.903261013458
61.3333333333 0.562414884567 1.76027071476 1.72631971509e-05 -9.40467180044e-06 0.751313855286 0.144296757425 -0.749665388293 -0.533371279335
61.375 1.27989423275 1.37709975243 5.18806427863e-06 8.20923924039e-06 0.680513154101 0.912400041543 -0.626008918608 -0.172779341747
61.4166666667 1.75844955444 0.602588057518 -1.06657516881e-05 -2.96145503853e-06 -0.942441380916 0.846548657318 0.864679558815 -0.701261488463
61.4583333333 1.78809857368 -0.333864718676 -1.05687615815e-06 7.94901825429e-06 0.552156372393 -0.787213612993 0.383632669735 0.7864820561
61.5 1.33067631721 -1.07970392704 -8.18341686681e-06 2.45902924689e-07 -0.324766647851 -0.314006635761 -0.902020176892 0.1130409195
61.5416666667 0.668823540211 -1.52386021614 -9.05103570403e-06 5.12038354827e-07 0.987771343382 -0.483527437882 -0.764203984378 -0.048553225112
61.5833333333 -0.11626971513 -1.61077535152 2.23268739319e-06 -7.0169717219e-06 0.286777896321 -0.294421044789 0.713309919797 -0.0767427289376
61.625 -0.776347875595 -1.36795330048 -5.4411907513e-06 9.73726218945e-06 -0.96040640307 0.813574392522 0.450567787147 0.560705545029
61.6666666667 -1.26897513866 -0.876832723618 1.00096849565e-05 -2.56292014456e-06 -0.854553300269 -0.981761329585 0.982727153884 -0.154805634104
61.7083333333 -1.54446458817 -0.226677820086 8.49173602546e-07 -6.55889380141e-06 0.354471440189 0.687466692962 -0.576605142901 -0.510980376929
61.75 -1.49614131451 0.459498345852 -1.05136778075e-05 1.13397641144e-06 0.00643788510089 0.835368266091 -0.946373167747 -0.150681063896
61.7916666667 -1.13820564747 1.09406578541 8.72637428984e-06 4.86742374051e-06 -0.194831568629 -0.110039343631 -0.987411968616 0.784622243246
61.8333333333 -0.579712212086 1.62200951576 8.91529361979e-06 -9.54039023782e-06 -0.686399910571 -0.655533224049 0.794314629508 -0.254420614836
61.875 0.162368670106 1.75126469135 6.09791368333e-06 -8.10297660792e-06 -0.124984339611 -0.36261302608 -0.668172379775 0.555927662048
61.9166666667 0.943891644478 1.49208116531 1.0096447113e-05 -6.58020280753e-06 -0.736054667478 0.92538106269 0.199838593832 0.87340762112
61.9583333333 1.53844571114 0.858467578888 -2.52084282693e-06 -6.16114948571e-06 -0.808139883409 0.748571110675 0.65171421234 0.00164563826464
62.0 1.70937132835 -0.0214195605367 6.0598199525e-06 6.60331920699e-07 -0.089646057873 0.579234679758 0.657915006691 0.846825423521
62.0416666667 1.45086574554 -0.780519604683 2.76314267467e-06 -8.36323579279e-06 -0.858051561822 -0.0140705555501 -0.775230001488 0.0921123177398
62.0833333333 0.895449817181 -1.36988925934 4.3048776206e-06 1.29484635636e-06 -0.422645586772 -0.260336337466 -0.108629789709 0.402165518785
62.125 -0.0196443349123 -1.66559696198 2.6305042411e-06 1.35295726977e-06 -0.133491780667 0.879508034769 0.564258897711 0.426862709438
62.1666666667 -0.771537184715 -1.4330675602 2.2157382773e-06 -4.08159166909e-06 -0.801169764889 0.860085022401 0.359367653476 0.581998994284
62.2083333333 -1.29976189137 -0.957812845707 9.92314289761e-06 -1.15501836717e-06 -0.128974908878 -0.236758787747 0.577888268067 0.237109722241
62.25 -1.58616375923 -0.307976573706 4.98923725445e-07 5.41295912626e-06 0.902558363209 0.726644990636 -0.0814934007604 -0.668356564941
62.2916666667 -1.55250763893 0.380442619324 9.10566257062e-07 6.3002044044e-06 -0.162744704575 -0.88365764688 0.822580051434 0.384011239676
62.3333333333 -1.30173408985 1.04109287262 6.12897565588e-06 -1.36839548759e-06 -0.837574649666 0.5646003001 0.696835974638 -0.169166720991
62.375 -0.691874325275 1.59790456295 -6.55434359942e-06 1.19710321087e-05 0.413281364159 0.0235651795249 0.576606430403 0.718455715857
62.4166666667 0.118019327521 1.78471386433 -1.17423560368e-05 -8.3934801296e-06 -0.440836682697 0.412187371282 0.357331467592 -0.870127899585
62.4583333333 0.954376161098 1.6285957098 -9.52670507104e-06 1.22759183796e-05 0.84714313171 -0.674542475401 -0.187116875599 0.201407365498
62.5 1.65535199642 0.98027920723 -2.86430179131e-07 -1.2073594462e-06 0.757358765567 -0.918360140107 -0.299950156314 0.330128988933
62.5416666667 1.91049170494 0.0805682614446 6.89369153406e-06 7.33627530281e-06 0.313821022615 -0.177547398634 -0.63535892144 0.374621261616
62.5833333333 1.73602306843 -0.829109668732 7.99057306722e-06 -3.68466226064e-06 0.674154236156 -0.147434133368 0.925253331096 0.16664603288
62.625 1.1096265316 -1.56060302258 -2.5743538572e-06 -8.12856433186e-06 0.0157791920403 -0.459588408443 -0.522361920308 -0.590562276493
62.6666666667 0.248254984617 -1.84419989586 6.69504288453e-06 -2.03284230338e-06 0.363503395018 0.0381774286867 -0.403733394567 -0.380381915827
62.7083333333 -0.572125017643 -1.68442487717 4.50326695045e-07 3.66208996638e-06 0.193419491266 -0.936940342862 -0.54633600338 -0.490966049419
62.75 -1.15010154247 -1.21781504154 -3.656618901e-06 5.99746635999e-06 -0.00944230466955 0.742729715935 -0.771537930419 -0.456492221856
62.7916666667 -1.48562860489 -0.564406752586 2.52018935498e-06 -2.39637029154e-06 0.744640755883 -0.186148994698 -0.303639384001 -0.214390243758
62.8333333333 -1.64164471626 0.182595610619 -2.76288483292e-06 1.15434768304e-05 -0.0295332065057 0.0906190753789 -0.0556472516786 0.311649662955
62.875 -1.39827132225 0.868041217327 2.7547901027e-06 2.40259078055e-06 -0.620678547099 -0.724195059704 -0.120981262983 -0.864712208349
62.9166666667 -0.927928268909 1.4448184967 7.51181687519e-06 -3.65626692655e-06 -0.630494975073 0.231064955208 0.437532232717 0.085141979506
62.9583333333 -0.246692687273 1.71424901485 7.01668886904e-06 3.40278211297e-06 -0.267984905387 0.678330065669 0.738141301494 -0.438383664364
63.0 0.495759099722 1.68403053284 8.465852261e-06 -1.23516720123e-05 0.977652135317 0.789529323947 -0.700344105096 0.409202684531
63.0416666667 1.1897251606 1.26768529415 2.96453640658e-06 1.59460396389e-05 -0.788481284613 -0.875462809139 0.951667683454 0.0385218605321
63.0833333333 1.73134040833 0.547758936882 -6.64747540213e-06 2.31038325182e-06 0.341634710719 0.926916608569 0.727842467816 0.616563873397
63.125 1.78373754025 -0.252201646566 1.21085395222e-06 -8.34763341118e-06 0.402629831808 -0.183515502725 0.107351101895 0.137616917588
63.1666666667 1.48543095589 -1.04146885872 -1.78051777766e-06 1.92585889636e-06 0.407444020078 -0.817628845229 0.442165353302 -0.208354332169
63.2083333333 0.806668698788 -1.61875963211 -9.36486685532e-06 3.08190669784e-06 0.00782921070937 -0.878721933255 0.378960102726 -0.343102391722
63.25 -0.133452415466 -1.80103003979 -5.48594198335e-06 -4.52577660326e-06 0.63178588624 0.187834172161 -0.659133533067 0.274998060124
63.2916666667 -0.964195549488 -1.51002418995 -6.86860767019e-06 -3.32973309014e-06 -0.431403208311 0.701117969036 -0.916867128476 -0.192445981856
63.3333333333 -1.51643621922 -0.861077189445 -7.57919679018e-06 1.84537384484e-05 -0.475774152885 0.99092883766 -0.0637525345784 -0.212298772845
63.375 -1.67910301685 -0.0857949927449 -6.13055317444e-06 -5.52431902179e-06 -0.849346672999 -0.571221240145 -0.497657706796 0.88118803004
63.4166666667 -1.47977662086 0.63410449028 1.20479035104e-05 -2.70046330115e-05 -0.595061349881 0.130473736818 0.697242793802 0.938378775387
63.4583333333 -1.03024196625 1.18035423756 2.43258564296e-05 5.29243834535e-06 -0.107236543599 0.245906923057 0.452326055931 0.800229411948
63.5 -0.497432172298 1.48438835144 -2.47664002018e-06 -3.16960995406e-06 -0.680347161812 0.585741865344 -0.137835899144 -0.987733346269
63.5416666667 0.171389624476 1.5322098732 -1.79823964572e-05 -1.62851733876e-06 -0.79933412058 0.108803051483 0.346100444271 -0.882923143486
63.5833333333 0.812160611153 1.39415597916 1.09729598989e-05 3.24095117321e-06 0.92847595623 -0.257501907871 0.309888452148 0.62609275613
63.625 1.34912896156 0.921549320221 8.56072983879e-06 3.20093431583e-06 -0.50553778689 0.200153025211 0.580014879261 -0.535469527309
63.6666666667 1.55824923515 0.310702860355 1.01173839084e-06 -5.91919661019e-06 0.548297727646 0.086362607595 -0.657833891303 0.819734714521
63.7083333333 1.58577644825 -0.363712012768 -3.8955713535e-06 2.19313596972e-06 0.442923696672 0.330893527571 -0.211836142297 0.452268674228
63.75 1.32135045528 -1.04008340836 -4.97144355904e-06 -3.30567587525e-07 -0.877790661572 0.129461897931 0.552714494358 0.304067518851
63.7916666667 0.726049900055 -1.65194821358 -9.68284621194e-06 1.91091585293e-05 0.248738182106 0.112342147604 -0.613299005816 0.0929018068742
63.8333333333 -0.0806782320142 -1.82145440578 8.02135502909e-07 4.70490977023e-06 -0.0830336403249 -0.655592357353 0.458387686765 0.372732036735
63.875 -0.84493458271 -1.55455183983 -9.81353593943e-08 3.28913614567e-07 0.88641471143 0.936914117214 -0.737314985322 -0.295536944399
63.9166666667 -1.43991887569 -0.995443940163 -8.66182563186e-06 5.42077896171e-06 0.140933903521 -0.304260222999 0.806283044791 -0.0650951087256
63.9583333333 -1.78216397762 -0.255058020353 1.1622078091e-06 1.07573023342e-05 -0.378748382049 0.286908407791 -0.480894777749 0.419666573338
64.0 -1.58711612225 0.474514037371 3.45955709236e-06 4.398749752e-06 -0.482859040726 -0.782327922614 -0.691021697306 -0.17709190121
64.0416666667 -1.20698332787 1.03933882713 -8.11660174804e-06 -3.4751064959e-06 0.888779810706 0.989885662114 0.67602340679 0.786883230811
64.0833333333 -0.620539188385 1.39440703392 -2.50029961535e-06 -7.67945095959e-07 -0.238896840027 0.967361150237 -0.723163508132 -0.0416619739934
64.125 0.0560158900917 1.47482192516 -9.01651219465e-06 -6.07198398939e-06 0.067136430155 0.449671000847 -0.240567240853 -0.157405207584
64.1666666667 0.722653090954 1.30370879173 -2.84555835606e-06 -1.9358458303e-05 0.458417017156 0.233498477451 0.997612682833 -0.547271673871
64.2083333333 1.22248995304 0.907485306263 -1.37939741762e-05 -1.76756327619e-06 0.238706633392 0.407498809612 -0.990177266751 0.143172157481
64.25 1.44183051586 0.393376469612 -1.97097165255e-06 4.24070412919e-06 0.722760407225 -0.667030561148 0.09840604885 0.984257389199
64.2916666667 1.53462421894 -0.218202114105 2.22080525418e-05 1.33453859235e-05 -0.246450981648 -0.600343048007 0.120078031769 -0.235163665615
64.3333333333 1.32670986652 -0.790531516075 1.56762125698e-05 -6.57860664433e-06 0.0279663711763 0.463276363838 0.328728440472 -0.0363654780296
64.375 0.882512688637 -1.39101159573 8.01151054475e-06 1.10890732685e-05 0.824553702038 0.743430971344 0.320994019466 0.153926829933
64.4166666667 0.147590816021 -1.69098138809 3.3702726796e-06 -6.89468515702e-06 -0.476517022651 -0.659626204343 -0.173434451754 -0.724243138724
64.4583333333 -0.636995971203 -1.57961261272 -6.28151383353e-06 7.08673633198e-06 0.00611858720954 0.834326421519 0.360243334551 -0.550354235432
64.5 -1.3627153635 -1.13366305828 1.44117975651e-05 -1.37148172143e-05 0.380063376101 -0.70905842004 0.668339434073 0.103554440752
64.5416666667 -1.53564667702 -0.337042361498 1.28523251988e-05 -1.87071673281e-05 0.325727803974 0.483227287425 0.309230090806 0.0156795861982
64.5833333333 -1.52090609074 0.323565006256 3.24040655642e-07 5.02755301568e-06 -0.0418670455224 -0.0343663847748 0.694456006061 0.157446367301
64.625 -1.38693010807 1.10096430779 -2.80951326204e-06 1.03210936686e-06 0.592009526652 -0.234370049447 -0.774639453773 0.421484748555
64.6666666667 -0.779476940632 1.66825962067 -3.11126223096e-06 6.59741181153e-06 0.136657495683 0.963512161139 -0.987829298209 0.613840304384
64.7083333333 -0.0195676181465 1.81761729717 8.75402110978e-06 4.93762740916e-07 -0.453999037065 0.537387026009 0.380676164937 -0.108907138883
64.75 0.574731528759 1.59045052528 -1.53718326601e-06 -1.21945492992e-06 0.884869658816 0.0633062487263 -0.000205074808352 -0.780581468479
64.7916666667 1.01255095005 1.24258387089 1.44375298987e-05 -8.92086347903e-07 0.878240527839 0.305215284281 0.368821487511 0.0976971856552
64.8333333333 1.35743284225 0.752433359623 -6.04294825735e-07 -4.63194646727e-06 0.195553129856 -0.8010960718 -0.0127114483653 -0.302784739701
64.875 1.66981208324 0.118014268577 2.91786454909e-06 6.73030126563e-06 0.881005995688 0.207116340451 -0.926085260932 -0.41515598245
64.9166666667 1.53353285789 -0.552225232124 -1.97048348127e-06 -2.47743514592e-06 -0.808619408834 -0.525459382553 -0.504252154507 -0.52211025336
64.9583333333 1.07835960388 -0.994747281075 1.50495870912e-05 -2.86334966404e-06 -0.233675855485 -0.0459840966802 -0.959349472374 0.318422791028
65.0 0.539697468281 -1.30771625042 9.91312117549e-06 -9.98760970106e-06 -0.849507775554 0.931384661568 -0.45694347195 0.136316098967
65.0416666667 -0.139285191894 -1.47569382191 4.08028108723e-06 9.12593634439e-07 -0.0116084308063 -0.597624138511 -0.987293654433 -0.698135015474
65.0833333333 -0.848937690258 -1.33469176292 -3.49472952621e-06 1.39883168231e-05 -0.650214135042 -0.987426500784 0.0586204692576 0.632113703463
65.125 -1.38645243645 -0.822869122028 -8.04767660156e-06 1.33294879561e-05 -0.803107116742 0.273863335032 -0.286993622245 0.925266990959
65.1666666667 -1.5867921114 -0.0294307265431 8.92475964065e-06 9.70734254224e-06 -0.597922222963 0.864729260862 -0.259785684722 0.515406161841
65.2083333333 -1.3704855442 0.600472807884 -3.24966686094e-06 6.866278909e-06 -0.0105773879299 0.316975052017 0.216226127693 0.639998209755
65.25 -1.00235259533 0.946376204491 -8.42881763674e-06 -1.42233989209e-06 -0.3195141227 0.787804327485 -0.363977626383 0.0464947479876
65.2916666667 -0.48287525773 1.32356631756 -1.34645606522e-05 2.12821760215e-06 -0.369722034272 -0.378769420326 0.49070379898 0.108470856329
65.3333333333 0.104941725731 1.40924978256 9.01245471141e-07 1.17218351079e-05 0.444071707405 0.562478897508 0.3040980071 -0.449316455399
65.375 0.673671901226 1.24681437016 -7.45394027035e-06 9.37744516705e-06 0.748387523402 -0.542462398522 0.24755664871 -0.0946803315183
65.4166666667 1.11848199368 0.880730450153 5.92332185079e-07 2.05153446586e-06 -0.70685612437 -0.624641439543 -0.853299132103 0.690715690241
65.4583333333 1.43798875809 0.372421503067 3.47625132235e-06 1.11865956569e-05 0.632630457705 0.896441842093 0.969636644169 -0.016260289179
65.5 1.4536331892 -0.244221881032 -7.39032111596e-06 -1.43284096339e-05 0.948643489758 -0.324207673864 -0.212331386618 0.635229536413
65.5416666667 1.20171582699 -0.896568417549 2.19173807636e-06 1.08344283944e-05 0.923385025043 0.411324949701 0.755897810722 0.083735547591
65.5833333333 0.773850917816 -1.3619273901 -1.79577436938e-05 6.64247590976e-06 -0.335354410051 -0.128030014709 0.34745997781 0.384647024065
65.625 0.233772531152 -1.6477599144 -2.3785922167e-05 4.40538269686e-06 0.46873658635 0.757125509269 0.918951846946 0.662811032909
65.6666666667 -0.546015441418 -1.63088703156 4.51403957413e-06 -3.74430123884e-06 0.10305367913 0.809086315127 -0.862207781777 -0.847139343631
65.7083333333 -1.19641530514 -1.19746518135 -1.0211382687e-05 9.63630918704e-06 0.153339582569 0.573370964953 -0.253417841408 0.246061303636
65.75 -1.61876857281 -0.571505606174 3.50502591573e-06 1.77076835826e-05 0.798923146079 -0.456496625466 0.29351942098 -0.169641855269
65.7916666667 -1.76175189018 0.122742116451 -1.25688047774e-05 8.14668783278e-06 0.190307368095 -0.647367612982 0.117238465147 -0.300912102571
65.8333333333 -1.48806869984 0.858393669128 -1.41671046094e-06 -5.69724807065e-06 0.615645433121 -0.402049397645 0.0712946918823 -0.439710792069
65.875 -0.990535318851 1.3694537878 -1.04504197225e-05 -3.1232418678e-06 -0.729786734236 -0.38928953223 -0.533891754454 -0.707042560906
