!Created with skrf (http://scikit-rf.org).
# GHz S RI R 50.0 
!freq ReS11 ImS11 ReS21 ImS21 ReS12 ImS12 ReS22 ImS22
60.0 0.141610592604 -0.0296068489552 -1.37625598907 0.958295166492 -0.0961101818221 -0.613888479808 -0.0435961922012 0.543691750582
60.0416666667 0.0786781236529 -0.135378494859 -0.725164890289 1.54172480106 0.739663185906 -0.802446082793 -0.36832049484 -0.802113559275
60.0833333333 -0.0294298455119 -0.154582381248 0.0667795911431 1.58565092087 -0.781434434822 0.283331116081 0.467160454461 0.805103110073
60.125 -0.124217540026 -0.110625833273 0.726866424084 1.3566352129 0.847695750875 -0.280446911676 0.490215196247 0.88266853433
60.1666666667 -0.177614167333 -0.00535794300959 1.24970889091 0.879673421383 -0.561449365905 -0.846541194158 -0.98454283187 -0.722490354957
60.2083333333 -0.134883314371 0.131899043918 1.57927298546 0.210840374231 -0.353274303128 -0.402707801621 -0.31578406924 0.273008961616
60.25 0.0281707197428 0.183494538069 1.46579480171 -0.627740859985 -0.951677213871 0.319333910298 0.887820583178 -0.346274428682
60.2916666667 0.162881210446 0.0658091679215 0.98121368885 -1.26697814465 -0.431417347031 0.918956887269 0.545770619933 -0.642246515542
60.3333333333 0.12261916697 -0.123626954854 0.0967613011599 -1.70235240459 -0.501666021924 -0.826356447473 0.605038611022 -0.983974905872
60.375 -0.0751474872231 -0.14671510458 -0.923089027405 -1.31868243217 -0.00857546631441 0.253115506069 0.181013779229 -0.0952215119908
60.4166666667 -0.173308506608 0.016356786713 -1.48968470097 -0.502166628838 0.678683749172 -0.279879621968 0.510744960223 -0.89236454209
60.4583333333 -0.0728517174721 0.174750611186 -1.52350890636 0.447106689215 -0.976417709912 -0.901297156892 0.764658324792 0.0838822609986
60.5 0.101475901902 0.163544639945 -1.00126874447 1.2041079998 0.526375996487 -0.492408004203 0.516952840834 0.60610119899
60.5416666667 0.187998980284 0.0245821736753 -0.215939342976 1.53552997112 0.445302106967 -0.277502736122 0.563440194711 -0.442966956748
60.5833333333 0.144078150392 -0.11297108978 0.531201541424 1.53137421608 -0.0374895087028 0.275078601266 -0.640736065885 -0.903564865291
60.625 0.00599793810397 -0.167830765247 1.35621893406 1.07912170887 0.791607802977 -0.809629376859 -0.27192035068 0.762573432274
60.6666666667 -0.104554608464 -0.0976137816906 1.78214156628 0.0661669820547 0.0622366354253 0.0972194462331 -0.267332313378 0.145275300295
60.7083333333 -0.130213066936 0.00687606073916 1.51957345009 -0.836517453194 -0.989226800431 -0.591956678988 -0.548154980658 0.409015113919
60.75 -0.0821491703391 0.116512641311 0.91611880064 -1.54938364029 -0.121246129275 -0.881683401597 -0.626677315241 -0.353320581787
60.7916666667 0.0606618337333 0.15557615459 -0.0799088403583 -1.74301481247 -0.737042564433 -0.976359338684 -0.52955568687 0.542566499664
60.8333333333 0.20036958158 0.0587632916868 -0.89973706007 -1.45542168617 0.418348243404 0.703830482819 0.962895805245 -0.116130148633
60.875 0.199949488044 -0.150659531355 -1.48746907711 -0.80800640583 -0.0732391628778 0.359717398779 0.897047915267 0.0648926132873
60.9166666667 -0.00331128016114 -0.276144653559 -1.70742559433 0.152809515595 0.397732340761 0.675621187537 0.981282419321 0.33876924201
60.9583333333 -0.217133969069 -0.179832294583 -1.36417245865 0.994075715542 -0.421566455251 -0.811032963562 -0.93769524663 0.160053145074
61.0 -0.282207638025 0.0542776286602 -0.676172494888 1.59331095219 0.705558661155 -0.777117820356 0.774811051725 -0.945188217253
61.0416666667 -0.104728244245 0.239115774632 0.274810880423 1.73475885391 -0.79447904679 -0.115508475293 -0.439658281549 0.241072924783
61.0833333333 0.1134243384 0.183456912637 1.01080453396 1.35178816319 -0.014498531999 -0.292374594448 0.435583659123 0.563423134605
61.125 0.173640906811 -0.00229268311523 1.44612824917 0.706828176975 0.335554101604 -0.544327161567 0.941720290315 0.276151295922
61.1666666667 0.0672602728009 -0.125496163964 1.51673364639 -0.0158962216228 0.143778155008 -0.607206377282 0.168177274986 0.958063274765
61.2083333333 -0.066785722971 -0.110561914742 1.34182655811 -0.682307183743 -0.234592848071 -0.528080167876 0.626611491808 -0.171751316038
61.25 -0.137858480215 -0.0121682276949 0.852527558804 -1.28629612923 -0.703690468009 -0.920342477987 0.877098019001 0.648621098682
61.2916666667 -0.123382791877 0.0984765440226 0.0842557698488 -1.56390845776 0.131443678937 0.452381929266 0.79582399261 0.457018499423
61.3333333333 -0.0372367836535 0.17166647315 -0.774699389935 -1.35348474979 -0.391956085987 -0.815297296899 -0.685267990972 0.636343057176
61.375 0.0865274071693 0.172639831901 -1.40357124805 -0.796095311642 -0.707074269472 -0.121761143689 -0.156305435056 -0.0019528560392
61.4166666667 0.195190876722 0.0696047917008 -1.61152100563 -0.00306137348525 0.422901057869 -0.795401051548 0.555755336741 -0.105951155168
61.4583333333 0.185519650578 -0.105253241956 -1.3979293108 0.778372347355 0.120189419673 -0.0488625347686 0.307343217101 -0.807025287903
61.5 0.0221038144082 -0.200424477458 -0.804395854473 1.34656560421 -0.187261516227 -0.381189445556 -0.412622942049 0.821885988509
61.5416666667 -0.154990568757 -0.118948154151 -0.0461281985044 1.54281139374 -0.817042353263 -0.211511866298 0.432250861879 -0.780441120235
61.5833333333 -0.17647716403 0.092826731503 0.729619622231 1.36603271961 -0.665889406055 0.480876523771 -0.635262969662 0.225511616037
61.625 -0.0013661099365 0.217815369368 1.27594554424 0.871902346611 0.28730209886 0.930357705387 -0.927405025585 0.470467706185
61.6666666667 0.2025937289 0.128552138805 1.53979516029 0.148040354252 -0.805160694131 0.717329951835 -0.472217534478 0.0536117856658
61.7083333333 0.239896178246 -0.0893051028252 1.39919412136 -0.646764934063 0.771518230138 -0.944307339477 0.33137099563 -0.185306976635
61.75 0.0914503410459 -0.227453574538 0.831013321877 -1.31331729889 -0.123288761503 -0.989476221677 -0.987530198488 0.685155951571
61.7916666667 -0.083056025207 -0.202951341867 -0.0113776549697 -1.57094800472 0.351757673586 0.528933303936 0.0238151854301 -0.815397460193
61.8333333333 -0.176770210266 -0.0938401818275 -0.833427369595 -1.425131917 0.558379739021 -0.907505158898 0.629842649642 0.747734326949
61.875 -0.168709948659 0.024117892608 -1.31710708141 -0.9522138834 -0.821572313759 -0.0722088616793 -0.197333901845 0.982318135783
61.9166666667 -0.100929535925 0.105837956071 -1.5859811306 -0.254686564207 -0.373143687927 0.836186978148 -0.89974765803 0.58199783463
61.9583333333 0.0017685421044 0.128555834293 -1.46430599689 0.593424737453 0.856607571808 -0.550196527429 -0.919085085302 0.451928756163
62.0 0.0926469191909 0.0643217489123 -0.881430327892 1.24236011505 0.638837637477 -0.192114484565 0.0848143626131 -0.247443685997
62.0416666667 0.096463277936 -0.0481514744461 -0.133495569229 1.46313560009 0.16592186665 -0.411731190088 0.686264435719 -0.157489722265
62.0833333333 -0.00171950133517 -0.124129682779 0.580752372742 1.4436403513 0.877610306216 0.256399379659 0.748383663706 0.932329987632
62.125 -0.147509887815 -0.0633118897676 1.2611426115 0.966581523418 0.757899925747 0.739731558227 -0.84516735443 0.769086147764
62.1666666667 -0.165302097797 0.100018940866 1.53873431683 0.251685738564 0.535751299069 -0.00914081919281 0.0837351137564 -0.320631225142
62.2083333333 -0.0357293523848 0.214447051287 1.4011015892 -0.526012718678 -0.585135311255 0.0950591983239 -0.337435990543 -0.898096323121
62.25 0.142020776868 0.170962437987 0.929664731026 -1.19464099407 0.996933196939 0.68848609264 -0.26536907771 -0.548395917773
62.2916666667 0.198774576187 0.00579106202349 0.200672090054 -1.51076292992 0.666695311914 0.779055592852 0.276181295995 -0.91083988485
62.3333333333 0.11153395474 -0.123750440776 -0.593545556068 -1.44141316414 0.838750474403 0.303433524919 0.120462357113 0.269728635295
62.375 -0.0328900851309 -0.123525924981 -1.2032507658 -0.987987458706 0.657868945232 0.480543961905 -0.711564481967 -0.895499889916
62.4166666667 -0.0920798331499 -0.0178307071328 -1.56328129768 -0.218660309911 -0.799746975481 0.480760380744 -0.937459099169 -0.0456263086776
62.4583333333 -0.0487747006118 0.0705046728253 -1.46539878845 0.599385797977 -0.707789689397 -0.922457565305 -0.458245776073 -0.557170780061
62.5 0.0366001054645 0.0867154151201 -0.926026880741 1.26709270477 0.717544993477 -0.938549938589 -0.859288014967 0.151951616244
62.5416666667 0.100597418845 0.0422309562564 -0.138265997171 1.53820419312 -0.162775351052 0.475990996867 0.174480988361 -0.871234596277
62.5833333333 0.127107083797 -0.0345132909715 0.638842105865 1.39527225494 0.946970766706 -0.544298353724 -0.506477354981 -0.784267203877
62.625 0.090813331306 -0.12834893167 1.21586060524 0.897643327713 -0.869311622006 -0.300866089166 -0.421587003172 -0.305198345805
62.6666666667 -0.0153452595696 -0.175718307495 1.45381093025 0.205007821321 -0.845978934382 -0.516379120342 0.750668727704 0.0832635461901
62.7083333333 -0.134751722217 -0.125934496522 1.33413922787 -0.505229830742 0.012061239829 0.0538649474447 0.074786127222 -0.747834094826
62.75 -0.178954258561 0.000307416106807 0.863021850586 -1.05637991428 -0.698858604615 -0.463912616974 0.894512308539 -0.745571367356
62.7916666667 -0.106834545732 0.123013190925 0.182873234153 -1.37232017517 -0.392038197624 0.960397036943 -0.822108826373 0.414950903494
62.8333333333 0.0374266840518 0.148465141654 -0.507874011993 -1.33964109421 -0.570441262294 0.202999224726 -0.797959640299 -0.638349227141
62.875 0.125908225775 0.0348170474172 -1.13931059837 -0.914704322815 -0.0714250162406 -0.220146547331 -0.504257572717 -0.738167790539
62.9166666667 0.0732969120145 -0.0957136228681 -1.46112859249 -0.259906381369 0.275428896708 -0.608808438822 -0.214818575043 -0.644558369754
62.9583333333 -0.0633651390672 -0.103327378631 -1.49232494831 0.49826669693 0.0917601933899 0.0214348724883 -0.997597211697 -0.221824260632
63.0 -0.131879910827 0.00768402591348 -1.06270205975 1.14689803123 0.314866412464 -0.116128946719 -0.38176057997 0.504481522717
63.0416666667 -0.0698810964823 0.11658616364 -0.320152312517 1.50770044327 -0.952890997282 -0.227499258423 -0.0605101520399 0.0212878561656
63.0833333333 0.0474976040423 0.126578852534 0.524227261543 1.49258232117 -0.99120357917 -0.282109511939 -0.248239255814 0.396446841913
63.125 0.103458754718 0.0546785667539 1.08268594742 1.068557024 -0.97230279181 0.694930108981 0.0922016418142 0.614387643897
63.1666666667 0.0969379469752 -0.0145367830992 1.39142370224 0.414503514767 0.401187813924 -0.838670256761 -0.412993450915 -0.624051825758
63.2083333333 0.0620229244232 -0.0611748546362 1.42485105991 -0.218673437834 0.277321777979 0.0188629938033 -0.492168333935 0.986679888565
63.25 0.00686321035028 -0.0744751468301 1.21198880672 -0.793866455555 -0.154294298517 -0.0636323750015 0.762662630806 0.553109140108
63.2916666667 -0.0462248362601 -0.0595310628414 0.754277646542 -1.27740049362 0.492098866483 -0.824919712909 0.883745456927 0.723726040536
63.3333333333 -0.0837983042002 0.00321653066203 -0.00407613581046 -1.49740743637 0.544112456593 0.420600478016 -0.892650364697 -0.834214697212
63.375 -0.0487220399082 0.0876270532608 -0.778030693531 -1.26051664352 -0.238004660617 -0.307029444249 0.182096095079 0.204961819985
63.4166666667 0.0590354762971 0.109173752367 -1.27221918106 -0.719182014465 -0.531549673047 0.619584406788 0.264755959669 -0.574683979238
63.4583333333 0.151732265949 0.0137551072985 -1.50224328041 -0.0681691914797 -0.202794220291 0.723347958377 0.859415801511 0.613620276466
63.5 0.12671738863 -0.12874430418 -1.43897259235 0.610558509827 -0.807472791803 -0.465575189426 0.911023635936 0.272227989911
63.5416666667 -0.0248541720212 -0.194869220257 -0.940001249313 1.26614284515 -0.892098933693 -0.688418161885 -0.23039625252 0.415927873036
63.5833333333 -0.176753476262 -0.112265557051 -0.115212246776 1.59836995602 0.519983302971 0.64370611365 -0.287989220442 0.0711473420167
63.625 -0.188235014677 0.0621569529176 0.802514791489 1.37855577469 0.0712618451871 0.961430992241 -0.347118776782 -0.552005817372
63.6666666667 -0.0693036019802 0.150813385844 1.32176363468 0.796916484833 -0.387688728035 -0.539557526043 -0.631245662978 0.578328674721
63.7083333333 0.0502526164055 0.125590354204 1.53265178204 0.133668169379 0.173739193575 -0.307709835124 0.398989130231 0.709442597132
63.75 0.0976345539093 0.036863707006 1.4519329071 -0.472464829683 0.070607729789 0.625244531556 0.713307267769 -0.0188867448645
63.7916666667 0.0703845396638 -0.0427914634347 1.10748839378 -1.14844489098 -0.15163301009 -0.368121652126 -0.278238885988 -0.556334929107
63.8333333333 0.00313532212749 -0.0655373781919 0.497711539268 -1.50962924957 0.521962873902 -0.0255203607764 -0.952746334837 -0.454422259284
63.875 -0.043705150485 -0.0333678200841 -0.240067467093 -1.54468369484 -0.101681416063 0.690901435597 -0.229073373187 -0.633529205589
63.9166666667 -0.0559615753591 0.00280313077383 -0.968813538551 -1.2620319128 0.319001674514 -0.652535208743 0.846458117211 -0.708022380846
63.9583333333 -0.0631829500198 0.0485337115824 -1.49972963333 -0.654847979546 -0.213288782963 -0.591871581834 0.164092302886 -0.315831887726
64.0 -0.0204819496721 0.103231750429 -1.54709136486 0.0966988131404 0.654425826955 0.997063712755 -0.400478804238 -0.386849225431
64.0416666667 0.0762706696987 0.107441008091 -1.28215050697 0.803135991096 -0.572727084338 -0.923905734497 -0.637452460843 0.12165685391
64.0833333333 0.148885563016 0.00710221286863 -0.666296243668 1.31072425842 -0.709778391332 -0.738910399431 0.116294606218 0.75471020452
64.125 0.0924803987145 -0.126709371805 0.159068897367 1.44546163082 -0.497612296591 0.805146264207 -0.331539790221 0.627566439142
64.1666666667 -0.0671751499176 -0.148771569133 0.956076681614 1.18869876862 0.667894166718 -0.155698538173 0.452833112294 0.0996241923163
64.2083333333 -0.165457755327 -0.0197705272585 1.46697735786 0.632138669491 0.227017689564 -0.220320393709 0.472185446007 0.761029868765
64.25 -0.106942310929 0.118961110711 1.604819417 -0.0680071040988 -0.105098557591 0.462277354226 -0.31895724358 -0.8066841325
64.2916666667 0.0373545065522 0.155586361885 1.38117706776 -0.748800635338 -0.20624495843 0.0135885334276 0.724156339423 0.123737202472
64.3333333333 0.13666087389 0.0609661862254 0.903743088245 -1.25238764286 0.371098491349 0.499847244809 0.348783669489 0.207051590667
64.375 0.128151223063 -0.0737578570843 0.076028354466 -1.54228281975 -0.262770640366 0.540099285274 -0.690665519942 -0.892683191619
64.4166666667 0.0200139340013 -0.133743748069 -0.736627876759 -1.38769471645 -0.274449767353 -0.935245076577 0.417127903377 -0.672287170739
64.4583333333 -0.0713189169765 -0.091129809618 -1.28722083569 -0.823015868664 0.366500482791 -0.124351569132 0.33880892866 0.068810977628
64.5 -0.100496761501 -0.0167505703866 -1.35588109493 -0.127251267433 -0.972131934499 -0.449645800437 0.293232641747 -0.26419686233
64.5416666667 -0.0701832175255 0.032367348671 -1.22849154472 0.513768196106 -0.785893383468 -0.555489739709 -0.889423171126 0.638103348699
64.5833333333 -0.0472214519978 0.06133582443 -0.976090669632 1.19454348087 -0.619503856566 -0.581034854036 -0.544171938363 -0.0217137839844
64.625 5.91770367464e-05 0.101471483707 -0.289862513542 1.67597687244 0.075392964534 -0.928850479887 -0.191153819164 0.869632398286
64.6666666667 0.0913513898849 0.0825097188354 0.593552052975 1.67401778698 0.64844093248 -0.319240472465 -0.731592312757 -0.289652675001
64.7083333333 0.136103495955 -0.026549121365 1.32000660896 1.21615469456 -0.0783291011379 -0.244154919041 -0.77192332629 -0.143810690887
64.75 0.0636150315404 -0.130782946944 1.64509344101 0.536134064198 0.860198428849 -0.413262313355 0.528169491267 -0.319009597128
64.7916666667 -0.0695470869541 -0.136139437556 1.64718008041 -0.170771792531 0.393761936989 -0.00614907571998 -0.676873228816 -0.365893082968
64.8333333333 -0.154476076365 -0.0222666468471 1.32169520855 -0.827905237675 0.721004427863 0.554496045187 0.335660481879 0.242490980005
64.875 -0.108982540667 0.122684940696 0.700099468231 -1.41916656494 0.488457197496 -0.977050605941 0.168664485658 -0.2834074837
64.9166666667 0.0338302478194 0.139904022217 -0.159518435597 -1.51936531067 -0.229666307822 -0.0121713759784 0.00366740180636 0.369775069411
64.9583333333 0.102888338268 0.0416789390147 -0.72087264061 -1.16759264469 0.770182354274 0.885104921956 0.655595924711 0.907818346288
65.0 0.0726975798607 -0.0532870665193 -1.18826460838 -0.806355118752 -0.24367213088 0.586112444669 -0.11584709403 -0.326091740468
65.0416666667 -0.0119267394766 -0.0825728401542 -1.49304866791 -0.318519979715 -0.560782363295 -0.350101958832 -0.908738310608 0.0879989205009
65.0833333333 -0.0770042836666 -0.0351591296494 -1.52053821087 0.280857205391 -0.651024970049 -0.140121425379 -0.235574683233 -0.448907116946
65.125 -0.0747869983315 0.0341323018074 -1.20173096657 0.933832168579 -0.81818396135 -0.797738741535 -0.948364876604 0.160955479961
65.1666666667 -0.0280973613262 0.0708149448037 -0.489991724491 1.40574026108 -0.323151541494 -0.951437484582 0.836276816285 0.0907740405227
65.2083333333 0.0113483900204 0.0701959356666 0.267308473587 1.49871194363 0.67136536536 0.9700388 0.947782866667 0.0437778187413
65.25 0.0410976707935 0.0575613230467 0.86193215847 1.22619748116 -0.101362246406 -0.0945662095258 -0.65269827299 0.49020744784
65.2916666667 0.0777888298035 0.0287432912737 1.38673853874 0.698822021484 0.905830711734 0.977824392569 -0.293301808718 -0.675361815353
65.3333333333 0.092726893723 -0.0325584076345 1.55470061302 -0.00816117879003 0.65566664182 -0.52845914093 -0.698820516396 -0.640077768581
65.375 0.0469369329512 -0.10150834918 1.38220024109 -0.733150720596 0.982483047524 -0.911435970375 -0.445037578896 0.895302327141
65.4166666667 -0.0514711104333 -0.108439415693 0.867823839188 -1.2991219759 0.124208157904 0.785385824534 0.338508299645 -0.351442318583
65.4583333333 -0.125432267785 -0.0221176426858 0.131034806371 -1.53009569645 -0.816111366456 -0.743090046386 -0.263268036266 -0.939632616101
65.5 -0.0818299874663 0.0914107263088 -0.534421563148 -1.37943685055 -0.460426955539 -0.0856654335655 -0.882044453752 0.0746543417259
65.5416666667 0.0411438457668 0.112380921841 -1.13349354267 -1.03495001793 0.478515898138 -0.336085011339 0.857502022377 -0.383493106641
65.5833333333 0.118099018931 0.0271019618958 -1.52530181408 -0.466259628534 -0.452058266691 -0.228348116043 -0.376733122069 -0.906891280933
65.625 0.098568700254 -0.0783580765128 -1.62136507034 0.27852293849 0.581161664265 0.535239965959 0.517067755429 0.105316714288
65.6666666667 -7.75123698986e-05 -0.123877614737 -1.30326282978 1.07732450962 0.332888080834 -0.036874068499 0.60850055321 0.748420151849
65.7083333333 -0.0799169316888 -0.0747605040669 -0.550881206989 1.6271263361 0.72194861414 0.0756995165351 -0.26059842175 0.839337337088
65.75 -0.0945159718394 -0.00203120009974 0.316217541695 1.77708315849 0.228515018895 -0.0236044321055 0.16656649552 -0.598888541822
65.7916666667 -0.0670190304518 0.0474971085787 0.990548849106 1.49150490761 0.126679675285 -0.292567473292 -0.972356552732 -0.152746900274
65.8333333333 -0.0175242125988 0.0650201663375 1.51630163193 0.876934349537 -0.414334149992 -0.267384323879 -0.358862654638 0.684339778302
65.875 0.0260802544653 0.0486045852304 1.72578954697 0.100497484207 -0.537605569998 0.937351118486 -0.166017343243 0.275103484033
65.9166666667 0.0470815263689 0.00688309641555 1.60842180252 -0.73222142458 0.0441323171775 0.192959955369 -0.399932402713 -0.0455596485296
65.9583333333 0.0278007499874 -0.04333999753 0.953083992004 -1.39598476887 -0.884869187654 -0.516545321604 0.972251757032 0.594326373628
66.0 -0.0265898089856 -0.0557090193033 0.232259511948 -1.58343362808 0.626691120515 0.96845789353 -0.403153248978 0.416084541124
66.0416666667 -0.0755248144269 -0.024788049981 -0.475737988949 -1.51924943924 0.850774290836 -0.152120440196 -0.111013825949 0.242251629333
