!Created with skrf (http://scikit-rf.org).
# GHz S RI R 50.0 
!freq ReS11 ImS11 ReS21 ImS21 ReS12 ImS12 ReS22 ImS22
60.0 -0.174319460988 -0.0243449229747 1.05997490883 1.28257226944 -0.581929179711 0.262451184207 0.0318574559163 -0.0849517145827
60.0416666667 -0.108849532902 0.0941430777311 1.61441171169 0.519762933254 -0.304129949124 -0.763017979672 0.00109702099206 0.904283338309
60.0833333333 0.00775569397956 0.108587935567 1.54015624523 -0.337316900492 -0.206325002968 -0.340568664073 0.226335897567 0.062535255861
60.125 0.0883255898952 0.0438823699951 1.15272784233 -0.991274178028 0.106708665611 0.155642872469 0.72850146606 -0.377171256448
60.1666666667 0.0967530757189 -0.0648958459496 0.523938059807 -1.40284276009 -0.292803137624 0.850504159949 0.224953266615 0.157845331974
60.2083333333 -0.00567111279815 -0.154434844851 -0.239909306169 -1.53482866287 -0.570678982775 -0.856623540799 0.609200205947 -0.965889898142
60.25 -0.163858056068 -0.0931778624654 -1.03180158138 -1.17225921154 0.0172109529794 -0.164800073622 0.350922255488 0.695649122092
60.2916666667 -0.188914090395 0.0994432941079 -1.51331436634 -0.476483345032 -0.45774017241 -0.136987123125 -0.583568861052 0.460613450916
60.3333333333 -0.00361328362487 0.229814529419 -1.60021007061 0.575074315071 -0.0841019494859 0.657270161552 -0.257016324788 -0.274018477844
60.375 0.181522414088 0.0902724862099 -0.775643825531 1.3960903883 0.865138339523 0.302011026312 -0.773267719664 -0.172972657385
60.4166666667 0.130118921399 -0.108393847942 0.257236719131 1.51914131641 0.0142476523001 -0.938585647289 -0.504031960784 -0.606118391768
60.4583333333 -0.0511559806764 -0.134386196733 1.11669135094 1.0698184967 0.41466744126 -0.696309119581 0.651267039894 0.379804147755
60.5 -0.133589237928 0.00595455104485 1.51782870293 0.221477359533 0.0674781083894 0.137692201954 0.250740383604 0.466500453295
60.5416666667 -0.0501427724957 0.135667353868 1.38496923447 -0.664180576801 0.477737883765 0.580247755425 -0.20877572806 -0.925952300582
60.5833333333 0.0972658321261 0.132845669985 0.9175542593 -1.33065783978 0.17750187601 0.250000108174 -0.11277566744 0.901434845321
60.625 0.17969237268 -0.00518200127408 -0.0170314088464 -1.72457027435 0.453831069249 -0.349932214158 0.00715354788062 0.054236435166
60.6666666667 0.11154756695 -0.13745328784 -1.11666333675 -1.36114811897 0.846581570924 0.105631974062 0.953904913452 0.620910736789
60.7083333333 -0.00881851557642 -0.172643736005 -1.61761152744 -0.510288894176 -0.404934833636 -0.523108808468 0.575140892524 -0.169502815514
60.75 -0.137080326676 -0.123636394739 -1.69226539135 0.447014510632 -0.52651723653 0.840764862847 0.763593655023 0.42267166143
60.7916666667 -0.181808844209 0.0383842475712 -1.10278880596 1.29174923897 0.762558305161 -0.499807722835 -0.0726854561702 0.822507147187
60.8333333333 -0.0721194371581 0.185438454151 -0.282169878483 1.6589256525 -0.0928843056278 -0.544372097956 0.676355585403 -0.605282126089
60.875 0.148987203836 0.165116548538 0.645946502686 1.55764842033 -0.359778022487 -0.578461544775 -0.528793010605 0.893112140157
60.9166666667 0.238773196936 -0.069452047348 1.47599136829 0.877029716969 -0.031448572082 0.688851794187 0.824969325547 0.421512630774
60.9583333333 0.0729343295097 -0.254571765661 1.67519724369 -0.089196793735 0.0196966792431 0.194336726995 0.190714558578 -0.174433949881
61.0 -0.177237078547 -0.219545930624 1.37136399746 -1.00239753723 -0.698866820489 -0.0850891592232 0.753141450782 0.101902080884
61.0416666667 -0.26258534193 0.02769513987 0.591687500477 -1.60776424408 -0.852823790145 -0.509225320708 -0.740681961057 0.416602932624
61.0833333333 -0.102887645364 0.191346108913 -0.264781296253 -1.63350915909 -0.370806531991 -0.344326167342 0.873619436892 -0.658516910804
61.125 0.0880862921476 0.137647479773 -0.991921305656 -1.24363231659 -0.673741398327 -0.0424173166983 -0.502479978304 -0.875066942919
61.1666666667 0.120910108089 -0.0233615338802 -1.3918453455 -0.570002794266 0.181732888152 0.0559682382158 -0.842755507906 -0.454541502955
61.2083333333 0.0152281252667 -0.108335129917 -1.4786273241 0.17138530314 -0.492259638047 -0.474676953448 0.57706862118 -0.0646403567668
61.25 -0.102152749896 -0.0691431537271 -1.19458413124 0.943202614784 0.329873359897 -0.540590627088 -0.782728423887 0.522747755869
61.2916666667 -0.147398918867 0.0381121002138 -0.506270885468 1.45756435394 -0.588780642155 -0.10533680922 -0.46095226732 0.984099710198
61.3333333333 -0.101738072932 0.15324921906 0.417873203754 1.47519207001 -0.197793879796 0.619730443411 0.785725863105 0.241521952489
61.375 0.0276962853968 0.211011752486 1.1869853735 1.05340349674 0.308326225834 -0.647172337434 -0.368334104435 0.450346621763
61.4166666667 0.186493605375 0.143824845552 1.56471312046 0.274229735136 0.122967001806 -0.384962166785 -0.319951800445 0.587908384785
61.4583333333 0.241504073143 -0.0512246824801 1.46975207329 -0.579729020596 -0.140030921261 -0.400981173527 0.167504246367 -0.452197721975
61.5 0.0958757698536 -0.208308726549 0.914482712746 -1.25119352341 -0.698672118369 -0.716458199319 0.0711586410082 -0.941964663022
61.5416666667 -0.115785457194 -0.172013476491 0.129640728235 -1.51672887802 0.71984874871 0.405949276581 -0.554436130186 -0.657263169701
61.5833333333 -0.18228238821 0.0386247225106 -0.694197177887 -1.35935974121 0.41487019275 -0.426430616856 -0.293126948801 0.637330902261
61.625 -0.0221310053021 0.183582156897 -1.27352964878 -0.837063968182 -0.577121957258 -0.890752923618 -0.973627761915 -0.749765491846
61.6666666667 0.176673904061 0.0978792160749 -1.52475607395 -0.0582867376506 -0.50278522106 0.662443017602 0.429501311821 -0.790503881766
61.7083333333 0.188666671515 -0.115727804601 -1.31439721584 0.766067922115 0.0980729816198 0.737901711748 0.578713307794 -0.118270106254
61.75 0.0195402447134 -0.215277150273 -0.642660617828 1.39128899574 -0.382374260995 -0.937862306081 -0.0200767916294 0.753168978352
61.7916666667 -0.136719256639 -0.138083085418 0.270486176014 1.52428412437 -0.131331362933 -0.349878604082 0.356368558554 -0.573369093735
61.8333333333 -0.176139265299 0.00367972278036 1.09205365181 1.20744931698 0.794754956097 0.544254802492 0.0450024610714 -0.194411535888
61.875 -0.104088537395 0.104789659381 1.49015438557 0.597389400005 -0.320273997441 0.596563446899 -0.0104920390428 0.225404566837
61.9166666667 0.00728215929121 0.130061432719 1.57508945465 -0.198748841882 -0.669498882488 0.0318580714613 -0.808054097731 -0.742396112912
61.9583333333 0.107173345983 0.0691998824477 1.18470084667 -1.01626574993 -0.414967032298 0.250681130798 0.833858167159 -0.168142111458
62.0 0.124202989042 -0.0593265630305 0.37790364027 -1.45315659046 0.267857128127 -0.94464778638 -0.345481146475 -0.34702009594
62.0416666667 0.0252612214535 -0.156042411923 -0.436086058617 -1.37584030628 -0.413001974294 0.019973813885 -0.450989135517 0.382263194142
62.0833333333 -0.129980385303 -0.132433339953 -1.11035645008 -1.0480452776 0.0515868247544 -0.414115541484 -0.744609244224 0.0834171195211
62.125 -0.210357964039 0.048219230026 -1.53435266018 -0.29182317853 0.919603552352 0.766154695774 0.879761773895 -0.62426407012
62.1666666667 -0.094186514616 0.200355514884 -1.45145106316 0.51294362545 0.708874785266 -0.580488995848 -0.697777455487 -0.519590578698
62.2083333333 0.0878583267331 0.185389980674 -0.919332444668 1.16206347942 0.165288620841 -0.328293814958 0.193371913797 -0.745205350761
62.25 0.160102054477 0.030145412311 -0.115561150014 1.49161422253 -0.746334285761 0.757614918257 0.802853776504 0.021089165494
62.2916666667 0.0638083592057 -0.0800807997584 0.703254640102 1.32555603981 0.0394105780714 0.671483901966 -0.0933566048975 0.522851533103
62.3333333333 -0.0530940927565 -0.0395841822028 1.32584440708 0.769407093525 0.976194628133 -0.385353177259 -0.370582582639 0.575608846213
62.375 -0.0523247718811 0.0826247707009 1.53552293777 0.00250317412429 0.0692479820211 -0.921578068782 -0.539292664898 0.411679169405
62.4166666667 0.0669769346714 0.127522841096 1.30489397049 -0.863932311535 0.110540694628 0.796023086463 0.0216189146513 -0.959658676414
62.4583333333 0.172837778926 0.0512713305652 0.637239634991 -1.43890404701 -0.491608536203 0.0093938123149 0.339687224649 -0.709014681965
62.5 0.177362293005 -0.0825656056404 -0.27268949151 -1.53305625916 0.694787341226 -0.640367201602 -0.289741970653 0.073809382638
62.5416666667 0.093148611486 -0.17615430057 -1.04574537277 -1.10875034332 0.562488854496 -0.30564368105 -0.913550222313 0.597582189493
62.5833333333 -0.0290144272149 -0.203604891896 -1.45499646664 -0.383344084024 -0.721708313055 -0.587447209753 0.321823860122 -0.048018286634
62.625 -0.155801787972 -0.139980599284 -1.41575825214 0.407857954502 -0.888743225743 0.551966257597 -0.862361781595 -0.704745930988
62.6666666667 -0.201896205544 0.00144436617848 -0.991469621658 1.02858901024 -0.783331083636 0.509241336445 -0.0905177497199 -0.942496310025
62.7083333333 -0.1259560287 0.132145911455 -0.326578497887 1.35572469234 0.144267555674 0.494603120504 0.285010799724 0.342053157985
62.75 0.0176513679326 0.152901679277 0.425669550896 1.27879714966 -0.566279686006 0.526583040088 0.735323338579 0.341056405113
62.7916666667 0.115277737379 0.048432931304 1.09549689293 0.837051808834 -0.741312934003 0.336350192446 -0.267621824454 0.970378938975
62.8333333333 0.0763162299991 -0.0842523947358 1.4161053896 0.160280033946 0.406860961423 0.593507387317 0.377943470854 -0.762279130959
62.875 -0.057117857039 -0.0925605893135 1.29207205772 -0.639331936836 -0.937065378786 -0.0541088659057 0.949247323747 -0.837864901837
62.9166666667 -0.115909434855 0.0256661884487 0.797004938126 -1.21717655659 0.497033237512 -0.651491052503 0.19142186359 -0.88430244563
62.9583333333 -0.0263994261622 0.121784180403 0.0804513767362 -1.54265367985 0.395277218083 -0.14932136421 0.381018962707 0.244448573004
63.0 0.0959114283323 0.0802947878838 -0.720195770264 -1.36799812317 0.32128385884 0.979138945398 0.345985818305 -0.451419751994
63.0416666667 0.107080049813 -0.0466778576374 -1.34029579163 -0.740091741085 0.145878695856 -0.275173686825 0.577124095083 -0.731836066255
63.0833333333 0.00417170207947 -0.112447679043 -1.56124019623 0.135882094502 0.376019610928 -0.429726088941 -0.182585233432 0.544935129114
63.125 -0.0849910229445 -0.0618061870337 -1.25444328785 0.820452094078 0.385553638696 0.476237896961 -0.685475932062 -0.326389860936
63.1666666667 -0.101528272033 0.0233098752797 -0.647260069847 1.26899242401 0.785445786989 -0.939139656567 -0.325162714572 0.967542908787
63.2083333333 -0.0641559958458 0.0940003618598 0.00130658992566 1.40953803062 -0.71602383606 0.259753958678 -0.0326163061589 0.399777179199
63.25 0.0170773565769 0.123516708612 0.626510977745 1.26944422722 0.54367790576 -0.527226503386 -0.122136839309 0.923770506037
63.2916666667 0.102943122387 0.104230888188 1.17969310284 0.847659289837 -0.516551138729 0.0480817927137 0.786356455611 0.143991489368
63.3333333333 0.169083073735 0.0135543569922 1.47406077385 0.0775133445859 -0.050160693394 0.843928701123 -0.100100580159 -0.690343832678
63.375 0.139991059899 -0.116714701056 1.26528990269 -0.755368888378 0.242810078795 0.377299864417 0.511063647049 0.228282836182
63.4166666667 0.0046206228435 -0.177897021174 0.67563867569 -1.29346334934 -0.981712500811 0.810357273771 0.302069211887 -0.137669673367
63.4583333333 -0.123462371528 -0.093755453825 -0.0506086684763 -1.49212813377 -0.759647378978 -0.640995911605 -0.360045251946 0.347202474045
63.5 -0.114957310259 0.0436536185443 -0.755853235722 -1.33595073223 0.0160217507227 0.610584441436 0.397305408896 0.68390102851
63.5416666667 0.00848282966763 0.0924807414412 -1.35051071644 -0.739127993584 -0.573011913043 0.679849630243 -0.0461979530304 0.0838399506136
63.5833333333 0.100002601743 -0.00039037069655 -1.56702315807 0.14127497375 -0.664908346582 0.771528692259 -0.219470598594 0.558817045544
63.625 0.0386525765061 -0.127976104617 -1.182112813 1.05223214626 0.941581944493 0.112580757418 -0.723961460961 -0.876315543463
63.6666666667 -0.102246262133 -0.122747518122 -0.447220951319 1.47221767902 -0.201534122343 -0.29564507793 -0.451862882731 0.31678546134
63.7083333333 -0.178214818239 -0.00166915950831 0.315210342407 1.49301207066 -0.0422976879613 -0.093233602016 -0.85201094478 0.545125268712
63.75 -0.131814196706 0.128601059318 0.903205394745 1.19706392288 0.893751400786 0.19974375296 -0.624098716865 -0.356153893509
63.7916666667 -0.0106608439237 0.186226785183 1.43031787872 0.614197254181 -0.862317001679 0.10437176695 -0.393105026296 -0.643023056567
63.8333333333 0.0987659245729 0.142398163676 1.54652774334 -0.10885630548 0.109241731441 -0.797709543161 0.84978851546 -0.81544027244
63.875 0.137547656894 0.0513095147908 1.2855039835 -0.830673336983 -0.78736443106 -0.0529559671585 -0.20987605595 -0.321164899341
63.9166666667 0.129863634706 -0.0253203772008 0.697744905949 -1.39817810059 -0.138515794872 0.760730687659 -0.639053190617 -0.128064330599
63.9583333333 0.0921116620302 -0.103492125869 -0.121638253331 -1.608715415 0.281394363075 0.587926814204 0.394955876221 -0.300855054546
64.0 -0.0120898801833 -0.126617535949 -0.853393793106 -1.27756750584 0.873786176604 -0.884954855202 0.818497548835 -0.112555433231
64.0416666667 -0.101559855044 -0.0527841337025 -1.35750067234 -0.640522420406 0.214767805325 0.0406136611032 0.357637653654 0.0489348505181
64.0833333333 -0.074955150485 0.0645492523909 -1.43502080441 0.204117655754 -0.185525686131 0.245844419482 -0.862745443326 -0.170284547495
64.125 0.0434031784534 0.0805498659611 -1.04062068462 0.973446309566 -0.669735758042 -0.258211968046 0.746948592471 0.0433262384209
64.1666666667 0.0967634618282 -0.0319997705519 -0.334049582481 1.46171665192 0.0242238473383 0.726610268132 0.386754464308 0.100521143674
64.2083333333 -0.00160616857465 -0.126997500658 0.460313230753 1.5182082653 -0.452276583612 0.1796110053 0.923082804571 -0.0191938842871
64.25 -0.135678499937 -0.0695400312543 1.13706755638 1.13035881519 0.226677634333 -0.202504275373 0.377413877142 -0.368436635585
64.2916666667 -0.15621316433 0.0921783596277 1.49786233902 0.429970145226 -0.606556650648 0.945576833011 -0.182039863179 0.738786926664
64.3333333333 -0.0269657969475 0.18822722137 1.47628283501 -0.311858654022 0.438484315932 0.917128413441 0.753233165553 0.184352101865
64.375 0.135770961642 0.147665157914 1.03162145615 -1.080321908 0.684177110108 -0.781908448137 -0.574424859917 -0.861608591205
64.4166666667 0.192544072866 -0.000539231172297 0.305850058794 -1.48986625671 0.471650592951 -0.846707829169 0.214680323738 -0.976063166509
64.4583333333 0.125743687153 -0.116967365146 -0.495955348015 -1.40830647945 -0.0790873878884 0.597067207786 0.831737185022 -0.359467018107
64.5 0.0195995979011 -0.156580120325 -1.00908982754 -0.887961030006 -0.522152856519 -0.738731786342 -0.101023029585 -0.420689760733
64.5416666667 -0.0567710138857 -0.112198323011 -1.29810142517 -0.250459194183 0.785699163815 0.64266484375 0.444399605993 0.155797286231
64.5833333333 -0.104821197689 -0.0702796801925 -1.44229483604 0.507645726204 0.0334188123196 -0.739339498913 -0.534603080352 0.950611404848
64.625 -0.153487965465 0.0107563352212 -1.05837523937 1.30787432194 0.370777918328 -0.873195024954 -0.174205871944 -0.349086710912
64.6666666667 -0.10440903157 0.122960105538 -0.229453831911 1.73827683926 0.374885601507 0.858637894478 -0.0664047148067 -0.00354071741729
64.7083333333 0.0239310748875 0.137317404151 0.671009302139 1.63333106041 -0.662395600345 -0.376089423223 -0.972040773979 0.470700022286
64.75 0.0864097625017 0.0359615311027 1.27825176716 1.12066757679 -0.695594920861 -0.621012925958 0.214734235394 0.935306470697
64.7916666667 0.0279245655984 -0.0555173270404 1.57043600082 0.432675987482 0.613595483825 0.469891662594 0.144868980798 0.116396589757
64.8333333333 -0.0786038860679 -0.0304684545845 1.50214934349 -0.340798735619 0.66574122086 0.791610655113 0.0640133003984 -0.0839297791545
64.875 -0.0931691676378 0.0999921634793 1.07511389256 -1.13943684101 -0.340249834445 -0.895548466174 0.157439058072 -0.525559297608
64.9166666667 0.0363162942231 0.159710109234 0.231028273702 -1.48974502087 -0.699607839826 -0.293665359851 0.277480751094 0.0478622765463
64.9583333333 0.141376271844 0.0738408863544 -0.43353125453 -1.27297353745 0.460774853799 -0.452234727483 -0.283989490192 0.671694668047
65.0 0.140940859914 -0.0554989986122 -0.983916640282 -0.995299935341 -0.899543480764 0.153878331895 -0.846063376247 -0.0804101746056
65.0416666667 0.0465374365449 -0.139853343368 -1.38828742504 -0.545388221741 -0.778097754599 0.790463165126 0.879211723556 0.312723716516
65.0833333333 -0.0684741958976 -0.124970205128 -1.51706385612 0.0793883576989 -0.394134406667 0.922852847161 -0.711582259577 -0.733083090248
65.125 -0.120860360563 -0.0419242084026 -1.26768290997 0.804997861385 0.501340228299 0.248862752902 -0.213149616362 -0.921359300719
65.1666666667 -0.105323716998 0.0385866761208 -0.563901245594 1.36031579971 -0.196596429683 -0.297874437754 -0.52707784359 -0.643759022483
65.2083333333 -0.0645165219903 0.0787879005075 0.234852418303 1.48727333546 0.483763263686 -0.0401305639843 0.18817874731 -0.245694778856
65.25 -0.0190350282937 0.091893799603 0.86801803112 1.19571554661 -0.535635502215 -0.346641718624 -0.474504931995 0.399867805624
65.2916666667 0.0424299277365 0.0889194458723 1.39523470402 0.620186269283 0.180796301732 -0.128766664212 -0.609736363389 -0.176578643845
65.3333333333 0.0862638130784 0.0355708599091 1.52225720882 -0.131542861462 -0.726177250863 -0.869379823942 0.762139575109 0.427384482086
65.375 0.0656275302172 -0.0342102013528 1.26768863201 -0.872266769409 -0.886490514699 0.795299854282 0.814061758067 0.732610525242
65.4166666667 -0.00509263714775 -0.0431438572705 0.654916346073 -1.39056694508 -0.0340140120388 -0.503541314821 -0.162577491127 -0.765416929488
65.4583333333 -0.0341057144105 0.0263098161668 -0.147866979241 -1.49989974499 0.595601960374 0.120031855987 0.40311880165 0.612872605067
65.5 0.0397225506604 0.0777419582009 -0.803786993027 -1.20870995522 0.356685666588 -0.403310706726 -0.901065369517 0.181549498267
65.5416666667 0.134176641703 0.0103308018297 -1.3348377943 -0.711244821548 -0.455518339954 0.762835688063 -0.329018652969 -0.374017796268
65.5833333333 0.125861987472 -0.121219746768 -1.57652270794 -0.0140767870471 -0.0181581898136 -0.074548057554 -0.204978165179 -0.59686837144
65.625 0.0122268460691 -0.202526330948 -1.42942976952 0.773017346859 -0.897855975905 0.736939675632 0.0538254167157 0.267655186237
65.6666666667 -0.136015921831 -0.156537845731 -0.823262512684 1.44886219501 -0.279316091399 0.735669994579 0.842457561944 -0.471988466979
65.7083333333 -0.18333157897 -0.0255393330008 0.120306320488 1.68219602108 -0.739705059016 0.115523844553 0.975596981934 0.0337223376235
65.75 -0.141321972013 0.0774349421263 1.01176130772 1.45134234428 0.509473592123 -0.994569105375 -0.809861564296 -0.048779095152
65.7916666667 -0.0703154578805 0.12302082032 1.52509450912 0.871541619301 -0.831614479298 -0.237302885134 -0.95452361249 -0.169841161497
65.8333333333 0.00751250423491 0.116970643401 1.72033023834 0.0460026115179 -0.151178405455 -0.0965717439582 0.61650653748 0.754733474342
65.875 0.0556432232261 0.0757004544139 1.51307618618 -0.777591764927 0.618432310981 0.940532170505 -0.805671954632 0.711177041839
65.9166666667 0.0654921084642 0.0240703485906 0.948725879192 -1.45907878876 0.761182288803 -0.305647009867 0.146620344088 -0.892397275193
65.9583333333 0.0394090078771 -0.0157246273011 -0.00781216379255 -1.66653084755 0.184710106158 -0.130127078624 -0.992105750034 0.161565531938
66.0 0.00306009291671 -0.0100593194366 -0.747146070004 -1.38756632805 0.333146577276 -0.328569570927 0.0798568474681 0.717839848948
66.0416666667 -0.00028174353065 0.0179791580886 -1.29671180248 -0.875307500362 0.348752127682 -0.653522411881 -0.601500658982 0.48911897335
