!Created with skrf (http://scikit-rf.org).
# GHz S RI R 50.0 
!freq ReS11 ImS11 ReS21 ImS21 ReS12 ImS12 ReS22 ImS22
60.0 -0.181680291891 -0.0247959159315 1.04648196697 1.29280900955 -0.312704532189 0.843485346524 -0.0936453230807 -0.602416362359
60.0416666667 -0.115960821509 0.0982338041067 1.60887885094 0.533869624138 0.292859866496 -0.496508200511 -0.0354373386496 -0.264237348234
60.0833333333 0.00399334728718 0.116192057729 1.54213857651 -0.322010874748 0.613876959162 -0.961091452182 -0.217515698673 -0.238769800027
60.125 0.0891739651561 0.0528731159866 1.16139388084 -0.978901684284 0.916503179781 0.265277396576 0.422416944297 0.599040661497
60.1666666667 0.102818824351 -0.0568644553423 0.537641525269 -1.39700961113 0.347195036149 -0.0167432551485 -0.104558697699 0.746556022398
60.2083333333 0.00510685332119 -0.150845855474 -0.223287001252 -1.53660798073 -0.235087637267 0.358161893552 0.539937663678 -0.738998336393
60.25 -0.152367338538 -0.0971866846085 -1.02045869827 -1.1821308136 0.673205746561 -0.783112580454 0.688202725782 0.417114701054
60.2916666667 -0.181746825576 0.0889374390244 -1.50866317749 -0.489771306515 0.25391525577 -0.253369057639 0.142004314548 -0.893770208905
60.3333333333 -0.00423146691173 0.216253906488 -1.60600042343 0.559976637363 -0.292554453091 -0.105104391075 -0.347427206231 -0.0907644978765
60.375 0.173427700996 0.0799569115043 -0.789108514786 1.38926887512 0.779023436428 0.795331804789 -0.476871195662 -0.520788169184
60.4166666667 0.117633663118 -0.113195732236 0.24233867228 1.52162468433 -0.195264264862 0.71825959292 -0.834093177585 0.579300301265
60.4583333333 -0.065502166748 -0.13220089674 1.10581111908 1.08037793636 -0.781542943617 0.237791770931 0.239062928325 -0.266572079928
60.5 -0.146342217922 0.015418802388 1.51487874985 0.235094130039 -0.522329677265 -0.569501648474 0.406124231612 0.73044770053
60.5416666667 -0.0574058704078 0.152197092772 1.39126038551 -0.649270057678 -0.553083855864 -0.722100519357 0.314256608175 -0.454717170518
60.5833333333 0.0991268530488 0.153812080622 0.931013643742 -1.32086026669 0.435167095897 -0.666830240412 0.280746019247 -0.41608640096
60.625 0.194976568222 0.0129610868171 0.000330477225361 -1.72405827045 -0.78817802367 0.0584548160565 0.345069749384 0.236457088416
60.6666666667 0.135304406285 -0.130488008261 -1.10191619396 -1.37212264538 -0.337356559424 0.843716994813 -0.177984947384 -0.0294133201921
60.7083333333 0.0165328644216 -0.17782817781 -1.61069083214 -0.528260827065 -0.842701429015 -0.445486433434 -0.644584654472 -0.88018317955
60.75 -0.114844672382 -0.142561599612 -1.69675791264 0.42844799161 -0.0750764489471 0.669866206683 0.731906997975 -0.342184608192
60.7916666667 -0.172885775566 0.00888440292329 -1.11513531208 1.28019440174 -0.725264167842 0.191742476605 -0.636654212828 -0.3016611243
60.8333333333 -0.0793808251619 0.153414949775 -0.29811578989 1.65651524067 -0.0568103414683 0.391439297747 0.820309099269 -0.647681712336
60.875 0.124914810061 0.140835806727 0.630868792534 1.56476926804 -0.269013796791 -0.146913469999 -0.830671153637 -0.0869897421589
60.9166666667 0.204908967018 -0.0772164538503 1.46866178513 0.891538262367 0.878324167755 0.90339627608 0.518524541808 0.41551226043
60.9583333333 0.038416583091 -0.245746403933 1.67691802979 -0.0748863071203 -0.319008280024 -0.237024438607 -0.141195083186 0.59550389372
61.0 -0.207055702806 -0.193536520004 1.38019585609 -0.98935675621 -0.538932362126 -0.806416504093 0.326475922784 -0.204698753141
61.0416666667 -0.276853650808 0.0678919181228 0.605660736561 -1.60100460052 0.702273564956 -0.0751421686879 0.564862846682 0.325067936842
61.0833333333 -0.0971853509545 0.235789179802 -0.247934550047 -1.6338237524 0.192995245036 0.399534784462 0.675899421185 0.405348356458
61.125 0.115355424583 0.175314486027 -0.976833105087 -1.25282621384 -0.0115904685438 0.340819494621 -0.187942763156 0.1972696499
61.1666666667 0.163991525769 -0.00454630097374 -1.384806633 -0.585720598698 0.483485742743 -0.876543257558 0.726523408024 -0.789994361253
61.2083333333 0.0624384656549 -0.11474622786 -1.48051989079 0.154421120882 0.856930231936 -0.441203481933 0.532517557772 -0.436311431018
61.25 -0.0627060681581 -0.102204762399 -1.20524299145 0.931062221527 0.469614452166 -0.355390040067 0.97763168428 -0.0868081387849
61.2916666667 -0.126607716084 -0.0132420891896 -0.521453797817 1.45383965969 -0.891785531546 -0.433878440078 -0.235882919585 0.952504480333
61.3333333333 -0.105774745345 0.0954256355762 0.40337112546 1.47858119011 -0.714418064854 -0.9078938242 -0.180850700822 -0.387298572825
61.375 -0.00272956676781 0.159190818667 1.1755900383 1.06573915482 -0.978135555066 0.278056657484 0.228612155887 -0.076878834874
61.4166666667 0.133862257004 0.113033279777 1.56298410892 0.291498035192 0.0524237756793 0.794630388015 -0.914914580411 -0.227327061703
61.4583333333 0.179953411222 -0.0510442219675 1.4777327776 -0.565202057362 0.778176910978 0.821450640874 -0.353189197686 -0.679299673358
61.5 0.0433538071811 -0.178680345416 0.927039325237 -1.24464428425 0.540289889738 0.631681471902 -0.137431754731 0.645360502911
61.5416666667 -0.148626103997 -0.119569890201 0.142488673329 -1.51628255844 -0.147258843337 0.586190485194 0.83732929586 0.073324329498
61.5833333333 -0.184536322951 0.102610766888 -0.682016074657 -1.36352646351 0.45649783186 -0.576237798338 0.292004566705 0.0330095906427
61.625 0.00690912036225 0.242721959949 -1.26448535919 -0.844180583954 0.986808700536 0.023907896726 -0.290721440207 -0.549032440802
61.6666666667 0.232981011271 0.136864259839 -1.52016544342 -0.0734122395515 0.241810159846 0.242924392023 0.425438061345 -0.178578431849
61.7083333333 0.260826617479 -0.110549353063 -1.32002532482 0.750496506691 0.163369403763 -0.7623993853 0.949940713791 -0.564407764617
61.75 0.0855638608336 -0.247503042221 -0.657775402069 1.38351690769 -0.26754854022 -0.025767999609 0.395853462164 0.609576315816
61.7916666667 -0.0961510688066 -0.199812576175 0.25357145071 1.5275683403 -0.968435035168 -0.32611706457 -0.264047014857 0.172200606166
61.8333333333 -0.170501351357 -0.0755477547646 1.07988607883 1.22013175488 0.275095933778 0.601969585661 0.430777341152 -0.187367552882
61.875 -0.135271936655 0.0313914231956 1.48443710804 0.613792538643 0.752017004033 0.506208605237 0.931979659283 -0.942575761114
61.9166666667 -0.0549894832075 0.0807922631502 1.57748746872 -0.181917726994 -0.750290114556 -0.984798811719 0.576950499675 0.982471578113
61.9583333333 0.0292036104947 0.0575827173889 1.19706714153 -1.00343382359 0.0941370845659 0.887276700764 -0.181643531683 0.637931947149
62.0 0.0540273450315 -0.0304763130844 0.394258201122 -1.45134091377 0.126838025453 0.477581947218 0.747050613075 -0.461384314818
62.0416666667 -0.0211461540312 -0.0998336449265 -0.423257470131 -1.383020401 -0.264306532317 0.750819268051 0.598046960733 -0.180315588916
62.0833333333 -0.1434789747 -0.0607976429164 -1.10332095623 -1.05956625938 -0.0664953209626 0.882056767848 0.47052528904 0.0189590529971
62.125 -0.17920397222 0.117661289871 -1.53332257271 -0.305851846933 -0.73613148722 0.798209860119 -0.174034381345 -0.342762704299
62.1666666667 -0.0332238525152 0.245868310332 -1.4547932148 0.502245128155 0.0618744289435 -0.358908386549 -0.745831866664 -0.741947838943
62.2083333333 0.163746789098 0.197731778026 -0.926881253719 1.15288519859 -0.267822954965 -0.378634961368 0.901377068529 -0.377188689671
62.25 0.23351277411 0.00458158832043 -0.129437193274 1.48667144775 -0.693517399705 -0.96603865885 -0.758423331432 0.534980413895
62.2916666667 0.115864217281 -0.136757388711 0.687525033951 1.33044695854 -0.1145218794 -0.652411666501 0.382556222945 0.217996237082
62.3333333333 -0.033995591104 -0.116458818316 1.31472241879 0.7852897048 -0.644091914075 -0.0950496638962 -0.0473473589687 -0.401544541796
62.375 -0.0769819840789 0.0060089067556 1.53512251377 0.0208187121898 0.437825893735 0.807725174429 0.737166317377 0.0944586280721
62.4166666667 0.00799343921244 0.0750247016549 1.31508231163 -0.84863448143 -0.985856697989 -0.692521908174 -0.280465159054 -0.312455654297
62.4583333333 0.0952431857586 0.0339417792857 0.653322100639 -1.43146169186 -0.865812862443 0.948469918222 0.982010927938 0.439995458078
62.5 0.103991836309 -0.0582458972931 -0.254870831966 -1.53584897518 0.542141844111 -0.92533389021 0.104863778113 -0.57236440904
62.5416666667 0.0443039759994 -0.121762126684 -1.03303515911 -1.12119042873 0.677650719116 0.278592323225 -0.0313656530398 0.0315094777662
62.5833333333 -0.0451152771711 -0.135102510452 -1.45114433765 -0.40168812871 -0.84557340353 -0.659813840127 -0.66484392186 0.63435524594
62.625 -0.136541053653 -0.0750460624695 -1.42282557487 0.391184359789 -0.245227222495 0.449641452029 0.65692778298 -0.812060597248
62.6666666667 -0.156960368156 0.0471965931356 -1.00398313999 1.02016913891 -0.105894573523 0.152728232645 0.906567613192 0.961293380268
62.7083333333 -0.0685501098633 0.151114985347 -0.341458201408 1.35460269451 -0.711162553602 -0.934478405982 -0.149859379841 -0.564595696214
62.75 0.0736331492662 0.145258039236 0.414083838463 1.28470802307 -0.577927655556 0.524199197816 -0.556496824122 0.899135986242
62.7916666667 0.157700151205 0.0168828107417 1.08731687069 0.847638726234 0.704951773408 -0.297913645952 0.83117310554 0.414593876613
62.8333333333 0.0972348600626 -0.134701952338 1.41324567795 0.176503032446 -0.887537344309 -0.564179671644 -0.0830245379415 0.836913866654
62.875 -0.0637571960688 -0.144949808717 1.29852998257 -0.623751163483 0.735972995274 -0.0274364112709 -0.474679004573 -0.187379523619
62.9166666667 -0.147654622793 -0.0162134058774 0.809829831123 -1.20742881298 0.692627567537 -0.714400659172 0.598604413163 -0.136930202539
62.9583333333 -0.0715866908431 0.101936064661 0.0971515253186 -1.54138410091 0.57309015379 -0.0630685359357 0.573992180012 -0.0961116312226
63.0 0.0505168735981 0.0844728052616 -0.705019176006 -1.37676978111 0.592842728211 0.94914911381 -0.173252886266 0.951508538243
63.0416666667 0.0741662457585 -0.0231685340405 -1.33269548416 -0.756486058235 -0.605647846982 0.984878319495 -0.2634879281 -0.99320562065
63.0833333333 -0.0100677115843 -0.0782752037048 -1.56343412399 0.118116013706 -0.488218519644 0.474456823861 0.328468075976 0.633890012036
63.125 -0.0824974924326 -0.0300493203104 -1.26318025589 0.806649208069 -0.762048580435 -0.971575209313 0.098807594548 -0.44347194175
63.1666666667 -0.0867640599608 0.0467110127211 -0.660387575626 1.2623128891 -0.448882506842 -0.952345853048 -0.944934664009 -0.895865263008
63.2083333333 -0.043430481106 0.1051575616 -0.014753558673 1.41002011299 -0.905385222839 0.780209466991 0.34633159852 -0.53388002664
63.25 0.0367436148226 0.122199341655 0.613100230694 1.27702128887 -0.0567305773868 -0.940130797801 -0.761619763234 0.754569149824
63.2916666667 0.116004154086 0.0954586341977 1.17146098614 0.860929965973 -0.28647548076 -0.0620926953001 0.303244760483 -0.808231243966
63.3333333333 0.174221351743 0.00312255532481 1.47415912151 0.0949923023582 0.461404263479 0.438536384469 0.573347820781 0.953470013396
63.375 0.139341309667 -0.124317809939 1.27396798134 -0.741439163685 0.857270112054 0.997879716942 -0.373274860792 -0.732704794101
63.4166666667 0.00194854522124 -0.180970862508 0.690864026546 -1.28609573841 0.667806874534 0.592062531083 -0.9505480437 0.83507359566
63.4583333333 -0.124530397356 -0.0927470847964 -0.0345889851451 -1.49307727814 -0.0710369112192 0.670286532723 0.625063997451 0.0806433718786
63.5 -0.111912466586 0.0465446300805 -0.741289973259 -1.3446419239 0.230446912969 0.192879541936 0.373879338599 0.0945645790226
63.5416666667 0.0168772172183 0.0934281796217 -1.34298372269 -0.754035651684 0.563316319858 -0.454217441509 -0.255619502988 -0.530189497514
63.5833333333 0.112696252763 -0.00627268059179 -1.56908392906 0.123779028654 -0.475753551106 -0.24667393234 0.940614599525 0.979960113149
63.625 0.0492796264589 -0.144407078624 -1.19464826584 1.03959023952 -0.462535124249 -0.0688856652504 0.18733227603 0.624712216922
63.6666666667 -0.100930601358 -0.146629825234 -0.46414321661 1.46787345409 0.122428292432 -0.89109391165 0.0747768662665 -0.145721095977
63.7083333333 -0.190955430269 -0.0272794086486 0.297647118568 1.49820315838 0.292790729132 0.329980445398 -0.696604774115 0.40848923348
63.75 -0.15919663012 0.109830617905 0.89027428627 1.20905280113 -0.538143542092 -0.929518948299 -0.265786940986 0.66688302505
63.7916666667 -0.0496728420258 0.183238014579 1.42554998398 0.629350304604 0.528805678329 0.91102884974 -0.311648083824 -0.113889872518
63.8333333333 0.0586675852537 0.159354299307 1.54898846149 -0.0928956344724 0.962395463189 0.0539274272512 0.968938268972 -0.736194425713
63.875 0.106977514923 0.0863161683083 1.29492759705 -0.816688776016 -0.764768879281 0.77635793868 -0.0909962227034 0.390455992377
63.9166666667 0.116931840777 0.0241542495787 0.71396535635 -1.38960039616 -0.980365874819 -0.758031886354 -0.182473465505 -0.396587991735
63.9583333333 0.105271629989 -0.0455725602806 -0.102068521082 -1.60936915874 -0.351378693567 -0.495056977506 -0.748545694065 0.255424011427
64.0 0.0269371811301 -0.0798906087875 -0.83703660965 -1.28839290142 0.612690549132 -0.00944928339169 -0.21368436052 -0.27732059944
64.0416666667 -0.0426734723151 -0.0274308621883 -1.35067212582 -0.658996760845 -0.760895358815 0.839678327077 -0.819604455872 0.488620589912
64.0833333333 -0.00860173813999 0.0591396391392 -1.43989384174 0.187866389751 -0.681392154852 0.524474105686 -0.438998171044 0.284865610654
64.125 0.100994706154 0.0419882945716 -1.05184388161 0.964526891708 0.626609651533 -0.458362868739 0.389720952761 -0.278940043678
64.1666666667 0.129817977548 -0.0997055619955 -0.349694430828 1.45847022533 0.75035240945 -0.76974346217 0.917415916911 -0.870861742972
64.2083333333 -0.00434488197789 -0.20960304141 0.441052734852 1.52339100838 0.183589367047 0.332043156479 0.08806959956 0.423164668305
64.25 -0.175107270479 -0.145493924618 1.12258648872 1.14488875866 -0.372628987373 0.292031971542 0.0414257560468 -0.840822508217
64.2916666667 -0.23137652874 0.0398561991751 1.49344408512 0.451008170843 0.167769976628 0.544302543454 0.523598970229 -0.135643719963
64.3333333333 -0.117339201272 0.174246415496 1.48439121246 -0.292834639549 0.661616898682 -0.236355385148 -0.468540242345 -0.806407898296
64.375 0.0440984666348 0.180295720696 1.04854238033 -1.07189357281 -0.188185841818 0.249257142292 0.154284047462 -0.878525893806
64.4166666667 0.124406039715 0.0733746066689 0.323441356421 -1.49215984344 -0.517076520775 -0.837917831854 0.154332310885 -0.18580173611
64.4583333333 0.0970590934157 -0.0180430151522 -0.485186696053 -1.41593122482 0.186785683878 -0.489047101928 0.541363260031 0.640905008445
64.5 0.0438449792564 -0.0466482974589 -1.0013474226 -0.89700782299 -0.712948090067 -0.284629912751 0.66182626234 0.915734587463
64.5416666667 0.0100793968886 -0.0341195054352 -1.29370093346 -0.26420584321 0.496385951257 -0.482166394827 0.731737455551 -0.372551119381
64.5833333333 -0.00738686975092 -0.0245915967971 -1.44700729847 0.48812097311 -0.272321819776 0.597802912584 0.429106243836 0.762075360926
64.625 -0.0218431986868 0.00423177564517 -1.07602035999 1.29410874844 0.12279953237 0.959835966646 -0.849700562544 -0.0271101761287
64.6666666667 0.0193945150822 0.0450449548662 -0.252065718174 1.7384275198 -0.151687620411 0.292683609334 -0.0399330493114 -0.353269867718
64.7083333333 0.101566135883 0.00590651994571 0.654524803162 1.64558780193 -0.362718920764 -0.927307773191 -0.198472573955 -0.407552204852
64.75 0.105006918311 -0.111756846309 1.27018821239 1.13485574722 0.422282252651 -0.434553549542 -0.550455374642 0.445241688665
64.7916666667 -0.0112643390894 -0.197273939848 1.5663446188 0.449565351009 -0.088170372282 -0.151569012079 -0.178272111533 -0.966776103838
64.8333333333 -0.174326837063 -0.140865266323 1.50477766991 -0.323120683432 -0.0846323291297 -0.643468928804 -0.362709263728 0.865752445526
64.875 -0.242101162672 0.0446337386966 1.08963024616 -1.125633955 -0.0072059707423 0.220954318068 -0.290363559204 -0.673010821299
64.9166666667 -0.115112021565 0.178340822458 0.25259450078 -1.48939573765 0.550556289484 0.14412969694 0.179575532202 -0.479849716206
64.9583333333 0.0269979145378 0.145436450839 -0.418328076601 -1.28319084644 -0.446448389992 0.238940709466 0.444786353426 0.145383877158
65.0 0.0733073651791 0.0526952110231 -0.976524531841 -1.01055049896 0.166870594595 0.543334089561 -0.717814513264 0.563926039872
65.0416666667 0.0375025384128 -0.00734541937709 -1.38775157928 -0.559424459934 -0.252167478973 -0.631829855633 -0.946410031995 0.185631075608
65.0833333333 -0.0107380487025 0.00687561975792 -1.51842939854 0.0675955936313 -0.0691889557695 -0.457293483885 0.836711281779 0.967486722043
65.125 -0.00527603784576 0.0527068041265 -1.27387261391 0.791600704193 -0.871924035903 0.776695342582 0.755564173803 0.143934775336
65.1666666667 0.0436583012342 0.0626681745052 -0.581103146076 1.3504447937 0.0511407885863 0.578289366693 0.472456703566 0.0130234893032
65.2083333333 0.0764044597745 0.037411108613 0.213472753763 1.49043178558 0.0215702194446 -0.268683935107 -0.776503631281 0.189284391607
65.25 0.092680066824 0.00684456573799 0.851881802082 1.21108055115 -0.756855425352 -0.0136128419421 0.937096014136 0.293457054859
65.2916666667 0.10282497853 -0.0478623174131 1.39284265041 0.642072796822 -0.403647467567 -0.0129385289629 0.515563027666 0.898107464997
65.3333333333 0.0770347937942 -0.119557663798 1.5311549902 -0.115244701505 0.792196594999 -0.740654542732 -0.698952101396 -0.0861676391832
65.375 -0.0167742855847 -0.171250790358 1.28012168407 -0.863035857677 -0.161029841858 0.089726874292 -0.555329093936 0.964885517599
65.4166666667 -0.142556846142 -0.128631770611 0.666812717915 -1.38651430607 0.338228478116 -0.712909893349 0.630251606923 -0.480287253435
65.4583333333 -0.201948240399 0.0133497603238 -0.132731556892 -1.50056898594 -0.293182416368 -0.672174682584 0.470680405557 -0.993069013808
65.5 -0.11016266793 0.142734229565 -0.788719713688 -1.21848201752 0.44803734626 0.592524249463 -0.394930636667 0.283625058561
65.5416666667 0.0383893474936 0.140307798982 -1.32800889015 -0.728212475777 -0.0449743961843 -0.917782301297 0.0565762314395 -0.0713992948304
65.5833333333 0.0955037027597 0.0395313724875 -1.58120298386 -0.0332373566926 0.63030111444 0.205336909326 -0.925260113712 -0.651843525889
65.625 0.0487113334239 -0.0375649705529 -1.44142603874 0.762103438377 -0.223172318404 0.590907265983 0.732227485114 0.946710681204
65.6666666667 -0.0268197134137 -0.0263786315918 -0.838040471077 1.44389784336 0.543445791319 -0.918500305604 0.889855112886 0.23732613329
65.7083333333 -0.0333965905011 0.0383219495416 0.105138674378 1.68224430084 0.78839788176 -0.493703350491 -0.355545859034 -0.838390978045
65.75 0.0209430400282 0.0700276196003 0.993366062641 1.45919728279 -0.972804183086 -0.37492363881 0.659677559963 -0.895785854296
65.7916666667 0.0812028422952 0.0479639098048 1.51022171974 0.890118360519 -0.0770529909156 -0.270369590558 -0.349769066647 0.0309270343593
65.8333333333 0.108483314514 -0.0187635291368 1.71851837635 0.0716784894466 0.706773493741 0.936290086523 0.968451612861 0.169827241075
65.875 0.0884365290403 -0.0933660417795 1.5269793272 -0.755430221558 -0.713042943237 -0.0266788930428 0.893100343474 0.080047636843
65.9166666667 0.019428698346 -0.149772956967 0.973325133324 -1.44975590706 0.516343214939 0.167796712741 0.385531285173 -0.775705384924
65.9583333333 -0.0934026762843 -0.143682077527 0.015178677626 -1.67425000668 0.383223117304 -0.257955007699 0.737411414366 -0.276382110162
66.0 -0.158585324883 -0.0530084744096 -0.733511030674 -1.40371799469 -0.024599082746 0.253162582921 -0.0663385532826 0.363731817315
66.0416666667 -0.15477463603 0.0474808476865 -1.29299533367 -0.89292049408 -0.814703823232 -0.686440855632 0.256099298717 0.0475639170134
66.0833333333 -0.0886254906654 0.12037692219 -1.55197441578 -0.120990797877 -0.464031957731 0.12020744127 0.154966919091 0.482166731823
