! Touchstone file exported from HFSS 2020.2.0
!        Generated:      11:12:52  avr. 27, 2020
!        Design:         test
!        Project:        test_multiport
!        Setup:          Setup1
!        Solution:       Sweep
!
!Data is not renormalized
# GHZ S MA
! Terminal data exported
! Port[1] = 1
! Port[2] = 2
! Port[3] = 3
! Port[4] = 4
! Port[5] = 5
0.9                            0.000112274273319835 179.999999999999 3.24915908329036E-06 -4.42413051417195E-16 1.24755558616462E-08 -3.89687524723751E-16 7.12517042176955E-07 9.41123573827657E-15 
                               4.0553781196008E-08 -2.33562868292527E-15 
                               3.24915908329036E-06 1.2564537092477E-15 0.000433520891917505 180              2.12985871212076E-08 180              6.44890506536502E-08 180              
                               1.20602190592206E-07 180              
                               1.24755558616462E-08 1.26153776591995E-16 2.12985871212076E-08 -180             0.000275054233687566 -180             5.65127543718709E-09 2.49553631316751E-15 
                               3.50997146064337E-09 180              
                               7.12517042176954E-07 4.55188536227641E-15 6.44890506536504E-08 -180             5.65127543718709E-09 4.45993297965817E-15 1.18424692490127E-05 179.999999999723 
                               2.80629760902962E-07 -180             
                               4.0553781196008E-08 -5.30686489408788E-15 1.20602190592206E-07 180              3.50997146064338E-09 180              2.80629760902963E-07 -180             
                               0.0010922675434889 -179.999999999993 
! Gamma         59.933779149411  0                76.2422362708994 0                59.9340083636446 0                103.007027455882 0                76.24107228398   0                
! Port Impedance         0                29.2426018933857 0                57.3966132917562 0                58.433648093004  0                28.3645129719216 0                57.4746165270199 
0.95                           0.000107852219551008 180              3.38526259588676E-06 4.87651928903957E-16 1.39292543472276E-08 -1.33847391823199E-15 7.89163560597634E-07 -1.28270956150062E-21 
                               4.50639281258002E-08 -3.8078468385439E-20 
                               3.38526259588676E-06 3.33504508730914E-15 0.00043180866810899 179.999999999999 2.27031706521137E-08 -180             6.96681242745389E-08 -180             
                               1.30268614535216E-07 -180             
                               1.39292543472275E-08 1.39244619516632E-15 2.27031706521137E-08 -180             0.000274881111364311 179.999999999994 6.38332335773692E-09 8.95534029584608E-16 
                               3.91094965363532E-09 -180             
                               7.89163560597633E-07 -7.9575800911872E-21 6.96681242745389E-08 -180             6.38332335773692E-09 -5.81010513689241E-16 2.23149203149031E-06 180              
                               2.98356021408431E-07 180              
                               4.50639281258002E-08 -7.28793644655155E-20 1.30268614535215E-07 -180             3.91094965363532E-09 180              2.98356021408432E-07 180              
                               0.00108565023787266 180              
! Gamma         59.5938473698168 0                75.9753075202351 0                59.5940778915157 0                102.80961271449  0                75.9741394437454 0                
! Port Impedance         0                31.0432586947626 0                60.7981568369602 0                62.0317871895337 0                29.9978096685642 0                60.8808003467289 
1                              0.000102873175314433 179.999999999861 3.53274317868989E-06 1.13404903867694E-14 1.5655620662154E-08 4.20493854062614E-15 8.80112799726974E-07 1.18493470931156E-14 
                               5.04656950521562E-08 1.15402236384018E-14 
                               3.53274317868989E-06 1.76969910072397E-14 0.00042997874055839 180              2.42565126155961E-08 180              7.56619797267561E-08 180              
                               1.41441691470151E-07 180              
                               1.5655620662154E-08 2.27762233787264E-14 2.4256512615596E-08 -180             0.000274759465624386 179.999999999985 7.27008309938669E-09 3.40935701500157E-15 
                               4.3880202925648E-09 -180             
                               8.80112799726976E-07 2.00216296869954E-14 7.56619797267557E-08 180              7.27008309938671E-09 -6.16721229698256E-15 8.09103712517967E-06 1.67744898799955E-21 
                               3.1849721174646E-07 180              
                               5.04656950521561E-08 1.37829024495765E-14 1.41441691470151E-07 180              4.3880202925648E-09 180              3.18497211746459E-07 180              
                               0.00107870459562698 180              
! Gamma         59.2334290951118 0                75.6929311813389 0                59.2336610194631 0                102.601115708028 0                75.6917587472129 0                
! Port Impedance         0                32.8759417275931 0                64.2367905354215 0                65.6939223083514 0                31.6408080353168 0                64.3241279895447 
1.05                           9.72553041036904E-05 179.999999999735 3.69175996833655E-06 2.3728517601212E-14 1.77146860172064E-08 7.36798959190735E-15 9.88655077595096E-07 2.51898399013898E-14 
                               5.69796427025929E-08 1.98092874073033E-14 
                               3.69175996833655E-06 3.48780405147043E-14 0.000428024207885018 179.999999999995 2.59654878218872E-08 180              8.26301493869357E-08 180              
                               1.5440704880241E-07 180              
                               1.77146860172066E-08 4.06178844982273E-14 2.59654878218871E-08 180              0.000274701848300316 179.999999999984 8.35188980992259E-09 5.44558793524923E-15 
                               4.95868574812242E-09 -180             
                               9.88655077595099E-07 3.88935894619153E-14 8.26301493869351E-08 180              8.35188980992262E-09 -9.91328650960719E-15 1.91645868439146E-05 6.63757729438337E-11 
                               3.41441075857021E-07 -180             
                               5.69796427025928E-08 2.51867320109292E-14 1.54407048802411E-07 180              4.95868574812243E-09 180              3.4144107585702E-07 -180             
                               0.00107143554437123 -179.999999999998 
! Gamma         58.8521479405486 0                75.3949336870423 0                58.8523813674457 0                102.381468730346 0                75.3937566188135 0                
! Port Impedance         0                34.7433754369929 0                67.715200418165  0                69.4254975390103 0                33.2941228895673 0                67.8072894344834 
1.1                            9.08999139420663E-05 -179.999999999979 3.86221052257902E-06 2.19863283159612E-14 2.01804470424573E-08 -9.04665144078529E-15 1.11898465888848E-06 -5.83035286277362E-16 
                               6.48916792247291E-08 -7.36396743014979E-16 
                               3.86221052257901E-06 3.70269012172766E-14 0.000425936674708582 179.99999999997  2.78331154181837E-08 -180             9.07732431922079E-08 -180             
                               1.69518918219259E-07 -180             
                               2.01804470424574E-08 8.56707117090879E-15 2.78331154181838E-08 -180             0.000274722554698736 -179.999999999994 9.68106446612105E-09 -2.57367354024953E-15 
                               5.64505206891867E-09 180              
                               1.11898465888848E-06 4.65531865886936E-15 9.07732431922082E-08 180              9.68106446612103E-09 -7.37934856127068E-15 3.10335673747719E-05 2.37016225545487E-22 
                               3.67656612427043E-07 180              
                               6.48916792247293E-08 1.19733569485248E-14 1.69518918219258E-07 -180             5.64505206891867E-09 180              3.67656612427043E-07 180              
                               0.00106384832491069 180              
! Gamma         58.4495956263925 0                75.0811290361704 0                58.4498306609338 0                102.150599856561 0                75.0799470482595 0                
! Port Impedance         0                36.6484953400265 0                71.2362074249208 0                73.232378743154  0                34.9583867706547 0                71.3331097775878 
