! Touchstone file exported from HFSS 2020.2.0
!        Generated:      10:22:49  avr. 27, 2020
!        Design:         test
!        Project:        test_multiport
!        Setup:          Setup1
!        Solution:       Sweep
!
!Data is not renormalized
# GHZ S MA
! Terminal data exported
! Port[1] = 1
! Port[2] = 2
! Port[3] = 3
! Port[4] = 4
! Port[5] = 5
! Port[6] = 6
! Port[7] = 7
! Port[8] = 8
! Port[9] = 9
! Port[10] = 10
! Port[11] = 11
! Port[12] = 12
! Port[13] = 13
! Port[14] = 14
! Port[15] = 15
! Port[16] = 16
! Port[17] = 17
! Port[18] = 18
! Port[19] = 19
! Port[20] = 20
0.9                            0.000248370963387035 180              3.11478370855249E-06 -3.03313730588659E-21 1.17073000734769E-08 -8.215901722496E-16 6.98982527755726E-07 -9.41664198839993E-20 
                               3.87877989816406E-08 1.23988381249613E-20 2.02377415590202E-06 -180             9.28910330874389E-08 180              2.3601510917531E-10 1.13854766245515E-20 
                               3.92068559535861E-07 -4.52247175183949E-21 4.00097632035115E-08 1.25656510232056E-20 1.65930888979983E-06 1.50376531183842E-20 5.73609499294238E-07 -8.73743653347291E-20 
                               5.98113427804922E-09 -3.21597471371494E-20 6.34082165483338E-07 180              1.12773585331301E-06 -180             1.18511781540575E-07 180              
                               4.25172921445051E-08 180              9.88452627245324E-11 180              1.11098963108965E-07 8.86052211545213E-15 3.5008296211831E-08 4.02631640141207E-15 
                               3.11478370855249E-06 -3.81534230308946E-21 0.00050990018079633 180              1.98943750408677E-08 180              5.99835944171926E-08 180              
                               1.14468098181224E-07 -180             5.68230474765957E-07 3.65427553164182E-20 5.10521916337523E-08 -2.72843701470462E-21 8.23699769048876E-11 -180             
                               2.08797440496829E-07 180              1.06273168858948E-07 -180             5.91258548447354E-07 -180             3.84936289484005E-08 180              
                               5.25125337974996E-09 180              4.45870317401354E-07 -6.88234590670246E-20 6.20302671366293E-07 1.69043857707634E-14 2.05655090027886E-07 -3.3971189874922E-21 
                               4.25407442087638E-08 -1.55002913906149E-20 5.22861738115064E-11 -4.93428773954201E-20 1.8089615088331E-07 -180             1.20324263214462E-08 -2.0054650478701E-15 
                               1.17073000734769E-08 1.96892179407556E-15 1.98943750408677E-08 -180             0.000443727374599301 179.999999999993 5.33867740982037E-09 2.50370329605588E-15 
                               3.27611541435781E-09 -180             2.48075616921973E-09 2.28607104350001E-15 4.17450130573255E-10 2.41930998109772E-15 5.2896201063465E-13 -180             
                               8.68979160919975E-10 -180             2.04202395243201E-09 -180             2.58590381562597E-09 -180             3.84394648273285E-09 2.03750103741666E-15 
                               7.29454760784004E-11 -180             5.10724371783441E-09 2.12520363702568E-15 5.67957180827382E-09 1.82940073783264E-14 1.97499486982116E-09 2.56567049623163E-15 
                               5.99910625663374E-10 2.49757126602111E-15 4.20308518625015E-13 2.02746904423347E-15 1.88738459975226E-09 5.87053382546902E-15 6.70318206288533E-11 -6.2727772007496E-15 
                               6.98982527755725E-07 -7.48208015105845E-20 5.99835944171925E-08 180              5.33867740982036E-09 -1.68257748123612E-15 0.000554287064891579 180              
                               2.65496388765769E-07 -180             2.34508173295696E-06 180              1.72961319568657E-07 -3.38016851720579E-21 5.8530145704388E-11 -1.32555254414094E-19 
                               7.251433932827E-08 180              2.99782527541652E-08 -4.33013615158007E-20 3.02938717977389E-07 -180             3.23699330731192E-06 4.39883444205799E-20 
                               7.5023867751425E-08 7.40534465103377E-21 2.26289871363252E-06 -5.73810133525113E-20 4.70518927096712E-06 9.81045755566602E-15 8.8311341459853E-08 -180             
                               2.25012919711955E-07 -180             4.09674266913524E-09 -180             5.98118259094865E-08 7.74136160726936E-15 4.87875332407731E-09 -1.36092769313999E-14 
                               3.87877989816405E-08 1.72203222256682E-20 1.14468098181224E-07 -180             3.2761154143578E-09 180              2.6549638876577E-07 -180             
                               0.00225407364143737 180              4.53689829475007E-08 -2.58121405033046E-20 1.621075424165E-09 180              3.12669039031203E-12 180              
                               1.93223949293246E-09 -180             4.97415139567394E-09 3.30782009775663E-21 2.74410033624857E-08 3.47860364706042E-20 2.78399249399101E-08 -6.8726078859634E-20 
                               9.58656351570475E-10 -7.63695601734016E-21 4.7515229316525E-08 180              3.13585091548817E-08 -180             1.12037322490241E-08 3.73604727117873E-21 
                               5.37704443286567E-09 180              7.66087544483657E-11 180              1.39423141436447E-09 -180             1.0455295389821E-10 180              
                               2.02377415590202E-06 -180             5.68230474765958E-07 2.80170603447498E-20 2.48075616921974E-09 2.46926783147409E-15 2.34508173295696E-06 180              
                               4.53689829475008E-08 -1.83353604313025E-20 0.000334481916274609 180              7.02266255825415E-08 -5.04068520618311E-21 2.46539389261012E-10 -180             
                               9.34488096975058E-08 3.24785733968277E-20 2.59813457704893E-08 -180             3.83627787508826E-07 -180             2.552050142164E-07 3.37543414585696E-19 
                               2.79274694231317E-09 180              5.66306396245318E-07 -1.38459235854146E-19 1.96952599613097E-06 1.37720368415961E-14 1.96307764926809E-08 -180             
                               1.05102765555285E-08 -1.60184874362147E-19 1.2964585556017E-10 -5.10649798906399E-20 1.1315696432392E-08 -180             1.29863258112927E-09 180              
                               9.28910330874386E-08 180              5.10521916337522E-08 -3.72341482546317E-20 4.17450130573255E-10 2.17282047216592E-15 1.72961319568657E-07 -8.29440022769079E-20 
                               1.62107542416501E-09 180              7.02266255825414E-08 -8.61506815284458E-20 0.00229043162921116 180              2.31737184057829E-11 180              
                               1.43044233784658E-08 -2.39835106485974E-20 1.84962166145231E-09 180              3.60463595777618E-07 180              3.16355302513094E-07 -3.28396277592023E-20 
                               7.38087674088233E-10 -5.27583050768913E-20 1.30046171845458E-07 180              1.39370215458589E-08 -180             5.83148895850372E-09 180              
                               5.26849710653587E-09 180              1.33566441424255E-11 180              1.63887211690853E-09 7.12341926833973E-15 1.43485648812622E-10 -1.25322005195207E-14 
                               2.36015109175311E-10 1.24764901359817E-20 8.23699769048876E-11 -180             5.28962010634649E-13 -180             5.85301457043883E-11 -1.87276478840713E-19 
                               3.12669039031204E-12 180              2.46539389261012E-10 -180             2.31737184057828E-11 180              0.00443018414697771 180              
                               1.38329433015945E-11 -180             3.90048224931E-12 1.93340165788027E-20 7.19960601656561E-11 5.76051895037622E-20 1.19241116696695E-10 -180             
                               2.51875539943292E-13 -180             9.29107415699799E-12 180              1.77053618987685E-10 -180             5.51458992832865E-12 3.18214447643724E-20 
                               1.37974695066917E-12 1.17563547865919E-19 3.00618740105614E-15 180              5.89226206162037E-13 -1.23406116588514E-15 8.54098514655859E-14 1.13395660162003E-14 
                               3.92068559535861E-07 -5.49458220421845E-21 2.08797440496829E-07 180              8.68979160919974E-10 -180             7.25143393282698E-08 180              
                               1.93223949293246E-09 -180             9.34488096975058E-08 4.02565012810707E-20 1.43044233784657E-08 -1.76206511535689E-21 1.38329433015945E-11 -180             
                               0.00193443127259241 180              2.7627593746107E-09 -180             3.15082067653146E-07 -180             8.26149517986238E-08 180              
                               5.5094863594052E-10 180              6.42960364024489E-08 -8.64993565767914E-20 1.11673087622588E-07 1.70120050925592E-14 1.11397359181591E-08 -1.14045282653672E-20 
                               4.26594970246874E-09 -2.80199752176406E-20 7.78045336369458E-12 -6.01079975148884E-20 1.03978037364145E-08 -180             5.68282867106961E-09 180              
                               4.00097632035116E-08 1.86165866031896E-20 1.06273168858948E-07 -180             2.04202395243201E-09 180              2.99782527541653E-08 -9.20390556226008E-20 
                               4.97415139567395E-09 3.85342695914776E-21 2.59813457704893E-08 -180             1.84962166145231E-09 180              3.90048224931001E-12 2.82083440072008E-20 
                               2.7627593746107E-09 -180             0.00153814135450592 180              4.86275020275411E-08 180              2.41401868938777E-07 -180             
                               9.11832541336004E-10 -8.60224215992826E-21 4.95931786084319E-08 180              2.97444174495878E-08 -180             4.46619241610347E-08 6.41447720084998E-22 
                               1.55128417443768E-08 180              5.92905700643572E-12 2.60605108539789E-20 4.1225056365011E-08 5.14380733669325E-15 8.61662396928221E-10 -4.94006553250364E-15 
                               1.65930888979983E-06 2.1367657991075E-20 5.91258548447356E-07 -180             2.58590381562598E-09 180              3.0293871797739E-07 -180             
                               2.74410033624858E-08 3.52552151062918E-20 3.83627787508826E-07 -180             3.6046359577762E-07 180              7.19960601656562E-11 7.50585983542795E-20 
                               3.15082067653146E-07 -180             4.86275020275413E-08 180              0.000938457661044056 180              2.16290312007905E-06 -4.68789095651616E-20 
                               2.36477594368342E-09 -1.63847303047705E-19 5.90198086794491E-07 180              1.66783403334251E-06 -180             2.28753835064224E-08 9.45531233949015E-20 
                               1.1749475541837E-08 180              7.16769244356489E-11 1.08232085357354E-19 6.1621762175353E-08 -180             1.19912118736059E-08 180              
                               5.73609499294236E-07 -1.11185099647744E-19 3.84936289484006E-08 180              3.84394648273285E-09 8.16935248700507E-15 3.23699330731192E-06 7.44717515495295E-20 
                               2.78399249399102E-08 -6.24375578270706E-20 2.552050142164E-07 4.377988544409E-19 3.16355302513094E-07 -2.3516206366076E-21 1.19241116696695E-10 -180             
                               8.26149517986238E-08 180              2.41401868938777E-07 -180             2.16290312007905E-06 -4.18429054574806E-20 0.00265091452669464 180              
                               4.66839606520842E-08 1.48860781756299E-20 2.26212480671576E-06 -7.29305564636736E-20 3.39682639922881E-06 1.66119619592952E-14 1.1373486758572E-07 -180             
                               1.00559560201954E-06 -180             1.64997869090233E-10 -180             9.94288131549722E-08 180              6.05658093648417E-09 180              
                               5.98113427804923E-09 -3.53418387291268E-20 5.25125337974997E-09 180              7.29454760784004E-11 -180             7.5023867751425E-08 1.04908161538624E-20 
                               9.58656351570477E-10 -5.98367789306701E-21 2.79274694231317E-09 180              7.38087674088234E-10 -3.3141376709676E-21 2.51875539943292E-13 -180             
                               5.50948635940522E-10 180              9.11832541336006E-10 -5.91408893404539E-21 2.36477594368341E-09 -1.25937468376748E-19 4.66839606520842E-08 1.27581853707773E-20 
                               0.000642048154153252 180              3.29663751661621E-08 -1.6443934572324E-20 1.27126499720569E-08 1.46900173392483E-14 1.05853111053099E-09 -1.19310591835511E-20 
                               8.34092237420982E-11 -1.39647278781824E-19 1.04540433568022E-11 -4.37511577317365E-21 1.36900651597868E-10 2.3014771523765E-15 1.04427163562796E-11 2.96544732434419E-15 
                               6.34082165483339E-07 180              4.45870317401356E-07 -1.23303876493935E-20 5.10724371783441E-09 3.66061437485477E-15 2.26289871363252E-06 -1.3410266750896E-20 
                               4.7515229316525E-08 180              5.66306396245321E-07 -3.98077221671965E-20 1.30046171845458E-07 180              9.29107415699793E-12 180              
                               6.42960364024489E-08 -1.9539116853551E-20 4.95931786084318E-08 180              5.9019808679449E-07 180              2.26212480671575E-06 -1.2627376358477E-20 
                               3.29663751661622E-08 -3.68838380639309E-21 0.000776261541694523 180              3.08220744369663E-06 -180             7.36538915258658E-08 180              
                               9.99857907339163E-08 180              3.80269474114372E-10 180              4.22290078411029E-10 -4.97137226347003E-14 2.15502819150322E-10 -180             
                               1.12773585331301E-06 -180             6.20302671366294E-07 1.39371554855594E-14 5.67957180827382E-09 9.19336029702146E-15 4.70518927096711E-06 1.31526548283382E-14 
                               3.13585091548816E-08 -180             1.96952599613098E-06 1.47732728182917E-14 1.39370215458593E-08 -180             1.77053618987685E-10 -180             
                               1.11673087622588E-07 1.471037772855E-14 2.97444174495879E-08 -180             1.66783403334251E-06 -180             3.3968263992288E-06 1.37885259353043E-14 
                               1.27126499720569E-08 1.41629543175861E-14 3.08220744369663E-06 -180             0.000384526511448824 179.999999999962 7.36428346947247E-08 -180             
                               6.67464120436101E-08 -180             2.5657965424089E-10 -180             1.35772877446703E-08 1.36219788955448E-14 1.12221117877245E-09 1.60322462916268E-15 
                               1.18511781540575E-07 180              2.05655090027886E-07 -2.72043482175621E-21 1.97499486982116E-09 1.46447388185155E-14 8.83113414598529E-08 -180             
                               1.12037322490241E-08 3.13731430919879E-21 1.96307764926809E-08 -180             5.83148895850372E-09 180              5.51458992832864E-12 3.4708882099989E-20 
                               1.11397359181591E-08 -1.0757442786906E-20 4.46619241610348E-08 2.33953088743255E-22 2.28753835064222E-08 7.95366217603294E-20 1.1373486758572E-07 -180             
                               1.05853111053099E-09 -1.30511572690319E-20 7.36538915258657E-08 180              7.36428346947245E-08 -180             0.000922046926240094 180              
                               1.31352187864564E-08 180              4.40374343100674E-11 6.386185636291E-21 5.81638697660221E-08 -180             7.94589569390182E-10 180              
                               4.2517292144505E-08 180              4.25407442087637E-08 -1.68521746422239E-20 5.99910625663372E-10 -2.96043814671008E-15 2.25012919711955E-07 -180             
                               5.37704443286566E-09 180              1.05102765555285E-08 -2.27262676807447E-19 5.26849710653588E-09 180              1.37974695066917E-12 1.50626628377683E-19 
                               4.26594970246875E-09 -3.16307933824836E-20 1.55128417443768E-08 180              1.17494755418368E-08 180              1.00559560201954E-06 -180             
                               8.34092237420986E-11 -1.78636251346351E-19 9.99857907339164E-08 180              6.67464120436101E-08 -180             1.31352187864564E-08 180              
                               0.0018544355010538 180              8.5164772232115E-12 180              1.98759877010089E-09 -180             1.19832676229087E-10 180              
                               9.88452627245323E-11 180              5.22861738115063E-11 -4.46358043941448E-20 4.20308518625016E-13 -1.13249197498028E-14 4.09674266913523E-09 -180             
                               7.66087544483658E-11 180              1.2964585556017E-10 -6.0598621473143E-20 1.33566441424255E-11 180              3.00618740105612E-15 180              
                               7.78045336369461E-12 -5.69809714172092E-20 5.92905700643573E-12 1.91758834533802E-20 7.16769244356488E-11 8.84665360295441E-20 1.64997869090233E-10 -180             
                               1.04540433568022E-11 -4.66090352981688E-21 3.80269474114372E-10 180              2.56579654240891E-10 -180             4.40374343100673E-11 6.14908074829981E-21 
                               8.51647722321154E-12 180              0.00143741770500838 180              1.25473903902152E-11 -180             7.69751719671564E-13 180              
                               1.11098963108965E-07 -3.0954757833615E-15 1.8089615088331E-07 180              1.88738459975226E-09 -3.06378104258374E-15 5.98118259094864E-08 -2.40478777757006E-15 
                               1.39423141436447E-09 180              1.1315696432392E-08 180              1.63887211690853E-09 -1.48146109313895E-15 5.89226206162038E-13 -2.89997663388164E-15 
                               1.03978037364145E-08 180              4.12250563650111E-08 -2.28363552124304E-15 6.16217621753528E-08 180              9.94288131549724E-08 180              
                               1.36900651597868E-10 -2.30514443760847E-15 4.2229007841103E-10 -1.7689203291725E-15 1.35772877446703E-08 6.94538665096616E-15 5.8163869766022E-08 180              
                               1.98759877010089E-09 180              1.25473903902152E-11 180              0.000406881371884715 -179.999999999991 1.97049295876746E-09 -8.3005797771466E-15 
                               3.5008296211831E-08 -6.56177992438276E-15 1.20324263214461E-08 -6.5873263511991E-15 6.70318206288533E-11 -6.46313270512297E-15 4.87875332407729E-09 -6.40410755398039E-15 
                               1.0455295389821E-10 180              1.29863258112927E-09 180              1.43485648812623E-10 -6.86631550821318E-15 8.54098514655859E-14 -6.75448740461226E-15 
                               5.68282867106961E-09 180              8.61662396928222E-10 -7.1750818040346E-15 1.19912118736058E-08 180              6.05658093648416E-09 180              
                               1.04427163562796E-11 -6.33477584111174E-15 2.15502819150323E-10 180              1.12221117877245E-09 6.9024750344954E-15 7.94589569390181E-10 180              
                               1.19832676229087E-10 180              7.69751719671563E-13 180              1.97049295876746E-09 -2.73441790814512E-15 0.00069484677498044 -179.999999999986 
