! Touchstone file exported from HFSS 2020.2.0
!        Generated:      11:13:08  avr. 27, 2020
!        Design:         test
!        Project:        test_multiport
!        Setup:          Setup1
!        Solution:       Sweep
!
!Data is not renormalized
# GHZ S MA
! Terminal data exported
! Port[1] = 1
! Port[2] = 2
! Port[3] = 3
! Port[4] = 4
0.9                            0.00064055345850933 180              2.94059380071493E-06 1.59142026625862E-14 1.26236366238744E-08 -1.12407250124045E-14 6.95615816608926E-07 -4.90790159119254E-21 
                               2.94059380071493E-06 1.43340755418431E-14 0.00119935647217007 179.999999999992 2.38663774001381E-08 -180             6.06700457211014E-08 -180             
                               1.26236366238744E-08 -1.52220272570737E-14 2.38663774001381E-08 180              0.000674322476393874 -179.999999999985 5.09213866186158E-09 -1.48962838987029E-14 
                               6.95615816608925E-07 2.58645424033548E-20 6.06700457211007E-08 180              5.09213866186159E-09 -1.49040852421926E-15 0.00368930680622992 -180             
! Gamma         59.9337480052838 0                76.2425892174664 0                59.9338199102431 0                103.00705352512  0                
! Port Impedance         0                29.2484484956908 0                57.3494977406045 0                58.4318474711903 0                28.3610139898588 
0.95                           0.000639781112991011 180              3.06323473069096E-06 7.24866620100954E-15 1.40735441970328E-08 -4.54726783493482E-20 7.70026620591778E-07 -1.32588996209252E-14 
                               3.06323473069096E-06 1.3327681645175E-14 0.00119307393230039 179.999999999988 2.54104445817183E-08 -180             6.55376858177803E-08 -180             
                               1.40735441970328E-08 -1.34905344328077E-19 2.54104445817183E-08 -180             0.000670720806343228 180              5.75938469337754E-09 -3.56574511981957E-15 
                               7.70026620591779E-07 -1.41054413584986E-15 6.55376858177807E-08 -180             5.75938469337754E-09 -3.57731416961588E-15 0.00366291862742119 179.999999999999 
! Gamma         59.5938160480388 0                75.9756617068253 0                59.5938883631541 0                102.809638833787 0                
! Port Impedance         0                31.0494670816153 0                60.7482623662103 0                62.0298737633719 0                29.9941087627517 
1                              0.000638820485138969 -179.999999999977 3.19591695300391E-06 -1.29991260582875E-14 1.57926920281513E-08 -1.33699512346072E-14 8.58275906102565E-07 -2.39493339290404E-14 
                               3.19591695300391E-06 -2.41219952972081E-14 0.00118642300579697 -180             2.71195306163548E-08 -180             7.11722070309837E-08 180              
                               1.57926920281513E-08 -1.48261281568821E-14 2.71195306163548E-08 -180             0.00066698245333352 -180             6.56842829553957E-09 1.13713177474119E-14 
                               8.58275906102568E-07 -4.23335263248621E-15 7.11722070309835E-08 -180             6.56842829553959E-09 5.75774391526217E-15 0.00363491959262019 179.999999999998 
! Gamma         59.2333975827499 0                75.6932866892341 0                59.2334703378815 0                102.601141880402 0                
! Port Impedance         0                32.8825186597123 0                64.1840891837877 0                65.6918937165349 0                31.636903931123  
1.05                           0.000637625437442791 -179.999999999957 3.33869209819466E-06 -2.62906137787998E-14 1.78396691152234E-08 -2.53994465291649E-14 9.63535539263144E-07 -2.40613196211167E-14 
                               3.33869209819467E-06 -5.47054915687195E-14 0.00117939621237686 -179.999999999988 2.90026593277838E-08 180              7.77243181403767E-08 180              
                               1.78396691152234E-08 -2.99394757778978E-14 2.90026593277838E-08 180              0.000663119424289487 -179.999999999994 7.55639670943548E-09 2.2136642893309E-14 
                               9.63535539263149E-07 -5.58852348608251E-15 7.77243181403753E-08 180              7.55639670943553E-09 1.5187212601412E-14 0.00360527184827678 179.999999999998 
! Gamma         58.85211622403   0                75.3952906000712 0                58.8521894505149 0                102.381494958868 0                
! Port Impedance         0                34.7503282609399 0                67.6596622460843 0                69.4233512076945 0                33.2900142307722 
1.1                            0.000636136205799831 180              3.49134785052034E-06 -4.22961493421487E-24 2.0286541654509E-08 1.54711653681811E-14 1.08984623016443E-06 3.66992350148462E-24 
                               3.49134785052033E-06 -5.03878932316346E-24 0.00117198476546432 180              3.10653772221757E-08 -180             8.53837935061769E-08 -180             
                               2.0286541654509E-08 1.42197100418714E-14 3.10653772221757E-08 -180             0.00065914658269306 179.99999999999  8.77144732269269E-09 1.36871861102631E-14 
                               1.08984623016443E-06 1.36736967237765E-24 8.53837935061768E-08 -180             8.77144732269269E-09 8.45448953577485E-16 0.00357393300039954 180              
! Gamma         58.4495636914364 0                75.0814874409248 0                58.4496374222446 0                102.150626144363 0                
! Port Impedance         0                36.6558320354721 0                71.1778004228221 0                73.230111867443  0                34.9540721169693 
