! Touchstone file exported from HFSS 2020.2.0
!        Generated:      11:12:13  avr. 27, 2020
!        Design:         test
!        Project:        test_multiport
!        Setup:          Setup1
!        Solution:       Sweep
!
!Data is not renormalized
# GHZ S MA
! Terminal data exported
! Port[1] = 1
! Port[2] = 2
! Port[3] = 3
! Port[4] = 4
! Port[5] = 5
! Port[6] = 6
! Port[7] = 7
0.9                            0.00014952087992337 -179.999999999958 2.91673689224242E-06 8.04674473282408E-15 1.36005758863916E-08 -1.55918123750194E-14 7.10189290518035E-07 -7.02419303951524E-15 
                               3.99673749840432E-08 -7.28182473749169E-15 2.07547584423514E-06 180              7.48825617653114E-08 180              
                               2.91673689224242E-06 -1.38632886542073E-15 0.000421754158732579 179.999999999979 3.11055832175172E-08 -180             6.22853458255792E-08 -180             
                               1.06353217759109E-07 -180             5.63601652848558E-07 6.05987764932408E-15 4.10820930110259E-08 6.93789374791008E-15 
                               1.36005758863916E-08 -1.05228276258479E-14 3.11055832175172E-08 -180             0.000282126331762944 -179.999999999989 5.89449003522283E-09 -1.44875228113453E-15 
                               3.96359199290218E-09 180              2.75777527736514E-09 -1.14339973524101E-15 3.74656146297135E-10 -1.03988370276511E-15 
                               7.10189290518035E-07 -8.72036026388412E-15 6.22853458255791E-08 180              5.89449003522283E-09 -1.44201605352014E-14 9.84942323651872E-05 -180             
                               2.74219628615065E-07 -180             2.37644727586322E-06 180              1.3788818365681E-07 5.62356819375633E-21 
                               3.99673749840432E-08 -3.49017785288301E-15 1.06353217759109E-07 -180             3.96359199290219E-09 180              2.74219628615065E-07 -180             
                               0.00214381658605423 180              4.76437093821509E-08 -1.25590337504844E-20 1.40255549398849E-09 -180             
                               2.07547584423514E-06 180              5.63601652848559E-07 9.77918559399368E-15 2.75777527736514E-09 -1.85259988624021E-15 2.37644727586322E-06 180              
                               4.76437093821509E-08 3.57884959293857E-21 0.000284378309492572 -180             5.6530922334464E-08 -1.80111304622512E-20 
                               7.48825617653112E-08 180              4.10820930110259E-08 1.62567276626382E-14 3.74656146297136E-10 -9.81228702291418E-15 1.37888183656811E-07 1.93789444597593E-21 
                               1.4025554939885E-09 -180             5.6530922334464E-08 -1.14046643599726E-20 0.0011954844281874 -180             
! Gamma         59.9338025259234 0                76.2422072914247 0                59.9339589244926 0                103.00708500574  0                76.2410934109389 0                76.2412157251422 0                76.2414068059845 0                
! Port Impedance         0                29.2416436558134 0                57.3612225351637 0                58.4329232662056 0                28.3628157814282 0                57.4749973943563 0                28.7417512245102 0                57.3980893264994 
0.95                           0.000145731653377834 180              3.04335491616042E-06 -1.97167968191006E-23 1.5171702580003E-08 5.85107731577517E-22 7.86612399233862E-07 4.20315853757633E-15 
                               4.44665954165084E-08 -6.27621053079211E-21 2.24508533378073E-06 -180             8.17285259133248E-08 180              
                               3.04335491616042E-06 -1.04586979431672E-21 0.000420162357628206 180              3.31939398856572E-08 -180             6.70076198952751E-08 -180             
                               1.14966859723704E-07 180              6.11750422853524E-07 1.6253732217875E-20 4.50694519788569E-08 -1.30948102472352E-20 
                               1.5171702580003E-08 -1.0257447553196E-21 3.31939398856572E-08 180              0.000281506437614265 -180             6.66407684847985E-09 -8.55537164187102E-16 
                               4.41010070218385E-09 180              3.16862294894844E-09 2.31296005237397E-20 4.34784528084694E-10 -1.04481887629359E-20 
                               7.86612399233865E-07 2.32102927294476E-15 6.70076198952749E-08 -180             6.66407684847985E-09 1.9241032529817E-15 8.86335827042783E-05 179.99999999995  
                               2.91686552105114E-07 -180             2.51573870938648E-06 -180             1.49776920783042E-07 7.38669349756791E-16 
                               4.44665954165084E-08 -4.29394591877579E-20 1.14966859723703E-07 180              4.41010070218385E-09 -180             2.91686552105115E-07 -180             
                               0.00213111309741309 180              5.07724845992883E-08 9.99984168298234E-20 1.57862377832469E-09 -180             
                               2.24508533378073E-06 180              6.11750422853524E-07 -3.43594585322672E-21 3.16862294894843E-09 6.30363763654789E-20 2.51573870938648E-06 180              
                               5.07724845992884E-08 -1.79086204531517E-19 0.000281865508018009 -180             6.15513217729585E-08 8.01914112060522E-20 
                               8.17285259133248E-08 -180             4.50694519788569E-08 2.7954190318122E-22 4.34784528084693E-10 -1.60771302675982E-21 1.49776920783042E-07 1.80961050863393E-15 
                               1.57862377832469E-09 180              6.15513217729584E-08 1.04445203472747E-20 0.00118729707011911 -180             
! Gamma         59.593870879672  0                75.9752784389449 0                59.5940281703577 0                102.809670374855 0                75.9741606449333 0                75.974283388883  0                75.9744751410777 0                
! Port Impedance         0                31.0422429225407 0                60.7606812254246 0                62.0310168057647 0                29.9960147282529 0                60.8812037526627 0                30.4451079915514 0                60.7997311410257 
1                              0.000141433482818365 -180             3.18069111680272E-06 -2.89523278398824E-15 1.70364675065752E-08 -6.28631890291443E-15 8.77307529190406E-07 7.4128916919592E-22 
                               4.9860063414193E-08 2.44253751292462E-20 2.44136764741167E-06 -180             8.96906166879027E-08 -180             
                               3.18069111680272E-06 7.30377230549502E-15 0.000418457136068029 179.999999999982 3.55229280549253E-08 -180             7.24501508931433E-08 -180             
                               1.24943712978282E-07 -180             6.67724696269812E-07 7.38113942508024E-15 4.97475764671304E-08 7.02548104785383E-15 
                               1.70364675065752E-08 -1.78909753163411E-15 3.55229280549254E-08 180              0.000280902418116402 -179.999999999998 7.59699111786954E-09 -1.5909067726321E-15 
                               4.94062458679429E-09 180              3.67466405674349E-09 -1.12645723058531E-15 5.09539304160969E-10 -9.93197710546693E-16 
                               8.77307529190402E-07 -4.10027719963467E-21 7.24501508931432E-08 -180             7.59699111786956E-09 -6.20644641243703E-15 7.80477759452225E-05 180              
                               3.11537750122186E-07 180              2.6735423002039E-06 -180             1.63583240304096E-07 -3.37865348424122E-22 
                               4.9860063414193E-08 -7.5149968623003E-20 1.24943712978282E-07 -180             4.9406245867943E-09 -180             3.11537750122185E-07 180              
                               0.00211772648409925 180              5.42940316533139E-08 -1.46070573571034E-20 1.79144279444385E-09 -180             
                               2.44136764741167E-06 180              6.67724696269812E-07 7.53011720953014E-15 3.67466405674349E-09 -1.41923133522411E-15 2.6735423002039E-06 -180             
                               5.42940316533137E-08 -1.13189428534821E-20 0.000279168765458526 180              6.74004905397143E-08 3.46390213693101E-21 
                               8.96906166879026E-08 180              4.97475764671303E-08 8.02151468846625E-15 5.09539304160968E-10 -2.25341650684773E-15 1.63583240304096E-07 -1.78434927665916E-22 
                               1.79144279444385E-09 -180             6.74004905397143E-08 3.8815133722243E-21 0.00117870780510476 180              
! Gamma         59.2334527480177 0                75.6929019915594 0                59.2336109957683 0                102.601173485565 0                75.6917800274954 0                75.6919032293607 0                75.6920956969146 0                
! Port Impedance         0                32.8748676680625 0                64.1972095367033 0                65.6931053871131 0                31.6389147609125 0                64.3245541740317 0                32.1670398302761 0                64.2384660751523 
1.05                           0.000136546766329269 -179.99999999998 3.32890661535319E-06 -1.85213466258051E-15 1.92593831244357E-08 -1.78188268077084E-14 9.85561532276243E-07 -9.01627270382475E-15 
                               5.63699061717086E-08 -5.2233007153768E-15 2.66940297176574E-06 180              9.89843301916467E-08 180              
                               3.32890661535319E-06 1.22209189855313E-14 0.00041663124187255 179.999999999959 3.81131545378281E-08 -180             7.87490168042998E-08 180              
                               1.3654750924044E-07 -180             7.33082445216553E-07 1.35001883556654E-14 5.52626088224185E-08 1.63010909449803E-14 
                               1.92593831244357E-08 -7.6356168701866E-15 3.81131545378281E-08 -180             0.000280324706008478 -179.999999999992 8.73597701576609E-09 -2.27431239512965E-15 
                               5.57432062719178E-09 180              4.30311540847534E-09 -5.22944456729321E-15 6.03293748064287E-10 -1.83444021506759E-15 
                               9.85561532276231E-07 -7.04517133862589E-15 7.87490168042999E-08 180              8.73597701576613E-09 -2.03787788270038E-14 6.6697322323817E-05 -179.999999999911 
                               3.3415694525684E-07 180              2.85277594453567E-06 180              1.79681085183605E-07 -3.74435858485043E-16 
                               5.63699061717085E-08 -2.52763231015205E-15 1.36547509240442E-07 -180             5.5743206271918E-09 180              3.34156945256836E-07 180              
                               0.00210365720607972 -179.999999999999 5.82570664375729E-08 -4.11967873486458E-15 2.05051542249117E-09 180              
                               2.66940297176573E-06 180              7.33082445216555E-07 1.52856604838463E-14 4.30311540847536E-09 -5.76243976114852E-15 2.85277594453567E-06 -180             
                               5.82570664375723E-08 -4.2337805902496E-15 0.000276276074154561 -179.999999999992 7.42448104228871E-08 -2.49212102491117E-15 
                               9.89843301916464E-08 180              5.52626088224185E-08 2.10472649019634E-14 6.03293748064288E-10 -8.45943305547788E-15 1.79681085183605E-07 -2.45714719613327E-15 
                               2.05051542249118E-09 180              7.42448104228873E-08 -3.25586528187807E-15 0.00116972359329298 -180             
! Gamma         58.852171746693  0                75.3949043818905 0                58.8523310196683 0                102.381526631837 0                75.3937779832086 0                75.3939016720418 0                75.3940949003402 0                
! Port Impedance         0                34.7422422823668 0                67.6734920569835 0                69.4246330108083 0                33.2921306597317 0                67.8077386547409 0                33.9088919644729 0                67.7169804125054 
1.1                            0.000130975031808922 -180             3.48791125180864E-06 1.05313228681918E-20 2.19200253742461E-08 1.13559588412969E-20 1.11556552198232E-06 -1.32864610206093E-19 
                               6.42840574352909E-08 -9.80758512772063E-15 2.93548080205275E-06 180              1.098737865859E-07 -180             
                               3.48791125180865E-06 7.39023480774161E-21 0.00041467591697808 -180             4.09835090074958E-08 -180             8.60743661023819E-08 180              
                               1.50106622452427E-07 180              8.09770975907094E-07 -1.0367469256712E-14 6.17981258200605E-08 4.04153104503252E-15 
                               2.19200253742461E-08 9.39737084861873E-21 4.09835090074958E-08 -180             0.000279785307911951 -180             1.01365023316007E-08 1.91746710270139E-20 
                               6.33535604537925E-09 180              5.08981344696274E-09 -1.30663653956481E-14 7.21833389147049E-10 2.20648029511833E-15 
                               1.11556552198232E-06 -1.16131792102751E-19 8.60743661023817E-08 180              1.01365023316007E-08 2.34860254500986E-20 5.45377902022581E-05 -180             
                               3.60008423484287E-07 -180             3.05697622512529E-06 180              1.98533988122558E-07 3.15157396651042E-15 
                               6.42840574352908E-08 -4.81773608119963E-15 1.50106622452427E-07 180              6.33535604537926E-09 180              3.60008423484287E-07 180              
                               0.00208890572114806 -179.999999999998 6.27152473482225E-08 -1.92673331212445E-14 2.36818098286614E-09 180              
                               2.93548080205276E-06 180              8.09770975907094E-07 -1.05187479408673E-14 5.08981344696274E-09 -1.1518804458423E-14 3.05697622512529E-06 180              
                               6.27152473482227E-08 -1.98028443604212E-14 0.000273173212176125 -179.999999999961 8.22916643717408E-08 -1.18719310238452E-14 
                               1.098737865859E-07 180              6.17981258200606E-08 -4.49527874512211E-16 7.21833389147049E-10 2.25671720256296E-16 1.98533988122559E-07 4.02884631645325E-16 
                               2.36818098286614E-09 180              8.2291664371741E-08 -1.55108976207773E-14 0.0011603518608897 -180             
! Gamma         58.4496195964936 0                75.0810996085366 0                58.4497799664051 0                102.150657888915 0                75.0799685019506 0                75.0800927077616 0                75.0802867436855 0                
! Port Impedance         0                36.6473022246857 0                71.1923482176555 0                73.2314654416273 0                34.9562949259132 0                71.3335823089425 0                35.6720771890985 0                71.2380953642856 
