! Touchstone file exported from HFSS 2020.2.0
!        Generated:      10:21:36  avr. 27, 2020
!        Design:         test
!        Project:        test_multiport
!        Setup:          Setup1
!        Solution:       LastAdaptive
!
!Data is not renormalized
# GHZ S MA
! Terminal data exported
! Port[1] = 1
! Port[2] = 2
! Port[3] = 3
! Port[4] = 4
! Port[5] = 5
! Port[6] = 6
! Port[7] = 7
! Port[8] = 8
! Port[9] = 9
! Port[10] = 10
! Port[11] = 11
! Port[12] = 12
! Port[13] = 13
! Port[14] = 14
! Port[15] = 15
! Port[16] = 16
! Port[17] = 17
! Port[18] = 18
! Port[19] = 19
! Port[20] = 20
! Port[21] = 21
1                              0.000185375434016866 -180             3.37492240280088E-06 -1.15169295847535E-14 1.4842763632336E-08 6.84964256489603E-15 8.7154494901415E-07 -2.26793467311267E-19 
                               4.68114675561918E-08 1.04913662719235E-19 2.41739781652783E-06 -180             8.95542928601206E-08 -180             2.28158992289974E-10 1.43297726475041E-14 
                               2.28185461305896E-07 6.84827113946202E-15 5.60463696070377E-08 2.12980764592786E-19 1.99856896737558E-06 2.05661809144762E-21 7.44125427330694E-07 -3.08949466386738E-14 
                               8.08730712512204E-09 -1.94437163745123E-19 7.92885739232006E-07 -180             1.39553573105972E-06 -180             1.26098386204954E-07 -180             
                               5.42555008068987E-08 180              1.27974585287411E-10 180              1.39963608408663E-07 6.96533542516105E-20 3.36925614247316E-08 -8.54711613743244E-21 
                               1.14183569268089E-16 180              
                               3.37492240280087E-06 -7.87574497262528E-15 0.000346339174236432 -179.999999999974 2.27084049570158E-08 180              6.04330133788317E-08 180              
                               1.33988472841529E-07 180              6.73332182882595E-07 -7.5936944124987E-15 4.88822846962614E-08 -7.95266096559074E-15 8.57947714601175E-11 -180             
                               2.14645060122059E-07 180              1.28357229894485E-07 180              7.04235538378693E-07 180              5.61398787610663E-08 180              
                               6.72155604273391E-09 180              5.39755590854891E-07 -1.07610514743657E-14 7.65820405168624E-07 8.66417785861207E-15 1.99932113921143E-07 -7.60184915793552E-15 
                               5.01761535328742E-08 -7.7053565425129E-15 6.09181181127095E-11 -8.53112291590847E-15 2.10622656883543E-07 180              1.12707289336466E-08 -8.07413482413631E-15 
                               5.62468295518445E-17 -2.0837286052395E-14 
                               1.4842763632336E-08 -5.76020780555978E-15 2.27084049570159E-08 180              0.000377304857745675 -179.999999999992 6.89405805215282E-09 -5.14779934865389E-15 
                               4.03311167469284E-09 180              3.31677847929168E-09 -5.18229583533297E-15 4.45522118384961E-10 -5.37547469004571E-15 7.36978259965766E-13 -180             
                               1.01918378375343E-09 180              2.46000026363307E-09 180              3.43396568934383E-09 180              5.19085353520194E-09 -3.37783989666855E-14 
                               9.9455392366527E-11 180              6.69915396351402E-09 -9.53811425943267E-15 7.75398479263384E-09 1.50080746460716E-14 2.32287285926085E-09 -5.3483547513479E-15 
                               7.40247186677501E-10 -5.10442033119258E-15 4.86244354675918E-13 -5.03727396628808E-15 2.41690417158687E-09 -4.85019063616944E-15 7.00364715738859E-11 -5.19217034870707E-15 
                               7.72324009514271E-19 180              
                               8.7154494901415E-07 -2.51181326562093E-19 6.04330133788316E-08 180              6.89405805215282E-09 -3.8322840952153E-15 0.000184386482097732 180              
                               2.96097250960208E-07 -180             2.64234632890606E-06 180              1.59741980369698E-07 -1.61130714884548E-19 1.61502748271362E-10 -180             
                               7.82106846769003E-08 180              4.03349355203872E-08 1.75642405976224E-19 3.69866182984858E-07 -180             3.760829106416E-06 -1.66088327022276E-14 
                               8.81283548594625E-08 1.62523402101577E-20 2.48513615858503E-06 3.88078321124254E-14 5.38987562571095E-06 1.9999042590075E-14 9.83407600700597E-08 -180             
                               2.57020623642873E-07 180              4.5670703327268E-09 -180             7.60249859772085E-08 9.25294755389241E-20 4.93672122151924E-09 1.23854015868026E-19 
                               2.53996978983002E-17 -2.51893791171861E-14 
                               4.68114675561917E-08 6.63867499141719E-20 1.3398847284153E-07 180              4.03311167469284E-09 -180             2.96097250960209E-07 -180             
                               0.000936799718252335 -180             5.10531536961898E-08 -4.99236221033018E-20 1.68673408132057E-09 -180             4.45979169258126E-13 1.39852250601304E-13 
                               2.36292422599123E-09 -180             5.85335733539306E-09 2.32663222536352E-20 3.41262638033396E-08 8.04002494019134E-21 3.33311927716916E-08 -1.85212881129226E-14 
                               1.20132245347973E-09 -4.30150853512919E-20 5.74226164701852E-08 180              4.01430985122052E-08 -180             1.09310929194696E-08 2.45096707856892E-20 
                               6.26913359695786E-09 180              8.49756480830523E-11 180              1.87865118590743E-09 -180             1.13154053147762E-10 180              
                               1.01439387522288E-17 180              
                               2.41739781652784E-06 -180             6.73332182882594E-07 -1.16030408593686E-14 3.31677847929167E-09 -1.36924625123927E-14 2.64234632890607E-06 180              
                               5.10531536961897E-08 -7.31894214102536E-21 0.000256037120703767 180              6.55418557490127E-08 3.49608435798695E-21 5.89411334755257E-10 180              
                               1.02807123586237E-07 -6.90912878191751E-15 3.27759455512845E-08 -180             4.55536791892186E-07 -180             3.18783755876396E-07 4.68039141032718E-16 
                               3.6216766170224E-09 180              6.75803957597893E-07 2.09237311408271E-15 2.30579405675035E-06 1.32260677547032E-14 1.91868820527502E-08 -180             
                               1.23245066844381E-08 -2.30107348234302E-19 1.51590470980757E-10 -6.96179624225362E-20 1.4639478620966E-08 180              1.29286727263893E-09 -180             
                               7.22240405336221E-18 -180             
                               8.95542928601203E-08 180              4.88822846962616E-08 -3.49081558079949E-15 4.4552211838496E-10 -6.94015142863779E-15 1.59741980369698E-07 -9.48271045566442E-20 
                               1.68673408132056E-09 -180             6.55418557490127E-08 -6.58512791930265E-20 0.00100007553484593 -180             1.30013043817666E-11 -180             
                               1.21358190262244E-08 -6.88437865577798E-15 1.63517913490948E-09 180              3.24676586464369E-07 -180             2.89309175440538E-07 -5.77839801124341E-15 
                               7.10218189799916E-10 -1.20676812035812E-19 1.0964860048299E-07 180              3.15133005549148E-08 -6.21603850890915E-14 4.97401741341952E-09 180              
                               4.97504642407815E-09 180              1.32114780097185E-11 180              1.7318670374238E-09 1.22422940815058E-19 1.28659638404527E-10 4.35762250525465E-20 
                               2.36756288556226E-19 -4.1782759509365E-14 
                               2.28158992289974E-10 3.03358609069408E-15 8.57947714601173E-11 180              7.36978259965764E-13 -180             1.61502748271363E-10 -180             
                               4.45979169258127E-13 1.93681011568909E-15 5.89411334755258E-10 -180             1.30013043817666E-11 -180             0.00231990474630794 179.999999999998 
                               7.33985016360956E-12 180              2.31392989477578E-12 3.33661574000329E-15 4.65089094503324E-11 2.77869260436483E-15 1.39656803141027E-10 180              
                               6.78604903859184E-13 -180             5.57871129709468E-11 -4.27420243827584E-14 1.32759956515889E-10 2.01671106867168E-14 6.30011489657376E-12 4.47556040978038E-15 
                               3.52335431264866E-12 3.91729299052503E-15 1.20320545039613E-14 3.78746205762953E-15 1.5165280974224E-12 -180             1.38594237244741E-13 -180             
                               6.16205474895836E-22 180              
                               2.28185461305895E-07 7.27940068535391E-16 2.14645060122059E-07 -180             1.01918378375343E-09 -180             7.82106846769003E-08 -180             
                               2.36292422599123E-09 -180             1.02807123586237E-07 2.43723771595863E-16 1.21358190262244E-08 9.5751546431306E-17 7.33985016360955E-12 -180             
                               0.00111283854886857 180              3.33624357168722E-09 -180             3.31603291203128E-07 -180             1.00005089804531E-07 180              
                               6.72601270200694E-10 180              7.20381499047178E-08 1.33729933573517E-15 1.24424323022515E-07 1.35190403837519E-14 1.07891362729797E-08 3.88721760549629E-16 
                               4.91040812132046E-09 3.09576170706608E-16 8.81542349729666E-12 3.47633994570855E-16 1.14471160881238E-08 -180             4.63089765796064E-09 -180             
                               3.9133488277365E-18 -8.17687524330854E-16 
                               5.60463696070378E-08 1.62458638152682E-19 1.28357229894485E-07 -180             2.46000026363307E-09 180              4.03349355203873E-08 2.94367877451401E-19 
                               5.85335733539305E-09 7.12734116151156E-20 3.27759455512846E-08 -180             1.63517913490948E-09 180              2.31392989477579E-12 3.16058578774994E-14 
                               3.33624357168722E-09 -180             0.00115547108659852 -180             5.81425068481927E-08 180              2.7927665795713E-07 180              
                               1.13798043404284E-09 3.35251451980913E-19 5.91232244882742E-08 180              3.59159109185453E-08 -180             3.94230800396502E-08 -1.59740342012283E-20 
                               1.71616165940394E-08 -180             5.15749895155463E-12 -1.08315589228486E-19 4.35995368974282E-08 -2.1130275176427E-20 8.86403530977101E-10 -5.61555458317615E-20 
                               3.11969583743941E-19 180              
                               1.99856896737558E-06 -2.71728827668806E-22 7.04235538378693E-07 180              3.43396568934382E-09 -180             3.69866182984859E-07 -180             
                               3.41262638033395E-08 -5.84484212674366E-20 4.55536791892188E-07 -180             3.2467658646437E-07 -180             4.65089094503324E-11 1.92025564867643E-14 
                               3.31603291203128E-07 -180             5.81425068481925E-08 180              0.000483104604773521 -180             2.51595169366649E-06 -2.63222300154647E-14 
                               3.02395365862109E-09 -1.41425754952007E-18 6.94497058132941E-07 180              1.98130119637699E-06 -180             2.70729300024258E-08 3.84556894196333E-19 
                               1.59782855182322E-08 180              8.6988752175507E-11 2.59740509863541E-19 7.48987758134571E-08 180              1.14207946483144E-08 180              
                               1.26016653680572E-17 180              
                               7.44125427330696E-07 -1.08109902722211E-14 5.61398787610661E-08 180              5.19085353520195E-09 -2.40886205075404E-14 3.76082910641601E-06 -1.24260945391789E-14 
                               3.33311927716916E-08 -1.07869371844898E-14 3.18783755876396E-07 -1.13343646946512E-14 2.89309175440537E-07 -1.11430227789571E-14 1.39656803141028E-10 -180             
                               1.00005089804531E-07 -180             2.79276657957129E-07 180              2.5159516936665E-06 -1.18042537565363E-14 0.00112750358234859 -179.99999999999 
                               5.68142012262954E-08 -1.16466292592313E-14 2.42879769782743E-06 4.0108179886998E-14 4.03861844669659E-06 4.63038982040067E-15 1.11242524164138E-07 180              
                               1.17004602651587E-06 180              2.1237593506923E-10 180              1.21616189176396E-07 180              5.9637368924699E-09 180              
                               2.10563553921938E-17 180              
                               8.08730712512203E-09 -1.21704321037209E-19 6.72155604273391E-09 180              9.94553923665272E-11 180              8.81283548594625E-08 -1.95770569533218E-20 
                               1.20132245347973E-09 -4.98066552828401E-20 3.6216766170224E-09 180              7.10218189799916E-10 -3.93819607696889E-19 6.78604903859184E-13 -180             
                               6.72601270200696E-10 -180             1.13798043404284E-09 1.88837291776708E-19 3.02395365862109E-09 -9.38551120429901E-19 5.68142012262953E-08 -1.47184529954112E-14 
                               0.00052666036190141 -180             3.66060056039621E-08 7.7141284999767E-15 1.54835540381145E-08 1.14540330601908E-14 1.10469039771816E-09 5.66726675549195E-20 
                               3.25973705561974E-11 180              1.23728277566898E-11 -2.05106636876743E-21 1.88835312538417E-10 5.41138842214027E-19 1.13315532479634E-11 4.76498791160191E-19 
                               1.39084858218026E-19 180              
                               7.92885739232004E-07 180              5.39755590854892E-07 -1.03218864230895E-14 6.699153963514E-09 -1.13648196930051E-14 2.48513615858502E-06 -1.25823875286572E-15 
                               5.74226164701853E-08 180              6.75803957597894E-07 -1.00082378791667E-15 1.0964860048299E-07 180              5.57871129709469E-11 6.8995955186948E-15 
                               7.20381499047178E-08 1.7554881328151E-15 5.91232244882742E-08 180              6.94497058132942E-07 180              2.42879769782742E-06 8.08331618392817E-15 
                               3.6606005603962E-08 -1.37505443038275E-15 0.000519609877883798 -179.999999999994 3.33712761670125E-06 -180             7.56798040583272E-08 180              
                               1.11479366627217E-07 180              4.39732390175798E-10 180              2.30061561027392E-10 -2.80026579250505E-15 2.05438140161597E-10 180              
                               8.78804707407672E-18 1.07293451950988E-15 
                               1.39553573105972E-06 -180             7.65820405168624E-07 9.17837501789168E-15 7.75398479263385E-09 9.79091664798157E-15 5.38987562571096E-06 1.33456430863632E-14 
                               4.01430985122051E-08 -180             2.30579405675034E-06 1.28881608077972E-14 3.15133005549147E-08 1.29520338962649E-14 1.32759956515889E-10 2.70227918797103E-14 
                               1.24424323022514E-07 1.22652845867325E-14 3.59159109185453E-08 -180             1.98130119637699E-06 -180             4.03861844669659E-06 2.05276803960315E-15 
                               1.54835540381145E-08 1.27000446783939E-14 3.33712761670126E-06 180              0.000291743669445399 179.999999999951 8.02759901593759E-08 -180             
                               8.09387834218299E-08 -180             3.17215142191941E-10 -180             1.82011245562802E-08 1.23935393732048E-14 1.24636156013743E-09 1.2990895079724E-14 
                               8.24700317733194E-18 -2.58328956474521E-15 
                               1.26098386204954E-07 -180             1.99932113921144E-07 -1.04910921566455E-14 2.32287285926085E-09 1.28742140520164E-14 9.83407600700599E-08 -180             
                               1.09310929194696E-08 4.20276825785769E-20 1.91868820527502E-08 -180             4.97401741341953E-09 180              6.30011489657372E-12 9.23655376812068E-15 
                               1.07891362729798E-08 3.16055000709933E-16 3.94230800396503E-08 -1.61202389363386E-20 2.70729300024256E-08 5.53179991702909E-19 1.11242524164138E-07 180              
                               1.10469039771816E-09 1.53986720605535E-19 7.56798040583271E-08 180              8.02759901593759E-08 -180             0.000767261969251809 -180             
                               1.25577928488376E-08 -180             4.73437494162237E-11 -1.10083391143426E-21 6.13184739238052E-08 -180             6.98514389016003E-10 -180             
                               3.10449626810941E-18 -8.37811094792434E-15 
                               5.42555008068988E-08 180              5.01761535328744E-08 -7.55126289465967E-15 7.40247186677501E-10 -2.99186423742018E-15 2.57020623642874E-07 180              
                               6.26913359695784E-09 180              1.23245066844381E-08 1.45591430574076E-19 4.97504642407815E-09 180              3.52335431264865E-12 1.43250934605751E-14 
                               4.91040812132047E-09 1.24878934114719E-14 1.71616165940395E-08 -180             1.59782855182322E-08 180              1.17004602651587E-06 180              
                               3.25973705561969E-11 180              1.11479366627217E-07 -180             8.09387834218298E-08 180              1.25577928488376E-08 -180             
                               0.0012687410081309 -180             5.86077265456081E-12 -180             2.2964905339543E-09 -180             1.12883088419684E-10 -180             
                               9.78097689134418E-19 -4.10576692438388E-15 
                               1.27974585287411E-10 180              6.09181181127096E-11 -2.84068344503207E-15 4.86244354675918E-13 -7.11967280715448E-15 4.5670703327268E-09 -180             
                               8.49756480830523E-11 180              1.51590470980757E-10 -8.78510671679241E-20 1.32114780097185E-11 180              1.20320545039613E-14 3.4717021710172E-14 
                               8.81542349729665E-12 1.00881738600721E-15 5.15749895155462E-12 -8.38292902373671E-20 8.69887521755072E-11 2.17008814255091E-19 2.1237593506923E-10 180              
                               1.23728277566898E-11 2.83278168994432E-21 4.39732390175799E-10 180              3.1721514219194E-10 -180             4.73437494162238E-11 4.80191701147282E-21 
                               5.86077265456078E-12 -180             0.00122973685495409 180              1.60812792727012E-11 -180             7.98098560381995E-13 -180             
                               1.72355958105351E-22 1.5389981370589E-14 
                               1.39963608408663E-07 9.47475153164271E-20 2.10622656883542E-07 180              2.41690417158687E-09 3.83846852854653E-15 7.60249859772084E-08 1.35132455320608E-19 
                               1.87865118590744E-09 -180             1.46394786209659E-08 180              1.73186703742381E-09 5.50043788584101E-19 1.5165280974224E-12 -180             
                               1.14471160881238E-08 180              4.35995368974282E-08 -2.73582093055229E-20 7.48987758134569E-08 180              1.21616189176396E-07 180              
                               1.88835312538417E-10 7.02824130341143E-19 2.30061561027401E-10 -2.47985428151699E-13 1.82011245562802E-08 -9.27863278909E-16 6.13184739238052E-08 180              
