! Touchstone file exported from HFSS 2020.2.0
!        Generated:      11:11:51  avr. 27, 2020
!        Design:         test
!        Project:        test_multiport
!        Setup:          Setup1
!        Solution:       Sweep
!
!Data is not renormalized
# GHZ S MA
! Terminal data exported
! Port[1] = 1
! Port[2] = 2
! Port[3] = 3
! Port[4] = 4
! Port[5] = 5
! Port[6] = 6
! Port[7] = 7
! Port[8] = 8
0.9                            0.000107597644213642 -180             3.28648843347138E-06 2.62357726589268E-23 1.24109555486626E-08 -4.94871379966271E-22 7.12065560316505E-07 -4.75260951090022E-15 
                               3.74870084828352E-08 8.94164763108694E-21 2.06050468674334E-06 180              7.7656141639855E-08 -180             1.42573975176173E-10 9.55712721604485E-22 
                               3.28648843347137E-06 6.14869003472474E-22 0.000423823926252176 -180             2.12643788348317E-08 180              6.57348367695453E-08 180              
                               1.13191643934172E-07 -180             5.8564591381929E-07 -1.13097029884035E-20 4.23864968931995E-08 9.31678217705366E-21 5.5518935057439E-11 -180             
                               1.24109555486626E-08 -3.71892920388643E-21 2.12643788348317E-08 180              0.000249147537086492 -180             5.61687262464874E-09 -1.48064739997887E-14 
                               3.31932633687156E-09 180              2.56141571351239E-09 5.79845640961326E-20 3.50965788918652E-10 -2.71181768289132E-20 4.6958902881435E-13 180              
                               7.12065560316505E-07 -1.43580367815873E-15 6.57348367695451E-08 180              5.61687262464876E-09 -1.48393003685608E-15 0.000128139000870275 -3.66892809458712E-11 
                               2.60050212034799E-07 180              2.34949601591651E-06 180              1.36354015611198E-07 -2.32274273430173E-15 1.77320317785276E-10 180              
                               3.74870084828353E-08 6.53828638620755E-20 1.13191643934173E-07 -180             3.31932633687156E-09 180              2.60050212034799E-07 180              
                               0.0021809677127308 -180             4.42829396227775E-08 -1.78684932509554E-19 1.32567641743551E-09 180              1.42773448964225E-12 -4.14311695158613E-19 
                               2.06050468674334E-06 -180             5.8564591381929E-07 -5.40535042791701E-24 2.5614157135124E-09 -1.47338265892195E-21 2.34949601591651E-06 180              
                               4.42829396227774E-08 1.57479578185904E-22 0.000238589627857833 180              5.6351333953187E-08 3.14233553061822E-21 4.89900067441144E-10 180              
                               7.76561416398549E-08 -180             4.23864968931996E-08 1.35644612752088E-21 3.50965788918652E-10 -1.33291593829792E-20 1.36354015611197E-07 -9.32566262624511E-15 
                               1.32567641743551E-09 180              5.63513339531873E-08 3.28275687125235E-20 0.00152882778461327 -180             5.68012783752193E-12 180              
                               1.42573975176173E-10 3.45908175942468E-21 5.5518935057439E-11 -180             4.6958902881435E-13 180              1.77320317785277E-10 180              
                               1.42773448964225E-12 -1.36572800116449E-19 4.89900067441143E-10 -180             5.68012783752192E-12 180              0.000627267086258265 -180             
! Gamma         59.9338056596721 0                76.2426680314811 0                59.9339639666928 0                103.007061613058 0                76.241061701845  0                76.2412347637102 0                76.2414738146794 0                103.007393116446 0                
! Port Impedance         0                29.241597034313  0                57.3241435358409 0                58.4333022029353 0                28.362293405297  0                57.4756959055852 0                28.7412693885027 0                57.383554976752  0                56.6908544136588 
0.95                           0.000103407817064638 -180             3.4245713088973E-06 1.98615104061255E-24 1.38494118444707E-08 -1.89671488502448E-14 7.88563825318441E-07 -2.33671397537771E-24 
                               4.17135575277295E-08 2.54599288714833E-23 2.22950557914495E-06 -180             8.47738244716628E-08 -180             1.53850970399864E-10 -7.92004917582045E-15 
                               3.42457130889733E-06 2.10885231851905E-24 0.000421997720226663 -180             2.26501582549005E-08 180              7.08272883187377E-08 180              
                               1.22428979532668E-07 -180             6.35175300802435E-07 2.44260707171101E-24 4.64729622749277E-08 4.55020285481512E-24 6.04007771126065E-11 180              
                               1.38494118444708E-08 -1.41768097379805E-14 2.26501582549005E-08 180              0.000249346341851253 -179.999999999952 6.34195147150565E-09 -1.3896883592029E-14 
                               3.70087534217754E-09 180              2.94461735426845E-09 -1.44221608140114E-14 4.07306665431467E-10 -1.40765499909638E-14 5.41136726920913E-13 180              
                               7.88563825318444E-07 -2.29568332397164E-24 7.08272883187375E-08 180              6.34195147150563E-09 -1.8317068418031E-14 0.000136832146634402 -5.97788637970223E-27 
                               2.76924021911205E-07 180              2.48739699106554E-06 -180             1.4811756439702E-07 -3.57767077417339E-25 1.91629630014135E-10 180              
                               4.17135575277296E-08 2.47947543584825E-23 1.22428979532668E-07 -180             3.70087534217754E-09 180              2.76924021911204E-07 180              
                               0.00216710937835041 -180             4.73158446043947E-08 4.70418899011747E-24 1.49496251320455E-09 180              1.57528920436518E-12 -1.11846630849323E-15 
                               2.22950557914495E-06 -180             6.35175300802434E-07 3.18596164379289E-24 2.94461735426845E-09 -2.76284972125503E-14 2.48739699106554E-06 -180             
                               4.73158446043946E-08 6.76781515910416E-24 0.000236343787718973 -180             6.13700827317482E-08 -5.834142340831E-25 5.21464703261082E-10 180              
                               8.47738244716627E-08 -180             4.64729622749276E-08 4.11023124825459E-24 4.07306665431465E-10 -1.79902924108441E-14 1.4811756439702E-07 -3.48982454451115E-25 
                               1.49496251320455E-09 180              6.13700827317481E-08 -4.01832774677498E-25 0.00151767286466675 -180             6.39180159499684E-12 180              
                               1.53850970399863E-10 -2.42012744320469E-15 6.04007771126064E-11 180              5.41136726920914E-13 180              1.91629630014135E-10 180              
                               1.57528920436518E-12 -2.38322847308661E-15 5.21464703261081E-10 180              6.39180159499683E-12 180              0.000626232294234197 179.999999999999 
! Gamma         59.5938740312957 0                75.9757407977392 0                59.5940332413192 0                102.809646937255 0                75.9741288244305 0                75.9743024943425 0                75.9745423852035 0                102.809979077192 0                
! Port Impedance         0                31.0421934239019 0                60.7214022606352 0                62.0314183272148 0                29.9954622468366 0                60.8819434651699 0                30.4445975096486 0                60.7843371565658 0                59.9552487289633 
1                              9.86805524064716E-05 -180             3.57425203410871E-06 0                1.5556697597948E-08 0                8.79325966324392E-07 0                
                               4.6782060611295E-08 0                2.42512919721763E-06 -180             9.30565569366151E-08 -180             1.66729836311045E-10 0                
                               3.57425203410871E-06 0                0.000420045296009808 -180             2.41807920888058E-08 -180             7.67015955668394E-08 -180             
                               1.33117854254602E-07 -180             6.92714955513904E-07 0                5.12665390794994E-08 0                6.60607193822879E-11 -180             
                               1.5556697597948E-08 0                2.41807920888058E-08 -180             0.000249617493212728 -180             7.21991893800959E-09 0                
                               4.15503738764994E-09 -180             3.41683300761586E-09 0                4.77361313499295E-10 0                6.293121413286E-13 -180             
                               8.79325966324394E-07 0                7.67015955668389E-08 -180             7.21991893800959E-09 0                0.000146184673999628 0                
                               2.96120963530234E-07 -180             2.64363801620868E-06 -180             1.61779700000733E-07 0                2.08112625577238E-10 -180             
                               4.6782060611295E-08 0                1.33117854254602E-07 -180             4.15503738764995E-09 -180             2.96120963530235E-07 -180             
                               0.00215255586608221 -180             5.07400748142315E-08 0                1.69983963859699E-09 -180             1.75007201025241E-12 0                
                               2.42512919721764E-06 -180             6.92714955513904E-07 0                3.41683300761587E-09 0                2.64363801620868E-06 -180             
                               5.07400748142316E-08 0                0.000233926643705029 -180             6.72185880749876E-08 0                5.57099345316378E-10 -180             
                               9.30565569366149E-08 -180             5.12665390794996E-08 0                4.77361313499296E-10 0                1.61779700000733E-07 0                
                               1.69983963859699E-09 -180             6.72185880749876E-08 0                0.00150595526998587 -180             7.23903651896061E-12 -180             
                               1.66729836311045E-10 0                6.60607193822877E-11 -180             6.293121413286E-13 -180             2.08112625577238E-10 -180             
                               1.7500720102524E-12 0                5.57099345316378E-10 -180             7.23903651896058E-12 -180             0.000625153313033588 -180             
! Gamma         59.2334559188182 0                75.6933660751975 0                59.233616097585  0                102.601150000337 0                75.6917480882809 0                75.6919224060959 0                75.6921631919031 0                102.601482815217 0                
! Port Impedance         0                32.8748152399476 0                64.1557061755295 0                65.6935297571208 0                31.6383319910532 0                64.325335502811  0                32.1665003742529 0                64.2222033856885 0                63.2390331408727 
1.05                           9.33351440926857E-05 -180             3.73571236590307E-06 3.17908999079305E-23 1.75917495884931E-08 2.69071479245245E-14 9.87630781680588E-07 -3.5349989770841E-15 
                               5.29023536037595E-08 7.13959830944983E-21 2.65245465703611E-06 180              1.02730734957282E-07 180              1.8146234229168E-10 1.08383988585573E-14 
                               3.73571236590303E-06 4.91876530160827E-22 0.000417959351560788 -180             2.58623251195331E-08 -180             8.35063857623378E-08 180              
                               1.45535735231734E-07 -180             7.59852310673303E-07 -7.73428628896728E-21 5.69168158048434E-08 -3.22015446613197E-15 7.26472843495247E-11 -180             
                               1.75917495884929E-08 2.01114825787882E-14 2.5862325119533E-08 -180             0.000249973772554157 179.999999999935 8.29055062248071E-09 1.19024780799327E-14 
                               4.6985547320616E-09 -180             4.00356937615334E-09 2.12405916317663E-14 5.65233315112118E-10 1.83654886332759E-14 7.38842943385332E-13 -180             
                               9.87630781680587E-07 -6.97289982316868E-16 8.3506385762337E-08 180              8.29055062248077E-09 2.60712251923966E-14 0.000156235504552371 -1.83941067231295E-11 
                               3.18018382962529E-07 180              2.82111290655671E-06 180              1.77710907510619E-07 -6.80474266115989E-15 2.27163528308185E-10 -180             
                               5.29023536037595E-08 4.31525967706772E-20 1.45535735231735E-07 -180             4.69855473206162E-09 -180             3.18018382962531E-07 180              
                               0.00213731593923385 -180             5.46068193688851E-08 -1.13990373595174E-19 1.9495618344358E-09 180              1.95835836069783E-12 1.60273513480203E-15 
                               2.65245465703613E-06 180              7.59852310673304E-07 -4.70119315990949E-22 4.00356937615337E-09 4.06904932974829E-14 2.82111290655671E-06 180              
                               5.46068193688852E-08 -2.15348365210878E-20 0.000231325879206973 -180             7.40636686561866E-08 -3.92043428399108E-15 5.97392041075699E-10 -180             
                               1.02730734957282E-07 180              5.69168158048438E-08 -1.522706678435E-15 5.65233315112123E-10 2.53759646671188E-14 1.77710907510618E-07 -7.70039144113896E-15 
                               1.9495618344358E-09 180              7.4063668656187E-08 -9.87315534258051E-16 0.00149368181568208 -180             8.25266923005987E-12 -180             
                               1.8146234229168E-10 3.31189144354339E-15 7.26472843495244E-11 -180             7.3884294338533E-13 -180             2.27163528308185E-10 180              
                               1.95835836069782E-12 3.41553005468381E-15 5.97392041075699E-10 -180             8.25266923005982E-12 180              0.000624032126753737 -179.999999999998 
! Gamma         58.8521749380361 0                75.3953702998033 0                58.8523361545376 0                102.381503096224 0                75.3937459177508 0                75.3939209245745 0                75.3941626621071 0                102.381836625116 0                
! Port Impedance         0                34.7421868679424 0                67.6297380904179 0                69.4250805111224 0                33.2915174066143 0                67.8085620441542 0                33.9083231820123 0                67.6998392969366 0                66.5434364429284 
1.1                            8.72740087195512E-05 -180             3.9088738930966E-06 1.11789774886597E-22 2.00271591765495E-08 -1.1565089735436E-21 1.11765741577254E-06 -7.25085712223794E-15 
                               6.03467310649171E-08 1.57488112724327E-20 2.91777091410118E-06 180              1.14074334694737E-07 180              1.98343428348496E-10 4.62609991466945E-21 
                               3.9088738930966E-06 1.15889363712439E-21 0.000415731087705873 -180             2.76968105330471E-08 180              9.14275918042627E-08 180              
                               1.6002702097422E-07 -180             8.38570901403711E-07 -1.43468141109814E-20 6.36117854771411E-08 -1.53794783946112E-14 8.03434878319347E-11 -180             
                               2.00271591765495E-08 -2.45375159601092E-21 2.76968105330471E-08 180              0.000250429728112622 -180             9.60543152042679E-09 -9.12498236273459E-15 
                               5.3525746257789E-09 180              4.73841642355612E-09 2.98720113744786E-20 6.76352511097263E-10 -1.22165850261943E-14 8.7591448620451E-13 180              
                               1.11765741577254E-06 -4.07976872928952E-16 9.1427591804262E-08 180              9.60543152042682E-09 1.29242213417544E-16 0.000167028441608208 -2.89813099692178E-11 
                               3.43073156299418E-07 180              3.023329759968E-06 180              1.96370462606773E-07 -2.77530220163269E-14 2.49265517432906E-10 180              
                               6.03467310649172E-08 6.98767696649983E-20 1.6002702097422E-07 -180             5.3525746257789E-09 180              3.43073156299418E-07 180              
                               0.00212139886327833 -180             5.89731969193477E-08 -1.97451899336591E-19 2.25614512337687E-09 180              2.20820474596564E-12 -4.4820395144475E-19 
                               2.91777091410119E-06 180              8.38570901403711E-07 -2.20522132604912E-21 4.73841642355612E-09 3.36780901021474E-20 3.023329759968E-06 180              
                               5.89731969193475E-08 -1.00999875396934E-19 0.000228526923665595 -180             8.21132712489525E-08 -1.86788560178806E-14 6.43036549970956E-10 -180             
                               1.14074334694737E-07 180              6.36117854771411E-08 -7.27245073795397E-15 6.76352511097263E-10 -6.24268843784314E-15 1.96370462606773E-07 -1.81729136885996E-14 
                               2.25614512337686E-09 180              8.21132712489528E-08 -4.70411530289216E-15 0.00148085976789936 -179.999999999999 9.47135536045081E-12 180              
                               1.98343428348496E-10 1.70934846116554E-20 8.03434878319344E-11 -180             8.7591448620451E-13 180              2.49265517432907E-10 180              
                               2.20820474596564E-12 -4.62154378461103E-19 6.43036549970956E-10 -180             9.4713553604508E-12 180              0.00062287086325663 -180             
! Gamma         58.4496228098157 0                75.0815674737618 0                58.449785136639  0                102.15063430011  0                75.0799363024698 0                75.0801120407636 0                75.0803547886719 0                102.150968582801 0                
! Port Impedance         0                36.6472437622644 0                71.1463155678494 0                73.2319363724978 0                34.9556509827194 0                71.3344482340814 0                35.6714787025265 0                71.2200654190073 0                69.8697228480168 
