! Touchstone file exported from HFSS 2020.2.0
!        Generated:      11:12:33  avr. 27, 2020
!        Design:         test
!        Project:        test_multiport
!        Setup:          Setup1
!        Solution:       Sweep
!
!Data is not renormalized
# GHZ S MA
! Terminal data exported
! Port[1] = 1
! Port[2] = 2
! Port[3] = 3
! Port[4] = 4
! Port[5] = 5
! Port[6] = 6
0.9                            0.000160979977795184 180              2.95527167325092E-06 -5.60604403541621E-21 1.23298521066732E-08 -3.0659171178643E-15 7.01038755773221E-07 9.38724223188724E-20 
                               3.827514159649E-08 9.74691565032886E-15 2.00282948281814E-06 -180             
                               2.95527167325092E-06 -4.7097084688752E-21 0.000497028379425668 180              2.3115171011363E-08 180              6.42267498610444E-08 -180             
                               1.15740451993196E-07 -180             5.73121059595111E-07 1.21241917832031E-14 
                               1.23298521066732E-08 -3.90963704796423E-15 2.3115171011363E-08 180              0.000268699097389802 -179.999999999996 5.66949611553455E-09 -3.81319098357995E-15 
                               3.55084487420799E-09 -180             2.54550400995946E-09 1.73607705359541E-14 
                               7.0103875577322E-07 8.47117036963819E-20 6.42267498610448E-08 -180             5.66949611553453E-09 2.92407581791148E-17 0.000118636483237622 180              
                               2.63235731628831E-07 -180             2.34186031253125E-06 -180             
                               3.82751415964898E-08 7.65290291317153E-15 1.15740451993195E-07 -180             3.55084487420799E-09 180              2.63235731628831E-07 -180             
                               0.00210178581110221 179.999999999995 4.56505532465817E-08 2.55202722853577E-14 
                               2.00282948281814E-06 -180             5.7312105959511E-07 8.51970684710217E-15 2.54550400995946E-09 3.21075822143995E-15 2.34186031253124E-06 -180             
                               4.56505532465816E-08 1.29741566154769E-14 0.000258148452358387 179.999999999965 
! Gamma         59.9338095302235 0                76.2416293772388 0                59.9340129404509 0                103.007033661573 0                76.2410645787626 0                76.2412142730186 0                
! Port Impedance         0                29.2410261781783 0                57.4063476947085 0                58.432316186448  0                28.3625952497    0                57.4751576222454 0                28.7416065471884 
0.95                           0.000156705944428626 180              3.07798635616061E-06 9.3947635982395E-15 1.375409738852E-08 1.50433413020488E-14 7.76069580080022E-07 -1.67715508121426E-21 
                               4.2550755024636E-08 -5.60273578946533E-20 2.16647289876047E-06 180              
                               3.0779863561606E-06 3.54550949251946E-15 0.000496449245643404 179.999999999986 2.46476312635494E-08 -180             6.93499177651709E-08 -180             
                               1.25049861493745E-07 -180             6.21624151398422E-07 3.4695882378354E-15 
                               1.375409738852E-08 2.51723628805746E-15 2.46476312635495E-08 -180             0.000268049095916933 179.999999999995 6.40035026257915E-09 3.19698296768276E-15 
                               3.95334629858419E-09 -180             2.92649107470062E-09 2.67859624409463E-15 
                               7.76069580080023E-07 7.74168913605185E-21 6.93499177651708E-08 180              6.40035026257915E-09 2.41313252566465E-15 0.000108541941255535 -180             
                               2.80316470867857E-07 -180             2.47965687148994E-06 180              
                               4.2550755024636E-08 -4.66103547220406E-20 1.25049861493746E-07 -180             3.95334629858421E-09 -180             2.80316470867858E-07 180              
                               0.00208884070541249 180              4.87242338527616E-08 -8.0996937398007E-21 
                               2.16647289876047E-06 180              6.21624151398423E-07 8.48224979474937E-15 2.92649107470063E-09 1.83129057011102E-14 2.47965687148995E-06 -180             
                               4.87242338527616E-08 -8.42596457781321E-21 0.000256212816028612 180              
! Gamma         59.5938779239256 0                75.9746984943203 0                59.5940824944286 0                102.809618932097 0                75.974131711456  0                75.9742819316576 0                
! Port Impedance         0                31.0415866826021 0                60.8084690300073 0                62.0303728223964 0                29.995781502813  0                60.8813731777456 0                30.4449546228051 
1                              0.000151931507436864 179.999999999968 3.21064069950364E-06 5.57893384032977E-15 1.54436793130512E-08 5.88366581627013E-15 8.65059491559819E-07 5.52681442594812E-15 
                               4.76738859554177E-08 5.65804975039262E-15 2.35584859080883E-06 -180             
                               3.21064069950365E-06 4.83989877974679E-15 0.000495825421222174 180              2.63468622678328E-08 180              7.52792717472304E-08 180              
                               1.35816495910505E-07 180              6.77978336144532E-07 2.94583219973978E-15 
                               1.54436793130512E-08 4.83989761179818E-15 2.63468622678328E-08 180              0.000267418618292492 180              7.28510431100905E-09 1.83027449728386E-21 
                               4.43184737450587E-09 180              3.39598409643252E-09 5.02010339727409E-15 
                               8.65059491559821E-07 4.83994204707861E-15 7.52792717472304E-08 180              7.28510431100903E-09 3.41361616179662E-21 9.77093648987237E-05 180              
                               2.99745973405113E-07 -180             2.63580500348766E-06 -180             
                               4.76738859554177E-08 4.83988271262255E-15 1.35816495910505E-07 180              4.43184737450587E-09 180              2.99745973405114E-07 -180             
                               0.00207522147007155 180              5.21912969858477E-08 5.51992914603182E-15 
                               2.35584859080883E-06 -180             6.77978336144533E-07 6.84855210114009E-15 3.39598409643252E-09 6.49357706269864E-15 2.63580500348767E-06 -180             
                               5.21912969858478E-08 5.80013254171086E-15 0.000254125073600897 179.999999999982 
! Gamma         59.2334598351334 0                75.6923198834036 0                59.2336656503832 0                102.60112193827  0                75.6917509860769 0                75.6919017666988 0                
! Port Impedance         0                32.8741718401461 0                64.2476869753475 0                65.6924239318102 0                31.6386687672205 0                64.3247328441915 0                32.1668776547423 
1.05                           0.00014658647721813 179.999999999953 3.3532422037929E-06 -7.58004982178885E-15 1.74565264926674E-08 -1.43967563462149E-14 9.71209468533911E-07 8.44353268346988E-15 
                               5.38547354383533E-08 9.49058680258043E-15 2.57585627463834E-06 -180             
                               3.35324220379292E-06 6.11136620078268E-16 0.000495152317283654 -179.999999999976 2.82227853242699E-08 180              8.21731371254346E-08 180              
                               1.48318144680363E-07 180              7.43741000823981E-07 4.302104690438E-15 
                               1.74565264926674E-08 1.56747347600722E-15 2.82227853242697E-08 180              0.000266819025283088 -179.999999999991 8.36372602588213E-09 -5.64649520911316E-15 
                               5.00373729316401E-09 180              3.97934201851511E-09 1.29144346026151E-14 
                               9.71209468533911E-07 7.76070181956602E-15 8.21731371254352E-08 -180             8.36372602588206E-09 -2.64615652498831E-15 8.60992379607886E-05 179.999999999984 
                               3.21905060144706E-07 180              2.813205878672E-06 -180             
                               5.38547354383532E-08 1.01700177463864E-14 1.48318144680361E-07 180              5.00373729316396E-09 180              3.21905060144706E-07 -180             
                               0.00206093222429698 179.999999999998 5.61025728068453E-08 1.97517931446305E-14 
                               2.57585627463835E-06 -180             7.43741000823981E-07 2.8475627128951E-15 3.97934201851509E-09 -1.36901152976162E-14 2.81320587867198E-06 -180             
                               5.61025728068453E-08 1.18565674561474E-14 0.000251873370064584 179.999999999953 
! Gamma         58.8521788797233 0                75.3943199729402 0                58.8523860283676 0                102.381474973954 0                75.3937488270008 0                75.3939002035984 0                
! Port Impedance         0                34.7415059660759 0                67.7266880324546 0                69.4239134697903 0                33.291871818525  0                67.8079266202807 0                33.9087208580238 
1.1                            0.000140585768701018 -179.999999999936 3.5055214803181E-06 -2.10147390403204E-14 1.98639161877648E-08 -1.09997962870046E-14 1.09859772580971E-06 -7.1560073064259E-15 
                               6.13658798903412E-08 -2.48690045349171E-14 2.83256130496491E-06 180              
                               3.5055214803181E-06 -1.40714552138647E-14 0.000494423822195444 -179.999999999987 3.02820435446621E-08 180              9.02309001724212E-08 -180             
                               1.62899669914716E-07 180              8.2085837673157E-07 -5.31773972289529E-15 
                               1.98639161877647E-08 -8.96126506618291E-15 3.02820435446621E-08 180              0.000266263348981166 -180             9.68802219130299E-09 3.29615557515862E-15 
                               5.69096203286591E-09 180              4.70995640446458E-09 1.41733592296665E-19 
                               1.09859772580971E-06 -4.50411355698308E-15 9.02309001724216E-08 -180             9.688022191303E-09 4.16681941966154E-15 7.366711007184E-05 179.999999999914 
                               3.47254666694551E-07 180              3.01537757193639E-06 -180             
                               6.13658798903412E-08 -9.80179339156324E-15 1.62899669914716E-07 180              5.69096203286589E-09 -180             3.47254666694551E-07 -180             
                               0.00204597731676925 179.999999999999 6.05146722164107E-08 -9.25711169531768E-16 
                               2.83256130496491E-06 180              8.20858376731569E-07 -4.57129275808502E-15 4.70995640446455E-09 1.45940390684326E-19 3.01537757193639E-06 -180             
                               6.05146722164105E-08 -1.65735604408933E-14 0.000249443608427935 -180             
! Gamma         58.4496267786504 0                75.0805127570041 0                58.4498353539559 0                102.150606114281 0                75.0799392238796 0                75.0800912331811 0                
! Port Impedance         0                36.6465244383222 0                71.2482936359007 0                73.2307071526414 0                34.9560231530682 0                71.3337796225344 0                35.6718970183342 
