! Touchstone file exported from HFSS 2020.2.0
!        Generated:      11:07:14  avr. 27, 2020
!        Design:         test
!        Project:        test_multiport
!        Setup:          Setup1
!        Solution:       Sweep
!
!Data is not renormalized
# GHZ S MA
! Terminal data exported
! Port[1] = 1
! Port[2] = 2
! Port[3] = 3
! Port[4] = 4
! Port[5] = 5
! Port[6] = 6
! Port[7] = 7
! Port[8] = 8
! Port[9] = 9
! Port[10] = 10
! Port[11] = 11
! Port[12] = 12
! Port[13] = 13
! Port[14] = 14
! Port[15] = 15
! Port[16] = 16
! Port[17] = 17
0.9                            0.000234364317486357 -179.999999999985 3.09358525566449E-06 -9.84922338544225E-16 1.2499514034942E-08 -9.94275063513562E-15 7.04314384465931E-07 1.73512856654108E-16 
                               3.94477105851414E-08 -2.45437614707058E-15 2.04334015835003E-06 180              7.25079465589374E-08 180              2.15633018971592E-10 -1.99919760068563E-15 
                               3.35977719804892E-07 -2.61415503454878E-15 4.43957693028733E-08 -2.26210110328775E-15 1.69057823055614E-06 -1.90488816028967E-15 6.0074257735668E-07 -1.68681443730979E-15 
                               5.98665073204271E-09 6.75337038911505E-15 6.39785251506516E-07 180              1.13721765792012E-06 180              1.16625703088533E-07 180              
                               4.22405829086831E-08 180              
                               3.0935852556645E-06 3.07361228711736E-15 0.000446898154169984 179.999999999983 2.13788391285986E-08 -180             5.23272006697743E-08 180              
                               1.15461295340853E-07 -180             5.67392249381483E-07 6.07032559608941E-15 3.93155267629775E-08 5.65321553263964E-15 7.91157734661465E-11 -180             
                               2.27504005203533E-07 -180             1.09491421021913E-07 -180             5.99834732744577E-07 -180             4.73896765810849E-08 -180             
                               5.23443910233534E-09 -180             4.48154887590691E-07 6.0131514244453E-15 6.23723647295389E-07 5.6250753088417E-15 2.01885057922564E-07 3.76360546612187E-16 
                               4.17049521484218E-08 5.43518900473327E-15 
                               1.2499514034942E-08 -7.76986295323194E-16 2.13788391285987E-08 180              0.000323136068530627 -179.999999999993 5.62109311932209E-09 -5.01689519110648E-15 
                               3.37909480938887E-09 180              2.62871026471075E-09 -3.51423401238522E-15 3.36537427076998E-10 -3.54400099080274E-15 6.20350528167277E-13 180              
                               9.8177131393551E-10 180              2.06565122065944E-09 180              2.72835882365424E-09 180              4.26911861559855E-09 -3.08317822047872E-15 
                               7.66063459893893E-11 180              5.40131371542657E-09 -3.44418014325555E-15 6.00194361958636E-09 -3.38960893452359E-15 2.1056908036734E-09 -1.88233222985645E-14 
                               6.13898971032657E-10 -3.25578860450158E-15 
                               7.0431438446593E-07 6.19806057542229E-15 5.23272006697749E-08 180              5.62109311932209E-09 -1.94159329412629E-14 0.000145736587993772 179.999999999989 
                               2.70906604641389E-07 180              2.34395809600859E-06 180              1.30130615293679E-07 -1.3294507258113E-15 1.14909116092628E-10 180              
                               7.52564180485965E-08 180              3.22483337403844E-08 -1.78869450403261E-15 3.05975166870892E-07 180              3.33062345115052E-06 -2.67591460785846E-15 
                               7.44396434698279E-08 -5.65720371369828E-15 2.28736150465144E-06 -2.85242444754513E-15 4.70623220544258E-06 -2.96210909204662E-15 8.74820060125633E-08 180              
                               2.21113283102046E-07 180              
                               3.94477105851414E-08 -1.12054751960766E-15 1.15461295340853E-07 -180             3.37909480938887E-09 180              2.70906604641389E-07 180              
                               0.0020675991640503 -180             4.53653501355745E-08 -7.2195149956247E-20 1.23061232439076E-09 180              3.07584526356248E-13 -180             
                               2.18772375198385E-09 180              4.78580653639059E-09 1.98016350976219E-20 2.75161256849297E-08 -1.50397070382568E-21 2.93126444913727E-08 1.48769798285105E-19 
                               9.54980901549132E-10 5.08749012634655E-15 4.70017072440146E-08 180              3.08778471111382E-08 180              1.06702111639868E-08 -4.42588692982223E-15 
                               5.25492131763557E-09 -180             
                               2.04334015835004E-06 -180             5.67392249381483E-07 3.3414793534745E-15 2.62871026471075E-09 6.83243785266102E-15 2.3439580960086E-06 -180             
                               4.53653501355744E-08 4.12472566984254E-21 0.000463104124580838 180              5.29506566211501E-08 -3.78724106140772E-21 4.94498414755746E-10 -180             
                               9.84818623727861E-08 -1.18047314318444E-20 2.58041880093722E-08 -180             3.84926615680713E-07 -180             2.6043032762057E-07 -2.29507778553684E-20 
                               2.78006197579433E-09 -180             5.69694604752346E-07 3.8818673964197E-21 1.95674388660535E-06 2.01480036553413E-21 1.84772809050641E-08 180              
                               9.77925563981965E-09 5.61661257161944E-20 
                               7.25079465589375E-08 -180             3.93155267629776E-08 6.66388252158154E-15 3.36537427076998E-10 -2.21628401445212E-15 1.30130615293679E-07 -5.12474077690893E-15 
                               1.23061232439076E-09 180              5.29506566211501E-08 6.13679958060652E-20 0.00106486403470263 -180             1.22984788239847E-11 180              
                               1.15728046579992E-08 2.69461190372346E-22 1.25280144234278E-09 -180             2.76815754687967E-07 -180             2.41863279219752E-07 -1.73782516107571E-20 
                               5.48121036111561E-10 -1.79731426041274E-14 9.64695414411291E-08 -180             2.50049204069903E-08 -180             4.30708640581704E-09 180              
                               3.95138183924288E-09 180              
                               2.15633018971593E-10 1.14246993387195E-15 7.91157734661466E-11 180              6.20350528167277E-13 180              1.14909116092628E-10 180              
                               3.07584526356249E-13 -180             4.94498414755745E-10 -180             1.22984788239847E-11 180              0.00245113781806028 -180             
                               9.00012222508501E-12 -180             2.27776676270042E-12 1.85404194764384E-20 4.67112825245378E-11 -2.88810293052574E-21 1.24772502537204E-10 180              
                               5.25923801067908E-13 180              4.41965968718774E-11 1.34359834645016E-19 8.99160278872054E-11 1.3660830428124E-19 6.01420878937818E-12 -7.56027383618516E-15 
                               2.80051659034046E-12 -2.04986535826897E-19 
                               3.35977719804892E-07 1.08250435377179E-14 2.27504005203533E-07 -180             9.81771313935511E-10 180              7.52564180485966E-08 -180             
                               2.18772375198385E-09 180              9.8481862372786E-08 -8.62499166903366E-20 1.15728046579992E-08 -2.91300283380127E-20 9.00012222508498E-12 180              
                               0.00166786482241565 180              3.28815984743288E-09 180              3.30379593908897E-07 180              9.14047870758009E-08 180              
                               5.76264643605028E-10 180              6.76247631870436E-08 -4.46813538658383E-20 1.17765104705512E-07 -4.33831561913036E-20 1.15379689979762E-08 -5.40019985477623E-15 
                               4.43896527416584E-09 -4.09147408617836E-20 
                               4.43957693028733E-08 -1.87067363893549E-15 1.09491421021913E-07 180              2.06565122065944E-09 180              3.22483337403844E-08 -8.46253464373931E-16 
                               4.78580653639058E-09 -6.91384333709694E-21 2.58041880093723E-08 180              1.25280144234279E-09 180              2.27776676270042E-12 -1.40239632211316E-20 
                               3.28815984743289E-09 -180             0.0011824530986243 -180             5.06289909262758E-08 -180             2.44370121754229E-07 -180             
                               8.85886813605136E-10 1.34309177976454E-14 4.87314061480287E-08 -180             2.82930953442735E-08 -180             3.83298413345949E-08 -7.27438297878623E-15 
                               1.46097604833402E-08 180              
                               1.69057823055615E-06 -1.68712259141135E-14 5.99834732744576E-07 180              2.72835882365424E-09 -180             3.05975166870892E-07 -180             
                               2.75161256849297E-08 -3.04129224579914E-20 3.84926615680714E-07 180              2.76815754687967E-07 180              4.67112825245378E-11 -1.20723699981991E-19 
                               3.30379593908897E-07 -180             5.06289909262758E-08 -180             0.00230557688110156 -180             2.24648106899503E-06 -1.06256062715388E-20 
                               2.34215735886711E-09 8.8446585650693E-15 5.90150109240683E-07 180              1.68208113498112E-06 180              2.29657428318272E-08 8.10063805580276E-16 
                               1.28181010493511E-08 180              
                               6.00742577356679E-07 -3.67500913482994E-15 4.73896765810851E-08 -180             4.26911861559854E-09 1.21760490018159E-14 3.33062345115052E-06 -1.09919587718335E-14 
                               2.93126444913726E-08 4.65793009044848E-19 2.60430327620571E-07 4.61332016792856E-19 2.41863279219753E-07 -2.48447766827535E-20 1.24772502537205E-10 180              
                               9.14047870758011E-08 180              2.44370121754229E-07 -180             2.24648106899503E-06 6.3517624071332E-21 0.00102861335934878 -180             
                               4.79066031600345E-08 2.6406696286689E-15 2.23072085150278E-06 -5.27828979229969E-20 3.48829636375815E-06 -6.97818204291948E-20 1.11630993373913E-07 180              
                               1.0495068676613E-06 180              
                               5.98665073204271E-09 -4.09674979934076E-15 5.23443910233533E-09 180              7.66063459893892E-11 180              7.44396434698279E-08 -2.61406806347759E-15 
                               9.54980901549132E-10 1.70595197594776E-15 2.78006197579433E-09 -180             5.48121036111561E-10 9.40712606172169E-16 5.25923801067909E-13 -180             
                               5.76264643605029E-10 -180             8.85886813605135E-10 1.14297556501545E-15 2.34215735886711E-09 3.38572844737087E-16 4.79066031600345E-08 1.25628611720306E-15 
                               0.000499675367996999 -179.999999999995 3.25717855483578E-08 1.33412747552502E-15 1.26208598699476E-08 1.98103438116351E-16 1.01414954135997E-09 -6.18156674625564E-15 
                               1.73246275037989E-10 1.2925061985842E-15 
                               6.39785251506516E-07 180              4.48154887590692E-07 2.46937984607478E-15 5.40131371542657E-09 -5.97120286547157E-15 2.28736150465143E-06 -6.45366486922644E-15 
                               4.70017072440146E-08 180              5.69694604752348E-07 9.45165133554556E-20 9.64695414411292E-08 -180             4.41965968718776E-11 7.22334344952309E-20 
                               6.76247631870438E-08 3.43862122302582E-20 4.87314061480288E-08 -180             5.90150109240682E-07 180              2.23072085150279E-06 -3.63494617922047E-20 
                               3.25717855483579E-08 2.17026767791925E-16 0.000588458087036114 -180             3.08426297349246E-06 -180             7.12989853992195E-08 180              
                               1.00541401298188E-07 180              
                               1.13721765792013E-06 180              6.23723647295391E-07 -2.69580621120806E-16 6.00194361958636E-09 -7.06340059918942E-16 4.70623220544259E-06 -6.96748997893552E-15 
                               3.08778471111381E-08 180              1.95674388660535E-06 5.97042988441971E-20 2.50049204069908E-08 -180             8.99160278872054E-11 7.61872898925283E-20 
                               1.17765104705512E-07 4.35707381311634E-20 2.82930953442734E-08 -180             1.68208113498112E-06 180              3.48829636375814E-06 -5.02177484237917E-20 
                               1.26208598699476E-08 -6.10931979273172E-15 3.08426297349245E-06 -180             0.000391512163294028 -180             7.14313819286599E-08 180              
                               6.69956859400959E-08 180              
                               1.16625703088533E-07 180              2.01885057922563E-07 -8.72408153087853E-16 2.10569080367339E-09 -1.76009495577096E-14 8.74820060125635E-08 180              
                               1.06702111639867E-08 -6.89519396260794E-15 1.84772809050641E-08 180              4.30708640581706E-09 180              6.0142087893782E-12 -6.84873038042444E-15 
                               1.15379689979763E-08 -6.58633621030107E-15 3.8329841334595E-08 -6.72706389528729E-15 2.29657428318272E-08 -6.44235361009833E-15 1.11630993373913E-07 180              
                               1.01414954135997E-09 -5.48218225762468E-15 7.12989853992192E-08 180              7.14313819286599E-08 180              0.00105789041320958 -179.999999999996 
                               1.23613314469752E-08 180              
                               4.2240582908683E-08 180              4.17049521484219E-08 1.37511316942183E-15 6.13898971032658E-10 -1.08387260310133E-15 2.21113283102046E-07 180              
                               5.25492131763559E-09 -180             9.77925563981968E-09 -4.3173676193048E-19 3.95138183924288E-09 180              2.80051659034047E-12 -6.84158732151447E-20 
                               4.43896527416584E-09 -1.93497404876881E-20 1.46097604833403E-08 180              1.28181010493511E-08 -180             1.0495068676613E-06 180              
                               1.73246275037988E-10 -2.52871654296749E-14 1.00541401298188E-07 180              6.69956859400959E-08 180              1.23613314469752E-08 -180             
                               0.00120204659448653 -180             
! Gamma         59.9338188238796 0                76.2426172904916 0                59.9339037702045 0                103.007062488365 0                76.2410685826985 0                76.2412772063756 0                76.2414274227971 0                103.007378555622 0                103.007366260799 0                76.241135352991  0                76.2411953015421 0                103.007100666905 0                59.9337666602888 0                76.2415286730091 0                59.933757171541  0                103.007724677976 0                76.2419574140406 0                
! Port Impedance         0                29.2396382375505 0                57.3161250812704 0                58.4323691330057 0                28.3623048952822 0                57.4764772631767 0                28.7408830646568 0                57.3958277530531 0                56.6833676337675 0                56.7001602920457 0                57.4738464637635 0                28.7424291730125 0                28.362823234232  0                58.4899503659703 0                57.4039055163438 0                29.2481515067892 0                56.6711647101879 0                57.3320051805724 
0.95                           0.00023070485689991 179.999999999979 3.22395205331034E-06 4.56459729328125E-15 1.39408909374156E-08 9.78088704306656E-15 7.79830268388249E-07 4.73408735462544E-15 
                               4.38565242654184E-08 4.4049129793754E-15 2.21110935936805E-06 -180             7.92173676292872E-08 -180             2.32976388016587E-10 4.80702340412702E-15 
                               3.30303963686034E-07 8.73490685550437E-16 4.94925429769749E-08 4.30040593283873E-15 1.83611603654573E-06 4.9321709532008E-14 6.65139298890544E-07 4.90119650778289E-15 
                               6.98887905609187E-09 4.91282523958209E-15 7.08293371455041E-07 -180             1.25579809926111E-06 -180             1.26308181924985E-07 -180             
                               4.76858660843387E-08 -180             
                               3.22395205331034E-06 2.43129554444861E-15 0.000444455200014793 180              2.2762605298724E-08 180              5.65172436260036E-08 180              
                               1.24776530561152E-07 -180             6.15604961336856E-07 -1.73724970252646E-21 4.31425965733524E-08 2.36422769985815E-19 8.60346705755594E-11 -180             
                               2.36016766100841E-07 180              1.18239362356591E-07 180              6.50174909765502E-07 -180             5.09914608443094E-08 -180             
                               5.97363094021485E-09 -180             4.90246977076393E-07 4.18485505174561E-20 6.90295728063318E-07 8.32427139203117E-20 2.09070477435151E-07 -8.20250330840788E-21 
                               4.57279829524522E-08 1.17300567523642E-21 
                               1.39408909374156E-08 6.65317489133357E-15 2.27626052987239E-08 -180             0.000322572429191648 179.999999999997 6.34797786296065E-09 2.40813468316009E-15 
                               3.76519649214602E-09 -180             3.02150493938409E-09 2.2243474136941E-15 3.9078882840363E-10 2.12879503429537E-15 7.14758430270786E-13 -180             
                               1.0923883209129E-09 180              2.31484792704821E-09 -180             3.13322596505549E-09 -180             4.85035988016935E-09 3.3637654408083E-15 
                               9.02995559833835E-11 -180             6.15757611521076E-09 2.8592662692808E-15 6.99467137804423E-09 1.98683649103257E-15 2.10343806532527E-09 2.27435698874557E-15 
                               6.92889807044707E-10 2.10974684352282E-15 
                               7.79830268388247E-07 1.51530331467617E-14 5.65172436260031E-08 180              6.34797786296065E-09 -2.28205657298175E-15 0.000135497714356503 180              
                               2.88163551104191E-07 180              2.48141131036619E-06 -180             1.41442467132727E-07 1.71029275790993E-20 1.2541014183511E-10 180              
                               8.2052660602709E-08 180              3.57725585475452E-08 3.4513027244339E-20 3.3608397167696E-07 -180             3.53160180460234E-06 -6.40380408129404E-21 
                               8.13613883882657E-08 6.21811874812584E-22 2.37952065261342E-06 1.62086611744515E-22 5.03745592963525E-06 1.25080361938432E-21 9.47490713663567E-08 -180             
                               2.38013989061359E-07 -180             
                               4.38565242654184E-08 -5.22182119301828E-15 1.24776530561152E-07 -180             3.76519649214601E-09 180              2.88163551104191E-07 -180             
                               0.00205512863913859 180              4.8443969434834E-08 -6.30290970469078E-21 1.3893138386222E-09 -180             3.06046456297933E-13 180              
                               2.39640302743923E-09 180              5.29230716245834E-09 -2.41902491710711E-20 3.07584296069324E-08 6.1104327219988E-14 3.2374406632014E-08 1.55280534604601E-19 
