! Touchstone file exported from HFSS 2020.2.0
!        Generated:      11:11:24  avr. 27, 2020
!        Design:         test
!        Project:        test_multiport
!        Setup:          Setup1
!        Solution:       Sweep
!
!Data is not renormalized
# GHZ S MA
! Terminal data exported
! Port[1] = 1
! Port[2] = 2
! Port[3] = 3
! Port[4] = 4
! Port[5] = 5
! Port[6] = 6
! Port[7] = 7
! Port[8] = 8
! Port[9] = 9
0.9                            0.000266252701355163 180              2.89898400678617E-06 -6.08966509564972E-25 1.23260243458842E-08 5.97634630699082E-15 7.02514850150527E-07 6.91840114856899E-25 
                               4.4432959133381E-08 -7.56444322809269E-24 2.00897499868166E-06 180              9.20791271412359E-08 180              2.97997666435593E-10 6.04851179844989E-15 
                               3.23597113138562E-07 -2.30927205420022E-25 
                               2.89898400678617E-06 -1.06544883384809E-24 0.000645569603939022 180              2.28860384315649E-08 -180             6.38906866589997E-08 -180             
                               1.23628317688145E-07 180              5.69804737039941E-07 -1.09272617319743E-24 4.99675371519301E-08 -2.12762135314566E-24 1.04489908030898E-10 -180             
                               1.87466583023376E-07 180              
                               1.23260243458842E-08 6.35263533421084E-15 2.2886038431565E-08 -180             0.000390771634208309 179.999999999987 5.72742313727089E-09 6.02786552738767E-15 
                               3.58335759615646E-09 -180             2.55269509715144E-09 6.06489608584575E-15 4.25684942528821E-10 6.31779342034602E-15 6.99526702850879E-13 -180             
                               8.25933805642751E-10 -180             
                               7.02514850150526E-07 5.72955278886251E-25 6.38906866589996E-08 -180             5.72742313727088E-09 4.47592906781359E-15 0.000251281314877727 180              
                               2.80610269958933E-07 -180             2.35517937160451E-06 180              1.66921568026676E-07 8.31400124778231E-26 6.84768592094887E-11 -1.966239443727E-14 
                               6.43669174799418E-08 -180             
                               4.4432959133381E-08 -4.8844610228516E-24 1.23628317688144E-07 180              3.58335759615647E-09 -180             2.80610269958933E-07 -180             
                               0.00238237057894908 180              4.90775056701987E-08 -8.62748404249761E-25 1.63640498790213E-09 -180             4.27030140782692E-12 180              
                               2.29498591987144E-09 180              
                               2.00897499868166E-06 180              5.69804737039941E-07 -1.1844589296088E-24 2.55269509715144E-09 1.12758400497334E-14 2.3551793716045E-06 180              
                               4.90775056701988E-08 -2.40611190323285E-24 0.000387373513653255 180              6.87544209002139E-08 1.98414662726613E-25 3.11968595491735E-10 -180             
                               8.85651182623066E-08 -3.00270664533882E-25 
                               9.20791271412357E-08 180              4.99675371519302E-08 -1.07258042403147E-24 4.25684942528822E-10 5.21963074976854E-15 1.66921568026676E-07 8.9554094245308E-26 
                               1.63640498790213E-09 -180             6.8754420900214E-08 9.70289770649243E-26 0.00220533975065351 180              2.77278805120637E-11 -180             
                               1.30920761030479E-08 -1.76853039274264E-25 
                               2.97997666435592E-10 2.40435172705813E-15 1.04489908030898E-10 -180             6.99526702850878E-13 -180             6.84768592094886E-11 5.72034875866738E-16 
                               4.27030140782692E-12 -180             3.11968595491734E-10 -180             2.77278805120637E-11 -180             0.00454831316528226 179.999999999999 
                               1.65030179368659E-11 -180             
                               3.23597113138563E-07 -3.00149639130588E-25 1.87466583023376E-07 180              8.25933805642751E-10 -180             6.43669174799421E-08 -180             
                               2.29498591987143E-09 180              8.85651182623068E-08 -2.20010128057975E-25 1.30920761030479E-08 -2.55130387850958E-25 1.65030179368659E-11 -180             
                               0.0011679548860839 180              
! Gamma         59.9338166757992 0                76.2423389528862 0                59.9338445834065 0                103.007102797149 0                76.2411031190515 0                76.2412780670495 0                76.2414310188004 0                103.007325413736 0                103.007321591275 0                
! Port Impedance         0                29.2396970516766 0                57.3666114694534 0                58.4301087777878 0                28.3629739391382 0                57.4748681218237 0                28.7407506816477 0                57.4112353033747 0                56.6809259153828 0                56.701088176358  
0.95                           0.000263349568960791 180              3.01858705618748E-06 1.31327252252381E-14 1.37593479796154E-08 -8.49840293485192E-20 7.77688662356086E-07 -7.14262776002318E-15 
                               4.92103792260009E-08 -7.20383989805878E-20 2.17346770356111E-06 180              1.00297193782073E-07 180              3.22766525583663E-10 -1.58789867885155E-20 
                               3.20796626226475E-07 1.51482511421344E-14 
                               3.01858705618748E-06 5.85971614332905E-15 0.000643797959435033 179.999999999994 2.44059979536131E-08 -180             6.90147754925174E-08 180              
                               1.33294814958667E-07 -180             6.18087520838698E-07 -8.16353262270236E-15 5.46685438748392E-08 5.6583432975322E-15 1.13777461536162E-10 -180             
                               1.94423525252437E-07 -180             
                               1.37593479796155E-08 -8.16940336324081E-20 2.44059979536131E-08 -180             0.000389796600709702 180              6.46705980446296E-09 -8.44106011856345E-15 
                               3.98824286097369E-09 180              2.9370071103647E-09 -9.5148895434178E-15 4.93219636834936E-10 -6.92835787079383E-20 8.09328745948163E-13 180              
                               9.19765729637939E-10 180              
                               7.77688662356084E-07 -5.94821979362728E-15 6.90147754925173E-08 -180             6.46705980446298E-09 -6.41848414272974E-15 0.000240695613333508 -179.999999999988 
                               2.98050333527764E-07 180              2.49347236913261E-06 180              1.80970302444459E-07 -6.11648066918185E-15 6.90028290747075E-11 -6.67844924029E-15 
                               7.01888105711281E-08 180              
                               4.9210379226001E-08 -1.09563648800439E-19 1.33294814958667E-07 -180             3.98824286097369E-09 180              2.98050333527764E-07 180              
                               0.00236793177059003 -180             5.23067056994032E-08 -6.61964142055408E-15 1.83735125833837E-09 180              4.59226252885535E-12 180              
                               2.50671484779525E-09 180              
                               2.17346770356111E-06 180              6.18087520838697E-07 7.14027875655383E-15 2.9370071103647E-09 -8.92160626641467E-15 2.49347236913261E-06 180              
                               5.23067056994032E-08 -8.74828200749576E-15 0.000383837433443945 -179.999999999965 7.4671307870936E-08 -8.22974590923937E-15 3.46599586052932E-10 180              
                               9.48093284440821E-08 -1.24631097556427E-14 
                               1.00297193782073E-07 180              5.46685438748394E-08 1.27414726887201E-14 4.93219636834937E-10 -7.25422590501975E-20 1.80970302444459E-07 -1.0757805129469E-14 
                               1.83735125833836E-09 180              7.46713078709361E-08 -3.24349034363847E-15 0.00218728455787487 -180             2.99802142961973E-11 -180             
                               1.38593262501626E-08 -1.14183877324965E-14 
                               3.22766525583663E-10 -1.26912275486611E-20 1.13777461536162E-10 -180             8.09328745948163E-13 180              6.90028290747074E-11 8.48238497685454E-15 
                               4.59226252885536E-12 180              3.46599586052932E-10 180              2.99802142961973E-11 -180             0.0045329248560998 180              
                               1.74317142036666E-11 180              
                               3.20796626226475E-07 1.02533419069712E-15 1.94423525252436E-07 -180             9.1976572963794E-10 -180             7.01888105711279E-08 180              
                               2.50671484779525E-09 -180             9.48093284440819E-08 -3.72808870706869E-15 1.38593262501626E-08 6.77732656003964E-16 1.74317142036666E-11 -180             
                               0.00116529810900345 -179.999999999998 
! Gamma         59.5938851102605 0                75.9754105629802 0                59.5939131770567 0                102.809688200428 0                75.9741703871551 0                75.9743459498258 0                75.9744994389639 0                102.809911244481 0                102.809907414679 0                
! Port Impedance         0                31.0401762623015 0                60.7663900811359 0                62.0280288422838 0                29.9961819623612 0                60.8810668816239 0                30.4440479068032 0                60.8136598304935 0                59.9447484950837 0                59.9660709211212 
1                              0.000260056883478188 179.999999999995 3.14776168543666E-06 4.27090369139165E-15 1.54608230426125E-08 9.88563835091308E-15 8.66853322933326E-07 3.11031147259073E-15 
                               5.49158380865589E-08 3.92528658937159E-15 2.36385762143794E-06 180              1.09840968179568E-07 -180             3.51289161309877E-10 3.54314987156197E-15 
                               3.15941633441167E-07 4.27794617007507E-16 
                               3.14776168543665E-06 6.03530913707429E-15 0.000641907314435808 180              2.60907269618094E-08 180              7.49408605838513E-08 180              
                               1.44455615874741E-07 -180             6.74190405854957E-07 -9.1137857534314E-15 6.01732055101037E-08 -5.4414119395898E-20 1.24571133943871E-10 180              
                               2.0194108951986E-07 180              
                               1.54608230426125E-08 7.33079987133126E-15 2.60907269618094E-08 180              0.000388829448659589 -179.999999999994 7.36274521525236E-09 -1.28163492860709E-15 
                               4.46946284776472E-09 180              3.41087915387201E-09 -1.40061741769659E-14 5.77070336114493E-10 -9.63293058976856E-16 9.45149609397254E-13 180              
                               1.03096571215387E-09 180              
                               8.66853322933324E-07 5.57563787578957E-15 7.49408605838515E-08 180              7.36274521525239E-09 6.16209382968433E-15 0.000229345736413089 -180             
                               3.17855239017882E-07 -180             2.65016673467087E-06 180              1.97261826286955E-07 8.48650149052248E-21 6.9310822791052E-11 -1.09599061178245E-19 
                               7.6987323411599E-08 180              
                               5.49158380865589E-08 6.76184470001627E-15 1.44455615874741E-07 -180             4.46946284776472E-09 -180             3.17855239017882E-07 -180             
                               0.00235272220289406 -180             5.59463916217949E-08 -1.83797049689641E-14 2.07978705373347E-09 -180             4.95738732714245E-12 -180             
                               2.75802350987335E-09 180              
                               2.36385762143794E-06 180              6.74190405854955E-07 -1.95275746578699E-14 3.41087915387202E-09 -1.38499401680854E-14 2.65016673467087E-06 180              
                               5.5946391621795E-08 -1.53905758990393E-14 0.000380073676551684 -179.99999999995 8.15515457117899E-08 -1.94705381780187E-14 3.86512498315783E-10 180              
                               1.01974529857387E-07 -2.86337780151649E-14 
                               1.09840968179568E-07 -180             6.01732055101039E-08 -5.5464110011158E-20 5.77070336114492E-10 4.05633375592341E-15 1.97261826286955E-07 1.38262369795436E-20 
                               2.07978705373346E-09 180              8.15515457117899E-08 -1.45402442980762E-14 0.00216832353452734 -180             3.25926939899862E-11 180              
                               1.47210783293373E-08 -9.82844663213792E-15 
                               3.51289161309877E-10 1.15905800668734E-15 1.24571133943871E-10 180              9.45149609397256E-13 -180             6.93108227910521E-11 -1.5726803160949E-19 
                               4.95738732714245E-12 180              3.86512498315784E-10 180              3.25926939899862E-11 180              0.00451671403144538 -180             
                               1.84701638448434E-11 180              
                               3.15941633441167E-07 -7.21147774636121E-15 2.01941089519861E-07 180              1.03096571215387E-09 -180             7.69873234115992E-08 180              
                               2.75802350987335E-09 -180             1.01974529857387E-07 -1.79461025759887E-14 1.47210783293373E-08 -3.7076307876671E-15 1.84701638448435E-11 180              
                               0.00116250674245077 -179.999999999996 
! Gamma         59.233467065195  0                75.6930346084898 0                59.2334953027692 0                102.601191347361 0                75.691789806062  0                75.6919660236962 0                75.692120085447  0                102.601414844663 0                102.601411007079 0                
! Port Impedance         0                32.8726787812541 0                64.2032418992219 0                65.6899408321071 0                31.6390911201374 0                64.3244096326415 0                32.1659195112358 0                64.2531866493498 0                63.2279577704449 0                63.2504471128265 
1.05                           0.000256311839505024 179.999999999991 3.28646904767246E-06 -1.38696054084815E-14 1.74892661575897E-08 1.82187338989764E-14 9.73219295383551E-07 1.58139800369226E-14 
                               6.17752474112039E-08 6.29704698916889E-15 2.58508280949859E-06 180              1.20964007376719E-07 -180             3.84229346023159E-10 6.17588962059119E-15 
                               3.08370714637457E-07 -2.78338551715995E-14 
                               3.28646904767244E-06 1.07216502496994E-15 0.000639891171328182 -179.999999999988 2.79496796632059E-08 180              8.18247206316572E-08 -180             
                               1.57392040626584E-07 180              7.39665605051428E-07 -7.09381296182548E-15 6.66495599597253E-08 -9.48691628006916E-15 1.37166015459127E-10 180              
                               2.10028230123238E-07 180              
                               1.74892661575895E-08 1.57353533302173E-14 2.7949679663206E-08 180              0.000387882548367577 -179.999999999994 8.45510466179991E-09 1.25749211403171E-14 
                               5.04446225017709E-09 180              4.00004296724496E-09 -1.1015986313777E-14 6.82085726073957E-10 9.75703762731752E-16 1.11452994444482E-12 -180             
                               1.16333896387611E-09 180              
                               9.7321929538355E-07 1.8534908270652E-14 8.18247206316576E-08 -180             8.45510466179994E-09 2.27060657251109E-14 0.000217192230159539 179.999999999982 
                               3.4040295140661E-07 -180             2.82816823927168E-06 180              2.16229155289569E-07 8.59378744855896E-15 6.93087892645043E-11 -5.82030824107103E-17 
                               8.49638599375106E-08 -180             
                               6.17752474112037E-08 1.15952754391119E-14 1.57392040626584E-07 180              5.04446225017709E-09 -180             3.40402951406611E-07 -180             
                               0.00233674340684756 -180             6.00493677147427E-08 -2.47341858439092E-14 2.37433521993967E-09 -180             5.37146241738307E-12 180              
                               3.05825152692617E-09 180              
                               2.58508280949859E-06 180              7.39665605051427E-07 -4.8483283622783E-14 4.00004296724497E-09 -8.89391836494379E-15 2.82816823927168E-06 180              
                               6.00493677147429E-08 -1.63590418525208E-14 0.000376072122809585 -179.999999999957 8.95859849494379E-08 -2.45345110308512E-14 4.32628497646864E-10 180              
                               1.10225723199949E-07 -3.51151606660697E-14 
                               1.20964007376719E-07 -180             6.66495599597253E-08 -2.12987694082606E-14 6.82085726073954E-10 8.29449184431535E-15 2.16229155289569E-07 1.51149434224814E-14 
                               2.37433521993968E-09 180              8.95859849494378E-08 -2.23365134051561E-14 0.00214846883856016 180              3.56355281973199E-11 180              
                               1.56898948066256E-08 -2.72744851360474E-15 
                               3.84229346023157E-10 1.85639447858103E-15 1.37166015459127E-10 180              1.11452994444483E-12 -180             6.93087892645046E-11 -1.38776765334669E-14 
                               5.37146241738306E-12 180              4.32628497646865E-10 180              3.563552819732E-11 180              0.00449968242384665 180              
                               1.96321173330918E-11 -180             
                               3.08370714637457E-07 -1.6503528190428E-14 2.10028230123239E-07 180              1.16333896387611E-09 -180             8.49638599375115E-08 180              
                               3.05825152692618E-09 180              1.1022572319995E-07 -2.88358345703454E-14 1.56898948066256E-08 -7.8654294405897E-15 1.96321173330919E-11 180              
                               0.00115958226835083 -179.999999999996 
! Gamma         58.8521861566257 0                75.3950375229872 0                58.8522145771403 0                102.381544531953 0                75.3937878004259 0                75.3939647145775 0                75.3941193852698 0                102.381768508739 0                102.381764662923 0                
! Port Impedance         0                34.7399288127236 0                67.6798517732802 0                69.4212884816769 0                33.2923161958165 0                67.8075863661674 0                33.9077106677309 0                67.7325027205262 0                66.5317823194204 0                66.5554457557797 
1.1                            0.000252037421316742 -180             3.4343874482315E-06 -1.5788379283854E-14 1.99171009552446E-08 -9.45889847441257E-15 1.10087789502691E-06 -5.25101857792701E-20 
                               7.00809696623837E-08 -4.08461980105517E-15 2.84325739204669E-06 180              1.33977023835308E-07 -180             4.22390074954574E-10 -1.1908985407042E-14 
                               2.97270032487542E-07 -1.3109485412279E-14 
