# GHz S RI R 50 
!freq	ReS11	ImS11	
500.0	0.01554255553	-0.03805008222	
500.625	0.004860725296	0.009949825214	
501.25	-0.1406672122	0.06589721505	
501.875	-0.05213655491	0.0960417394	
502.5	0.1410733277	-0.0451860636	
503.125	-0.01851787045	-0.007799133817	
503.75	0.001977158852	-0.004420988317	
504.375	0.1049314	0.0522661368	
505.0	0.02900446032	-0.09012464316	
505.625	-0.02993661115	0.04599507269	
506.25	0.06992842239	0.0006692439016	
506.875	-0.332754138	0.04297287146	
507.5	-0.2791957117	0.3727861663	
508.125	0.1135446767	0.3829458276	
508.75	0.5626901565	0.46412518	
509.375	0.1983483189	0.01245169086	
510.0	-0.1377561893	-0.009327186889	
510.625	-0.03522527626	0.09593943263	
511.25	0.03145347671	-0.006779304936	
511.875	-0.01203785653	0.00983032178	
512.5	0.008342514797	-0.006294186831	
513.125	-0.006948625462	0.02254160147	
513.75	0.00864427944	-0.01215376226	
514.375	-0.05478821049	-0.02169501366	
515.0	0.02896593283	0.2589562485	
515.625	0.1632005124	0.02911962037	
516.25	-0.07041804634	-0.1843620338	
516.875	-0.1323157881	0.04339402429	
517.5	0.04585889424	0.0436940132	
518.125	0.02860497124	-0.09686766935	
518.75	-0.07820331726	-0.04876347791	
519.375	0.007207633738	-0.01792796599	
520.0	-0.08205887178	-0.01883660643	
520.625	-0.06385591611	0.09018060464	
521.25	0.209979078	-0.02622983204	
521.875	0.06424911421	-0.337173378	
522.5	-0.1357531699	0.1316896705	
523.125	0.3010225846	0.1025270691	
523.75	0.2680704243	-0.151282052	
524.375	-0.1055097183	-0.2946049985	
525.0	-0.3436638271	0.08897175683	
525.625	0.1321373687	0.06228746523	
526.25	0.02079231497	-0.1552475692	
526.875	-0.084034861	-0.01187366391	
527.5	0.07223695285	0.03051986087	
528.125	0.04336168822	-0.1146765452	
528.75	-0.04459180594	0.01827923523	
529.375	0.03492493076	-0.02082384404	
530.0	-0.04665234349	-0.04496264032	
530.625	0.04901480973	0.09427969867	
531.25	0.2032411137	-0.0398680788	
531.875	-0.1159915997	-0.07228385395	
532.5	-0.06185309356	0.1409777312	
533.125	0.06988321198	0.01829863645	
533.75	-0.06957467367	-0.03918701413	
534.375	-0.09606474481	0.0938887959	
535.0	0.0180431256	0.005651283751	
535.625	-0.02296684594	-0.0357861646	
536.25	-0.01495348189	0.02594115371	
536.875	-0.02042053468	-0.03502030298	
537.5	-0.1534206411	-0.04415015048	
538.125	-0.04090013601	0.1253178334	
538.75	-0.04727904906	-0.08359251143	
539.375	-0.2561621612	-0.1259886832	
540.0	-0.1831507217	0.1659869663	
540.625	0.007369148789	0.2406381267	
541.25	0.1693889703	0.09891699343	
541.875	0.01808888713	-0.1580871855	
542.5	-0.2409085403	-0.1631097092	
543.125	-0.1227212306	0.1448467559	
543.75	0.1607592199	-0.08328381672	
544.375	-0.1221314492	-0.1305776051	
545.0	0.01860899592	0.124600617	
545.625	0.2893689245	0.003059355275	
546.25	0.1056423349	-0.1682446228	
546.875	-0.07864243467	0.1179500082	
547.5	0.1886780515	0.2929977861	
548.125	0.1904354491	-0.01937996206	
548.75	-0.2015755295	-0.01974446221	
549.375	-0.1480833811	0.2434339803	
550.0	0.1380878349	-0.003252509577	
550.625	-0.1705714723	-0.1872496228	
551.25	-0.1416250687	0.1856152183	
551.875	0.1450100386	-0.06117854145	
552.5	-0.1370308215	-0.1363954973	
553.125	-0.0742430662	0.09163050182	
553.75	-0.04534848894	-0.02941732556	
554.375	-0.06812896391	0.08474143773	
555.0	0.05151929886	-0.01564527295	
555.625	-0.1238772068	-0.1452454918	
556.25	-0.1400270005	0.04268717674	
556.875	0.07364707475	-0.04404048798	
557.5	0.02936366747	-0.2044602986	
558.125	-0.05331735903	-0.1251666331	
558.75	-0.0514107974	0.09051020528	
559.375	0.1273694632	0.1545977561	
560.0	0.1257227764	-0.05553518391	
560.625	-0.06806538842	-0.1212532288	
561.25	-0.1781001274	0.08265144683	
561.875	0.1022170137	0.1633610815	
562.5	0.06906341819	-0.2488387594	
563.125	-0.01993009083	-0.1836412206	
563.75	-0.07993219356	0.07347689606	
564.375	0.2471356034	0.03915989769	
565.0	0.1185165965	-0.1822910452	
565.625	-0.2329419491	-0.0009169278242	
566.25	-0.2502442259	0.1228458439	
566.875	-0.03799229612	0.0562338749	
567.5	0.1446292442	-0.2321802956	
568.125	0.02757161046	-0.4040255737	
568.75	-0.1844456225	-0.1137570805	
569.375	0.03208141065	0.2011274971	
570.0	0.231761481	0.02177334013	
570.625	-0.1451744717	-0.1516495286	
571.25	-0.2827003787	0.2850392225	
571.875	0.3012725558	0.08417204698	
572.5	-0.1447421704	-0.1555706926	
573.125	0.09648477927	0.3086731654	
573.75	0.2498957369	-0.06062499332	
574.375	-0.3474572059	0.02010584172	
575.0	-0.3197721773	-0.05740975523	
575.625	0.1119545466	0.1055776896	
576.25	0.202683114	-0.2683554952	
576.875	-0.06068391578	-0.3510448524	
577.5	-0.2184224617	0.01892020137	
578.125	0.1092371853	0.2469312255	
578.75	0.319894074	0.04904937257	
579.375	-0.1796427248	-0.1892844528	
580.0	-0.287870017	0.2318184226	
580.625	0.337952617	0.1667863488	
581.25	0.2131814239	-0.1373358427	
581.875	-0.09238099017	-0.301290801	
582.5	-0.3405613524	0.1083061967	
583.125	0.2456343389	0.2212968836	
583.75	0.120979832	-0.3549308915	
584.375	-0.2739504369	-0.0621560719	
585.0	0.04501742039	0.282980796	
585.625	0.1300232669	0.3776059326	
586.25	0.2428034207	-0.07232089499	
586.875	-0.2033889556	-0.2323243117	
587.5	-0.4027672201	-0.04944607485	
588.125	-0.09699095944	0.1883533404	
588.75	0.3178161198	-0.1561306546	
589.375	-0.1299610251	-0.4240676866	
590.0	-0.1809592809	0.08830052383	
590.625	0.33971039	0.06050930076	
591.25	0.08184571329	-0.4034329537	
591.875	-0.2315460488	0.09597000823	
592.5	0.3104388174	0.2441750231	
593.125	0.2283548445	-0.2100244236	
593.75	-0.1436800318	0.1094258462	
594.375	0.3360670794	0.2826664713	
595.0	0.2428382951	-0.2394266208	
595.625	-0.2495919002	-0.02005469435	
596.25	-0.1971508133	0.3353750019	
596.875	0.1921812713	0.0722249594	
597.5	-0.2620372202	0.004645087895	
598.125	-0.4813101473	0.04272736002	
598.75	-0.3098930634	0.08421063263	
599.375	0.1576596845	0.003987459949	
600.0	0.1181222093	-0.3120229257	
600.625	-0.001133282392	-0.2994747742	
601.25	-0.2776386474	0.1234172801	
601.875	0.0773148698	0.4425702775	
602.5	0.3107944237	-0.1616349632	
603.125	0.02918418459	-0.2115667989	
603.75	-0.3460556333	0.09524421236	
604.375	0.1093942701	0.3522924512	
605.0	0.2819791121	-0.1591414176	
605.625	-0.1255413858	-0.3561815584	
606.25	-0.3150218375	-0.04129522928	
606.875	-0.01215238201	0.3147705744	
607.5	0.405341084	0.2020209242	
608.125	0.3313479356	-0.1066332799	
608.75	-0.1193117106	-0.2920921102	
609.375	-0.5015509782	0.06222788594	
610.0	-0.05224961873	0.4086420979	
610.625	0.2528693078	-0.1862768463	
611.25	-0.3678016284	-0.3455660007	
611.875	-0.3535865811	0.2482742934	
612.5	0.3213269349	0.2389981352	
613.125	0.3089554633	-0.4150604247	
613.75	-0.2807031534	-0.2891705523	
614.375	-0.241148417	0.3399508252	
615.0	0.3233694865	0.3892166783	
615.625	0.2720833874	-0.2455398054	
616.25	-0.3813018832	-0.2150399328	
616.875	-0.2759744401	0.4106150275	
617.5	0.2758015962	0.09319657061	
618.125	-0.02595370405	-0.4237175858	
618.75	-0.5163956668	-0.002978182402	
619.375	-0.2371744428	0.1610320847	
620.0	0.3606235367	0.137611536	
620.625	0.377672919	-0.2792942546	
621.25	0.05719340494	-0.2670767447	
621.875	-0.2551106625	0.1140005848	
622.5	0.03480360427	0.4117900059	
623.125	0.3229448699	-0.08167010486	
623.75	-0.1634588192	-0.3111482407	
624.375	-0.3391166138	0.1342060576	
625.0	0.09273312255	0.186847544	
625.625	0.2818769784	-0.1473569694	
626.25	0.03120888918	-0.3810734141	
626.875	-0.2616110392	-0.1076364795	
627.5	-0.1135438187	0.2703423674	
628.125	0.1074897039	0.2476885205	
628.75	0.08057166827	-0.1368167792	
629.375	-0.3412556397	-0.2636055224	
630.0	-0.4914041396	0.09770867813	
630.625	-0.1589745051	0.231393094	
631.25	0.1588617984	-0.009003653622	
631.875	0.05559073483	-0.3293885054	
632.5	-0.281873001	-0.05466518349	
633.125	0.05306050248	0.3549108941	
633.75	0.435165769	0.0640680376	
634.375	0.09446288999	-0.2420259708	
635.0	-0.1743849523	0.1382367878	
635.625	0.1510059342	0.3774259861	
636.25	0.3476523485	-0.0194923486	
636.875	0.008607763514	-0.3696291558	
637.5	-0.3131963343	-0.2594394784	
638.125	-0.1760870325	0.1210993381	
638.75	0.3465963176	0.2059732013	
639.375	0.4667183781	-0.2329150192	
640.0	-0.01123520301	-0.3109112836	
640.625	-0.3294540654	0.1830830487	
641.25	0.006506494614	0.542647355	
641.875	0.3048892309	0.1071503631	
642.5	-0.04696489962	-0.4443773392	
643.125	-0.586163616	-0.2456081675	
643.75	-0.2931750943	0.2739122304	
644.375	0.399484975	0.0883475652	
645.0	0.3336535806	-0.4897518445	
645.625	-0.2958726671	-0.3433916832	
646.25	-0.3607671573	0.3727502945	
646.875	0.1937677827	0.5347690073	
647.5	0.3112732979	-0.005912427555	
648.125	-0.185739401	-0.5508112439	
648.75	-0.6706112506	-0.1349871937	
649.375	-0.07518148862	0.3257570966	
650.0	0.4924825629	-0.2075124208	
650.625	0.1974001833	-0.6845785786	
651.25	-0.2928040008	-0.2766022036	
651.875	-0.1432274477	0.4877717301	
652.5	0.4408785695	0.5795888653	
653.125	0.4669472392	-0.01693908571	
653.75	-0.2107851259	-0.1744872305	
654.375	-0.1385070443	0.5027389313	
655.0	0.5187269496	0.0241940695	
655.625	-0.1925929866	-0.3530495069	
656.25	-0.1478171511	0.3661817866	
656.875	0.3519507916	0.03665248493	
657.5	-0.09476991158	-0.3744773978	
658.125	-0.5822971243	-0.1212536292	
658.75	-0.5121216034	0.1192546864	
659.375	-0.0909649837	0.2560464967	
660.0	0.3188268209	0.1686917601	
660.625	0.3726958207	-0.09285090234	
661.25	-0.1653868017	-0.2633211505	
661.875	-0.5459609532	0.2813286294	
662.5	-0.08392685538	0.6521291175	
663.125	0.1599756823	0.2484691972	
663.75	-0.2217371358	-0.1155892486	
664.375	-0.5377932361	-0.003846654894	
665.0	-0.2425605363	0.2522804227	
665.625	0.2824424958	0.2192527291	
666.25	0.4296601905	-0.1329620269	
666.875	0.09711643953	-0.1993853832	
667.5	-0.04731356532	0.2157336443	
668.125	0.2825879955	0.2977241912	
668.75	0.2894000942	-0.01509925149	
669.375	-0.0815562525	-0.2391602255	
670.0	-0.3202670691	-0.05868101987	
670.625	-0.07518588231	0.08825343358	
671.25	0.3164429308	-0.08648389103	
671.875	0.3136741306	-0.3904257449	
672.5	-0.0758946553	-0.2950330303	
673.125	-0.0224735698	0.1351684187	
673.75	0.3366269903	0.1635264353	
674.375	0.2477467341	-0.1637180618	
675.0	-0.2329760396	-0.1296946491	
675.625	-0.3126190487	0.2625331007	
676.25	0.0398611622	0.2706088991	
676.875	0.1374164304	-0.1633168845	
677.5	-0.2163348693	-0.3595851813	
678.125	-0.3850340721	-0.07321445388	
678.75	-0.2311104717	0.2914097406	
679.375	0.08223356891	0.3780418202	
680.0	0.1499649718	0.1275300601	
680.625	0.3332313704	-0.2676819495	
681.25	0.4095572333	-0.4786938397	
681.875	0.1090615173	-0.4319696032	
682.5	-0.2504303536	-0.02112142718	
683.125	0.04789776981	0.4725228631	
683.75	0.5118097177	-0.02749095369	
684.375	-0.1930613388	-0.375336259	
685.0	-0.2526929326	0.466654524	
685.625	0.4628412072	0.2690650212	
686.25	0.1799989173	-0.3003562793	
686.875	-0.4929864036	-0.1137456909	
687.5	-0.3844809396	0.6350198158	
688.125	0.225031384	0.5045989242	
688.75	0.2537619322	-0.2891450829	
689.375	-0.5202113401	-0.08384452933	
690.0	0.04711216257	0.4866240152	
690.625	0.5779401916	-0.3956540527	
691.25	-0.1384270512	-0.9663091855	
691.875	-0.5916207186	-0.4066802599	
692.5	-0.1998806234	0.2573313096	
693.125	0.5760815631	0.4392424668	
693.75	0.6076465771	-0.3807313847	
694.375	-0.5346482261	-0.1682629261	
695.0	0.2390237037	0.800670533	
695.625	0.6582866542	-0.4109542332	
696.25	-0.2394977318	-0.1408948261	
696.875	0.5068917625	0.2858346184	
697.5	0.7820468966	-0.4930322696	
698.125	0.1022920718	-0.8050978926	
698.75	-0.5745072034	-0.5304096121	
699.375	-0.7646531159	-0.05107067612	
700.0	-0.2357213639	0.406844589	
700.625	0.6714379352	0.4059302503	
701.25	1.120461328	0.1449095312	
701.875	0.8218560228	-0.3581472331	
702.5	0.2052057763	-0.6222676342	
703.125	-0.23080253	-0.6214735952	
703.75	-0.3971691137	-0.2824377107	
704.375	-0.5366077745	0.2084501977	
705.0	-0.6346774789	0.5426668289	
705.625	0.0542503043	0.7325399165	
706.25	0.3586299978	-0.08375410505	
706.875	-0.435294802	-0.1099266161	
707.5	-0.3902788321	0.4217035905	
708.125	0.4030647715	0.2055973992	
708.75	0.2394170826	-0.5158189189	
709.375	-0.3154778912	-0.5105140514	
710.0	-0.3303910898	0.02680198112	
710.625	0.1494063329	0.3998098673	
711.25	0.642542641	0.196741807	
711.875	0.4090363104	-0.3110526992	
712.5	-0.2592191226	-0.2367953817	
713.125	-0.357327849	0.3746106058	
713.75	0.2847904475	0.3349145393	
714.375	0.05133732124	-0.3303144708	
715.0	-0.5635684251	0.08898225557	
715.625	0.1045375761	0.5134558801	
716.25	0.1649969634	-0.1106141739	
716.875	-0.289052082	0.1763906989	
717.5	0.4354575911	0.3713169627	
718.125	0.3139601135	-0.3877871475	
718.75	-0.5381801407	-0.146640493	
719.375	-0.7708570058	0.6390740989	
720.0	-0.4634229709	0.6159743751	
720.625	0.678945391	1.005228181	
721.25	1.033788157	2.818058368	
721.875	-1.109216436	3.589304474	
722.5	-0.7860778276	2.0982482	
723.125	1.636289279	1.806291556	
723.75	2.38328178	-0.0536616932	
724.375	0.01380483065	-2.346471475	
725.0	-1.839607634	-2.683941764	
725.625	-1.561954353	-2.152516376	
726.25	-0.5650273068	-1.003700784	
726.875	-0.07681873802	0.3673464365	
727.5	0.3462580847	1.128825385	
728.125	1.131081305	-0.1760663467	
728.75	-0.566272667	-1.467883457	
729.375	-1.7215119	0.8464992221	
730.0	0.3263345628	1.207204312	
730.625	-0.4589120292	0.1885208355	
731.25	-0.8794610991	1.645479734	
731.875	-0.2815230747	1.720777227	
732.5	0.4536718152	0.9280512691	
733.125	0.6362346378	0.101670349	
733.75	0.463800293	-0.003832127915	
734.375	-0.2246775167	0.08411055703	
735.0	0.0619787273	0.7804740041	
735.625	0.777742466	0.01490876882	
736.25	-0.1034678836	-0.3632496196	
736.875	0.04311181348	0.008078964549	
737.5	-0.09650957752	-0.1478340946	
738.125	-0.08492361304	0.09716520861	
738.75	0.1741184586	0.01073566034	
739.375	0.1875630633	-0.2062481362	
740.0	0.02915421781	-0.1528353656	
740.625	0.1113051105	0.09999184328	
741.25	0.497848716	0.1635493192	
741.875	0.5402285051	-0.07955238261	
742.5	0.1928005129	-0.2227865926	
743.125	-0.08905292882	-0.388995985	
743.75	0.001110669386	-0.2859262394	
744.375	-0.154561186	0.04973766727	
745.0	-0.3856482948	-0.05248389794	
745.625	-0.162669503	-0.2553658206	
746.25	-0.01661082269	-0.08999743061	
746.875	0.02384850621	0.07997977454	
747.5	0.06449080515	0.1667285355	
748.125	0.09705803654	0.0383583192	
748.75	0.003793729263	-0.1302843421	
749.375	-0.1091773325	-0.1704658603	
750.0	-0.09153370153	-0.07559074994	
