# GHz S RI R 50 
!freq	ReS11	ImS11	
500.0	-0.01211515859	-0.04241207794	
500.625	-0.02229084883	-0.0008322285327	
501.25	-0.1357647001	0.1342858853	
501.875	0.009749756021	0.08387848512	
502.5	0.1375011134	-0.1193504454	
503.125	-0.01573290693	0.0001390328439	
503.75	-0.024025243	0.04891750769	
504.375	0.1400008036	0.01250229738	
505.0	-0.01265524476	-0.08831817708	
505.625	-0.0005086520142	0.04621703255	
506.25	0.01544308393	-0.05844477002	
506.875	-0.3475098495	0.2674507375	
507.5	-0.04923756984	0.4260024418	
508.125	0.3605810059	0.1955336865	
508.75	0.7038729709	0.028814095	
509.375	0.06592723781	-0.1901795429	
510.0	-0.1592493668	0.07528860385	
510.625	0.00921333179	0.09032814758	
511.25	0.002447361945	-0.01440823924	
511.875	-0.003052271316	0.0215232884	
512.5	0.002564483982	-0.009468354621	
513.125	0.01123762616	0.01991619785	
513.75	-0.001937129236	-0.0132799856	
514.375	-0.04184578899	0.03620727313	
515.0	0.2314432674	0.161300257	
515.625	0.1186232076	-0.09918204107	
516.25	-0.1768765957	-0.06885084804	
516.875	-0.02904211009	0.0942580509	
517.5	0.08612802098	-0.04852776079	
518.125	-0.03805430278	-0.0962587995	
518.75	-0.04967852283	0.01416016234	
519.375	-0.02557384558	-0.01687817275	
520.0	-0.06558775916	0.04610091662	
520.625	0.05406646778	0.05649429334	
521.25	0.1237491774	-0.2194150708	
521.875	-0.1619599106	-0.193613185	
522.5	0.145752123	0.09874062573	
523.125	0.2652581151	-0.2374233205	
523.75	-0.01556014018	-0.2357571666	
524.375	-0.2864206334	0.03205140854	
525.0	0.02593845784	0.3301107816	
525.625	0.12301015	-0.1192331583	
526.25	-0.09281568736	-0.07586406067	
526.875	0.01726490218	0.0650348214	
527.5	0.07835593909	-0.06640118967	
528.125	-0.0631798752	-0.0550576198	
528.75	0.02284083926	0.05898284328	
529.375	-0.000124472581	-0.0330791095	
530.0	0.007867499865	0.03606847214	
530.625	0.1849001914	0.01147281773	
531.25	0.06276169913	-0.144576793	
531.875	-0.02827703746	0.08413844453	
532.5	0.1294046125	0.04639952412	
533.125	-0.02839570655	-0.1194998239	
533.75	-0.09166159904	0.04424658588	
534.375	0.007061115227	0.07818267409	
535.0	-0.01042916551	-0.007351274308	
535.625	-0.05589806659	0.03934575025	
536.25	0.03968485775	0.01248587774	
536.875	-0.0547570288	-0.003421918742	
537.5	-0.09604841675	0.05655220365	
538.125	-0.01464248997	-0.03577904111	
538.75	-0.3016676114	-0.03524314863	
539.375	-0.2496237626	0.1452042644	
540.0	0.1205876267	0.1614620798	
540.625	0.221134115	0.04695224486	
541.25	0.003835325249	-0.1406340977	
541.875	-0.2814472868	-0.105123362	
542.5	-0.2308963293	0.1211000538	
543.125	0.1598052218	0.07340562149	
543.75	-0.02770723387	-0.2227662123	
544.375	-0.08538601746	0.09854094694	
545.0	0.2459601558	0.03763455087	
545.625	0.1632712774	-0.2051090834	
546.25	-0.07337931385	0.01245046135	
546.875	0.1359424862	0.3045205953	
547.5	0.3177973978	0.016540503	
548.125	-0.08132737949	-0.1159905113	
548.75	-0.1812152585	0.2643912405	
549.375	0.1360028724	0.1979484852	
550.0	-0.06062500417	-0.2135705581	
550.625	-0.3230444477	0.051456664	
551.25	0.1206767685	0.1720676347	
551.875	-1.936688794e-06	-0.2406902699	
552.5	-0.1921672839	0.04249068052	
553.125	0.1006050743	0.08284131926	
553.75	-0.0641702174	0.02674698366	
554.375	0.04044070952	0.07997722635	
555.0	0.006937634596	-0.1083540325	
555.625	-0.20848404	-0.01962299898	
556.25	0.004417594792	0.0807112516	
556.875	0.04557388873	-0.1890407521	
557.5	-0.1094535259	-0.197908782	
558.125	-0.09777170072	0.002304224767	
558.75	0.0716513657	0.1665527074	
559.375	0.2039814181	0.02775012348	
560.0	-0.0073902429	-0.1220685159	
560.625	-0.2040386805	-0.02670974302	
561.25	-0.05630604812	0.2251157845	
561.875	0.2426919954	0.02823517197	
562.5	-0.1170872187	-0.2353997997	
563.125	-0.131637444	-0.04862941979	
563.75	0.01815432416	0.2217935774	
564.375	0.2615597717	-0.1453776446	
565.0	-0.06177088128	-0.2084900556	
565.625	-0.2147659332	0.1634968378	
566.25	-0.1067883647	0.2066482625	
566.875	0.09882116894	-0.05077743155	
567.5	0.06013795423	-0.3885683314	
568.125	-0.1430097097	-0.3642444336	
568.75	-0.1511136369	0.05152351128	
569.375	0.2120087839	0.1571721879	
570.0	0.1693026648	-0.1748016234	
570.625	-0.3126221825	-0.04795756391	
571.25	-0.1352852557	0.4144550688	
571.875	0.2472136078	-0.0996460398	
572.5	-0.2789639515	-0.00394248197	
573.125	0.284713848	0.2102443703	
573.75	0.1649497027	-0.2436420376	
574.375	-0.3259785181	0.2110558352	
575.0	-0.2632316925	0.1214158853	
575.625	0.220568406	-0.04107302903	
576.25	0.07654989399	-0.3987155146	
576.875	-0.2088582658	-0.2684908489	
577.5	-0.1479596988	0.1678419714	
578.125	0.2649378458	0.1790318533	
578.75	0.3051590123	-0.1431450112	
579.375	-0.3027093781	-0.04853473283	
580.0	-0.1686666397	0.3746685645	
580.625	0.358909717	-0.006471807953	
581.25	0.07100865369	-0.2476586836	
581.875	-0.2796620901	-0.2387513914	
582.5	-0.2428148338	0.2801571311	
583.125	0.3520484034	0.06026665881	
583.75	-0.0604208238	-0.3773001271	
584.375	-0.2483858199	0.1146501637	
585.0	0.2306495531	0.2674406599	
585.625	0.2859371816	0.2782138729	
586.25	0.1283862413	-0.197150652	
586.875	-0.3425097012	-0.1367556642	
587.5	-0.3711843493	0.1211159748	
588.125	0.08651923761	0.1791431791	
588.75	0.2640870277	-0.3404566809	
589.375	-0.2662694715	-0.3071165178	
590.0	-0.03768869303	0.1814067779	
590.625	0.3998951188	-0.1089533632	
591.25	-0.1095008849	-0.3729798528	
591.875	-0.1153207446	0.2459910325	
592.5	0.3970705423	0.08575565798	
593.125	0.0550248599	-0.2348363349	
593.75	-0.07337242544	0.2730495754	
594.375	0.45246463	0.1294004394	
595.0	0.07073174306	-0.2784126469	
595.625	-0.2374921695	0.1495641455	
596.25	-0.01962228552	0.3613030345	
596.875	0.09617954032	-0.07932364776	
597.5	-0.3294995147	0.1785451826	
598.125	-0.4130424728	0.2189578742	
598.75	-0.1529701858	0.1531723777	
599.375	0.1428917654	-0.1693225011	
600.0	-0.06920640225	-0.3515061934	
600.625	-0.1884244928	-0.1949935317	
601.25	-0.1586305125	0.2983293778	
601.875	0.2588342198	0.3242577523	
602.5	0.1026342621	-0.223817506	
603.125	-0.2020154017	-0.1322353068	
603.75	-0.2084832618	0.3199287759	
604.375	0.2748709424	0.1554902429	
605.0	0.06780946229	-0.2914534429	
605.625	-0.2885454012	-0.1598200943	
606.25	-0.1615521438	0.1817814726	
606.875	0.2766686095	0.2108586143	
607.5	0.3745155365	-0.1005540328	
608.125	0.05872526475	-0.2237646787	
608.75	-0.3624521569	-0.08354391083	
609.375	-0.3043848547	0.3357568398	
610.0	0.1995866811	0.1534615001	
610.625	-0.08854597068	-0.3514102398	
611.25	-0.4476204622	0.02807631819	
611.875	0.01734166946	0.2970341363	
612.5	0.3251361734	-0.1900380704	
613.125	-0.151367017	-0.3690347896	
613.75	-0.2319170268	0.1598147763	
614.375	0.1964788981	0.3419860408	
615.0	0.3545895279	-0.05496049787	
615.625	-0.1622244437	-0.2223965007	
616.25	-0.2966908359	0.2406812819	
616.875	0.1370932589	0.2013567512	
617.5	-0.0207194699	-0.2527944306	
618.125	-0.3825028693	-0.153587471	
618.75	-0.1072899206	0.2379274233	
619.375	0.2305622614	0.01079437487	
620.0	0.2409917991	-0.3294682319	
620.625	-0.04159547572	-0.2285501099	
621.25	-0.1146722001	0.1198520531	
621.875	0.1394403635	0.3220305783	
622.5	0.2654385362	0.01949904291	
623.125	-0.1119192016	-0.1666523135	
623.75	-0.2183596872	0.1122643991	
624.375	0.1001984971	0.1147128615	
625.0	0.0804553236	-0.244120496	
625.625	-0.1212583569	-0.2815734693	
626.25	-0.1696398031	-0.02659301788	
626.875	0.04044387258	0.1565561352	
627.5	0.1915574159	0.01943407611	
628.125	0.01128736273	-0.1464425469	
628.75	-0.3208855892	-0.02471631632	
629.375	-0.3387501555	0.1707009241	
630.0	-0.09219534503	0.1438547023	
630.625	-0.02153053206	-0.1392296793	
631.25	-0.1887661126	-0.2585438816	
631.875	-0.2544889071	-0.0006120221439	
632.5	0.06726676642	0.2204839747	
633.125	0.2900284241	-0.01221200126	
633.75	0.03480322187	-0.1321890049	
634.375	-0.0204140493	0.2082369325	
635.0	0.3000263129	0.2286453365	
635.625	0.2775937659	-0.09387969422	
636.25	-0.1007194665	-0.2012171967	
636.875	-0.2690062752	0.03314658355	
637.5	-0.009373315183	0.1563506066	
638.125	0.3181388978	-0.04642628062	
638.75	0.2705100525	-0.3295336298	
639.375	-0.05748051467	-0.2143867701	
640.0	-0.09636022383	0.2195661029	
640.625	0.2075896887	0.3647176145	
641.25	0.2301534984	0.01255081388	
641.875	-0.193485219	-0.2075243394	
642.5	-0.4808758629	0.01904585807	
643.125	-0.1586079257	0.2387349205	
643.75	0.241303186	-0.1252371854	
644.375	0.0265549148	-0.4832306945	
645.0	-0.2627129502	-0.1911143895	
645.625	-0.07544219058	0.2707277757	
646.25	0.2756859438	0.2368206215	
646.875	0.1202608522	-0.1268531238	
647.5	-0.3182659065	-0.2124974348	
648.125	-0.4926947377	0.06874818987	
648.75	-0.08059816641	0.1815825557	
649.375	0.1998410731	-0.2620145534	
650.0	-0.09240460591	-0.5138545497	
650.625	-0.2060579184	-0.146598732	
651.25	0.1367725678	0.2276843735	
651.875	0.4318257324	0.1963181514	
652.5	0.2801084458	-0.01796080808	
653.125	-0.1093977565	0.05201083826	
653.75	-0.04430967617	0.3762149179	
654.375	0.3006684077	0.1556773576	
655.0	0.0279021091	-0.154510326	
655.625	-0.0756234021	0.1215973823	
656.25	0.1582695331	-0.01132769953	
656.875	-0.1372117472	-0.1388496637	
657.5	-0.2932373989	0.1382221305	
658.125	-0.1575166276	0.2296479286	
658.75	-0.009260394848	0.03367139072	
659.375	0.1232225873	-0.18646503	
660.0	0.09268433174	-0.2566125787	
660.625	-0.1023844755	-0.1322784484	
661.25	-0.2654180358	0.1929435965	
661.875	-0.1143298538	0.3779545822	
662.5	-0.02951635975	0.2316490078	
663.125	-0.2678802125	0.2019121445	
663.75	-0.3538170723	0.3075757807	
664.375	-0.1745737026	0.2728031905	
665.0	0.09818244203	0.02309009373	
665.625	0.1493843593	-0.1762013284	
666.25	0.03488487568	-0.07901978574	
666.875	0.08689297183	0.1970419858	
667.5	0.3400225101	0.1305603836	
668.125	0.2216120946	-0.06815768458	
668.75	-0.07304339402	-0.05622886975	
669.375	-0.1587394445	0.1258762328	
670.0	0.04525449469	0.08219745208	
670.625	0.1840691458	-0.2154359522	
671.25	0.083682793	-0.4087671779	
671.875	-0.05207216753	-0.2408933601	
672.5	0.1054881558	0.05875546975	
673.125	0.3700244951	-0.01189743119	
673.75	0.1802433288	-0.2408792183	
674.375	-0.1788728871	-0.0454068559	
675.0	-0.1463114686	0.3089569163	
675.625	0.1423558094	0.215593303	
676.25	0.04354659193	-0.1949228874	
676.875	-0.3493203887	-0.23316876	
677.5	-0.3671402567	0.1220786497	
678.125	0.0005019377752	0.2768270165	
678.75	0.3088646181	0.150723865	
679.375	0.2185404858	-0.1875399362	
680.0	-0.003994472084	-0.4446673256	
680.625	-0.1443299537	-0.6397138768	
681.25	-0.1803342467	-0.4734735855	
681.875	-0.240246789	0.02422193999	
682.5	0.03846825044	0.4955264299	
683.125	0.574465571	0.1403638835	
683.75	0.035272553	-0.4582092145	
684.375	-0.4536896452	0.2050276063	
685.0	0.389810581	0.4399155661	
685.625	0.3088296847	-0.3471544823	
686.25	-0.4690467657	-0.1632255197	
686.875	-0.5023445799	0.6071324895	
687.5	0.1475719752	0.6127352836	
688.125	0.3785466756	-0.05261396946	
688.75	-0.3376729154	-0.3721366998	
689.375	-0.3121905789	0.537647343	
690.0	0.6058980281	0.08480490508	
690.625	0.0355756699	-0.8884595128	
691.25	-0.6487364141	-0.5208649725	
691.875	-0.3113346867	0.1866197382	
692.5	0.4564286004	0.3736794125	
693.125	0.815157881	-0.216627652	
693.75	-0.0224695094	-0.5906688093	
694.375	-0.4597287063	0.4268450994	
695.0	0.6598497243	0.4022506565	
695.625	0.09323907096	-0.4154955594	
696.25	0.1216559873	0.3380081833	
696.875	0.8111167372	-0.2588006764	
697.5	0.2456581844	-0.8174398988	
698.125	-0.4068097994	-0.4584355417	
698.75	-0.6009535342	0.1555143282	
699.375	-0.2210551878	0.4540140682	
700.0	0.5038338214	0.2369814137	
700.625	0.9449452132	-0.2982475215	
701.25	0.8692733929	-0.5116387095	
701.875	0.219089693	-0.585006541	
702.5	-0.3774221265	-0.353240719	
703.125	-0.5382676404	-0.04157964346	
703.75	-0.3528922939	0.3047387931	
704.375	-0.2308795457	0.6485514816	
705.0	-0.1606041067	0.7317956226	
705.625	0.3002199309	0.3073099294	
706.25	-0.1309712296	-0.2105918311	
706.875	-0.3282705405	0.3980258239	
707.5	0.1091700371	0.4385076381	
708.125	0.2825101634	-0.2321068575	
708.75	-0.2331896397	-0.3948473051	
709.375	-0.3318795044	-0.02042402308	
710.0	0.1364249805	0.1959414143	
710.625	0.52904328	0.04618450179	
711.25	0.4398651363	-0.2487734052	
711.875	-0.05047227648	-0.2247010325	
712.5	-0.2437532311	0.2369349089	
713.125	0.1402087751	0.3700920325	
713.75	0.1641420265	-0.1475927418	
714.375	-0.3764583583	-0.1066479454	
715.0	-0.2246387696	0.3901534864	
715.625	0.1604153498	0.0968960609	
716.25	-0.1925287221	0.06865943618	
716.875	0.07080815202	0.4147614228	
717.5	0.3357210021	-0.09641545358	
718.125	-0.1598883838	-0.09957430581	
718.75	-0.1430825446	0.418364172	
719.375	0.1906188767	0.400344651	
720.0	0.4110209675	-0.3404951742	
720.625	1.650584452	-0.7121139809	
721.25	1.817661533	0.6302023335	
721.875	0.1675590715	0.6233483582	
722.5	0.2451390076	-1.969323766	
723.125	0.3127617695	-2.820388145	
723.75	-2.397138479	-1.643338387	
724.375	-3.709681537	-0.5937823501	
725.0	-2.482465987	0.06710304741	
725.625	-0.5538256052	-0.3091032548	
726.25	1.024086247	-0.2585995969	
726.875	1.42172051	-0.2482850698	
727.5	1.064276916	-0.4614251298	
728.125	-0.5041441737	-0.7948675958	
728.75	-1.065618156	0.5336246351	
729.375	0.2400193293	0.2285102447	
730.0	-1.403750247	-0.09227412295	
730.625	-0.5616694464	2.385554379	
731.25	1.23252735	1.474391345	
731.875	0.5923692247	0.05053496376	
732.5	-0.3833906651	-0.6332001153	
733.125	-0.6987639751	-0.238864898	
733.75	-0.6116008565	0.3455018636	
734.375	-0.01657439295	1.017808159	
735.0	0.7785169511	0.3541972473	
735.625	0.1065182081	-0.1979380356	
736.25	0.3470110064	0.02768822575	
736.875	-0.1137996352	-0.4515711047	
737.5	-0.1906709667	0.216790486	
738.125	0.2322402566	0.04101092194	
738.75	0.01941933608	-0.2470626543	
739.375	-0.1394278748	-0.04557593624	
740.0	0.1508816649	0.2090596662	
740.625	0.5724678422	-0.08653341135	
741.25	0.4300261366	-0.4717477965	
741.875	-0.1504065532	-0.3161469903	
742.5	-0.6072164224	0.1912108046	
743.125	-0.6108635855	0.3404010587	
743.75	-0.2419673128	0.4531682842	
744.375	-0.2694726122	0.6336392286	
745.0	-0.4129222073	0.3645579968	
745.625	-0.2045703955	0.0293344222	
746.25	0.04518610985	0.1133467115	
746.875	0.2404419861	0.08858792026	
747.5	0.2266374169	0.01388127743	
748.125	0.01166950074	-0.152646355	
748.75	-0.2055207316	-0.1387170567	
749.375	-0.2055925034	0.01535845895	
750.0	0.01627193505	0.09530031624	
