# GHz S RI R 50 
!freq	ReS11	ImS11	
500.0	0.01053487052	-0.03065868843	
500.625	-0.06806437717	0.02505345851	
501.25	-0.05898786229	0.1661718559	
501.875	0.04163905971	0.003708287217	
502.5	0.05497633327	-0.1792395526	
503.125	-0.006558309696	0.01008392378	
503.75	0.01832548115	0.1206491759	
504.375	0.1217417957	-0.05590442482	
505.0	-0.0416601248	-0.04032187665	
505.625	0.02222538888	0.01165657599	
506.25	-0.09405317856	-0.0340454372	
506.875	-0.09114475432	0.4407834905	
507.5	0.1718102525	0.2002210331	
508.125	0.307013831	-0.2444573465	
508.75	0.2303488252	-0.4110837259	
509.375	-0.2609953722	-0.1433107057	
510.0	-0.07381634168	0.1494032838	
510.625	0.02832167924	0.03216475262	
511.25	-0.02281036621	0.01698256905	
511.875	0.01632980131	0.0170288865	
512.5	-0.004609996627	-0.004910414583	
513.125	0.01825930274	-0.003488486057	
513.75	-0.009096190202	-0.001122070267	
514.375	0.03426294703	0.04391982482	
515.0	0.2058536982	-0.1202157155	
515.625	-0.05481041815	-0.1036820012	
516.25	-0.08807491369	0.1079902229	
516.875	0.07131163888	-0.01054301614	
517.5	-0.005509986507	-0.1289858856	
518.125	-0.06393265221	-0.02093359838	
518.75	0.03442466047	0.006091670557	
519.375	-0.03439842243	0.02020640116	
520.0	0.01149610433	0.04644630477	
520.625	0.05979571158	-0.08221433766	
521.25	-0.1206121291	-0.189931688	
521.875	-0.0661420547	0.1037378124	
522.5	0.1826385441	-0.2201246398	
523.125	-0.09096767066	-0.2892680631	
523.75	-0.1891737154	0.03319690747	
524.375	0.01155573381	0.3225271064	
525.0	0.3727118652	0.006135072115	
525.625	-0.06112829758	-0.1532309121	
526.25	-0.04517488026	0.05749860805	
526.875	0.1230202477	-0.01839286064	
527.5	-0.01808047512	-0.09310554467	
528.125	-0.02679456619	0.0595375474	
528.75	0.07693523242	0.006818815628	
529.375	-0.01923333416	-0.002775623585	
530.0	0.09859447337	0.0009379499411	
530.625	0.1360678461	-0.128417292	
531.25	-0.0592828345	-0.04625672972	
531.875	0.1346681343	0.04266933303	
532.5	0.08716691687	-0.1486027251	
533.125	-0.1666462049	-0.06112494656	
533.75	-0.02774550513	0.07976468173	
534.375	0.02157981291	-0.01158453278	
535.0	-0.02869038915	0.01477173264	
535.625	0.002444199837	0.08005103364	
536.25	0.04013987043	-0.03194247294	
536.875	-0.04145644738	0.0298736402	
537.5	0.001142023101	0.03859342452	
538.125	-0.1396066352	-0.09398105167	
538.75	-0.3214850355	0.163294107	
539.375	-0.05968645447	0.2143689026	
540.0	0.2130015631	-0.06304620011	
540.625	0.135019043	-0.1753451773	
541.25	-0.2172729409	-0.07639038119	
541.875	-0.329533314	0.1193041599	
542.5	-0.03117225947	0.2034175549	
543.125	0.2002165476	-0.1574485708	
543.75	-0.1893623442	-0.1259994499	
544.375	0.08893051417	0.1366266478	
545.0	0.2567866152	-0.1432701047	
545.625	-0.02153275516	-0.1873830002	
546.25	-0.005141806727	0.198676309	
546.875	0.3337561985	0.2128691555	
547.5	0.1761716395	-0.1533989691	
548.125	-0.2388230521	0.02638806746	
548.75	0.01399214247	0.3553872197	
549.375	0.2076882219	-0.009381841696	
550.0	-0.2696784428	-0.1570287416	
550.625	-0.2271675046	0.2354110373	
551.25	0.215935525	-0.0006620661786	
551.875	-0.175986777	-0.218692735	
552.5	-0.09669000813	0.1480687169	
553.125	0.1629667702	-0.0336380971	
553.75	-0.03741639175	0.0611491706	
554.375	0.08489238207	0.00948036462	
555.0	-0.07426448283	-0.1199210896	
555.625	-0.1635616603	0.08677193629	
556.25	0.09123908658	0.007080936818	
556.875	-0.05722046394	-0.2399172118	
557.5	-0.1721228237	-0.1080955245	
558.125	-0.03314056776	0.09267008786	
558.75	0.177592337	0.1203590834	
559.375	0.1606127281	-0.07915783187	
560.0	-0.1163579015	-0.07165165519	
560.625	-0.2121245422	0.1108275698	
561.25	0.09891407078	0.2118998361	
561.875	0.2239577169	-0.1238825437	
562.5	-0.2006415674	-0.1156132679	
563.125	-0.1072565126	0.09631836715	
563.75	0.1716037334	0.2348605038	
564.375	0.1488465484	-0.2462932651	
565.0	-0.1719268901	-0.1115414096	
565.625	-0.1048099811	0.2479890949	
566.25	0.03579737019	0.1592570352	
566.875	0.09920066322	-0.2070489003	
567.5	-0.08648902018	-0.4176796214	
568.125	-0.2159496095	-0.2367633732	
568.75	-0.02126625874	0.1327691669	
569.375	0.2905798931	0.004261732705	
570.0	-0.001953060347	-0.2412420458	
570.625	-0.3450062594	0.1189949252	
571.25	0.03899022738	0.4019557963	
571.875	0.08909230887	-0.1850072068	
572.5	-0.2621942971	0.1894970368	
573.125	0.3369622027	0.01945613667	
573.75	-0.01443049414	-0.3071575336	
574.375	-0.1808149908	0.3291249541	
575.0	-0.09523927754	0.2026736482	
575.625	0.1878119346	-0.2234792791	
576.25	-0.1029019415	-0.3957597726	
576.875	-0.2508746499	-0.106786343	
577.5	0.01400668294	0.2240763524	
578.125	0.328832341	0.00950340847	
578.75	0.144072982	-0.2676245359	
579.375	-0.2818076837	0.1476650098	
580.0	0.02460779227	0.3883282964	
580.625	0.2410697554	-0.1560682433	
581.25	-0.1354956997	-0.2142271568	
581.875	-0.366541477	-0.03009459611	
582.5	-0.02477995336	0.3250452588	
583.125	0.2994014349	-0.1524211511	
583.75	-0.2248166341	-0.2391555515	
584.375	-0.06479089167	0.2356977245	
585.0	0.361588589	0.07923543135	
585.625	0.3130294569	0.06185083408	
586.25	-0.07997931227	-0.1916778183	
586.875	-0.3682647031	0.07710997316	
587.5	-0.1706812012	0.2286505131	
588.125	0.2222588301	-0.02263197632	
588.75	0.03571220218	-0.4269348692	
589.375	-0.2584349313	-0.07803132915	
590.0	0.1870718892	0.1075919586	
590.625	0.2587726763	-0.3237823831	
591.25	-0.2204153808	-0.1250591911	
591.875	0.148226837	0.2300716492	
592.5	0.2847555653	-0.1429836079	
593.125	-0.1178983199	-0.04152354401	
593.75	0.1977539397	0.3137837875	
594.375	0.3427869856	-0.1215207108	
595.0	-0.1101756541	-0.07067481896	
595.625	-0.02268691642	0.2698894979	
596.25	0.1428124082	0.1317943822	
596.875	-0.190793592	-0.03263719338	
597.5	-0.1411889455	0.4069638929	
598.125	-0.145793405	0.2442585267	
598.75	0.05114371005	-0.02840713472	
599.375	-0.1398709273	-0.2540554099	
600.0	-0.2226774743	-0.07474199777	
600.625	-0.1048606254	0.1277354482	
601.25	0.1543076369	0.2046012291	
601.875	0.1589374643	-0.01033378909	
602.5	-0.07270372738	0.09758480879	
603.125	-0.124791034	0.2519750158	
603.75	0.1499565805	0.1671279692	
604.375	0.03239631747	-0.1343130299	
605.0	-0.1924757629	-0.006581319652	
605.625	-0.01461150463	0.1350927488	
606.25	0.2023166198	-0.03197114983	
606.875	0.1427703572	-0.2122592343	
607.5	-0.05645916322	-0.09892200552	
608.125	-0.1524444551	0.1703442075	
608.75	-0.05583302356	0.2979124572	
609.375	0.0936371222	0.03205094245	
610.0	-0.1843299761	-0.1768881407	
610.625	-0.3010079032	0.1239846698	
611.25	0.06760352117	0.1295470069	
611.875	0.04547592657	-0.2438985085	
612.5	-0.2555854295	-0.1172654398	
613.125	-0.004325524234	0.2095397344	
613.75	0.3144047205	0.03423534433	
614.375	0.1453588318	-0.210673765	
615.0	-0.2178196977	-0.01460250712	
615.625	-0.02645728836	0.3112284314	
616.25	0.1895698167	0.02832963917	
616.875	-0.1612138809	-0.2165069162	
617.5	-0.353414955	0.1412411294	
618.125	-0.004620358364	0.192834911	
618.75	0.03131137577	-0.2732901664	
619.375	-0.04102621854	-0.4278534953	
620.0	-0.1958381326	-0.1204599522	
620.625	0.07273659078	0.2013933054	
621.25	0.3298208873	0.2242410957	
621.875	0.2477743576	-0.1125587278	
622.5	-0.1427970708	-0.1082292562	
623.125	-0.1244504033	0.2401179051	
623.75	0.1901085222	0.1006840795	
624.375	0.002161212428	-0.3001393381	
625.0	-0.3079833684	-0.1361971909	
625.625	-0.1569683462	0.07678191905	
626.25	0.1515799372	0.09756014092	
626.875	0.2330458602	-0.1423832943	
627.5	-0.07704334962	-0.2084731799	
628.125	-0.2926207173	0.005915296567	
628.75	-0.1791255739	0.2714753917	
629.375	-0.01115824036	0.1324549781	
630.0	-0.08316180981	-0.1901248313	
630.625	-0.350796332	-0.2055245961	
631.25	-0.3281991085	0.04336202236	
631.875	0.009247348522	0.1908215002	
632.5	0.2582803883	-0.04682913572	
633.125	-0.00573097366	-0.1813222758	
633.75	-0.09260639495	0.1998897124	
634.375	0.333551383	0.2471276002	
635.0	0.330230456	-0.1111401675	
635.625	-0.05736065946	-0.1715326383	
636.25	-0.2296037963	0.1345792346	
636.875	0.04542359096	0.2257815963	
637.5	0.2726544262	-0.0899773547	
638.125	0.1773909229	-0.3812880667	
638.75	-0.0843857243	-0.2748484955	
639.375	-0.05990851851	0.1489936337	
640.0	0.2868404776	0.2889153181	
640.625	0.3199926384	-0.01435526999	
641.25	-0.1430874755	-0.1516998793	
641.875	-0.4253308254	0.1249337937	
642.5	-0.1749999324	0.3193003139	
643.125	0.183573074	-0.0490313676	
643.75	-0.03279077563	-0.4976428802	
644.375	-0.347667513	-0.2464270135	
645.0	-0.09811311141	0.1973483749	
645.625	0.3367814175	0.1676775625	
646.25	0.223570029	-0.195409628	
646.875	-0.3121432496	-0.1091181677	
647.5	-0.4891740456	0.1795032596	
648.125	-0.1375771346	0.2983086654	
648.75	0.1805322053	-0.1490884263	
649.375	-0.1488307353	-0.5160427025	
650.0	-0.351933361	-0.1538776589	
650.625	0.1020568537	0.1522942339	
651.25	0.4900578397	0.01375979966	
651.875	0.3344643759	-0.1927595779	
652.5	-0.1165738716	-0.01025333732	
653.125	-0.1487107297	0.4470794644	
653.75	0.3184493563	0.3417287837	
654.375	0.1569975118	-0.1604971559	
655.0	-0.1722901314	0.1124555672	
655.625	0.2503360827	0.1464964698	
656.25	-0.03974376016	-0.2883326044	
656.875	-0.3384896509	0.1494470769	
657.5	0.002163402557	0.3515814697	
658.125	0.1425697773	0.03912742992	
658.75	0.05572923524	-0.3107630602	
659.375	-0.1272330515	-0.435261296	
660.0	-0.2429423746	-0.1983487863	
660.625	-0.2342336174	0.175401105	
661.25	0.01314821315	0.3714451428	
661.875	0.07025574372	0.1082777831	
662.5	-0.3338765371	0.09201165594	
663.125	-0.3864169264	0.4965531217	
663.75	-0.1129432604	0.48801253	
664.375	0.09301114004	0.06837432426	
665.0	-0.0005904688843	-0.2760332359	
665.625	-0.1731655163	-0.1733979098	
666.25	-0.008632117807	0.2317319548	
666.875	0.3755005938	0.2785945089	
667.5	0.3595678925	-0.1513614505	
668.125	-0.05124792123	-0.1197004263	
668.75	-0.1877131373	0.2060653846	
669.375	0.1009082057	0.2600371193	
670.0	0.2142518543	-0.1563744881	
670.625	0.02727739414	-0.4590474426	
671.25	-0.1940339413	-0.3257467425	
671.875	-0.03603348662	0.05997032838	
672.5	0.4165789141	0.002294412038	
673.125	0.3435600487	-0.3298347062	
673.75	-0.1407855076	-0.2159863873	
674.375	-0.1930441152	0.2809613397	
675.0	0.1931082072	0.36011013	
675.625	0.2191629982	-0.1342252094	
676.25	-0.3102699062	-0.3006872172	
676.875	-0.5027718238	0.1076696298	
677.5	-0.06327947512	0.338397865	
678.125	0.3512809691	0.0836551824	
678.75	0.3414272864	-0.2851415678	
679.375	-0.1755821258	-0.4153011567	
680.0	-0.4561535744	-0.4659704496	
680.625	-0.5216747819	-0.3858077873	
681.25	-0.3295077971	-0.05501019759	
681.875	-0.0007210639474	0.4180870108	
682.5	0.5265161206	0.4017499769	
683.125	0.4351316509	-0.3372149485	
683.75	-0.3831376974	-0.2012240797	
684.375	-0.1042131439	0.5371761008	
685.0	0.5358886115	-0.04417861103	
685.625	-0.1957255484	-0.391955067	
686.25	-0.5001429927	0.3380673842	
686.875	0.0206003727	0.6619212918	
687.5	0.3605590896	0.2005295442	
688.125	-0.01763755542	-0.3149041154	
688.75	-0.5778959616	0.07337295613	
689.375	0.2450435562	0.5148415209	
690.0	0.4239790461	-0.4390749338	
690.625	-0.4506261371	-0.5993287519	
691.25	-0.4681161636	-0.0132551087	
691.875	0.246912505	0.1346846475	
692.5	0.7240426044	-0.1451874106	
693.125	0.3663017621	-0.5430887914	
693.75	-0.3405437076	-0.1687021175	
694.375	0.01392819627	0.5602364099	
695.0	0.4634613061	-0.06592885407	
695.625	-0.07382850278	0.07971202495	
696.25	0.6244729682	0.1280835138	
696.875	0.444669156	-0.6399824133	
697.5	-0.1579644191	-0.4790317302	
698.125	-0.2603826293	0.08269673926	
698.75	-0.005689884257	0.3466998423	
699.375	0.3415504145	0.09247850051	
700.0	0.5535105745	-0.4221775663	
700.625	0.4317783011	-0.7201456061	
701.25	0.2208364487	-0.5072581956	
701.875	-0.1676733638	-0.07267855203	
702.5	-0.2376267415	0.2827354937	
703.125	-0.05804326885	0.3377019373	
703.75	0.1881511249	0.3875012214	
704.375	0.2465825061	0.4761359253	
705.0	0.1252441933	0.3232627845	
705.625	-0.08133094901	-0.01798740111	
706.25	-0.3082902185	0.2652334601	
706.875	0.148739554	0.3613044956	
707.5	0.2010650632	-0.004631512488	
708.125	-0.1562478547	-0.1973680905	
708.75	-0.2062642993	0.05666904994	
709.375	0.1349340438	0.03656142787	
710.0	0.3083869303	-0.2144821801	
710.625	0.2583950622	-0.3344274417	
711.25	0.002608765074	-0.1214433912	
711.875	-0.01610242478	0.2425135228	
712.5	0.2400099079	0.2504403618	
713.125	0.1402876798	-0.1055789093	
713.75	-0.2858143349	-0.04533906549	
714.375	-0.1992093768	0.2947639569	
715.0	0.08137580346	0.09459993754	
715.625	-0.2524985613	0.02425492797	
716.25	-0.00797248345	0.4135586338	
716.875	0.2831964646	0.08606736939	
717.5	-0.07870108405	-0.01690851025	
718.125	0.09263563901	0.363478478	
718.75	0.4168779141	0.03869713104	
719.375	-0.1083734584	-0.5202601723	
720.0	-0.5502985273	-1.070544295	
720.625	0.1092253631	-1.452730041	
721.25	-0.07511882435	-0.1616312404	
721.875	-2.686415502	-0.4465043912	
722.5	-3.841193566	-2.636490315	
723.125	-3.60638342	-1.032827472	
723.75	-3.341917552	2.47521687	
724.375	-2.305766366	2.476963088	
725.0	-0.08196287029	0.4356868477	
725.625	1.009232468	-1.433437494	
726.25	1.40284026	-1.759886298	
726.875	0.7839225343	-1.379860314	
727.5	-0.2108329408	-0.8842866194	
728.125	-0.9576246301	0.5665653935	
728.75	0.632223085	0.8071219076	
729.375	-0.5100897491	-1.351866023	
730.0	-2.179525213	1.448912224	
730.625	1.116710235	2.258260974	
731.25	1.001714433	-0.03875954919	
731.875	-0.9350583266	-0.4608814824	
732.5	-1.440909295	0.2731689606	
733.125	-0.7525455831	0.6957890889	
733.75	-0.2045470126	1.126610835	
734.375	0.6322962214	0.8198131698	
735.0	0.4396088214	-0.1536874984	
735.625	-0.002308213341	0.3210725442	
736.25	0.5978045886	-0.3549397422	
736.875	-0.4166464427	-0.3056335791	
737.5	0.06258182348	0.2572338663	
738.125	0.1885440467	-0.1758311319	
738.75	-0.163589139	-0.1178018016	
739.375	-0.006850690191	0.1784805016	
740.0	0.384020724	0.1007407927	
740.625	0.4357802826	-0.369352461	
741.25	0.02211206196	-0.4139457404	
741.875	-0.3137399846	0.1738135369	
742.5	-0.2890206707	0.7213086298	
743.125	-0.08659388965	0.6512616604	
743.75	0.2574785029	0.5865797261	
744.375	0.1151734748	0.7082806082	
745.0	-0.1457051605	0.3843980967	
745.625	-0.01082761885	0.06741213482	
746.25	0.1878718381	0.06792353149	
746.875	0.2417523225	-0.05291801182	
747.5	0.1287103996	-0.08924588024	
748.125	-0.1113039902	-0.1043862739	
748.75	-0.2254075814	-0.00196975515	
749.375	-0.08798554613	0.08414783632	
750.0	0.1389035764	0.0230852678	
