# GHz S RI R 50 
!freq	ReS11	ImS11	
500.0	0.01820379822	-0.00366732059	
500.625	-0.04991558004	0.08865949532	
501.25	0.01580671895	0.09125074768	
501.875	-0.03500533932	-0.06879560369	
502.5	-0.05159946298	-0.1073933099	
503.125	-0.0009431825282	0.00165784488	
503.75	0.1167018445	0.09893300634	
504.375	0.03658642506	-0.06350492087	
505.0	0.001843157164	0.01482654526	
505.625	-0.01232770205	-0.02692704169	
506.25	-0.09684715583	0.09801638833	
506.875	0.1748978118	0.2124301232	
507.5	-0.001633294695	-0.1299012317	
508.125	-0.2160224411	-0.3101657114	
508.75	-0.3553705337	-0.002898522698	
509.375	-0.2952968104	0.2155108919	
510.0	0.03090433399	0.08279641699	
510.625	-0.03118019604	-0.003018226638	
511.25	0.006074363372	0.04892260625	
511.875	0.01622357672	-0.002417932859	
512.5	-0.0015099601	0.003498120541	
513.125	-0.003875044335	-0.0158789446	
513.75	0.002253668123	0.008257197292	
514.375	0.05868955087	-0.02467097619	
515.0	-0.05713064788	-0.1632219284	
515.625	-0.09641841643	0.05824351492	
516.25	0.09580401902	0.06254441549	
516.875	-0.0003614826486	-0.1196361759	
517.5	-0.09425130006	-0.06887422245	
518.125	-0.003553535579	0.02031225494	
518.75	0.04336913152	-0.06952578419	
519.375	-0.00577021944	0.03594934028	
520.0	0.02842371201	-0.01421717699	
520.625	-0.05208594482	-0.1238404532	
521.25	-0.1543833973	0.01780848483	
521.875	0.1934210118	0.08986406024	
522.5	-0.05294063635	-0.3196542475	
523.125	-0.2250015915	-0.03987468023	
523.75	-0.02815773566	0.2404241959	
524.375	0.3060201266	0.1639142543	
525.0	0.2234389697	-0.3263217314	
525.625	-0.136428996	-0.03228738692	
526.25	0.06670848495	0.06493019622	
526.875	0.09186622033	-0.1202823777	
527.5	-0.06294533	-0.03281648521	
528.125	0.06135572223	0.06831966234	
528.75	0.0595393537	-0.04910488059	
529.375	-0.004586244722	0.02049694415	
530.0	0.1021911827	-0.07325851557	
530.625	0.02863343522	-0.1434873675	
531.25	-0.03917492308	0.07098121415	
531.875	0.1644016103	-0.08470387145	
532.5	-0.06051361283	-0.1866459519	
533.125	-0.1778554949	0.04793004861	
533.75	0.01860510092	0.0537776797	
534.375	-0.0319923973	-0.0587786899	
535.0	-0.02101372915	0.03527023598	
535.625	0.04819258752	0.05888210028	
536.25	0.01419960192	-0.05073990482	
536.875	-0.01401849357	0.0376238373	
537.5	0.03092096469	-0.03517052108	
538.125	-0.2281762713	-0.03727861884	
538.75	-0.2116039683	0.2624808723	
539.375	0.07692106053	0.132144306	
540.0	0.1098051858	-0.2366844622	
540.625	-0.05491263254	-0.2191476008	
541.25	-0.274919632	0.09247574914	
541.875	-0.2133058673	0.258944517	
542.5	0.1233636076	0.1185869254	
543.125	0.06757010964	-0.3013093037	
543.75	-0.2050685259	0.02771315393	
544.375	0.1985017148	0.04499783858	
545.0	0.1490205463	-0.2463134286	
545.625	-0.1079662773	-0.0565121212	
546.25	0.1535388836	0.2512181607	
546.875	0.3767947304	0.03995274253	
547.5	-0.006166336698	-0.1582461532	
548.125	-0.2381320923	0.2091700579	
548.75	0.1850176747	0.2799898137	
549.375	0.1103500262	-0.173046349	
550.0	-0.3510103587	0.008767406217	
550.625	-0.05716102555	0.282207132	
551.25	0.1631533846	-0.1696384102	
551.875	-0.2705101391	-0.08714219657	
552.5	0.03379338808	0.1479634821	
553.125	0.1234687839	-0.1470887987	
553.75	0.002626016914	0.06541543838	
554.375	0.0648623533	-0.0672825813	
555.0	-0.1339412834	-0.06899110733	
555.625	-0.06220399348	0.1221617676	
556.25	0.0971381666	-0.09992846209	
556.875	-0.163246876	-0.2028663421	
557.5	-0.1493503184	9.744006768e-05	
558.125	0.07712915913	0.1045472988	
558.75	0.2133755578	0.01388715032	
559.375	0.05493814481	-0.1220042517	
560.0	-0.1565011036	0.04792384532	
560.625	-0.1078367125	0.2137288614	
561.25	0.1905212266	0.08214444083	
561.875	0.09580226761	-0.2146531252	
562.5	-0.1712853135	0.03413738268	
563.125	0.03004723763	0.1830860788	
563.75	0.2868899898	0.1156264578	
564.375	-0.003104089364	-0.2254448789	
565.0	-0.1772971994	0.04078760626	
565.625	0.04770828157	0.226002557	
566.25	0.09936061668	0.001235689134	
566.875	-0.0316315151	-0.31649959	
567.5	-0.2159062363	-0.3255505527	
568.125	-0.1716996726	-0.07487380404	
568.75	0.1572731061	0.08261984954	
569.375	0.2087685225	-0.1840154321	
570.0	-0.1869403923	-0.1403251994	
570.625	-0.2270992902	0.2818962295	
571.25	0.1719071607	0.2312034695	
571.875	-0.1265029836	-0.09797856644	
572.5	-0.05356385902	0.3205047693	
573.125	0.1889970512	-0.1778283161	
573.75	-0.2192597359	-0.1799858864	
574.375	0.0576742979	0.2745401002	
575.0	0.1220245262	0.09031268621	
575.625	-0.03171310272	-0.3298450055	
576.25	-0.2389867328	-0.2049206939	
576.875	-0.1121919771	0.07236332218	
577.5	0.2105485921	0.08455703699	
578.125	0.1746986464	-0.1960568948	
578.75	-0.1177569255	-0.169712972	
579.375	-0.03781824251	0.2695367375	
580.0	0.1908884304	0.1696252645	
580.625	-0.04150115967	-0.1236417628	
581.25	-0.22937243	0.08325043576	
581.875	-0.1602542163	0.2133008997	
582.5	0.1789001175	0.08014561981	
583.125	-0.01509828699	-0.2328295341	
583.75	-0.1433750167	0.08149351023	
584.375	0.2180412157	0.04183645015	
585.0	0.1676018563	-0.1971717458	
585.625	0.03582894895	-0.09396504709	
586.25	-0.1892932858	0.1077735117	
586.875	-0.06409572179	0.2207518434	
587.5	0.06396123144	-0.02549558998	
588.125	-0.01356709374	-0.2864669448	
588.75	-0.1732867206	-0.1447396907	
589.375	0.08051034512	0.007468706404	
590.0	0.1415193385	-0.2592402945	
590.625	-0.08900738304	-0.1543895249	
591.25	0.1076180373	0.072927721	
591.875	0.1771911323	-0.1418644428	
592.5	-0.06368481557	-0.02031963565	
593.125	0.1454601159	0.2234365482	
593.75	0.2563682364	-0.05464040625	
594.375	0.007605488583	0.003320028376	
595.0	0.1448895661	0.1689388013	
595.625	0.1443419595	-0.03897427741	
596.25	-0.1656782992	-0.04413946259	
596.875	-0.09080588602	0.3026978041	
597.5	0.09948935886	0.1434383773	
598.125	-0.1148900896	-0.0914429696	
598.75	-0.1882078945	-0.262841581	
599.375	-0.1913468505	0.08284386086	
600.0	0.0939836979	0.04345125891	
600.625	0.2141263653	0.01392554257	
601.25	0.03238495366	-0.1169732571	
601.875	-0.1808605857	0.1387792021	
602.5	0.2748821478	0.2122241365	
603.125	0.2103992544	0.1335004657	
603.75	-0.01224174944	-0.1475794469	
604.375	-0.2229015781	0.1119178834	
605.0	0.1036867321	0.208434242	
605.625	0.2099451065	-0.1481589559	
606.25	-0.02298869007	-0.3092595116	
606.875	-0.1847986452	-0.0791083156	
607.5	-0.03741313954	0.2655663741	
608.125	0.2000864811	0.3171714167	
608.75	0.2194713538	0.01194462899	
609.375	-0.1753615812	-0.2427258392	
610.0	-0.4062540215	0.1216295129	
610.625	0.06168003181	0.2675216945	
611.25	0.1243824108	-0.2697796427	
611.875	-0.3500919925	-0.2211367424	
612.5	-0.1782127549	0.2717018404	
613.125	0.3765041931	0.1030784089	
613.75	0.2405688401	-0.336429809	
614.375	-0.2366720564	-0.1777158007	
615.0	-0.1838359198	0.3660480999	
615.625	0.3081358314	0.2230015279	
616.25	0.08386292181	-0.2714700674	
616.875	-0.4500621269	-0.05934436384	
617.5	-0.1266474818	0.3892491733	
618.125	0.2365549736	-0.03695855877	
618.75	-0.2623730688	-0.3679554888	
619.375	-0.3043302524	-0.3160673083	
620.0	-0.1087787881	0.1442237309	
620.625	0.384175696	0.1984155429	
621.25	0.4278018112	-0.03798406196	
621.875	0.01487814653	-0.2168002401	
622.5	-0.2695039411	0.100077049	
623.125	0.1099591454	0.315821572	
623.75	0.2427019508	-0.1431436486	
624.375	-0.2521256011	-0.2989186219	
625.0	-0.3047560304	0.09056669425	
625.625	0.02682040989	0.1628305806	
626.25	0.2903697132	-0.05812003153	
626.875	0.09780388952	-0.3115630612	
627.5	-0.2530362046	-0.09606788956	
628.125	-0.2716899564	0.1938586724	
628.75	0.01012645	0.2674915022	
629.375	0.05684509281	-0.0590948107	
630.0	-0.2787036411	-0.2762583564	
630.625	-0.4576041232	-0.03579937299	
631.25	-0.2059153156	0.1901755522	
631.875	0.1864503802	0.1080301743	
632.5	0.164611412	-0.2366741162	
633.125	-0.1876769788	-0.05815286865	
633.75	0.06368560094	0.3611834644	
634.375	0.4501407446	0.06669471552	
635.0	0.1605810516	-0.2336696682	
635.625	-0.2147119556	-0.008540842197	
636.25	-0.0708595725	0.3162248711	
636.875	0.2479976744	0.09981634838	
637.5	0.2212253287	-0.3177051523	
638.125	-0.04638394041	-0.4137862805	
638.75	-0.1802632633	-0.06523755708	
639.375	0.150478712	0.2837478689	
640.0	0.4575957135	0.0835126823	
640.625	0.1486683504	-0.2144135632	
641.25	-0.3577599963	1.926581033e-05	
641.875	-0.3314711033	0.3932922474	
642.5	0.1102801625	0.2622042609	
643.125	0.1715956748	-0.361175098	
643.75	-0.3480384396	-0.4833785949	
644.375	-0.3706382342	0.05482207291	
645.0	0.194473221	0.2778148378	
645.625	0.4605874776	-0.1236693996	
646.25	-0.06173680928	-0.3476735312	
646.875	-0.4875722614	0.1534453162	
647.5	-0.3332749018	0.4509000185	
648.125	0.1612370664	0.2029143308	
648.75	0.1088201513	-0.473566352	
649.375	-0.4830773379	-0.415255692	
650.0	-0.2418683645	0.1766304124	
650.625	0.4370503405	0.1056955243	
651.25	0.5369819637	-0.3164605374	
651.875	0.02073175469	-0.3369006084	
652.5	-0.3197769634	0.2710754291	
653.125	0.1164787229	0.6640765935	
653.75	0.4727851642	0.08050966768	
654.375	-0.1308181149	-0.2265978477	
655.0	-0.09316055885	0.3983820967	
655.625	0.4390272929	-0.08931107994	
656.25	-0.342431072	-0.2766776674	
656.875	-0.2219162177	0.4378282879	
657.5	0.3028591036	0.241810362	
658.125	0.1653039437	-0.2834765786	
658.75	-0.1898259078	-0.5413242092	
659.375	-0.4500226307	-0.3560728473	
660.0	-0.3503993026	0.09303611322	
660.625	-0.05756728841	0.4239449084	
661.25	0.2881346095	0.2393497252	
661.875	-0.06567000881	-0.1709825509	
662.5	-0.5809068069	0.2834933828	
663.125	-0.2037953648	0.7099980856	
663.75	0.05253193509	0.3231819392	
664.375	0.0686526846	-0.2083896432	
665.0	-0.2851820802	-0.3540299866	
665.625	-0.2998626248	0.06900833882	
666.25	0.2262237054	0.3923501418	
666.875	0.5608982211	0.09241536833	
667.5	0.1530454158	-0.301887046	
668.125	-0.2267190748	0.08115368972	
668.75	-0.02019681046	0.4212797715	
669.375	0.3248326406	0.1020455613	
670.0	0.09614512617	-0.3948416612	
670.625	-0.2430794679	-0.4458803551	
671.25	-0.2575275616	-0.05613606295	
671.875	0.2331797129	0.1849333455	
672.5	0.4981379519	-0.2933384396	
673.125	0.06905077471	-0.439013029	
673.75	-0.2611260093	0.05843729647	
674.375	0.07160259564	0.4463029896	
675.0	0.3945264808	0.08531834617	
675.625	-0.05539425386	-0.3545718078	
676.25	-0.5463180975	-0.034638072	
676.875	-0.2797238414	0.377450009	
677.5	0.2556324136	0.1804271296	
678.125	0.3387192358	-0.3140934928	
678.75	-0.03692623391	-0.4983895693	
679.375	-0.5284925545	-0.1659353742	
680.0	-0.6678429983	-0.09250682312	
680.625	-0.4762135157	0.04655575406	
681.25	-0.03408999467	0.2800562063	
681.875	0.4800174544	0.3724334286	
682.5	0.6308771684	-0.08736952388	
683.125	-0.03748854657	-0.4082786612	
683.75	-0.3467530446	0.2731717641	
684.375	0.3751170643	0.3862995076	
685.0	0.1400299969	-0.4070136856	
685.625	-0.4810914038	0.104863503	
686.25	-0.01182749095	0.5941087791	
686.875	0.3133264496	0.2767404582	
687.5	0.06586968621	-0.1702327958	
688.125	-0.4462494181	-0.05679705788	
688.75	-0.1994985614	0.4895108721	
689.375	0.3978253673	-0.02858490388	
690.0	-0.143118447	-0.4661239303	
690.625	-0.3824647604	-0.02076211154	
691.25	0.1321648624	0.01626773187	
691.875	0.3930809051	-0.4774554155	
692.5	0.2745721266	-0.5782680145	
693.125	-0.1133270547	-0.2172936754	
693.75	-0.03530428488	0.3060180085	
694.375	0.3345104425	0.09956958303	
695.0	-0.09501479532	0.009318773321	
695.625	0.3990401482	0.3836673732	
696.25	0.5502214042	-0.4088734332	
696.875	-0.04993914325	-0.4052407759	
697.5	0.04634139705	0.05763093702	
698.125	0.3812871264	0.07405375936	
698.75	0.343219625	-0.2463412401	
699.375	0.08823603125	-0.5627874278	
700.0	-0.1162512639	-0.6363651669	
700.625	-0.1318095009	-0.2987402685	
701.25	0.07174888442	0.2079540154	
701.875	0.3268638361	0.4173226884	
702.5	0.414901644	0.2205581868	
703.125	0.3990249671	-0.04895856215	
703.75	0.390243527	-0.1423741936	
704.375	0.1568578221	-0.0629946459	
705.0	-0.2764292281	-0.02891308925	
705.625	-0.4443275706	0.3517681792	
706.25	0.1268955406	0.4670981262	
706.875	0.1759564398	-0.0938435128	
707.5	-0.2157581102	-0.1524037779	
708.125	-0.1646759094	0.2354779907	
708.75	0.2269389125	0.03986442691	
709.375	0.2139262503	-0.3868618744	
710.0	-0.02339723405	-0.4575644874	
710.625	-0.1216576161	-0.1192611935	
711.25	0.06144431764	0.3096738814	
711.875	0.421135989	0.242889705	
712.5	0.2746874757	-0.1713529015	
713.125	-0.2548738331	-0.1476519765	
713.75	-0.255070737	0.345618528	
714.375	0.1741884364	0.2002794297	
715.0	-0.148016783	-0.2122665432	
715.625	-0.3414896375	0.381209184	
716.25	0.2812303094	0.2902171227	
716.875	0.04790717136	-0.1261017532	
717.5	-0.08114102811	0.3412323025	
718.125	0.5302034082	0.19361592	
718.75	0.1338362356	-0.4645780533	
719.375	-0.8545249646	-0.3407129765	
720.0	-1.210640962	-0.402528496	
720.625	-0.6743446359	-0.3785033936	
721.25	-1.063395188	1.346896407	
721.875	-3.750779247	1.745233017	
722.5	-4.484839863	0.5166639488	
723.125	-2.75066394	2.036169238	
723.75	-0.3122711745	3.859084658	
724.375	0.4803405402	1.818945929	
725.0	0.5532506848	-1.393776936	
725.625	0.3284550073	-2.706270196	
726.25	0.3952118004	-2.214236352	
726.875	-0.1385689829	-1.16859435	
727.5	-0.8078928162	-0.05939385825	
728.125	0.01231318411	1.209426655	
728.75	1.117731092	-0.418832602	
729.375	-1.748578454	-1.066387072	
730.0	-1.34275883	2.271350102	
730.625	1.406511115	1.071626966	
731.25	-0.1957580022	-0.3074818401	
731.875	-3.726057241	1.03036463	
732.5	-1.191785667	1.041592237	
733.125	0.02288243109	0.9949998804	
733.75	0.5071767404	1.075548907	
734.375	0.6778210801	0.2773782576	
735.0	-0.04893546308	-0.02499383205	
735.625	0.3687193632	0.5269749458	
736.25	0.3752849148	-0.6191980239	
736.875	-0.403732388	-0.05180223376	
737.5	0.174469907	0.08834427279	
738.125	0.005036448591	-0.2142304099	
738.75	-0.1158598815	0.0519241329	
739.375	0.2022899712	0.1435875373	
740.0	0.3825745236	-0.1116946671	
740.625	0.1695974976	-0.37246006	
741.25	-0.08983643213	-0.08280970949	
741.875	0.02815039259	0.4673952424	
742.5	0.2284289278	0.639503291	
743.125	0.3137779958	0.357960306	
743.75	0.5231509169	0.2623395842	
744.375	0.3085089616	0.4403268062	
745.0	-0.02061738653	0.1826925274	
745.625	0.08766197862	-0.07974260756	
746.25	0.1985855078	-0.06521704994	
746.875	0.1325729118	-0.1020832465	
747.5	0.01028729002	-0.05117394688	
748.125	-0.1218917468	0.0244559732	
748.75	-0.1077251305	0.06948211677	
749.375	0.01828896846	0.001847576241	
750.0	0.1160054425	-0.1062922442	
