# GHz S RI R 50 
!freq	ReS11	ImS11	
500.0	0.04176930056	0.02146253213	
500.625	0.005867153872	0.09345150684	
501.25	-0.0209851539	0.01839344434	
501.875	-0.1116286747	-0.02290135293	
502.5	-0.01917233081	-0.00559548277	
503.125	-0.002046609269	-0.006112608406	
503.75	0.1222918749	0.01830987753	
504.375	0.01287758879	-0.002531107181	
505.0	0.05277133831	-0.007025299616	
505.625	-0.04591724441	-0.00974956322	
506.25	-0.007795595767	0.1279622911	
506.875	0.0880585423	-0.01492096244	
507.5	-0.2700532537	-0.0820009921	
508.125	-0.3620085237	0.02828513695	
508.75	-0.2205035684	0.4464193676	
509.375	-0.08412209756	0.3209104545	
510.0	0.01687229862	0.0008170753151	
510.625	-0.06496313012	0.02589450002	
511.25	0.03115345922	0.04001660277	
511.875	0.004841642221	-0.00824455062	
512.5	0.004168515127	0.003920975121	
513.125	-0.01731625077	-0.006320809348	
513.75	0.01031846732	0.004483502097	
514.375	0.02747928322	-0.06028098303	
515.0	-0.1656782585	-0.02901577718	
515.625	-0.0198941977	0.1315224085	
516.25	0.1268698757	-0.05299276446	
516.875	-0.08247667925	-0.1166457292	
517.5	-0.09436350767	-0.0001199185909	
518.125	0.03968553921	0.000372554438	
518.75	0.006583471634	-0.09972134455	
519.375	0.01258467008	0.02578336621	
520.0	0.00339227306	-0.04636322416	
520.625	-0.1196452422	-0.07868391908	
521.25	-0.05534389899	0.1140343633	
521.875	0.2799122997	-0.05109823165	
522.5	-0.1975284734	-0.2392480038	
523.125	-0.1548072769	0.1335892516	
523.75	0.1487318874	0.2391492441	
524.375	0.3460152745	-0.05414401761	
525.0	-0.01182935903	-0.3945817151	
525.625	-0.1081977262	0.05916390254	
526.25	0.1212016079	0.006462236408	
526.875	0.02345296658	-0.1491803765	
527.5	-0.05292852553	0.01639736444	
528.125	0.1081923532	0.02694027056	
528.75	0.02012420505	-0.06636260326	
529.375	0.01518798692	0.0233869354	
530.0	0.06362616759	-0.1101835093	
530.625	-0.03373746634	-0.09494311518	
531.25	0.03607237173	0.1200867148	
531.875	0.1071971189	-0.1642558615	
532.5	-0.153252074	-0.1239493606	
533.125	-0.1262727798	0.1099639464	
533.75	0.03033705564	0.01535458724	
534.375	-0.08834010375	-0.05234587148	
535.0	-0.005311685148	0.04165292258	
535.625	0.06165352734	0.02366846925	
536.25	-0.01075603661	-0.04814585109	
536.875	0.006963703335	0.02662593886	
537.5	0.002462405224	-0.09208022784	
538.125	-0.2448018398	0.04537993675	
538.75	-0.09229125595	0.262943505	
539.375	0.1121688269	0.001917111629	
540.0	-0.06033077226	-0.2719588104	
540.625	-0.1865793445	-0.128154021	
541.25	-0.2111257718	0.2226975806	
541.875	-0.06010654773	0.2781865957	
542.5	0.1673665146	-0.02882481226	
543.125	-0.103841601	-0.3028383369	
543.75	-0.119524681	0.1277762897	
544.375	0.2098833653	-0.07636264039	
545.0	0.01662014402	-0.2470628066	
545.625	-0.07919536926	0.07919064916	
546.25	0.2875259322	0.1818630356	
546.875	0.2978217366	-0.0995566127	
547.5	-0.1286946469	-0.04598151074	
548.125	-0.1145637415	0.3310796895	
548.75	0.2488238988	0.1143191655	
549.375	-0.06440016055	-0.2139372135	
550.0	-0.2942548952	0.1767147839	
550.625	0.09615945571	0.2006070766	
551.25	0.00110362434	-0.2493521217	
551.875	-0.2372966679	0.07272393712	
552.5	0.119411313	0.05273025192	
553.125	0.01321483889	-0.1946912655	
553.75	0.03387176194	0.03948721634	
554.375	-0.008135728224	-0.1052832805	
555.0	-0.1352770613	0.01159262506	
555.625	0.03302968492	0.07263546276	
556.25	0.01774523442	-0.1820166523	
556.875	-0.2129463823	-0.08838620054	
557.5	-0.04245333793	0.05768583495	
558.125	0.1619223911	0.01694651579	
558.75	0.1503695786	-0.09082544528	
559.375	-0.05770963566	-0.06227311622	
560.0	-0.07462065853	0.1666250834	
560.625	0.0525889324	0.1871422109	
561.25	0.1382334662	-0.08086797971	
561.875	-0.07135167406	-0.1674195507	
562.5	-0.01429941236	0.1157207641	
563.125	0.2083336931	0.1062868681	
563.75	0.2470635776	-0.068823018	
564.375	-0.08768927432	-0.07735549443	
565.0	-0.03656061985	0.1581658078	
565.625	0.1343087954	0.04750044992	
566.25	-0.03344000752	-0.1601919854	
566.875	-0.2222093016	-0.2462116319	
567.5	-0.2102906079	-0.1337687951	
568.125	0.03347975708	-0.02057203412	
568.75	0.1958167511	-0.1516237642	
569.375	-0.03608127124	-0.1882306951	
570.0	-0.1799239696	0.1046542044	
570.625	0.02172496528	0.2483462466	
571.25	0.04823996723	-0.01015003479	
571.875	-0.1218257184	0.1918897519	
572.5	0.1835012265	0.1464603183	
573.125	-0.09467173225	-0.1064944003	
573.75	-0.1708723027	0.1132488575	
574.375	0.09478312691	-0.02485086659	
575.0	0.07367490349	-0.2031564045	
575.625	-0.2348274387	-0.1153163205	
576.25	-0.0767423263	0.01925990627	
576.875	0.1463377896	-0.02935918027	
577.5	0.1010061317	-0.1898256952	
578.125	-0.09743667962	-0.07181896715	
578.75	-0.08036669464	0.1462212618	
579.375	0.1691611959	0.02541417992	
580.0	-0.02078951246	-0.07936035596	
580.625	-0.04629813279	0.2175706759	
581.25	0.08783674724	0.2189509251	
581.875	0.1319618228	0.03140991033	
582.5	-0.0580541297	-0.1768942056	
583.125	-0.1401144834	0.106437699	
583.75	0.2045989474	0.009233344641	
584.375	0.02446346188	-0.2480363443	
585.0	-0.1086377148	-0.03117290187	
585.625	-0.1415303613	0.1675285823	
586.25	0.1115031672	0.2291127662	
586.875	0.07321497713	-0.0716996707	
587.5	-0.169205602	-0.232319537	
588.125	-0.2563646254	-0.08322480818	
588.75	0.06671954278	0.05373170802	
589.375	0.1543568412	-0.3067050527	
590.0	-0.1738209688	-0.2045368003	
590.625	0.05564764341	0.1163574665	
591.25	0.2651367616	-0.1817652134	
591.875	-0.1185199557	-0.1741966639	
592.5	0.03624385993	0.2529325759	
593.125	0.3410900262	0.01959535629	
593.75	-0.00211889051	-0.1028671764	
594.375	0.0867250314	0.2461428747	
595.0	0.3344029867	-0.01388127581	
595.625	-0.07014260689	-0.147714437	
596.25	-0.2639547966	0.1648814544	
596.875	0.1150482351	0.2692464878	
597.5	-0.03239811519	-0.01843227652	
598.125	-0.3255556815	-0.1258247955	
598.75	-0.3549651682	-0.1144954421	
599.375	0.004301010297	0.1366471452	
600.0	0.1909275808	-0.125768679	
600.625	0.1910431406	-0.1920681277	
601.25	-0.1794033462	-0.08298325867	
601.875	-0.1243930081	0.3556842084	
602.5	0.3809831317	0.03077324391	
603.125	0.2040658813	-0.06900436054	
603.75	-0.2209807005	-0.1111824877	
604.375	-0.1218929034	0.3024888078	
605.0	0.2715097058	0.07506611743	
605.625	0.09493199981	-0.3163788958	
606.25	-0.211672777	-0.2479128844	
606.875	-0.1938433712	0.1250431155	
607.5	0.1734624971	0.3358237589	
608.125	0.3559916171	0.1543475849	
608.75	0.1333041471	-0.1924725465	
609.375	-0.3778123444	-0.1698264227	
610.0	-0.3138351384	0.319476418	
610.625	0.2380063642	0.1201746182	
611.25	-0.07171135284	-0.4044783722	
611.875	-0.4481945347	-0.01802021733	
612.5	0.03475905267	0.3573364283	
613.125	0.4513774609	-0.1222601131	
613.75	0.01693387826	-0.4300740048	
614.375	-0.3456817794	0.03409313198	
615.0	0.02273231285	0.4765616372	
615.625	0.3844141494	0.02443312464	
616.25	-0.1057416295	-0.3357582941	
616.875	-0.4816492956	0.1646840001	
617.5	0.1009337924	0.3611011624	
618.125	0.1939299257	-0.2370001972	
618.75	-0.4247303293	-0.2680549284	
619.375	-0.3796061863	-0.1250704127	
620.0	0.04565675757	0.2457563866	
620.625	0.4747885493	0.007302824195	
621.25	0.3358463423	-0.2040866183	
621.875	-0.1448750526	-0.1512288385	
622.5	-0.2216725473	0.2708075409	
623.125	0.2723050529	0.2217873612	
623.75	0.1302424061	-0.2913050363	
624.375	-0.3763063196	-0.1571618532	
625.0	-0.1850452638	0.2055596976	
625.625	0.172844983	0.109741555	
626.25	0.2718999421	-0.2248920143	
626.875	-0.07331035651	-0.3211777707	
627.5	-0.282067325	0.06216180336	
628.125	-0.1565746152	0.2929683251	
628.75	0.123412335	0.1582604428	
629.375	-0.02052219463	-0.2116663716	
630.0	-0.4452067534	-0.1927047273	
630.625	-0.416709482	0.1310978581	
631.25	-0.04609808738	0.2091144245	
631.875	0.2458994412	-0.05719074051	
632.5	-0.02039791307	-0.2941513771	
633.125	-0.2122718596	0.1352031382	
633.75	0.2634617514	0.3505618072	
634.375	0.4122299636	-0.122673225	
635.0	-0.03313710948	-0.2085564038	
635.625	-0.2016009416	0.2083140152	
636.25	0.1570411286	0.3191764743	
636.875	0.2890637816	-0.1165740115	
637.5	0.03058051572	-0.4344335135	
638.125	-0.227136531	-0.2825814536	
638.75	-0.09607203919	0.1537312438	
639.375	0.3959840826	0.2051384684	
640.0	0.4207431119	-0.1726029503	
640.625	-0.1158777021	-0.2174408512	
641.25	-0.3827543762	0.2680827603	
641.875	-0.05789317724	0.4879816253	
642.5	0.2707466214	0.002880037367	
643.125	-0.1507080684	-0.5023334982	
643.75	-0.5554631425	-0.2125290131	
644.375	-0.1409844888	0.2872403285	
645.0	0.46551036	0.07751158879	
645.625	0.2826213189	-0.433601506	
646.25	-0.3811411461	-0.1981687145	
646.875	-0.372178604	0.4859044027	
647.5	0.01489544345	0.5033164118	
648.125	0.2854405436	-0.1305045598	
648.75	-0.2625405301	-0.6235225602	
649.375	-0.6010381331	-0.02229554397	
650.0	0.1294326272	0.2771975274	
650.625	0.6066939016	-0.2439415928	
651.25	0.249656639	-0.5847228571	
651.875	-0.3191227254	-0.1171520749	
652.5	-0.1523902425	0.6436140466	
653.125	0.4850064076	0.5285527036	
653.75	0.3238320883	-0.2329946214	
654.375	-0.3802590145	0.01663455034	
655.0	0.2612167337	0.4909788306	
655.625	0.2972587992	-0.4250631034	
656.25	-0.4973735815	0.04393849435	
656.875	0.1359995564	0.4877872468	
657.5	0.3719247479	-0.1258213457	
658.125	-0.1712143687	-0.4999513755	
658.75	-0.5721558483	-0.3940481548	
659.375	-0.53518172	0.02957089596	
660.0	-0.1088835052	0.3608959526	
660.625	0.3085099477	0.3757733028	
661.25	0.2984459645	-0.1348900154	
661.875	-0.4419824325	-0.1501478533	
662.5	-0.4805578322	0.6375342397	
663.125	0.1229538283	0.6557067374	
663.75	0.1921282183	0.04176364082	
664.375	-0.2719658346	-0.3333634644	
665.0	-0.5003932981	-0.06171021213	
665.625	-0.08304529938	0.3467018619	
666.25	0.5005745235	0.215564932	
666.875	0.4579275582	-0.2023598973	
667.5	-0.1168944688	-0.1541117324	
668.125	-0.06874682712	0.3677855439	
668.75	0.285959371	0.32053083	
669.375	0.2462987785	-0.1976957765	
670.0	-0.2088079336	-0.3777395299	
670.625	-0.3594114867	-0.1465960522	
671.25	0.0101465218	0.1337879254	
671.875	0.4738671336	-0.06908355851	
672.5	0.2154781564	-0.4963771794	
673.125	-0.1696477581	-0.2066010817	
673.75	-0.01537589032	0.3124645266	
674.375	0.3780077661	0.2166812544	
675.0	0.1610793742	-0.2434628524	
675.625	-0.3940549062	-0.1273363088	
676.25	-0.3561945807	0.3159455827	
676.875	0.1006306931	0.2603273629	
677.5	0.2167292004	-0.2437212532	
678.125	-0.1172530756	-0.4492044098	
678.75	-0.4077862765	-0.1558014944	
679.375	-0.3984299163	0.3115045948	
680.0	-0.3409198437	0.3054822175	
680.625	0.02785871554	0.1760395434	
681.25	0.473241665	0.04753893369	
681.875	0.5700860032	-0.2109804529	
682.5	0.1240988396	-0.3501738912	
683.125	-0.2796803358	0.08936425017	
683.75	0.211339767	0.4017956155	
684.375	0.3351304115	-0.2328057818	
685.0	-0.3741039773	-0.04596695332	
685.625	0.001106385004	0.5143760494	
686.25	0.380132765	0.1373270363	
686.875	0.03068092458	-0.2229380386	
687.5	-0.4667503557	0.006778768831	
688.125	-0.2588619922	0.5263022857	
688.75	0.3336263213	0.1678874422	
689.375	-0.1312151959	-0.342366371	
690.0	-0.3322122686	0.1623791379	
690.625	0.2995706836	0.05652401414	
691.25	0.2604917477	-0.6896987449	
691.875	-0.2737661006	-0.7191166487	
692.5	-0.2472089352	-0.1822054311	
693.125	0.1262953678	0.3519128066	
693.75	0.5498353358	0.06544096987	
694.375	-0.1368044033	-0.3231618215	
695.0	-0.07387361721	0.6015647448	
695.625	0.7697754059	-0.08163745513	
696.25	-0.0134351699	-0.4443245445	
696.875	0.1134198906	0.1584195596	
697.5	0.6477727459	-0.1136723856	
698.125	0.3990118697	-0.5717024879	
698.75	-0.1894844514	-0.6325416069	
699.375	-0.5672892105	-0.4264352897	
700.0	-0.4499196772	-0.01116963901	
700.625	0.2041032629	0.3255137593	
701.25	0.7805989765	0.3950349261	
701.875	0.8227490986	-0.00940412929	
702.5	0.4459230068	-0.3780244138	
703.125	0.1065268101	-0.5516465068	
703.75	-0.09841867958	-0.3996945154	
704.375	-0.3478091653	-0.0216400155	
705.0	-0.6072542542	0.295769791	
705.625	-0.1691708112	0.6987601685	
706.25	0.3756247627	0.1501915234	
706.875	-0.2043544422	-0.2097205095	
707.5	-0.4268018049	0.1876663825	
708.125	0.2160896312	0.3139353711	
708.75	0.3065940634	-0.3111853967	
709.375	-0.1053734079	-0.5256998289	
710.0	-0.2694581247	-0.2090217434	
710.625	-0.04683511362	0.2389095823	
711.25	0.4545209436	0.3290499643	
711.875	0.5098244989	-0.1288121725	
712.5	-0.05905516376	-0.2990858491	
713.125	-0.3977525275	0.1725079735	
713.75	0.09424585508	0.4275361227	
714.375	0.186457947	-0.152892337	
715.0	-0.4614289947	-0.07745064208	
715.625	-0.06153162045	0.5415265607	
716.25	0.2753399567	0.01893421398	
716.875	-0.2040286316	0.008958371218	
717.5	0.2454893151	0.4391154405	
718.125	0.4857470164	-0.221418333	
718.75	-0.3467475764	-0.3606914228	
719.375	-0.9362419208	0.3117888679	
720.0	-0.9077436572	0.3616194805	
720.625	-0.07413384112	0.6534808089	
721.25	0.08220636452	2.611615973	
721.875	-2.248346154	3.344831791	
722.5	-2.459206833	2.07851259	
723.125	-0.151034388	2.57608431	
723.75	1.920595752	2.086236707	
724.375	0.9504287308	-0.7292588794	
725.0	-0.8387052667	-2.61689381	
725.625	-1.072575351	-2.607625819	
726.25	-0.4122429231	-1.633896159	
726.875	-0.352489185	-0.2480566507	
727.5	-0.292100991	0.834937177	
728.125	0.9423611637	0.5397189278	
728.75	0.2194497909	-1.340502934	
729.375	-2.027906288	0.1494971033	
730.0	-0.1062574962	1.971270519	
730.625	0.5359165972	0.1941405305	
731.25	-0.9593484852	0.7307498808	
731.875	-0.9233522699	1.629206829	
732.5	0.1682345319	1.259869758	
733.125	0.581277972	0.591221573	
733.75	0.6813031139	0.3348176291	
734.375	0.1847455188	-0.03101299991	
735.0	-0.1238039605	0.4972083523	
735.625	0.7337061383	0.2635525277	
736.25	0.008916774269	-0.5615687137	
736.875	-0.1477119969	0.07993756263	
737.5	0.05907332139	-0.1143614543	
738.125	-0.1230384696	-0.03630307343	
738.75	0.07949323278	0.08376746341	
739.375	0.2643485179	-0.08383376917	
740.0	0.1678853564	-0.2138647665	
740.625	0.02384771489	-0.103238591	
741.25	0.2209607173	0.1906295802	
741.875	0.5073811749	0.2113148717	
742.5	0.4013356241	0.06685615966	
743.125	0.2066729812	-0.2177588465	
743.75	0.3130059065	-0.2340005673	
744.375	0.101779153	0.07923004086	
745.0	-0.2052246927	-0.04336110988	
745.625	-0.05055528309	-0.2514526233	
746.25	0.05306780633	-0.1311340945	
746.875	0.02216513968	-0.008526379227	
747.5	0.00130083541	0.1066430329	
748.125	0.02996706539	0.08188525804	
748.75	0.01285367827	-0.04438522096	
749.375	-0.03857725777	-0.1403313083	
750.0	-0.03722296933	-0.1227297153	
