!Created with mwavepy.
# GHz S RI R 50.0 
!freq	ReS11	ImS11	
500.0	-0.482782121845	0.946972674695	
! Port Impedance	50.00000000000000	0.00000000000000	
501.25	-0.455535542204	0.876881146341	
! Port Impedance	50.00000000000000	0.00000000000000	
502.5	-0.443989613219	0.882141690533	
! Port Impedance	50.00000000000000	0.00000000000000	
503.75	-0.436987793837	0.896985634206	
! Port Impedance	50.00000000000000	0.00000000000000	
505.0	-0.426992620535	0.888422836638	
! Port Impedance	50.00000000000000	0.00000000000000	
506.25	-0.41058427419	0.889021602693	
! Port Impedance	50.00000000000000	0.00000000000000	
507.5	-0.416327741737	0.888423706621	
! Port Impedance	50.00000000000000	0.00000000000000	
508.75	-0.416101041029	0.877979831964	
! Port Impedance	50.00000000000000	0.00000000000000	
510.0	-0.405795402554	0.891319675854	
! Port Impedance	50.00000000000000	0.00000000000000	
511.25	-0.38715350294	0.880491093244	
! Port Impedance	50.00000000000000	0.00000000000000	
512.5	-0.399200229069	0.922013895389	
! Port Impedance	50.00000000000000	0.00000000000000	
513.75	-0.382858610436	0.896944095449	
! Port Impedance	50.00000000000000	0.00000000000000	
515.0	-0.396215175184	0.907919416585	
! Port Impedance	50.00000000000000	0.00000000000000	
516.25	-0.370705483296	0.906076973345	
! Port Impedance	50.00000000000000	0.00000000000000	
517.5	-0.362943987744	0.91400946496	
! Port Impedance	50.00000000000000	0.00000000000000	
518.75	-0.346250695409	0.921152823398	
! Port Impedance	50.00000000000000	0.00000000000000	
520.0	-0.347164163313	0.92220943376	
! Port Impedance	50.00000000000000	0.00000000000000	
521.25	-0.336876424074	0.926801752517	
! Port Impedance	50.00000000000000	0.00000000000000	
522.5	-0.33389684679	0.91864907686	
! Port Impedance	50.00000000000000	0.00000000000000	
523.75	-0.336501339816	0.902941552066	
! Port Impedance	50.00000000000000	0.00000000000000	
525.0	-0.344707159711	0.928266919135	
! Port Impedance	50.00000000000000	0.00000000000000	
526.25	-0.321126658125	0.924343906918	
! Port Impedance	50.00000000000000	0.00000000000000	
527.5	-0.313566807719	0.933339903172	
! Port Impedance	50.00000000000000	0.00000000000000	
528.75	-0.306646083713	0.934909006379	
! Port Impedance	50.00000000000000	0.00000000000000	
530.0	-0.301931750458	0.933561454167	
! Port Impedance	50.00000000000000	0.00000000000000	
531.25	-0.297480672821	0.931678376929	
! Port Impedance	50.00000000000000	0.00000000000000	
532.5	-0.29318088583	0.935152337753	
! Port Impedance	50.00000000000000	0.00000000000000	
533.75	-0.28772561873	0.94319579291	
! Port Impedance	50.00000000000000	0.00000000000000	
535.0	-0.277960908554	0.941640031605	
! Port Impedance	50.00000000000000	0.00000000000000	
536.25	-0.271359276584	0.943821844841	
! Port Impedance	50.00000000000000	0.00000000000000	
537.5	-0.263587690889	0.944553552307	
! Port Impedance	50.00000000000000	0.00000000000000	
538.75	-0.260438755772	0.950568258486	
! Port Impedance	50.00000000000000	0.00000000000000	
540.0	-0.251898308731	0.953831084545	
! Port Impedance	50.00000000000000	0.00000000000000	
541.25	-0.247043651115	0.956579180209	
! Port Impedance	50.00000000000000	0.00000000000000	
542.5	-0.235811584451	0.96011672288	
! Port Impedance	50.00000000000000	0.00000000000000	
543.75	-0.230525581169	0.952984300875	
! Port Impedance	50.00000000000000	0.00000000000000	
545.0	-0.223007801084	0.955742565256	
! Port Impedance	50.00000000000000	0.00000000000000	
546.25	-0.220682268683	0.954952259194	
! Port Impedance	50.00000000000000	0.00000000000000	
547.5	-0.20979907871	0.959234294684	
! Port Impedance	50.00000000000000	0.00000000000000	
548.75	-0.20854263231	0.95556899849	
! Port Impedance	50.00000000000000	0.00000000000000	
550.0	-0.20599385169	0.959020435805	
! Port Impedance	50.00000000000000	0.00000000000000	
551.25	-0.205292245641	0.964968258382	
! Port Impedance	50.00000000000000	0.00000000000000	
552.5	-0.18806725268	0.97612519345	
! Port Impedance	50.00000000000000	0.00000000000000	
553.75	-0.178513654514	0.972811490914	
! Port Impedance	50.00000000000000	0.00000000000000	
555.0	-0.169870114513	0.968259146742	
! Port Impedance	50.00000000000000	0.00000000000000	
556.25	-0.170076302476	0.965161756043	
! Port Impedance	50.00000000000000	0.00000000000000	
557.5	-0.164249072085	0.969402486382	
! Port Impedance	50.00000000000000	0.00000000000000	
558.75	-0.15626549061	0.970681059014	
! Port Impedance	50.00000000000000	0.00000000000000	
560.0	-0.145226058137	0.973193837541	
! Port Impedance	50.00000000000000	0.00000000000000	
561.25	-0.146034514353	0.969418417072	
! Port Impedance	50.00000000000000	0.00000000000000	
562.5	-0.13716397434	0.970679599762	
! Port Impedance	50.00000000000000	0.00000000000000	
563.75	-0.135271247641	0.975159864859	
! Port Impedance	50.00000000000000	0.00000000000000	
565.0	-0.124054229954	0.9721300163	
! Port Impedance	50.00000000000000	0.00000000000000	
566.25	-0.118164771714	0.975578017377	
! Port Impedance	50.00000000000000	0.00000000000000	
567.5	-0.11418914304	0.974639628447	
! Port Impedance	50.00000000000000	0.00000000000000	
568.75	-0.105362135955	0.980050002169	
! Port Impedance	50.00000000000000	0.00000000000000	
570.0	-0.0940338433421	0.9802916513	
! Port Impedance	50.00000000000000	0.00000000000000	
571.25	-0.0887542601503	0.976269282032	
! Port Impedance	50.00000000000000	0.00000000000000	
572.5	-0.0824751930293	0.975751797028	
! Port Impedance	50.00000000000000	0.00000000000000	
573.75	-0.0778310641632	0.976379928732	
! Port Impedance	50.00000000000000	0.00000000000000	
575.0	-0.076227357185	0.976890782426	
! Port Impedance	50.00000000000000	0.00000000000000	
576.25	-0.0641755459844	0.975268027148	
! Port Impedance	50.00000000000000	0.00000000000000	
577.5	-0.0685320430044	0.979480383833	
! Port Impedance	50.00000000000000	0.00000000000000	
578.75	-0.0571096591351	0.983322170648	
! Port Impedance	50.00000000000000	0.00000000000000	
580.0	-0.0468661416629	0.985841843431	
! Port Impedance	50.00000000000000	0.00000000000000	
581.25	-0.0363296699454	0.978272925415	
! Port Impedance	50.00000000000000	0.00000000000000	
582.5	-0.0283719264179	0.980059188907	
! Port Impedance	50.00000000000000	0.00000000000000	
583.75	-0.0328841371603	0.979338456656	
! Port Impedance	50.00000000000000	0.00000000000000	
585.0	-0.0219020761745	0.976554518065	
! Port Impedance	50.00000000000000	0.00000000000000	
586.25	-0.024195633237	0.983521832579	
! Port Impedance	50.00000000000000	0.00000000000000	
587.5	-0.0203572812937	0.985905353819	
! Port Impedance	50.00000000000000	0.00000000000000	
588.75	-0.00587710333215	0.997176114515	
! Port Impedance	50.00000000000000	0.00000000000000	
590.0	0.0157327891087	0.99393452209	
! Port Impedance	50.00000000000000	0.00000000000000	
591.25	0.028949766721	0.977311990688	
! Port Impedance	50.00000000000000	0.00000000000000	
592.5	0.0200658505056	0.971419008511	
! Port Impedance	50.00000000000000	0.00000000000000	
593.75	0.0231743619055	0.96907581859	
! Port Impedance	50.00000000000000	0.00000000000000	
595.0	0.0263823942241	0.976176815299	
! Port Impedance	50.00000000000000	0.00000000000000	
596.25	0.0360665671996	0.974984470144	
! Port Impedance	50.00000000000000	0.00000000000000	
597.5	0.0418783352861	0.982912389764	
! Port Impedance	50.00000000000000	0.00000000000000	
598.75	0.0465724757425	0.979603947083	
! Port Impedance	50.00000000000000	0.00000000000000	
600.0	0.0514130750207	0.972034461982	
! Port Impedance	50.00000000000000	0.00000000000000	
601.25	0.0492766836559	0.980682117582	
! Port Impedance	50.00000000000000	0.00000000000000	
602.5	0.0531077496554	0.984256354577	
! Port Impedance	50.00000000000000	0.00000000000000	
603.75	0.065130077543	0.988861701763	
! Port Impedance	50.00000000000000	0.00000000000000	
605.0	0.0725947308319	0.987155927446	
! Port Impedance	50.00000000000000	0.00000000000000	
606.25	0.0851942345344	0.978421334927	
! Port Impedance	50.00000000000000	0.00000000000000	
607.5	0.0960668264092	0.979865414943	
! Port Impedance	50.00000000000000	0.00000000000000	
608.75	0.0928315607214	0.971838224749	
! Port Impedance	50.00000000000000	0.00000000000000	
610.0	0.102629895751	0.973848471261	
! Port Impedance	50.00000000000000	0.00000000000000	
611.25	0.110326011713	0.979761364672	
! Port Impedance	50.00000000000000	0.00000000000000	
612.5	0.1218334152	0.978243162523	
! Port Impedance	50.00000000000000	0.00000000000000	
613.75	0.12227429679	0.97628142288	
! Port Impedance	50.00000000000000	0.00000000000000	
615.0	0.122136171793	0.973224247778	
! Port Impedance	50.00000000000000	0.00000000000000	
616.25	0.136917395457	0.967351794425	
! Port Impedance	50.00000000000000	0.00000000000000	
617.5	0.138490631259	0.970819351043	
! Port Impedance	50.00000000000000	0.00000000000000	
618.75	0.142101225845	0.97169016946	
! Port Impedance	50.00000000000000	0.00000000000000	
620.0	0.150919637841	0.967604944798	
! Port Impedance	50.00000000000000	0.00000000000000	
621.25	0.161715560124	0.965455080702	
! Port Impedance	50.00000000000000	0.00000000000000	
622.5	0.15593161695	0.958908225619	
! Port Impedance	50.00000000000000	0.00000000000000	
623.75	0.163563673941	0.963935991173	
! Port Impedance	50.00000000000000	0.00000000000000	
625.0	0.171877989506	0.973234399989	
! Port Impedance	50.00000000000000	0.00000000000000	
626.25	0.18549410841	0.9671342681	
! Port Impedance	50.00000000000000	0.00000000000000	
627.5	0.200982199361	0.96427445213	
! Port Impedance	50.00000000000000	0.00000000000000	
628.75	0.20265867885	0.950431703441	
! Port Impedance	50.00000000000000	0.00000000000000	
630.0	0.184113221467	0.940585205866	
! Port Impedance	50.00000000000000	0.00000000000000	
631.25	0.189501930545	0.951738192395	
! Port Impedance	50.00000000000000	0.00000000000000	
632.5	0.195395658151	0.96196779443	
! Port Impedance	50.00000000000000	0.00000000000000	
633.75	0.210325343555	0.958836821649	
! Port Impedance	50.00000000000000	0.00000000000000	
635.0	0.227211970207	0.959088031428	
! Port Impedance	50.00000000000000	0.00000000000000	
636.25	0.222781535153	0.959428428779	
! Port Impedance	50.00000000000000	0.00000000000000	
637.5	0.229578038015	0.948042973133	
! Port Impedance	50.00000000000000	0.00000000000000	
638.75	0.247381014107	0.954657163899	
! Port Impedance	50.00000000000000	0.00000000000000	
640.0	0.248410200154	0.954935869825	
! Port Impedance	50.00000000000000	0.00000000000000	
641.25	0.259500276985	0.940693537727	
! Port Impedance	50.00000000000000	0.00000000000000	
642.5	0.267504020313	0.944485592308	
! Port Impedance	50.00000000000000	0.00000000000000	
643.75	0.26312460457	0.945180544152	
! Port Impedance	50.00000000000000	0.00000000000000	
645.0	0.273190525206	0.93560970173	
! Port Impedance	50.00000000000000	0.00000000000000	
646.25	0.274142159813	0.934666879961	
! Port Impedance	50.00000000000000	0.00000000000000	
647.5	0.276491576521	0.93632539743	
! Port Impedance	50.00000000000000	0.00000000000000	
648.75	0.279971470813	0.930397347877	
! Port Impedance	50.00000000000000	0.00000000000000	
650.0	0.289495275733	0.929160683103	
! Port Impedance	50.00000000000000	0.00000000000000	
651.25	0.292723721809	0.935667213823	
! Port Impedance	50.00000000000000	0.00000000000000	
652.5	0.303335550175	0.927840245175	
! Port Impedance	50.00000000000000	0.00000000000000	
653.75	0.315284933094	0.923040958186	
! Port Impedance	50.00000000000000	0.00000000000000	
655.0	0.319068062391	0.92237681026	
! Port Impedance	50.00000000000000	0.00000000000000	
656.25	0.313664720652	0.92047992496	
! Port Impedance	50.00000000000000	0.00000000000000	
657.5	0.328543888514	0.916186900035	
! Port Impedance	50.00000000000000	0.00000000000000	
658.75	0.33338381858	0.929245477081	
! Port Impedance	50.00000000000000	0.00000000000000	
660.0	0.330416396794	0.916742927388	
! Port Impedance	50.00000000000000	0.00000000000000	
661.25	0.340592165308	0.911427840572	
! Port Impedance	50.00000000000000	0.00000000000000	
662.5	0.352082563851	0.924246521546	
! Port Impedance	50.00000000000000	0.00000000000000	
663.75	0.355698310785	0.919837556522	
! Port Impedance	50.00000000000000	0.00000000000000	
665.0	0.367615240693	0.904313446512	
! Port Impedance	50.00000000000000	0.00000000000000	
666.25	0.3703470213	0.897769970649	
! Port Impedance	50.00000000000000	0.00000000000000	
667.5	0.360722921044	0.898269825575	
! Port Impedance	50.00000000000000	0.00000000000000	
668.75	0.354411409006	0.901157298792	
! Port Impedance	50.00000000000000	0.00000000000000	
670.0	0.366517022728	0.909851962502	
! Port Impedance	50.00000000000000	0.00000000000000	
671.25	0.380593844633	0.91813443072	
! Port Impedance	50.00000000000000	0.00000000000000	
672.5	0.387537722009	0.906351501006	
! Port Impedance	50.00000000000000	0.00000000000000	
673.75	0.402579767787	0.893219488208	
! Port Impedance	50.00000000000000	0.00000000000000	
675.0	0.413064873106	0.899899558793	
! Port Impedance	50.00000000000000	0.00000000000000	
676.25	0.411551679641	0.895586077447	
! Port Impedance	50.00000000000000	0.00000000000000	
677.5	0.420641205964	0.876801195198	
! Port Impedance	50.00000000000000	0.00000000000000	
678.75	0.426694950447	0.877903626955	
! Port Impedance	50.00000000000000	0.00000000000000	
680.0	0.4213996257	0.88357674671	
! Port Impedance	50.00000000000000	0.00000000000000	
681.25	0.426180015304	0.876722037388	
! Port Impedance	50.00000000000000	0.00000000000000	
682.5	0.442502228588	0.874618608493	
! Port Impedance	50.00000000000000	0.00000000000000	
683.75	0.444456087582	0.878471949389	
! Port Impedance	50.00000000000000	0.00000000000000	
685.0	0.435639135887	0.873450735558	
! Port Impedance	50.00000000000000	0.00000000000000	
686.25	0.448986074165	0.865967611692	
! Port Impedance	50.00000000000000	0.00000000000000	
687.5	0.462419424763	0.872207725593	
! Port Impedance	50.00000000000000	0.00000000000000	
688.75	0.461803907655	0.868673568363	
! Port Impedance	50.00000000000000	0.00000000000000	
690.0	0.463438538265	0.852768252036	
! Port Impedance	50.00000000000000	0.00000000000000	
691.25	0.472183477088	0.850324295623	
! Port Impedance	50.00000000000000	0.00000000000000	
692.5	0.476301978735	0.862589202579	
! Port Impedance	50.00000000000000	0.00000000000000	
693.75	0.470674020984	0.863732795796	
! Port Impedance	50.00000000000000	0.00000000000000	
695.0	0.484485151388	0.844351007935	
! Port Impedance	50.00000000000000	0.00000000000000	
696.25	0.497186444661	0.841514579242	
! Port Impedance	50.00000000000000	0.00000000000000	
697.5	0.492054982536	0.851255642881	
! Port Impedance	50.00000000000000	0.00000000000000	
698.75	0.491405617385	0.849274728182	
! Port Impedance	50.00000000000000	0.00000000000000	
700.0	0.50722058943	0.83749736237	
! Port Impedance	50.00000000000000	0.00000000000000	
701.25	0.521997686795	0.836624395887	
! Port Impedance	50.00000000000000	0.00000000000000	
702.5	0.514723755298	0.839762057376	
! Port Impedance	50.00000000000000	0.00000000000000	
703.75	0.518694785512	0.827537562288	
! Port Impedance	50.00000000000000	0.00000000000000	
705.0	0.528364992098	0.817506088999	
! Port Impedance	50.00000000000000	0.00000000000000	
706.25	0.531132159879	0.830145569833	
! Port Impedance	50.00000000000000	0.00000000000000	
707.5	0.535160122105	0.840810647856	
! Port Impedance	50.00000000000000	0.00000000000000	
708.75	0.555323442759	0.825151293354	
! Port Impedance	50.00000000000000	0.00000000000000	
710.0	0.573171531076	0.807085753672	
! Port Impedance	50.00000000000000	0.00000000000000	
711.25	0.572821176756	0.806950708808	
! Port Impedance	50.00000000000000	0.00000000000000	
712.5	0.560074918277	0.800856383874	
! Port Impedance	50.00000000000000	0.00000000000000	
713.75	0.564015028404	0.791208357839	
! Port Impedance	50.00000000000000	0.00000000000000	
715.0	0.575286059766	0.795972679144	
! Port Impedance	50.00000000000000	0.00000000000000	
716.25	0.57843622556	0.7957261109	
! Port Impedance	50.00000000000000	0.00000000000000	
717.5	0.570611248863	0.789080287612	
! Port Impedance	50.00000000000000	0.00000000000000	
718.75	0.575717241619	0.779794755744	
! Port Impedance	50.00000000000000	0.00000000000000	
720.0	0.592145468941	0.784684841532	
! Port Impedance	50.00000000000000	0.00000000000000	
721.25	0.593967599052	0.791165538317	
! Port Impedance	50.00000000000000	0.00000000000000	
722.5	0.594407744258	0.778974117223	
! Port Impedance	50.00000000000000	0.00000000000000	
723.75	0.600184125082	0.771134134089	
! Port Impedance	50.00000000000000	0.00000000000000	
725.0	0.613198102579	0.774734529168	
! Port Impedance	50.00000000000000	0.00000000000000	
726.25	0.622784621297	0.769980009062	
! Port Impedance	50.00000000000000	0.00000000000000	
727.5	0.621291146883	0.762115056143	
! Port Impedance	50.00000000000000	0.00000000000000	
728.75	0.624558761602	0.752682222895	
! Port Impedance	50.00000000000000	0.00000000000000	
730.0	0.629834410459	0.756391738423	
! Port Impedance	50.00000000000000	0.00000000000000	
731.25	0.636010562069	0.760365254986	
! Port Impedance	50.00000000000000	0.00000000000000	
732.5	0.637410286909	0.746741467478	
! Port Impedance	50.00000000000000	0.00000000000000	
733.75	0.643778567736	0.737383454802	
! Port Impedance	50.00000000000000	0.00000000000000	
735.0	0.651469681264	0.747421498768	
! Port Impedance	50.00000000000000	0.00000000000000	
736.25	0.661890955532	0.740158721832	
! Port Impedance	50.00000000000000	0.00000000000000	
737.5	0.663861558337	0.730081707942	
! Port Impedance	50.00000000000000	0.00000000000000	
738.75	0.665135204262	0.720019184945	
! Port Impedance	50.00000000000000	0.00000000000000	
740.0	0.673072544268	0.714707308459	
! Port Impedance	50.00000000000000	0.00000000000000	
741.25	0.676450615577	0.71401648954	
! Port Impedance	50.00000000000000	0.00000000000000	
742.5	0.672388943477	0.708575680288	
! Port Impedance	50.00000000000000	0.00000000000000	
743.75	0.671667858542	0.700783516754	
! Port Impedance	50.00000000000000	0.00000000000000	
745.0	0.68783680824	0.714418821311	
! Port Impedance	50.00000000000000	0.00000000000000	
746.25	0.716867591596	0.708080035163	
! Port Impedance	50.00000000000000	0.00000000000000	
747.5	0.708961304086	0.684001138031	
! Port Impedance	50.00000000000000	0.00000000000000	
748.75	0.69477838438	0.676485664847	
! Port Impedance	50.00000000000000	0.00000000000000	
750.0	0.69684295766	0.680459204154	
! Port Impedance	50.00000000000000	0.00000000000000	
