!Created with mwavepy.
# GHz S RI R 50.0 
!freq	ReS11	ImS11	
500.0	-0.423709891828	0.784975226558	
! Port Impedance	50.00000000000000	0.00000000000000	
501.25	-0.453420147555	0.870838499767	
! Port Impedance	50.00000000000000	0.00000000000000	
502.5	-0.440577341281	0.871590695751	
! Port Impedance	50.00000000000000	0.00000000000000	
503.75	-0.450667293392	0.876615607262	
! Port Impedance	50.00000000000000	0.00000000000000	
505.0	-0.439242532461	0.88062637146	
! Port Impedance	50.00000000000000	0.00000000000000	
506.25	-0.423120848363	0.880074684425	
! Port Impedance	50.00000000000000	0.00000000000000	
507.5	-0.418483709193	0.886269557329	
! Port Impedance	50.00000000000000	0.00000000000000	
508.75	-0.415707961199	0.890714673132	
! Port Impedance	50.00000000000000	0.00000000000000	
510.0	-0.414796638075	0.881957350653	
! Port Impedance	50.00000000000000	0.00000000000000	
511.25	-0.418173399999	0.898764567307	
! Port Impedance	50.00000000000000	0.00000000000000	
512.5	-0.374719140473	0.908336533253	
! Port Impedance	50.00000000000000	0.00000000000000	
513.75	-0.38328661298	0.905596893721	
! Port Impedance	50.00000000000000	0.00000000000000	
515.0	-0.395365653196	0.916867185928	
! Port Impedance	50.00000000000000	0.00000000000000	
516.25	-0.37429271617	0.925403933399	
! Port Impedance	50.00000000000000	0.00000000000000	
517.5	-0.381457627401	0.914263975844	
! Port Impedance	50.00000000000000	0.00000000000000	
518.75	-0.354950551627	0.90766690866	
! Port Impedance	50.00000000000000	0.00000000000000	
520.0	-0.356081983393	0.916513794086	
! Port Impedance	50.00000000000000	0.00000000000000	
521.25	-0.331935904527	0.913072962996	
! Port Impedance	50.00000000000000	0.00000000000000	
522.5	-0.337859250733	0.917831284131	
! Port Impedance	50.00000000000000	0.00000000000000	
523.75	-0.330969055368	0.907215518935	
! Port Impedance	50.00000000000000	0.00000000000000	
525.0	-0.340038105813	0.929381901161	
! Port Impedance	50.00000000000000	0.00000000000000	
526.25	-0.329519304093	0.924354966019	
! Port Impedance	50.00000000000000	0.00000000000000	
527.5	-0.322534337534	0.929691159134	
! Port Impedance	50.00000000000000	0.00000000000000	
528.75	-0.314122459721	0.931591617879	
! Port Impedance	50.00000000000000	0.00000000000000	
530.0	-0.310114478069	0.928156170817	
! Port Impedance	50.00000000000000	0.00000000000000	
531.25	-0.306732965176	0.932419902565	
! Port Impedance	50.00000000000000	0.00000000000000	
532.5	-0.301587899387	0.935055511372	
! Port Impedance	50.00000000000000	0.00000000000000	
533.75	-0.294986857555	0.939241213367	
! Port Impedance	50.00000000000000	0.00000000000000	
535.0	-0.284857292546	0.941189366684	
! Port Impedance	50.00000000000000	0.00000000000000	
536.25	-0.278189752602	0.941072419485	
! Port Impedance	50.00000000000000	0.00000000000000	
537.5	-0.272265277793	0.941756950596	
! Port Impedance	50.00000000000000	0.00000000000000	
538.75	-0.270183406024	0.947812924727	
! Port Impedance	50.00000000000000	0.00000000000000	
540.0	-0.260735071667	0.951331906734	
! Port Impedance	50.00000000000000	0.00000000000000	
541.25	-0.255000712452	0.953499222011	
! Port Impedance	50.00000000000000	0.00000000000000	
542.5	-0.243724423326	0.955365145908	
! Port Impedance	50.00000000000000	0.00000000000000	
543.75	-0.239654348489	0.94851519073	
! Port Impedance	50.00000000000000	0.00000000000000	
545.0	-0.232713383773	0.951747000157	
! Port Impedance	50.00000000000000	0.00000000000000	
546.25	-0.228420164874	0.949254512823	
! Port Impedance	50.00000000000000	0.00000000000000	
547.5	-0.220002732768	0.954980070389	
! Port Impedance	50.00000000000000	0.00000000000000	
548.75	-0.218388042998	0.950440796471	
! Port Impedance	50.00000000000000	0.00000000000000	
550.0	-0.217661325822	0.955419925521	
! Port Impedance	50.00000000000000	0.00000000000000	
551.25	-0.217276699624	0.962185577062	
! Port Impedance	50.00000000000000	0.00000000000000	
552.5	-0.197865800926	0.974830340805	
! Port Impedance	50.00000000000000	0.00000000000000	
553.75	-0.18725694595	0.970571168834	
! Port Impedance	50.00000000000000	0.00000000000000	
555.0	-0.180918965157	0.96459494096	
! Port Impedance	50.00000000000000	0.00000000000000	
556.25	-0.178022046097	0.962052339409	
! Port Impedance	50.00000000000000	0.00000000000000	
557.5	-0.171152726243	0.967058551611	
! Port Impedance	50.00000000000000	0.00000000000000	
558.75	-0.165666441589	0.967138789279	
! Port Impedance	50.00000000000000	0.00000000000000	
560.0	-0.157036284561	0.968687156669	
! Port Impedance	50.00000000000000	0.00000000000000	
561.25	-0.155615052637	0.966071318507	
! Port Impedance	50.00000000000000	0.00000000000000	
562.5	-0.14782133569	0.968064510365	
! Port Impedance	50.00000000000000	0.00000000000000	
563.75	-0.146359084444	0.972239367403	
! Port Impedance	50.00000000000000	0.00000000000000	
565.0	-0.135910515646	0.969332021972	
! Port Impedance	50.00000000000000	0.00000000000000	
566.25	-0.129440883444	0.973497963652	
! Port Impedance	50.00000000000000	0.00000000000000	
567.5	-0.125184871317	0.972152557593	
! Port Impedance	50.00000000000000	0.00000000000000	
568.75	-0.115786337009	0.977886699474	
! Port Impedance	50.00000000000000	0.00000000000000	
570.0	-0.106635590145	0.976511933802	
! Port Impedance	50.00000000000000	0.00000000000000	
571.25	-0.102845429241	0.97375276293	
! Port Impedance	50.00000000000000	0.00000000000000	
572.5	-0.0973544075985	0.973424980993	
! Port Impedance	50.00000000000000	0.00000000000000	
573.75	-0.0925292591602	0.974005324607	
! Port Impedance	50.00000000000000	0.00000000000000	
575.0	-0.0898171528604	0.975259731527	
! Port Impedance	50.00000000000000	0.00000000000000	
576.25	-0.0786329654042	0.975745493176	
! Port Impedance	50.00000000000000	0.00000000000000	
577.5	-0.0795875847337	0.979135301292	
! Port Impedance	50.00000000000000	0.00000000000000	
578.75	-0.0696501814626	0.981038616154	
! Port Impedance	50.00000000000000	0.00000000000000	
580.0	-0.0609839689549	0.982741980346	
! Port Impedance	50.00000000000000	0.00000000000000	
581.25	-0.0505190873236	0.976266841337	
! Port Impedance	50.00000000000000	0.00000000000000	
582.5	-0.0447721860291	0.979458873813	
! Port Impedance	50.00000000000000	0.00000000000000	
583.75	-0.0474355917788	0.978308468016	
! Port Impedance	50.00000000000000	0.00000000000000	
585.0	-0.0369490679949	0.976990765465	
! Port Impedance	50.00000000000000	0.00000000000000	
586.25	-0.0396291307984	0.982043905446	
! Port Impedance	50.00000000000000	0.00000000000000	
587.5	-0.0337290398146	0.985039343466	
! Port Impedance	50.00000000000000	0.00000000000000	
588.75	-0.0217303946591	0.996079480286	
! Port Impedance	50.00000000000000	0.00000000000000	
590.0	-0.00206960669472	0.992874410094	
! Port Impedance	50.00000000000000	0.00000000000000	
591.25	0.0140833268829	0.977260409441	
! Port Impedance	50.00000000000000	0.00000000000000	
592.5	0.00433285447709	0.971454410192	
! Port Impedance	50.00000000000000	0.00000000000000	
593.75	0.00640456330127	0.968690310151	
! Port Impedance	50.00000000000000	0.00000000000000	
595.0	0.00679924398679	0.976303526241	
! Port Impedance	50.00000000000000	0.00000000000000	
596.25	0.014499790158	0.972819081085	
! Port Impedance	50.00000000000000	0.00000000000000	
597.5	0.0216371022076	0.982422133823	
! Port Impedance	50.00000000000000	0.00000000000000	
598.75	0.0247332495903	0.977360556326	
! Port Impedance	50.00000000000000	0.00000000000000	
600.0	0.0325441079111	0.971210098281	
! Port Impedance	50.00000000000000	0.00000000000000	
601.25	0.0328419798284	0.980437206293	
! Port Impedance	50.00000000000000	0.00000000000000	
602.5	0.035873537576	0.983766224569	
! Port Impedance	50.00000000000000	0.00000000000000	
603.75	0.0491968887476	0.98733696823	
! Port Impedance	50.00000000000000	0.00000000000000	
605.0	0.0550116739499	0.986895629345	
! Port Impedance	50.00000000000000	0.00000000000000	
606.25	0.0670671845665	0.977803116079	
! Port Impedance	50.00000000000000	0.00000000000000	
607.5	0.0780647214029	0.980058219982	
! Port Impedance	50.00000000000000	0.00000000000000	
608.75	0.0743627123551	0.972362601171	
! Port Impedance	50.00000000000000	0.00000000000000	
610.0	0.0823408858033	0.974952455346	
! Port Impedance	50.00000000000000	0.00000000000000	
611.25	0.0898307665063	0.981086267768	
! Port Impedance	50.00000000000000	0.00000000000000	
612.5	0.0983493949628	0.978193826646	
! Port Impedance	50.00000000000000	0.00000000000000	
613.75	0.103579449012	0.977762368709	
! Port Impedance	50.00000000000000	0.00000000000000	
615.0	0.104081507294	0.973157602024	
! Port Impedance	50.00000000000000	0.00000000000000	
616.25	0.113205266972	0.96816410314	
! Port Impedance	50.00000000000000	0.00000000000000	
617.5	0.119495184647	0.970748540665	
! Port Impedance	50.00000000000000	0.00000000000000	
618.75	0.119910488663	0.973694468666	
! Port Impedance	50.00000000000000	0.00000000000000	
620.0	0.132153454317	0.968343058611	
! Port Impedance	50.00000000000000	0.00000000000000	
621.25	0.140952294783	0.966600215466	
! Port Impedance	50.00000000000000	0.00000000000000	
622.5	0.133819474072	0.960368931092	
! Port Impedance	50.00000000000000	0.00000000000000	
623.75	0.141959106916	0.966607821519	
! Port Impedance	50.00000000000000	0.00000000000000	
625.0	0.149203801794	0.975201786477	
! Port Impedance	50.00000000000000	0.00000000000000	
626.25	0.161828476115	0.969054087617	
! Port Impedance	50.00000000000000	0.00000000000000	
627.5	0.179273006935	0.966715707735	
! Port Impedance	50.00000000000000	0.00000000000000	
628.75	0.177539618496	0.953205299774	
! Port Impedance	50.00000000000000	0.00000000000000	
630.0	0.162509167011	0.944356343706	
! Port Impedance	50.00000000000000	0.00000000000000	
631.25	0.167017882894	0.955143871723	
! Port Impedance	50.00000000000000	0.00000000000000	
632.5	0.170789057688	0.96622424539	
! Port Impedance	50.00000000000000	0.00000000000000	
633.75	0.183729841811	0.962123100851	
! Port Impedance	50.00000000000000	0.00000000000000	
635.0	0.200780972779	0.964098629639	
! Port Impedance	50.00000000000000	0.00000000000000	
636.25	0.196775277758	0.964131143718	
! Port Impedance	50.00000000000000	0.00000000000000	
637.5	0.204031474074	0.954229968888	
! Port Impedance	50.00000000000000	0.00000000000000	
638.75	0.221217206527	0.963006186633	
! Port Impedance	50.00000000000000	0.00000000000000	
640.0	0.223719363053	0.961719240565	
! Port Impedance	50.00000000000000	0.00000000000000	
641.25	0.233441974168	0.947222706753	
! Port Impedance	50.00000000000000	0.00000000000000	
642.5	0.23990317571	0.952179723472	
! Port Impedance	50.00000000000000	0.00000000000000	
643.75	0.236964198803	0.953701785437	
! Port Impedance	50.00000000000000	0.00000000000000	
645.0	0.246017555634	0.94368543046	
! Port Impedance	50.00000000000000	0.00000000000000	
646.25	0.250016587143	0.941857620819	
! Port Impedance	50.00000000000000	0.00000000000000	
647.5	0.252510856207	0.943340729168	
! Port Impedance	50.00000000000000	0.00000000000000	
648.75	0.255750811944	0.939064122242	
! Port Impedance	50.00000000000000	0.00000000000000	
650.0	0.264581082497	0.938426550016	
! Port Impedance	50.00000000000000	0.00000000000000	
651.25	0.26810666081	0.945317265351	
! Port Impedance	50.00000000000000	0.00000000000000	
652.5	0.27771911237	0.937840958177	
! Port Impedance	50.00000000000000	0.00000000000000	
653.75	0.290416507823	0.931999979493	
! Port Impedance	50.00000000000000	0.00000000000000	
655.0	0.290841613438	0.936404395641	
! Port Impedance	50.00000000000000	0.00000000000000	
656.25	0.284242821338	0.932883920239	
! Port Impedance	50.00000000000000	0.00000000000000	
657.5	0.301456548146	0.928283327612	
! Port Impedance	50.00000000000000	0.00000000000000	
658.75	0.306123522462	0.941061907602	
! Port Impedance	50.00000000000000	0.00000000000000	
660.0	0.304393921632	0.928356411073	
! Port Impedance	50.00000000000000	0.00000000000000	
661.25	0.312387577976	0.923588069031	
! Port Impedance	50.00000000000000	0.00000000000000	
662.5	0.324027734727	0.937843442135	
! Port Impedance	50.00000000000000	0.00000000000000	
663.75	0.330101754518	0.933235320627	
! Port Impedance	50.00000000000000	0.00000000000000	
665.0	0.341151436535	0.916769697789	
! Port Impedance	50.00000000000000	0.00000000000000	
666.25	0.343446821234	0.910529835577	
! Port Impedance	50.00000000000000	0.00000000000000	
667.5	0.331839414682	0.910859288668	
! Port Impedance	50.00000000000000	0.00000000000000	
668.75	0.32970652838	0.912831071777	
! Port Impedance	50.00000000000000	0.00000000000000	
670.0	0.340692457357	0.922708343545	
! Port Impedance	50.00000000000000	0.00000000000000	
671.25	0.355428503285	0.931447632507	
! Port Impedance	50.00000000000000	0.00000000000000	
672.5	0.360802418255	0.919794362204	
! Port Impedance	50.00000000000000	0.00000000000000	
673.75	0.376673044434	0.907380571722	
! Port Impedance	50.00000000000000	0.00000000000000	
675.0	0.387174041165	0.914666209288	
! Port Impedance	50.00000000000000	0.00000000000000	
676.25	0.385484611658	0.908780516408	
! Port Impedance	50.00000000000000	0.00000000000000	
677.5	0.39411234917	0.890630052703	
! Port Impedance	50.00000000000000	0.00000000000000	
678.75	0.400553746717	0.8933009415	
! Port Impedance	50.00000000000000	0.00000000000000	
680.0	0.394686301135	0.900103945083	
! Port Impedance	50.00000000000000	0.00000000000000	
681.25	0.398630285544	0.891701616222	
! Port Impedance	50.00000000000000	0.00000000000000	
682.5	0.415997119214	0.889018479815	
! Port Impedance	50.00000000000000	0.00000000000000	
683.75	0.416265214683	0.895050162572	
! Port Impedance	50.00000000000000	0.00000000000000	
685.0	0.40691192009	0.890112015057	
! Port Impedance	50.00000000000000	0.00000000000000	
686.25	0.420115405479	0.883915075114	
! Port Impedance	50.00000000000000	0.00000000000000	
687.5	0.434040946888	0.890267765354	
! Port Impedance	50.00000000000000	0.00000000000000	
688.75	0.433546344056	0.884964408901	
! Port Impedance	50.00000000000000	0.00000000000000	
690.0	0.433169290756	0.870796195971	
! Port Impedance	50.00000000000000	0.00000000000000	
691.25	0.443396292936	0.869588367572	
! Port Impedance	50.00000000000000	0.00000000000000	
692.5	0.446424572815	0.882584354181	
! Port Impedance	50.00000000000000	0.00000000000000	
693.75	0.440241385707	0.882547040475	
! Port Impedance	50.00000000000000	0.00000000000000	
695.0	0.455467971808	0.863548764309	
! Port Impedance	50.00000000000000	0.00000000000000	
696.25	0.468269108641	0.861414639774	
! Port Impedance	50.00000000000000	0.00000000000000	
697.5	0.463675874026	0.87110867395	
! Port Impedance	50.00000000000000	0.00000000000000	
698.75	0.462482308419	0.868412539726	
! Port Impedance	50.00000000000000	0.00000000000000	
700.0	0.479687175303	0.857915888425	
! Port Impedance	50.00000000000000	0.00000000000000	
701.25	0.49249447125	0.858401802103	
! Port Impedance	50.00000000000000	0.00000000000000	
702.5	0.48680225304	0.860765281571	
! Port Impedance	50.00000000000000	0.00000000000000	
703.75	0.489399392742	0.848742311935	
! Port Impedance	50.00000000000000	0.00000000000000	
705.0	0.49860128852	0.840039813163	
! Port Impedance	50.00000000000000	0.00000000000000	
706.25	0.502029470118	0.853729505143	
! Port Impedance	50.00000000000000	0.00000000000000	
707.5	0.505466801127	0.863556416823	
! Port Impedance	50.00000000000000	0.00000000000000	
708.75	0.526563585493	0.849169748427	
! Port Impedance	50.00000000000000	0.00000000000000	
710.0	0.545460481678	0.831267318224	
! Port Impedance	50.00000000000000	0.00000000000000	
711.25	0.543185334122	0.83066336428	
! Port Impedance	50.00000000000000	0.00000000000000	
712.5	0.529028970689	0.82637820741	
! Port Impedance	50.00000000000000	0.00000000000000	
713.75	0.534481924637	0.817005415344	
! Port Impedance	50.00000000000000	0.00000000000000	
715.0	0.546460812498	0.821322344996	
! Port Impedance	50.00000000000000	0.00000000000000	
716.25	0.548343204487	0.821064070321	
! Port Impedance	50.00000000000000	0.00000000000000	
717.5	0.541318315528	0.815149291684	
! Port Impedance	50.00000000000000	0.00000000000000	
718.75	0.547525009957	0.804577576433	
! Port Impedance	50.00000000000000	0.00000000000000	
720.0	0.564748948892	0.810371000499	
! Port Impedance	50.00000000000000	0.00000000000000	
721.25	0.565317851711	0.816624810681	
! Port Impedance	50.00000000000000	0.00000000000000	
722.5	0.564649659562	0.805540345445	
! Port Impedance	50.00000000000000	0.00000000000000	
723.75	0.570852044803	0.798041502721	
! Port Impedance	50.00000000000000	0.00000000000000	
725.0	0.584353255566	0.801793255974	
! Port Impedance	50.00000000000000	0.00000000000000	
726.25	0.594032654836	0.797806407911	
! Port Impedance	50.00000000000000	0.00000000000000	
727.5	0.592392299404	0.79088631142	
! Port Impedance	50.00000000000000	0.00000000000000	
728.75	0.594308857317	0.782835859404	
! Port Impedance	50.00000000000000	0.00000000000000	
730.0	0.60020879462	0.785413584627	
! Port Impedance	50.00000000000000	0.00000000000000	
731.25	0.607243745264	0.790885389888	
! Port Impedance	50.00000000000000	0.00000000000000	
732.5	0.607954730754	0.777772093752	
! Port Impedance	50.00000000000000	0.00000000000000	
733.75	0.614015765987	0.768333820631	
! Port Impedance	50.00000000000000	0.00000000000000	
735.0	0.622401129856	0.779430119062	
! Port Impedance	50.00000000000000	0.00000000000000	
736.25	0.633040797675	0.771826731902	
! Port Impedance	50.00000000000000	0.00000000000000	
737.5	0.634622328725	0.762191049451	
! Port Impedance	50.00000000000000	0.00000000000000	
738.75	0.636371432574	0.75308463111	
! Port Impedance	50.00000000000000	0.00000000000000	
740.0	0.645038761213	0.747750830138	
! Port Impedance	50.00000000000000	0.00000000000000	
741.25	0.647372935821	0.74783308499	
! Port Impedance	50.00000000000000	0.00000000000000	
742.5	0.642037350198	0.742137372202	
! Port Impedance	50.00000000000000	0.00000000000000	
743.75	0.643141558534	0.735452838292	
! Port Impedance	50.00000000000000	0.00000000000000	
745.0	0.656359138704	0.750806503798	
! Port Impedance	50.00000000000000	0.00000000000000	
746.25	0.684447186885	0.744808994489	
! Port Impedance	50.00000000000000	0.00000000000000	
747.5	0.680480703733	0.72020979939	
! Port Impedance	50.00000000000000	0.00000000000000	
748.75	0.66475398025	0.712427383364	
! Port Impedance	50.00000000000000	0.00000000000000	
750.0	0.666926177051	0.716836562449	
! Port Impedance	50.00000000000000	0.00000000000000	
