!Created with mwavepy.
# GHz S RI R 50.0 
!freq	ReS11	ImS11	
500.0	-0.458942642418	0.783200937882	
! Port Impedance	50.00000000000000	0.00000000000000	
501.25	-0.448415770984	0.862462720925	
! Port Impedance	50.00000000000000	0.00000000000000	
502.5	-0.454695500442	0.865385257612	
! Port Impedance	50.00000000000000	0.00000000000000	
503.75	-0.4605700944	0.891326032731	
! Port Impedance	50.00000000000000	0.00000000000000	
505.0	-0.459573919559	0.876791772884	
! Port Impedance	50.00000000000000	0.00000000000000	
506.25	-0.439428292001	0.884873048836	
! Port Impedance	50.00000000000000	0.00000000000000	
507.5	-0.427740915392	0.883552514682	
! Port Impedance	50.00000000000000	0.00000000000000	
508.75	-0.411182845724	0.890553840632	
! Port Impedance	50.00000000000000	0.00000000000000	
510.0	-0.416748179402	0.888509612457	
! Port Impedance	50.00000000000000	0.00000000000000	
511.25	-0.407265457566	0.898664438191	
! Port Impedance	50.00000000000000	0.00000000000000	
512.5	-0.426560307006	0.866386700645	
! Port Impedance	50.00000000000000	0.00000000000000	
513.75	-0.406468147683	0.887633971063	
! Port Impedance	50.00000000000000	0.00000000000000	
515.0	-0.392011321538	0.901695733587	
! Port Impedance	50.00000000000000	0.00000000000000	
516.25	-0.388987047561	0.892570187717	
! Port Impedance	50.00000000000000	0.00000000000000	
517.5	-0.381890560173	0.913936313365	
! Port Impedance	50.00000000000000	0.00000000000000	
518.75	-0.374474961437	0.919837708826	
! Port Impedance	50.00000000000000	0.00000000000000	
520.0	-0.361615425582	0.914023068789	
! Port Impedance	50.00000000000000	0.00000000000000	
521.25	-0.345672071176	0.910310205349	
! Port Impedance	50.00000000000000	0.00000000000000	
522.5	-0.342010762433	0.92016685693	
! Port Impedance	50.00000000000000	0.00000000000000	
523.75	-0.339859103033	0.907212297948	
! Port Impedance	50.00000000000000	0.00000000000000	
525.0	-0.340648519576	0.918815466687	
! Port Impedance	50.00000000000000	0.00000000000000	
526.25	-0.332628386029	0.921006277023	
! Port Impedance	50.00000000000000	0.00000000000000	
527.5	-0.327691641542	0.927938950367	
! Port Impedance	50.00000000000000	0.00000000000000	
528.75	-0.319522196292	0.929734979127	
! Port Impedance	50.00000000000000	0.00000000000000	
530.0	-0.31505027231	0.927207185251	
! Port Impedance	50.00000000000000	0.00000000000000	
531.25	-0.312288393341	0.931100066616	
! Port Impedance	50.00000000000000	0.00000000000000	
532.5	-0.308865409523	0.929559859116	
! Port Impedance	50.00000000000000	0.00000000000000	
533.75	-0.298359159754	0.938039444244	
! Port Impedance	50.00000000000000	0.00000000000000	
535.0	-0.289773336332	0.934649004553	
! Port Impedance	50.00000000000000	0.00000000000000	
536.25	-0.284008334671	0.937543620646	
! Port Impedance	50.00000000000000	0.00000000000000	
537.5	-0.278574405383	0.938653094349	
! Port Impedance	50.00000000000000	0.00000000000000	
538.75	-0.27680244417	0.944109646931	
! Port Impedance	50.00000000000000	0.00000000000000	
540.0	-0.267682914554	0.946886352158	
! Port Impedance	50.00000000000000	0.00000000000000	
541.25	-0.261300467152	0.951102922564	
! Port Impedance	50.00000000000000	0.00000000000000	
542.5	-0.2506377251	0.952660622911	
! Port Impedance	50.00000000000000	0.00000000000000	
543.75	-0.245207405482	0.946924980432	
! Port Impedance	50.00000000000000	0.00000000000000	
545.0	-0.239152090688	0.949300285554	
! Port Impedance	50.00000000000000	0.00000000000000	
546.25	-0.233977305288	0.948011601476	
! Port Impedance	50.00000000000000	0.00000000000000	
547.5	-0.226949616843	0.953013204834	
! Port Impedance	50.00000000000000	0.00000000000000	
548.75	-0.224528739381	0.949116902045	
! Port Impedance	50.00000000000000	0.00000000000000	
550.0	-0.222326871946	0.953482218338	
! Port Impedance	50.00000000000000	0.00000000000000	
551.25	-0.222641990064	0.959805664818	
! Port Impedance	50.00000000000000	0.00000000000000	
552.5	-0.205392669471	0.971699377049	
! Port Impedance	50.00000000000000	0.00000000000000	
553.75	-0.193413519264	0.96828231317	
! Port Impedance	50.00000000000000	0.00000000000000	
555.0	-0.186609145592	0.96292682391	
! Port Impedance	50.00000000000000	0.00000000000000	
556.25	-0.184195640896	0.960435203499	
! Port Impedance	50.00000000000000	0.00000000000000	
557.5	-0.178776592251	0.96577385401	
! Port Impedance	50.00000000000000	0.00000000000000	
558.75	-0.171255785117	0.965290258897	
! Port Impedance	50.00000000000000	0.00000000000000	
560.0	-0.16160793198	0.967873718557	
! Port Impedance	50.00000000000000	0.00000000000000	
561.25	-0.161460849413	0.963802630404	
! Port Impedance	50.00000000000000	0.00000000000000	
562.5	-0.152891694941	0.966132212186	
! Port Impedance	50.00000000000000	0.00000000000000	
563.75	-0.151379925083	0.97037244293	
! Port Impedance	50.00000000000000	0.00000000000000	
565.0	-0.140833436775	0.967805438012	
! Port Impedance	50.00000000000000	0.00000000000000	
566.25	-0.133603848441	0.97175199673	
! Port Impedance	50.00000000000000	0.00000000000000	
567.5	-0.131218991519	0.971217226273	
! Port Impedance	50.00000000000000	0.00000000000000	
568.75	-0.121046359916	0.976138105972	
! Port Impedance	50.00000000000000	0.00000000000000	
570.0	-0.112415180059	0.975853609361	
! Port Impedance	50.00000000000000	0.00000000000000	
571.25	-0.10662871602	0.972049958799	
! Port Impedance	50.00000000000000	0.00000000000000	
572.5	-0.101855636805	0.972140523401	
! Port Impedance	50.00000000000000	0.00000000000000	
573.75	-0.0975126715793	0.973031008592	
! Port Impedance	50.00000000000000	0.00000000000000	
575.0	-0.0930600083465	0.973915541949	
! Port Impedance	50.00000000000000	0.00000000000000	
576.25	-0.0828292100605	0.973140350035	
! Port Impedance	50.00000000000000	0.00000000000000	
577.5	-0.0842832398334	0.97756651946	
! Port Impedance	50.00000000000000	0.00000000000000	
578.75	-0.0731011811447	0.979493684909	
! Port Impedance	50.00000000000000	0.00000000000000	
580.0	-0.0641863235462	0.982165476279	
! Port Impedance	50.00000000000000	0.00000000000000	
581.25	-0.0542230671153	0.974981525352	
! Port Impedance	50.00000000000000	0.00000000000000	
582.5	-0.0477413042168	0.977713053745	
! Port Impedance	50.00000000000000	0.00000000000000	
583.75	-0.0523020739187	0.97731389652	
! Port Impedance	50.00000000000000	0.00000000000000	
585.0	-0.0397580816755	0.974890296173	
! Port Impedance	50.00000000000000	0.00000000000000	
586.25	-0.0429935629345	0.981169548862	
! Port Impedance	50.00000000000000	0.00000000000000	
587.5	-0.0376035553036	0.983219939547	
! Port Impedance	50.00000000000000	0.00000000000000	
588.75	-0.0248729637151	0.9950826412	
! Port Impedance	50.00000000000000	0.00000000000000	
590.0	-0.00367610430077	0.992319250871	
! Port Impedance	50.00000000000000	0.00000000000000	
591.25	0.0119585715632	0.974896130335	
! Port Impedance	50.00000000000000	0.00000000000000	
592.5	0.00152421979054	0.97142470116	
! Port Impedance	50.00000000000000	0.00000000000000	
593.75	0.00360931986051	0.967008362567	
! Port Impedance	50.00000000000000	0.00000000000000	
595.0	0.00497884620312	0.974261631056	
! Port Impedance	50.00000000000000	0.00000000000000	
596.25	0.0120495483317	0.97270409668	
! Port Impedance	50.00000000000000	0.00000000000000	
597.5	0.0201997150632	0.981230614338	
! Port Impedance	50.00000000000000	0.00000000000000	
598.75	0.0244958234283	0.976931243781	
! Port Impedance	50.00000000000000	0.00000000000000	
600.0	0.0296964822538	0.971069536595	
! Port Impedance	50.00000000000000	0.00000000000000	
601.25	0.0318841824011	0.978828187903	
! Port Impedance	50.00000000000000	0.00000000000000	
602.5	0.0357930071267	0.982826302303	
! Port Impedance	50.00000000000000	0.00000000000000	
603.75	0.0484554313557	0.987815461101	
! Port Impedance	50.00000000000000	0.00000000000000	
605.0	0.0552670821181	0.985530909754	
! Port Impedance	50.00000000000000	0.00000000000000	
606.25	0.0681258753553	0.977152908251	
! Port Impedance	50.00000000000000	0.00000000000000	
607.5	0.0789113303759	0.978085956246	
! Port Impedance	50.00000000000000	0.00000000000000	
608.75	0.0743597950785	0.970777815152	
! Port Impedance	50.00000000000000	0.00000000000000	
610.0	0.0836950338186	0.971410948805	
! Port Impedance	50.00000000000000	0.00000000000000	
611.25	0.0915087570214	0.978827794979	
! Port Impedance	50.00000000000000	0.00000000000000	
612.5	0.100155313604	0.976646947254	
! Port Impedance	50.00000000000000	0.00000000000000	
613.75	0.104846580083	0.97633355504	
! Port Impedance	50.00000000000000	0.00000000000000	
615.0	0.105848595574	0.973158202172	
! Port Impedance	50.00000000000000	0.00000000000000	
616.25	0.118386938795	0.966222986321	
! Port Impedance	50.00000000000000	0.00000000000000	
617.5	0.122291754261	0.970389233559	
! Port Impedance	50.00000000000000	0.00000000000000	
618.75	0.12283999149	0.971861819588	
! Port Impedance	50.00000000000000	0.00000000000000	
620.0	0.133954633516	0.966888573419	
! Port Impedance	50.00000000000000	0.00000000000000	
621.25	0.14333891766	0.96408000583	
! Port Impedance	50.00000000000000	0.00000000000000	
622.5	0.136449238187	0.958352469188	
! Port Impedance	50.00000000000000	0.00000000000000	
623.75	0.145148243275	0.964077429188	
! Port Impedance	50.00000000000000	0.00000000000000	
625.0	0.152960457069	0.972474381971	
! Port Impedance	50.00000000000000	0.00000000000000	
626.25	0.166708650826	0.967000214629	
! Port Impedance	50.00000000000000	0.00000000000000	
627.5	0.182814556608	0.964212455956	
! Port Impedance	50.00000000000000	0.00000000000000	
628.75	0.183119428116	0.95035214216	
! Port Impedance	50.00000000000000	0.00000000000000	
630.0	0.167788678296	0.941212603246	
! Port Impedance	50.00000000000000	0.00000000000000	
631.25	0.17064204661	0.951679730254	
! Port Impedance	50.00000000000000	0.00000000000000	
632.5	0.175606599002	0.962720426745	
! Port Impedance	50.00000000000000	0.00000000000000	
633.75	0.190207427644	0.95843196861	
! Port Impedance	50.00000000000000	0.00000000000000	
635.0	0.208547052777	0.959710514012	
! Port Impedance	50.00000000000000	0.00000000000000	
636.25	0.204019425493	0.959835061489	
! Port Impedance	50.00000000000000	0.00000000000000	
637.5	0.21010117377	0.949958861493	
! Port Impedance	50.00000000000000	0.00000000000000	
638.75	0.228313022556	0.957056071621	
! Port Impedance	50.00000000000000	0.00000000000000	
640.0	0.231682164204	0.958060553794	
! Port Impedance	50.00000000000000	0.00000000000000	
641.25	0.240838287429	0.944411102999	
! Port Impedance	50.00000000000000	0.00000000000000	
642.5	0.248888149774	0.946751903988	
! Port Impedance	50.00000000000000	0.00000000000000	
643.75	0.244858440048	0.948104032012	
! Port Impedance	50.00000000000000	0.00000000000000	
645.0	0.25621268696	0.937282224119	
! Port Impedance	50.00000000000000	0.00000000000000	
646.25	0.25827968697	0.936760982159	
! Port Impedance	50.00000000000000	0.00000000000000	
647.5	0.262061325166	0.937438714703	
! Port Impedance	50.00000000000000	0.00000000000000	
648.75	0.265369539358	0.932492969742	
! Port Impedance	50.00000000000000	0.00000000000000	
650.0	0.273348290463	0.930547732876	
! Port Impedance	50.00000000000000	0.00000000000000	
651.25	0.277530955913	0.938482540307	
! Port Impedance	50.00000000000000	0.00000000000000	
652.5	0.287674678411	0.931398903229	
! Port Impedance	50.00000000000000	0.00000000000000	
653.75	0.300644443788	0.925024693741	
! Port Impedance	50.00000000000000	0.00000000000000	
655.0	0.301388735981	0.928368175978	
! Port Impedance	50.00000000000000	0.00000000000000	
656.25	0.294818857752	0.924911310543	
! Port Impedance	50.00000000000000	0.00000000000000	
657.5	0.311376119608	0.920443520648	
! Port Impedance	50.00000000000000	0.00000000000000	
658.75	0.316668417887	0.933176363086	
! Port Impedance	50.00000000000000	0.00000000000000	
660.0	0.314114102313	0.919552282738	
! Port Impedance	50.00000000000000	0.00000000000000	
661.25	0.323685183248	0.916388137957	
! Port Impedance	50.00000000000000	0.00000000000000	
662.5	0.334288372082	0.929092555102	
! Port Impedance	50.00000000000000	0.00000000000000	
663.75	0.337980427929	0.924863650086	
! Port Impedance	50.00000000000000	0.00000000000000	
665.0	0.350654004549	0.908176289151	
! Port Impedance	50.00000000000000	0.00000000000000	
666.25	0.353579868668	0.902229270119	
! Port Impedance	50.00000000000000	0.00000000000000	
667.5	0.343905627479	0.902124177903	
! Port Impedance	50.00000000000000	0.00000000000000	
668.75	0.33903662799	0.904235080541	
! Port Impedance	50.00000000000000	0.00000000000000	
670.0	0.350642780619	0.914211979415	
! Port Impedance	50.00000000000000	0.00000000000000	
671.25	0.36459131681	0.922625529233	
! Port Impedance	50.00000000000000	0.00000000000000	
672.5	0.371271674255	0.911254311	
! Port Impedance	50.00000000000000	0.00000000000000	
673.75	0.386737841257	0.898861602568	
! Port Impedance	50.00000000000000	0.00000000000000	
675.0	0.397503022546	0.905225957988	
! Port Impedance	50.00000000000000	0.00000000000000	
676.25	0.395152820254	0.899559471144	
! Port Impedance	50.00000000000000	0.00000000000000	
677.5	0.404393697065	0.881709442354	
! Port Impedance	50.00000000000000	0.00000000000000	
678.75	0.410502952889	0.884496362032	
! Port Impedance	50.00000000000000	0.00000000000000	
680.0	0.404617437039	0.890726287731	
! Port Impedance	50.00000000000000	0.00000000000000	
681.25	0.410271644429	0.883608099319	
! Port Impedance	50.00000000000000	0.00000000000000	
682.5	0.427504682561	0.880205903249	
! Port Impedance	50.00000000000000	0.00000000000000	
683.75	0.428291928749	0.88574120492	
! Port Impedance	50.00000000000000	0.00000000000000	
685.0	0.419664453772	0.880285798588	
! Port Impedance	50.00000000000000	0.00000000000000	
686.25	0.43216402274	0.874856276398	
! Port Impedance	50.00000000000000	0.00000000000000	
687.5	0.445984352637	0.880080911235	
! Port Impedance	50.00000000000000	0.00000000000000	
688.75	0.446104726117	0.875147789635	
! Port Impedance	50.00000000000000	0.00000000000000	
690.0	0.445511843592	0.859725258434	
! Port Impedance	50.00000000000000	0.00000000000000	
691.25	0.456148298154	0.858838967163	
! Port Impedance	50.00000000000000	0.00000000000000	
692.5	0.459318912374	0.870856660473	
! Port Impedance	50.00000000000000	0.00000000000000	
693.75	0.455077062628	0.87083320357	
! Port Impedance	50.00000000000000	0.00000000000000	
695.0	0.469348374258	0.851800806049	
! Port Impedance	50.00000000000000	0.00000000000000	
696.25	0.480856174735	0.850129298642	
! Port Impedance	50.00000000000000	0.00000000000000	
697.5	0.47852060965	0.8597338673	
! Port Impedance	50.00000000000000	0.00000000000000	
698.75	0.478233931522	0.856336713824	
! Port Impedance	50.00000000000000	0.00000000000000	
700.0	0.494055625789	0.846331515351	
! Port Impedance	50.00000000000000	0.00000000000000	
701.25	0.508700492125	0.844686811522	
! Port Impedance	50.00000000000000	0.00000000000000	
702.5	0.502772281251	0.847454135078	
! Port Impedance	50.00000000000000	0.00000000000000	
703.75	0.505310532196	0.834425691455	
! Port Impedance	50.00000000000000	0.00000000000000	
705.0	0.513562636882	0.826308104802	
! Port Impedance	50.00000000000000	0.00000000000000	
706.25	0.517332266279	0.83846235256	
! Port Impedance	50.00000000000000	0.00000000000000	
707.5	0.520395675338	0.848561111262	
! Port Impedance	50.00000000000000	0.00000000000000	
708.75	0.542120034752	0.833466593097	
! Port Impedance	50.00000000000000	0.00000000000000	
710.0	0.559683397132	0.814984324854	
! Port Impedance	50.00000000000000	0.00000000000000	
711.25	0.557911920297	0.815339780048	
! Port Impedance	50.00000000000000	0.00000000000000	
712.5	0.544861985805	0.809959042851	
! Port Impedance	50.00000000000000	0.00000000000000	
713.75	0.550817739182	0.800188693476	
! Port Impedance	50.00000000000000	0.00000000000000	
715.0	0.563055671551	0.803703913285	
! Port Impedance	50.00000000000000	0.00000000000000	
716.25	0.565306086357	0.802587453973	
! Port Impedance	50.00000000000000	0.00000000000000	
717.5	0.557414407884	0.797462291565	
! Port Impedance	50.00000000000000	0.00000000000000	
718.75	0.563992829962	0.788090256485	
! Port Impedance	50.00000000000000	0.00000000000000	
720.0	0.581676386468	0.792044327852	
! Port Impedance	50.00000000000000	0.00000000000000	
721.25	0.582530920147	0.797340306873	
! Port Impedance	50.00000000000000	0.00000000000000	
722.5	0.583467868885	0.786581988715	
! Port Impedance	50.00000000000000	0.00000000000000	
723.75	0.589636529988	0.778553178096	
! Port Impedance	50.00000000000000	0.00000000000000	
725.0	0.603593884481	0.781706832348	
! Port Impedance	50.00000000000000	0.00000000000000	
726.25	0.612746607571	0.776991185841	
! Port Impedance	50.00000000000000	0.00000000000000	
727.5	0.611376559694	0.7691258186	
! Port Impedance	50.00000000000000	0.00000000000000	
728.75	0.614210052866	0.761295455984	
! Port Impedance	50.00000000000000	0.00000000000000	
730.0	0.619458635449	0.763761052962	
! Port Impedance	50.00000000000000	0.00000000000000	
731.25	0.625317572919	0.767053815997	
! Port Impedance	50.00000000000000	0.00000000000000	
732.5	0.627116578258	0.753864439784	
! Port Impedance	50.00000000000000	0.00000000000000	
733.75	0.634369358929	0.744226110772	
! Port Impedance	50.00000000000000	0.00000000000000	
735.0	0.642103496081	0.754080735345	
! Port Impedance	50.00000000000000	0.00000000000000	
736.25	0.652232074428	0.746083795737	
! Port Impedance	50.00000000000000	0.00000000000000	
737.5	0.653563117704	0.737541562221	
! Port Impedance	50.00000000000000	0.00000000000000	
738.75	0.65557768139	0.727973496922	
! Port Impedance	50.00000000000000	0.00000000000000	
740.0	0.663945999277	0.722197653036	
! Port Impedance	50.00000000000000	0.00000000000000	
741.25	0.666154904323	0.720372192971	
! Port Impedance	50.00000000000000	0.00000000000000	
742.5	0.662407471478	0.715408691701	
! Port Impedance	50.00000000000000	0.00000000000000	
743.75	0.663742074576	0.708592608796	
! Port Impedance	50.00000000000000	0.00000000000000	
745.0	0.678702212081	0.720755455425	
! Port Impedance	50.00000000000000	0.00000000000000	
746.25	0.706347229123	0.714363508225	
! Port Impedance	50.00000000000000	0.00000000000000	
747.5	0.701178864698	0.692274034259	
! Port Impedance	50.00000000000000	0.00000000000000	
748.75	0.687453648432	0.684647641982	
! Port Impedance	50.00000000000000	0.00000000000000	
750.0	0.689965267643	0.686188619356	
! Port Impedance	50.00000000000000	0.00000000000000	
