!Created with mwavepy.
# GHz S RI R 50.0 
!freq	ReS11	ImS11	
500.0	-0.049861805657	0.0136269137749	
! Port Impedance	50.00000000000000	0.00000000000000	
501.25	-0.00902620624603	0.0583911963817	
! Port Impedance	50.00000000000000	0.00000000000000	
502.5	-0.00132964946072	0.0163472781121	
! Port Impedance	50.00000000000000	0.00000000000000	
503.75	-0.0507577601465	0.0343337413006	
! Port Impedance	50.00000000000000	0.00000000000000	
505.0	-0.0316749463492	0.0617847900781	
! Port Impedance	50.00000000000000	0.00000000000000	
506.25	-0.00214985914977	0.037223882384	
! Port Impedance	50.00000000000000	0.00000000000000	
507.5	-0.0370316068434	0.026257890214	
! Port Impedance	50.00000000000000	0.00000000000000	
508.75	-0.0300689435332	0.056344892311	
! Port Impedance	50.00000000000000	0.00000000000000	
510.0	-0.00188786367282	0.0430671500599	
! Port Impedance	50.00000000000000	0.00000000000000	
511.25	-0.0235495011076	0.0240377431173	
! Port Impedance	50.00000000000000	0.00000000000000	
512.5	-0.0448264923141	0.0400670631127	
! Port Impedance	50.00000000000000	0.00000000000000	
513.75	-0.0249373621498	0.0414994233923	
! Port Impedance	50.00000000000000	0.00000000000000	
515.0	-0.0323981672625	0.0366676232887	
! Port Impedance	50.00000000000000	0.00000000000000	
516.25	-0.0396108583142	0.0539181839679	
! Port Impedance	50.00000000000000	0.00000000000000	
517.5	-0.0210223076877	0.0567840554598	
! Port Impedance	50.00000000000000	0.00000000000000	
518.75	-0.0183140331203	0.0418860208971	
! Port Impedance	50.00000000000000	0.00000000000000	
520.0	-0.0255970864894	0.0451591884698	
! Port Impedance	50.00000000000000	0.00000000000000	
521.25	-0.0128018136229	0.0454823780601	
! Port Impedance	50.00000000000000	0.00000000000000	
522.5	-0.0163103217915	0.037106574172	
! Port Impedance	50.00000000000000	0.00000000000000	
523.75	-0.0264874179529	0.0416888055193	
! Port Impedance	50.00000000000000	0.00000000000000	
525.0	-0.0153486244352	0.0477463687542	
! Port Impedance	50.00000000000000	0.00000000000000	
526.25	-0.0124748466107	0.0322623690978	
! Port Impedance	50.00000000000000	0.00000000000000	
527.5	-0.0297924431673	0.0328589629337	
! Port Impedance	50.00000000000000	0.00000000000000	
528.75	-0.0273083656496	0.0510423288153	
! Port Impedance	50.00000000000000	0.00000000000000	
530.0	-0.00973352605825	0.0417329670048	
! Port Impedance	50.00000000000000	0.00000000000000	
531.25	-0.0203538135834	0.0262389903791	
! Port Impedance	50.00000000000000	0.00000000000000	
532.5	-0.029278080497	0.0386364750041	
! Port Impedance	50.00000000000000	0.00000000000000	
533.75	-0.0168301009751	0.0433945122415	
! Port Impedance	50.00000000000000	0.00000000000000	
535.0	-0.0185253589045	0.0273289459252	
! Port Impedance	50.00000000000000	0.00000000000000	
536.25	-0.0352892990139	0.0331703748481	
! Port Impedance	50.00000000000000	0.00000000000000	
537.5	-0.0267579254043	0.0526712388518	
! Port Impedance	50.00000000000000	0.00000000000000	
538.75	-0.00947071795759	0.0420441076814	
! Port Impedance	50.00000000000000	0.00000000000000	
540.0	-0.0219171674086	0.0263172839873	
! Port Impedance	50.00000000000000	0.00000000000000	
541.25	-0.0352082521795	0.0371509534796	
! Port Impedance	50.00000000000000	0.00000000000000	
542.5	-0.0252302634921	0.046819094917	
! Port Impedance	50.00000000000000	0.00000000000000	
543.75	-0.0173130840364	0.0383357617638	
! Port Impedance	50.00000000000000	0.00000000000000	
545.0	-0.0275699825423	0.035807403419	
! Port Impedance	50.00000000000000	0.00000000000000	
546.25	-0.0232704793658	0.0452245628018	
! Port Impedance	50.00000000000000	0.00000000000000	
547.5	-0.0165567175129	0.0395431252432	
! Port Impedance	50.00000000000000	0.00000000000000	
548.75	-0.023994477338	0.0312227245581	
! Port Impedance	50.00000000000000	0.00000000000000	
550.0	-0.0337660582712	0.0393347937553	
! Port Impedance	50.00000000000000	0.00000000000000	
551.25	-0.0264651057868	0.0498265312007	
! Port Impedance	50.00000000000000	0.00000000000000	
552.5	-0.0221773054162	0.0492204353693	
! Port Impedance	50.00000000000000	0.00000000000000	
553.75	-0.0182924652795	0.0498051044205	
! Port Impedance	50.00000000000000	0.00000000000000	
555.0	-0.00914529325827	0.0454772590456	
! Port Impedance	50.00000000000000	0.00000000000000	
556.25	-0.00635758886148	0.0369209154641	
! Port Impedance	50.00000000000000	0.00000000000000	
557.5	-0.0180099822539	0.0356201754592	
! Port Impedance	50.00000000000000	0.00000000000000	
558.75	-0.018459776274	0.0447944377809	
! Port Impedance	50.00000000000000	0.00000000000000	
560.0	-0.00684556081313	0.0404954293083	
! Port Impedance	50.00000000000000	0.00000000000000	
561.25	-0.00895633653505	0.0229667609629	
! Port Impedance	50.00000000000000	0.00000000000000	
562.5	-0.029794756497	0.0276388747614	
! Port Impedance	50.00000000000000	0.00000000000000	
563.75	-0.0241848521624	0.0471906777211	
! Port Impedance	50.00000000000000	0.00000000000000	
565.0	-0.00292774100196	0.0396085373168	
! Port Impedance	50.00000000000000	0.00000000000000	
566.25	-0.0191326830148	0.0183900505533	
! Port Impedance	50.00000000000000	0.00000000000000	
567.5	-0.0391735449303	0.0380761103733	
! Port Impedance	50.00000000000000	0.00000000000000	
568.75	-0.0165839664644	0.0569758053532	
! Port Impedance	50.00000000000000	0.00000000000000	
570.0	0.000964689536719	0.0327173034176	
! Port Impedance	50.00000000000000	0.00000000000000	
571.25	-0.0253807731421	0.0161936113277	
! Port Impedance	50.00000000000000	0.00000000000000	
572.5	-0.0418987936174	0.048201260796	
! Port Impedance	50.00000000000000	0.00000000000000	
573.75	-0.0096140873775	0.0587854551272	
! Port Impedance	50.00000000000000	0.00000000000000	
575.0	0.00151952683103	0.0219731435709	
! Port Impedance	50.00000000000000	0.00000000000000	
576.25	-0.0384165721075	0.0150229457447	
! Port Impedance	50.00000000000000	0.00000000000000	
577.5	-0.0427393452729	0.0552521499264	
! Port Impedance	50.00000000000000	0.00000000000000	
578.75	-0.00336662853577	0.0585618737323	
! Port Impedance	50.00000000000000	0.00000000000000	
580.0	-0.00439271643343	0.0185381820559	
! Port Impedance	50.00000000000000	0.00000000000000	
581.25	-0.0430838950528	0.0278546382233	
! Port Impedance	50.00000000000000	0.00000000000000	
582.5	-0.030409926958	0.0666932198822	
! Port Impedance	50.00000000000000	0.00000000000000	
583.75	0.00960639598368	0.0518152746777	
! Port Impedance	50.00000000000000	0.00000000000000	
585.0	-0.00729693389393	0.0138068239889	
! Port Impedance	50.00000000000000	0.00000000000000	
586.25	-0.0424217734631	0.0329896189985	
! Port Impedance	50.00000000000000	0.00000000000000	
587.5	-0.0232646026069	0.0683987315647	
! Port Impedance	50.00000000000000	0.00000000000000	
588.75	0.0115085910178	0.047434844	
! Port Impedance	50.00000000000000	0.00000000000000	
590.0	-0.00448091607326	0.0218538423306	
! Port Impedance	50.00000000000000	0.00000000000000	
591.25	-0.0245924516772	0.0389464375803	
! Port Impedance	50.00000000000000	0.00000000000000	
592.5	0.0025615153152	0.0550347108719	
! Port Impedance	50.00000000000000	0.00000000000000	
593.75	0.0189965224692	0.020888828242	
! Port Impedance	50.00000000000000	0.00000000000000	
595.0	-0.0154734249758	-0.0033374866778	
! Port Impedance	50.00000000000000	0.00000000000000	
596.25	-0.0377308300747	0.0305168106627	
! Port Impedance	50.00000000000000	0.00000000000000	
597.5	-0.0113274492293	0.0489170003858	
! Port Impedance	50.00000000000000	0.00000000000000	
598.75	0.00191739825357	0.0188697357229	
! Port Impedance	50.00000000000000	0.00000000000000	
600.0	-0.0314177158575	0.010584392979	
! Port Impedance	50.00000000000000	0.00000000000000	
601.25	-0.0378360471551	0.0433957891987	
! Port Impedance	50.00000000000000	0.00000000000000	
602.5	-0.00761133532599	0.0514246124133	
! Port Impedance	50.00000000000000	0.00000000000000	
603.75	-0.00525263042392	0.0212237763131	
! Port Impedance	50.00000000000000	0.00000000000000	
605.0	-0.0287799059024	0.0202923737288	
! Port Impedance	50.00000000000000	0.00000000000000	
606.25	-0.0263392621328	0.044478533985	
! Port Impedance	50.00000000000000	0.00000000000000	
607.5	-0.00636991227307	0.0370994636984	
! Port Impedance	50.00000000000000	0.00000000000000	
608.75	-0.0178293518435	0.0175921519718	
! Port Impedance	50.00000000000000	0.00000000000000	
610.0	-0.039027665228	0.0359571667758	
! Port Impedance	50.00000000000000	0.00000000000000	
611.25	-0.0176980808501	0.0582691067166	
! Port Impedance	50.00000000000000	0.00000000000000	
612.5	0.00431054211005	0.0380350051125	
! Port Impedance	50.00000000000000	0.00000000000000	
613.75	-0.0185731821945	0.0161253418564	
! Port Impedance	50.00000000000000	0.00000000000000	
615.0	-0.0365766220103	0.0399903414331	
! Port Impedance	50.00000000000000	0.00000000000000	
616.25	-0.00855665294301	0.0620257813825	
! Port Impedance	50.00000000000000	0.00000000000000	
617.5	0.0120789161443	0.0328958296517	
! Port Impedance	50.00000000000000	0.00000000000000	
618.75	-0.0131490220701	0.0142507737402	
! Port Impedance	50.00000000000000	0.00000000000000	
620.0	-0.0300921631897	0.0421215546356	
! Port Impedance	50.00000000000000	0.00000000000000	
621.25	0.00330535704028	0.0556997768015	
! Port Impedance	50.00000000000000	0.00000000000000	
622.5	0.0211739848162	0.0204873693787	
! Port Impedance	50.00000000000000	0.00000000000000	
623.75	-0.0146050087221	-0.00212288119706	
! Port Impedance	50.00000000000000	0.00000000000000	
625.0	-0.0361159732134	0.0275716324431	
! Port Impedance	50.00000000000000	0.00000000000000	
626.25	-0.00681625830945	0.0489768724303	
! Port Impedance	50.00000000000000	0.00000000000000	
627.5	0.0116156527256	0.0226197205774	
! Port Impedance	50.00000000000000	0.00000000000000	
628.75	-0.0127929636279	-0.00107903600975	
! Port Impedance	50.00000000000000	0.00000000000000	
630.0	-0.0347731581801	0.0223714828999	
! Port Impedance	50.00000000000000	0.00000000000000	
631.25	-0.0183149268822	0.0383086115707	
! Port Impedance	50.00000000000000	0.00000000000000	
632.5	-0.0096569928469	0.0171924382126	
! Port Impedance	50.00000000000000	0.00000000000000	
633.75	-0.0341152940337	0.011570880989	
! Port Impedance	50.00000000000000	0.00000000000000	
635.0	-0.0443900030681	0.0391890484516	
! Port Impedance	50.00000000000000	0.00000000000000	
636.25	-0.0187970990185	0.0531667194588	
! Port Impedance	50.00000000000000	0.00000000000000	
637.5	-0.00531489538347	0.0338574860806	
! Port Impedance	50.00000000000000	0.00000000000000	
638.75	-0.0217738300678	0.0252550163539	
! Port Impedance	50.00000000000000	0.00000000000000	
640.0	-0.0265643686386	0.0440300818632	
! Port Impedance	50.00000000000000	0.00000000000000	
641.25	-0.00554662864909	0.0505474548425	
! Port Impedance	50.00000000000000	0.00000000000000	
642.5	0.00151334864743	0.0293762061979	
! Port Impedance	50.00000000000000	0.00000000000000	
643.75	-0.0164349008436	0.0211218698621	
! Port Impedance	50.00000000000000	0.00000000000000	
645.0	-0.0225705017041	0.0380567049388	
! Port Impedance	50.00000000000000	0.00000000000000	
646.25	-0.00996046626636	0.0417293324447	
! Port Impedance	50.00000000000000	0.00000000000000	
647.5	-0.00503701539314	0.02903030316	
! Port Impedance	50.00000000000000	0.00000000000000	
648.75	-0.0177453282873	0.0312933363707	
! Port Impedance	50.00000000000000	0.00000000000000	
650.0	-0.0157161237588	0.0445961060179	
! Port Impedance	50.00000000000000	0.00000000000000	
651.25	0.00233745050578	0.0427185426604	
! Port Impedance	50.00000000000000	0.00000000000000	
652.5	0.00443442174554	0.026840429672	
! Port Impedance	50.00000000000000	0.00000000000000	
653.75	-0.0112044926099	0.0236482280191	
! Port Impedance	50.00000000000000	0.00000000000000	
655.0	-0.0120272764713	0.0353370731152	
! Port Impedance	50.00000000000000	0.00000000000000	
656.25	0.00399120943609	0.0304676203554	
! Port Impedance	50.00000000000000	0.00000000000000	
657.5	-0.000757611207382	0.0115845696513	
! Port Impedance	50.00000000000000	0.00000000000000	
658.75	-0.0214578734385	0.0137723168158	
! Port Impedance	50.00000000000000	0.00000000000000	
660.0	-0.0243754227811	0.0329311970014	
! Port Impedance	50.00000000000000	0.00000000000000	
661.25	-0.00884646331681	0.0364529694713	
! Port Impedance	50.00000000000000	0.00000000000000	
662.5	-0.0058424404173	0.0230691211768	
! Port Impedance	50.00000000000000	0.00000000000000	
663.75	-0.0189808815825	0.0244027024716	
! Port Impedance	50.00000000000000	0.00000000000000	
665.0	-0.0170132788798	0.0400309681296	
! Port Impedance	50.00000000000000	0.00000000000000	
666.25	0.00037574344014	0.0365868598166	
! Port Impedance	50.00000000000000	0.00000000000000	
667.5	-0.00126931031184	0.0170454625347	
! Port Impedance	50.00000000000000	0.00000000000000	
668.75	-0.0247837898657	0.0170830748572	
! Port Impedance	50.00000000000000	0.00000000000000	
670.0	-0.0309637018682	0.0379716389617	
! Port Impedance	50.00000000000000	0.00000000000000	
671.25	-0.0112808355601	0.0453681389078	
! Port Impedance	50.00000000000000	0.00000000000000	
672.5	-0.00242492413176	0.0317719484526	
! Port Impedance	50.00000000000000	0.00000000000000	
673.75	-0.0162145826479	0.0238392345956	
! Port Impedance	50.00000000000000	0.00000000000000	
675.0	-0.0228628526657	0.0400572057592	
! Port Impedance	50.00000000000000	0.00000000000000	
676.25	-0.00535851768951	0.0517703748491	
! Port Impedance	50.00000000000000	0.00000000000000	
677.5	0.00922462829333	0.0375129459123	
! Port Impedance	50.00000000000000	0.00000000000000	
678.75	0.00186592759689	0.0200730698274	
! Port Impedance	50.00000000000000	0.00000000000000	
680.0	-0.0115671567	0.0240103036959	
! Port Impedance	50.00000000000000	0.00000000000000	
681.25	-0.00691985028527	0.0382939356988	
! Port Impedance	50.00000000000000	0.00000000000000	
682.5	0.00781972245855	0.0335691973976	
! Port Impedance	50.00000000000000	0.00000000000000	
683.75	0.00444173691418	0.0172993485908	
! Port Impedance	50.00000000000000	0.00000000000000	
685.0	-0.00988351164424	0.0167374487718	
! Port Impedance	50.00000000000000	0.00000000000000	
686.25	-0.0117376200505	0.027844170853	
! Port Impedance	50.00000000000000	0.00000000000000	
687.5	-0.00297797542331	0.0275361645573	
! Port Impedance	50.00000000000000	0.00000000000000	
688.75	-0.00206219100997	0.0146467542968	
! Port Impedance	50.00000000000000	0.00000000000000	
690.0	-0.0164980693583	0.0121489699991	
! Port Impedance	50.00000000000000	0.00000000000000	
691.25	-0.024022727066	0.0262305481405	
! Port Impedance	50.00000000000000	0.00000000000000	
692.5	-0.0137855379874	0.0334706102267	
! Port Impedance	50.00000000000000	0.00000000000000	
693.75	-0.0101230301592	0.0239914884938	
! Port Impedance	50.00000000000000	0.00000000000000	
695.0	-0.0159053972555	0.0173549576216	
! Port Impedance	50.00000000000000	0.00000000000000	
696.25	-0.0243105447359	0.0259099098502	
! Port Impedance	50.00000000000000	0.00000000000000	
697.5	-0.0199500092159	0.0365734573001	
! Port Impedance	50.00000000000000	0.00000000000000	
698.75	-0.0119359089538	0.0356052283364	
! Port Impedance	50.00000000000000	0.00000000000000	
700.0	-0.0127014038509	0.0314901238402	
! Port Impedance	50.00000000000000	0.00000000000000	
701.25	-0.0124558476405	0.0362516518727	
! Port Impedance	50.00000000000000	0.00000000000000	
702.5	-0.00343702699089	0.0411956827326	
! Port Impedance	50.00000000000000	0.00000000000000	
703.75	0.00325006238724	0.0295170191495	
! Port Impedance	50.00000000000000	0.00000000000000	
705.0	-0.00377556964433	0.0176258526998	
! Port Impedance	50.00000000000000	0.00000000000000	
706.25	-0.0197738881025	0.0249512440954	
! Port Impedance	50.00000000000000	0.00000000000000	
707.5	-0.0178882217496	0.0460003404356	
! Port Impedance	50.00000000000000	0.00000000000000	
708.75	0.0029276729719	0.0478956874415	
! Port Impedance	50.00000000000000	0.00000000000000	
710.0	0.0114999052049	0.032261591335	
! Port Impedance	50.00000000000000	0.00000000000000	
711.25	0.00460557398055	0.0245871105122	
! Port Impedance	50.00000000000000	0.00000000000000	
712.5	-0.000397839135949	0.0295783189066	
! Port Impedance	50.00000000000000	0.00000000000000	
713.75	0.00587185024254	0.0304453478424	
! Port Impedance	50.00000000000000	0.00000000000000	
715.0	0.00882374823417	0.0207298999857	
! Port Impedance	50.00000000000000	0.00000000000000	
716.25	0.00353297185103	0.0107286407364	
! Port Impedance	50.00000000000000	0.00000000000000	
717.5	-0.00523341339047	0.00906346314031	
! Port Impedance	50.00000000000000	0.00000000000000	
718.75	-0.0105808881599	0.0101321326798	
! Port Impedance	50.00000000000000	0.00000000000000	
720.0	-0.0131527756884	0.0115466393698	
! Port Impedance	50.00000000000000	0.00000000000000	
721.25	-0.0175823028428	0.0168479906435	
! Port Impedance	50.00000000000000	0.00000000000000	
722.5	-0.0199516061662	0.0248030815462	
! Port Impedance	50.00000000000000	0.00000000000000	
723.75	-0.0138562811402	0.0285494692769	
! Port Impedance	50.00000000000000	0.00000000000000	
725.0	-0.0103622432354	0.025386652054	
! Port Impedance	50.00000000000000	0.00000000000000	
726.25	-0.0143659299525	0.0254994609465	
! Port Impedance	50.00000000000000	0.00000000000000	
727.5	-0.0139265234136	0.0314850090685	
! Port Impedance	50.00000000000000	0.00000000000000	
728.75	-0.0100615752584	0.0332502517712	
! Port Impedance	50.00000000000000	0.00000000000000	
730.0	-0.00705727775775	0.0265508838978	
! Port Impedance	50.00000000000000	0.00000000000000	
731.25	-0.00961553424399	0.0266454124752	
! Port Impedance	50.00000000000000	0.00000000000000	
732.5	-0.0114200122276	0.0317260560276	
! Port Impedance	50.00000000000000	0.00000000000000	
733.75	-0.00615434440548	0.0346172326538	
! Port Impedance	50.00000000000000	0.00000000000000	
735.0	-0.00166933123825	0.0302793719612	
! Port Impedance	50.00000000000000	0.00000000000000	
736.25	-0.00496390564132	0.0245994924624	
! Port Impedance	50.00000000000000	0.00000000000000	
737.5	-0.00901120250649	0.0299817000723	
! Port Impedance	50.00000000000000	0.00000000000000	
738.75	-0.00638230762828	0.0362473830894	
! Port Impedance	50.00000000000000	0.00000000000000	
740.0	0.00185327011236	0.033754943703	
! Port Impedance	50.00000000000000	0.00000000000000	
741.25	0.00599423326851	0.028587731324	
! Port Impedance	50.00000000000000	0.00000000000000	
742.5	0.00258604395499	0.026609755313	
! Port Impedance	50.00000000000000	0.00000000000000	
743.75	0.000620771215509	0.0282688466588	
! Port Impedance	50.00000000000000	0.00000000000000	
745.0	0.00426829313481	0.0307292965309	
! Port Impedance	50.00000000000000	0.00000000000000	
746.25	0.01287977262	0.0287726077187	
! Port Impedance	50.00000000000000	0.00000000000000	
747.5	0.00847205348681	0.0195653920875	
! Port Impedance	50.00000000000000	0.00000000000000	
748.75	0.00428362589548	0.0182177579654	
! Port Impedance	50.00000000000000	0.00000000000000	
750.0	0.00270265252754	0.0156706111699	
! Port Impedance	50.00000000000000	0.00000000000000	
