!Created with mwavepy.
# GHz S RI R 50.0 
!freq	ReS11	ImS11	
500.0	-0.0331857046084	0.0271420572989	
! Port Impedance	50.00000000000000	0.00000000000000	
501.25	-0.012487329331	0.0560715805086	
! Port Impedance	50.00000000000000	0.00000000000000	
502.5	-0.0104477296267	0.0210851809468	
! Port Impedance	50.00000000000000	0.00000000000000	
503.75	-0.048938196975	0.0315115459478	
! Port Impedance	50.00000000000000	0.00000000000000	
505.0	-0.0281163509975	0.0594033298831	
! Port Impedance	50.00000000000000	0.00000000000000	
506.25	-0.00286678825129	0.0367986293841	
! Port Impedance	50.00000000000000	0.00000000000000	
507.5	-0.0353386347112	0.0233384665706	
! Port Impedance	50.00000000000000	0.00000000000000	
508.75	-0.0323646784175	0.0536995250587	
! Port Impedance	50.00000000000000	0.00000000000000	
510.0	-0.00239101536415	0.0404140449619	
! Port Impedance	50.00000000000000	0.00000000000000	
511.25	-0.0205584325533	0.0178438374201	
! Port Impedance	50.00000000000000	0.00000000000000	
512.5	-0.0425410891446	0.0379141985161	
! Port Impedance	50.00000000000000	0.00000000000000	
513.75	-0.0236467214827	0.0376676365947	
! Port Impedance	50.00000000000000	0.00000000000000	
515.0	-0.033476788355	0.0326558304913	
! Port Impedance	50.00000000000000	0.00000000000000	
516.25	-0.0422370196719	0.0473806375253	
! Port Impedance	50.00000000000000	0.00000000000000	
517.5	-0.0202246517655	0.0557035647627	
! Port Impedance	50.00000000000000	0.00000000000000	
518.75	-0.0158852014188	0.0408096609557	
! Port Impedance	50.00000000000000	0.00000000000000	
520.0	-0.0255136746188	0.0415503992611	
! Port Impedance	50.00000000000000	0.00000000000000	
521.25	-0.0159353844933	0.0452232348566	
! Port Impedance	50.00000000000000	0.00000000000000	
522.5	-0.0150542336955	0.032034511646	
! Port Impedance	50.00000000000000	0.00000000000000	
523.75	-0.0256904107356	0.0368143471556	
! Port Impedance	50.00000000000000	0.00000000000000	
525.0	-0.0155451096174	0.0416790223009	
! Port Impedance	50.00000000000000	0.00000000000000	
526.25	-0.0120509479806	0.0299495759128	
! Port Impedance	50.00000000000000	0.00000000000000	
527.5	-0.0306182166537	0.0285443702055	
! Port Impedance	50.00000000000000	0.00000000000000	
528.75	-0.0263388149017	0.0446465440334	
! Port Impedance	50.00000000000000	0.00000000000000	
530.0	-0.0100290454441	0.0381941669758	
! Port Impedance	50.00000000000000	0.00000000000000	
531.25	-0.0223971641772	0.0227065368447	
! Port Impedance	50.00000000000000	0.00000000000000	
532.5	-0.0329646097056	0.0350222394815	
! Port Impedance	50.00000000000000	0.00000000000000	
533.75	-0.0176129088469	0.0414056666042	
! Port Impedance	50.00000000000000	0.00000000000000	
535.0	-0.0176956718344	0.0256411388846	
! Port Impedance	50.00000000000000	0.00000000000000	
536.25	-0.03547276765	0.0288007608551	
! Port Impedance	50.00000000000000	0.00000000000000	
537.5	-0.028118068517	0.0491691406362	
! Port Impedance	50.00000000000000	0.00000000000000	
538.75	-0.0103758025779	0.0413811532114	
! Port Impedance	50.00000000000000	0.00000000000000	
540.0	-0.0212418429556	0.0246214824946	
! Port Impedance	50.00000000000000	0.00000000000000	
541.25	-0.0334947993969	0.0341498701573	
! Port Impedance	50.00000000000000	0.00000000000000	
542.5	-0.0256447060949	0.0434316623068	
! Port Impedance	50.00000000000000	0.00000000000000	
543.75	-0.0183513310468	0.0330120512667	
! Port Impedance	50.00000000000000	0.00000000000000	
545.0	-0.0284058157767	0.0321788450933	
! Port Impedance	50.00000000000000	0.00000000000000	
546.25	-0.0257132553275	0.0431652849374	
! Port Impedance	50.00000000000000	0.00000000000000	
547.5	-0.0179046136806	0.0352209305671	
! Port Impedance	50.00000000000000	0.00000000000000	
548.75	-0.0244987712385	0.0273459547374	
! Port Impedance	50.00000000000000	0.00000000000000	
550.0	-0.0364955121882	0.037055583854	
! Port Impedance	50.00000000000000	0.00000000000000	
551.25	-0.0316464556377	0.0496425217302	
! Port Impedance	50.00000000000000	0.00000000000000	
552.5	-0.0224924307728	0.0472427662596	
! Port Impedance	50.00000000000000	0.00000000000000	
553.75	-0.0157757620899	0.0502760644772	
! Port Impedance	50.00000000000000	0.00000000000000	
555.0	-0.012393254723	0.0489595041243	
! Port Impedance	50.00000000000000	0.00000000000000	
556.25	-0.00919946675042	0.0381475477291	
! Port Impedance	50.00000000000000	0.00000000000000	
557.5	-0.012983560013	0.0344740803182	
! Port Impedance	50.00000000000000	0.00000000000000	
558.75	-0.0143435329492	0.0428532051968	
! Port Impedance	50.00000000000000	0.00000000000000	
560.0	-0.00693772287315	0.0385872055154	
! Port Impedance	50.00000000000000	0.00000000000000	
561.25	-0.00956881679252	0.0206575581729	
! Port Impedance	50.00000000000000	0.00000000000000	
562.5	-0.0289966754132	0.0257111686433	
! Port Impedance	50.00000000000000	0.00000000000000	
563.75	-0.0234230994175	0.0461270624918	
! Port Impedance	50.00000000000000	0.00000000000000	
565.0	-0.00292445501214	0.0375529767337	
! Port Impedance	50.00000000000000	0.00000000000000	
566.25	-0.0185152722928	0.0165379555792	
! Port Impedance	50.00000000000000	0.00000000000000	
567.5	-0.0381983107926	0.0370603242004	
! Port Impedance	50.00000000000000	0.00000000000000	
568.75	-0.0156208408682	0.0551540440146	
! Port Impedance	50.00000000000000	0.00000000000000	
570.0	0.00209540724248	0.0305267850707	
! Port Impedance	50.00000000000000	0.00000000000000	
571.25	-0.0268216515239	0.0128082499884	
! Port Impedance	50.00000000000000	0.00000000000000	
572.5	-0.04282417549	0.0454874891253	
! Port Impedance	50.00000000000000	0.00000000000000	
573.75	-0.00923904242222	0.058007614941	
! Port Impedance	50.00000000000000	0.00000000000000	
575.0	0.00245177360777	0.0215105653804	
! Port Impedance	50.00000000000000	0.00000000000000	
576.25	-0.037775283007	0.0128033019441	
! Port Impedance	50.00000000000000	0.00000000000000	
577.5	-0.0425750903822	0.0531625117341	
! Port Impedance	50.00000000000000	0.00000000000000	
578.75	-0.00240478463873	0.0580221690173	
! Port Impedance	50.00000000000000	0.00000000000000	
580.0	-0.00293014403884	0.01712727035	
! Port Impedance	50.00000000000000	0.00000000000000	
581.25	-0.04278481767	0.0251481621227	
! Port Impedance	50.00000000000000	0.00000000000000	
582.5	-0.0304460915135	0.0644448568524	
! Port Impedance	50.00000000000000	0.00000000000000	
583.75	0.010706829853	0.0515198903828	
! Port Impedance	50.00000000000000	0.00000000000000	
585.0	-0.00662427506324	0.012474152548	
! Port Impedance	50.00000000000000	0.00000000000000	
586.25	-0.0421434507767	0.0301141249245	
! Port Impedance	50.00000000000000	0.00000000000000	
587.5	-0.0230505670349	0.0674391623881	
! Port Impedance	50.00000000000000	0.00000000000000	
588.75	0.01204868099	0.0472227169696	
! Port Impedance	50.00000000000000	0.00000000000000	
590.0	-0.00303973855575	0.0198572141958	
! Port Impedance	50.00000000000000	0.00000000000000	
591.25	-0.024224507969	0.0359398318532	
! Port Impedance	50.00000000000000	0.00000000000000	
592.5	0.00229890050652	0.053512578634	
! Port Impedance	50.00000000000000	0.00000000000000	
593.75	0.0195139610842	0.0202744827316	
! Port Impedance	50.00000000000000	0.00000000000000	
595.0	-0.0144691663665	-0.00513534267458	
! Port Impedance	50.00000000000000	0.00000000000000	
596.25	-0.0376755512978	0.0285549295804	
! Port Impedance	50.00000000000000	0.00000000000000	
597.5	-0.0118262242617	0.0483206149405	
! Port Impedance	50.00000000000000	0.00000000000000	
598.75	0.0025639998978	0.0178462004664	
! Port Impedance	50.00000000000000	0.00000000000000	
600.0	-0.0301284443023	0.00893706656689	
! Port Impedance	50.00000000000000	0.00000000000000	
601.25	-0.0384221243615	0.0434333758644	
! Port Impedance	50.00000000000000	0.00000000000000	
602.5	-0.00824753285597	0.0506237700889	
! Port Impedance	50.00000000000000	0.00000000000000	
603.75	-0.00359664326057	0.020022038084	
! Port Impedance	50.00000000000000	0.00000000000000	
605.0	-0.0265912759254	0.0195868161192	
! Port Impedance	50.00000000000000	0.00000000000000	
606.25	-0.0263434162749	0.0439647798121	
! Port Impedance	50.00000000000000	0.00000000000000	
607.5	-0.00638089002252	0.0350593931019	
! Port Impedance	50.00000000000000	0.00000000000000	
608.75	-0.0166040596907	0.0152302305481	
! Port Impedance	50.00000000000000	0.00000000000000	
610.0	-0.0380418310251	0.0348737091231	
! Port Impedance	50.00000000000000	0.00000000000000	
611.25	-0.0183483431159	0.0580037027177	
! Port Impedance	50.00000000000000	0.00000000000000	
612.5	0.0048016759344	0.0372689943715	
! Port Impedance	50.00000000000000	0.00000000000000	
613.75	-0.0151710425775	0.0135298614298	
! Port Impedance	50.00000000000000	0.00000000000000	
615.0	-0.0351001730799	0.0385469124934	
! Port Impedance	50.00000000000000	0.00000000000000	
616.25	-0.0100025341505	0.0610592815004	
! Port Impedance	50.00000000000000	0.00000000000000	
617.5	0.0120396202749	0.0315270212734	
! Port Impedance	50.00000000000000	0.00000000000000	
618.75	-0.0107702619035	0.0129039409614	
! Port Impedance	50.00000000000000	0.00000000000000	
620.0	-0.0295254097103	0.0404260126703	
! Port Impedance	50.00000000000000	0.00000000000000	
621.25	0.00203205891665	0.0544351432722	
! Port Impedance	50.00000000000000	0.00000000000000	
622.5	0.0214254270012	0.0197252563538	
! Port Impedance	50.00000000000000	0.00000000000000	
623.75	-0.0127817999534	-0.00352430366452	
! Port Impedance	50.00000000000000	0.00000000000000	
625.0	-0.0359880091719	0.0263005146543	
! Port Impedance	50.00000000000000	0.00000000000000	
626.25	-0.00804648418808	0.048359037678	
! Port Impedance	50.00000000000000	0.00000000000000	
627.5	0.0124319839493	0.0213304689752	
! Port Impedance	50.00000000000000	0.00000000000000	
628.75	-0.011511893411	-0.0027184665328	
! Port Impedance	50.00000000000000	0.00000000000000	
630.0	-0.0364086235089	0.0215779066327	
! Port Impedance	50.00000000000000	0.00000000000000	
631.25	-0.0187674273567	0.0379990530154	
! Port Impedance	50.00000000000000	0.00000000000000	
632.5	-0.00781204362319	0.0172668405826	
! Port Impedance	50.00000000000000	0.00000000000000	
633.75	-0.032629758516	0.0105064277195	
! Port Impedance	50.00000000000000	0.00000000000000	
635.0	-0.0442053293773	0.0370549154129	
! Port Impedance	50.00000000000000	0.00000000000000	
636.25	-0.018790743162	0.0517697963066	
! Port Impedance	50.00000000000000	0.00000000000000	
637.5	-0.00458148445498	0.0335315267916	
! Port Impedance	50.00000000000000	0.00000000000000	
638.75	-0.0202758020201	0.0252628505405	
! Port Impedance	50.00000000000000	0.00000000000000	
640.0	-0.0258567328807	0.0425644094829	
! Port Impedance	50.00000000000000	0.00000000000000	
641.25	-0.00506511224862	0.049123863392	
! Port Impedance	50.00000000000000	0.00000000000000	
642.5	0.00253712319083	0.0291637759393	
! Port Impedance	50.00000000000000	0.00000000000000	
643.75	-0.0158998038142	0.0205856226087	
! Port Impedance	50.00000000000000	0.00000000000000	
645.0	-0.0224380095844	0.0363322337481	
! Port Impedance	50.00000000000000	0.00000000000000	
646.25	-0.00861509713419	0.0407935511344	
! Port Impedance	50.00000000000000	0.00000000000000	
647.5	-0.00363704338374	0.0282864510366	
! Port Impedance	50.00000000000000	0.00000000000000	
648.75	-0.0176449944881	0.0297076043796	
! Port Impedance	50.00000000000000	0.00000000000000	
650.0	-0.0162356890988	0.0431703449995	
! Port Impedance	50.00000000000000	0.00000000000000	
651.25	0.00304611756889	0.0422560746796	
! Port Impedance	50.00000000000000	0.00000000000000	
652.5	0.00575607072421	0.0261274754285	
! Port Impedance	50.00000000000000	0.00000000000000	
653.75	-0.0107880557626	0.0219915162127	
! Port Impedance	50.00000000000000	0.00000000000000	
655.0	-0.0115238398185	0.0334043077777	
! Port Impedance	50.00000000000000	0.00000000000000	
656.25	0.00401071819288	0.0298460478037	
! Port Impedance	50.00000000000000	0.00000000000000	
657.5	0.000430931024462	0.011978590763	
! Port Impedance	50.00000000000000	0.00000000000000	
658.75	-0.0201520016016	0.0122336299158	
! Port Impedance	50.00000000000000	0.00000000000000	
660.0	-0.024118562694	0.0311074977473	
! Port Impedance	50.00000000000000	0.00000000000000	
661.25	-0.00932638615118	0.0365319132606	
! Port Impedance	50.00000000000000	0.00000000000000	
662.5	-0.00569042566836	0.023523661025	
! Port Impedance	50.00000000000000	0.00000000000000	
663.75	-0.0175273592902	0.0238322422433	
! Port Impedance	50.00000000000000	0.00000000000000	
665.0	-0.0156753266984	0.0388315948104	
! Port Impedance	50.00000000000000	0.00000000000000	
666.25	-2.10791639527e-05	0.0360880089143	
! Port Impedance	50.00000000000000	0.00000000000000	
667.5	-0.000869488147987	0.0168906415533	
! Port Impedance	50.00000000000000	0.00000000000000	
668.75	-0.0235351374955	0.0169872150159	
! Port Impedance	50.00000000000000	0.00000000000000	
670.0	-0.0299872651465	0.0374836519001	
! Port Impedance	50.00000000000000	0.00000000000000	
671.25	-0.0107247583175	0.0450239172622	
! Port Impedance	50.00000000000000	0.00000000000000	
672.5	-0.00157913552848	0.0311198813525	
! Port Impedance	50.00000000000000	0.00000000000000	
673.75	-0.015057836361	0.0230260570485	
! Port Impedance	50.00000000000000	0.00000000000000	
675.0	-0.0216076333421	0.0394908047878	
! Port Impedance	50.00000000000000	0.00000000000000	
676.25	-0.00521746089539	0.051765505707	
! Port Impedance	50.00000000000000	0.00000000000000	
677.5	0.0098043886623	0.0368177452554	
! Port Impedance	50.00000000000000	0.00000000000000	
678.75	0.00293860204265	0.0189749719929	
! Port Impedance	50.00000000000000	0.00000000000000	
680.0	-0.0103978574258	0.0238202172264	
! Port Impedance	50.00000000000000	0.00000000000000	
681.25	-0.00687390248351	0.0376337337286	
! Port Impedance	50.00000000000000	0.00000000000000	
682.5	0.00839603808071	0.0321103095488	
! Port Impedance	50.00000000000000	0.00000000000000	
683.75	0.00577390762083	0.0160703820503	
! Port Impedance	50.00000000000000	0.00000000000000	
685.0	-0.00944826810165	0.0167186596186	
! Port Impedance	50.00000000000000	0.00000000000000	
686.25	-0.0117934900326	0.0281983807719	
! Port Impedance	50.00000000000000	0.00000000000000	
687.5	-0.00210178475524	0.0269497707447	
! Port Impedance	50.00000000000000	0.00000000000000	
688.75	-0.000995259941225	0.013544127099	
! Port Impedance	50.00000000000000	0.00000000000000	
690.0	-0.0159228317694	0.0120137036245	
! Port Impedance	50.00000000000000	0.00000000000000	
691.25	-0.024201008715	0.0262011259057	
! Port Impedance	50.00000000000000	0.00000000000000	
692.5	-0.0135973475618	0.0327451244625	
! Port Impedance	50.00000000000000	0.00000000000000	
693.75	-0.00908368669038	0.0246389522036	
! Port Impedance	50.00000000000000	0.00000000000000	
695.0	-0.0146335112637	0.0178433998253	
! Port Impedance	50.00000000000000	0.00000000000000	
696.25	-0.0239014007473	0.025626196655	
! Port Impedance	50.00000000000000	0.00000000000000	
697.5	-0.0194540961557	0.0360210652854	
! Port Impedance	50.00000000000000	0.00000000000000	
698.75	-0.0105310308896	0.0356322969173	
! Port Impedance	50.00000000000000	0.00000000000000	
700.0	-0.0122834034829	0.0311793384752	
! Port Impedance	50.00000000000000	0.00000000000000	
701.25	-0.0124036201326	0.0359897279216	
! Port Impedance	50.00000000000000	0.00000000000000	
702.5	-0.00294781083602	0.0409978402981	
! Port Impedance	50.00000000000000	0.00000000000000	
703.75	0.00487018820928	0.0298746924156	
! Port Impedance	50.00000000000000	0.00000000000000	
705.0	-0.00210827425291	0.0177381646585	
! Port Impedance	50.00000000000000	0.00000000000000	
706.25	-0.018936885069	0.023981437953	
! Port Impedance	50.00000000000000	0.00000000000000	
707.5	-0.0170052472363	0.0447665526164	
! Port Impedance	50.00000000000000	0.00000000000000	
708.75	0.00514296680346	0.0478554157557	
! Port Impedance	50.00000000000000	0.00000000000000	
710.0	0.0127923480011	0.0319442287851	
! Port Impedance	50.00000000000000	0.00000000000000	
711.25	0.00443265038354	0.0237419130338	
! Port Impedance	50.00000000000000	0.00000000000000	
712.5	8.30078711172e-05	0.0284359725216	
! Port Impedance	50.00000000000000	0.00000000000000	
713.75	0.00674540994414	0.0304849726672	
! Port Impedance	50.00000000000000	0.00000000000000	
715.0	0.00933085487591	0.0213519214664	
! Port Impedance	50.00000000000000	0.00000000000000	
716.25	0.00424338554811	0.0107568167124	
! Port Impedance	50.00000000000000	0.00000000000000	
717.5	-0.00423542441761	0.00905650545811	
! Port Impedance	50.00000000000000	0.00000000000000	
718.75	-0.00906415275682	0.0106806754301	
! Port Impedance	50.00000000000000	0.00000000000000	
720.0	-0.0114458699277	0.0114561079285	
! Port Impedance	50.00000000000000	0.00000000000000	
721.25	-0.016695087237	0.0162252030816	
! Port Impedance	50.00000000000000	0.00000000000000	
722.5	-0.0189850252297	0.0242229715152	
! Port Impedance	50.00000000000000	0.00000000000000	
723.75	-0.0122078725013	0.0290607487122	
! Port Impedance	50.00000000000000	0.00000000000000	
725.0	-0.00903882746927	0.0260813276195	
! Port Impedance	50.00000000000000	0.00000000000000	
726.25	-0.0138190957437	0.0253872627445	
! Port Impedance	50.00000000000000	0.00000000000000	
727.5	-0.0131972285992	0.0311354821354	
! Port Impedance	50.00000000000000	0.00000000000000	
728.75	-0.00904853989692	0.0337991873912	
! Port Impedance	50.00000000000000	0.00000000000000	
730.0	-0.00588869521196	0.0270870377728	
! Port Impedance	50.00000000000000	0.00000000000000	
731.25	-0.00892629364267	0.0256857881189	
! Port Impedance	50.00000000000000	0.00000000000000	
732.5	-0.0102780346621	0.0318469133695	
! Port Impedance	50.00000000000000	0.00000000000000	
733.75	-0.00528824072855	0.0353991165017	
! Port Impedance	50.00000000000000	0.00000000000000	
735.0	-0.000154593908169	0.0302820618483	
! Port Impedance	50.00000000000000	0.00000000000000	
736.25	-0.00373943283324	0.0240581151294	
! Port Impedance	50.00000000000000	0.00000000000000	
737.5	-0.00751843898245	0.0298150329588	
! Port Impedance	50.00000000000000	0.00000000000000	
738.75	-0.00525151597559	0.0362180974048	
! Port Impedance	50.00000000000000	0.00000000000000	
740.0	0.00247635748396	0.0337208581338	
! Port Impedance	50.00000000000000	0.00000000000000	
741.25	0.00740993354868	0.0270094005736	
! Port Impedance	50.00000000000000	0.00000000000000	
742.5	0.00317056557262	0.0257879218616	
! Port Impedance	50.00000000000000	0.00000000000000	
743.75	0.00174063060799	0.0289922964437	
! Port Impedance	50.00000000000000	0.00000000000000	
745.0	0.00423315645386	0.0319499231862	
! Port Impedance	50.00000000000000	0.00000000000000	
746.25	0.0118806209795	0.0254559957095	
! Port Impedance	50.00000000000000	0.00000000000000	
747.5	0.0101011068224	0.0194499751484	
! Port Impedance	50.00000000000000	0.00000000000000	
748.75	0.00642313607645	0.0201758645351	
! Port Impedance	50.00000000000000	0.00000000000000	
750.0	0.00316275635136	0.0173852842832	
! Port Impedance	50.00000000000000	0.00000000000000	
