!Created with mwavepy.
# GHz S RI R 50.0 
!freq	ReS11	ImS11	
500.0	0.0464453570558	-0.205551581251	
! Port Impedance	50.00000000000000	0.00000000000000	
501.25	0.038496585403	-0.197936459438	
! Port Impedance	50.00000000000000	0.00000000000000	
502.5	0.041687023609	-0.205838854077	
! Port Impedance	50.00000000000000	0.00000000000000	
503.75	0.0443671118838	-0.206613347393	
! Port Impedance	50.00000000000000	0.00000000000000	
505.0	0.0409249744888	-0.208484066831	
! Port Impedance	50.00000000000000	0.00000000000000	
506.25	0.0520022536477	-0.206397867559	
! Port Impedance	50.00000000000000	0.00000000000000	
507.5	0.0436457072105	-0.205902434464	
! Port Impedance	50.00000000000000	0.00000000000000	
508.75	0.0462261957442	-0.208855625713	
! Port Impedance	50.00000000000000	0.00000000000000	
510.0	0.0457920090591	-0.207912237621	
! Port Impedance	50.00000000000000	0.00000000000000	
511.25	0.0470940470081	-0.20986065402	
! Port Impedance	50.00000000000000	0.00000000000000	
512.5	0.047155467389	-0.211376288483	
! Port Impedance	50.00000000000000	0.00000000000000	
513.75	0.0441047817123	-0.20804715382	
! Port Impedance	50.00000000000000	0.00000000000000	
515.0	0.0493986996291	-0.208053166525	
! Port Impedance	50.00000000000000	0.00000000000000	
516.25	0.0489078144001	-0.203569991839	
! Port Impedance	50.00000000000000	0.00000000000000	
517.5	0.0449429595565	-0.203300502266	
! Port Impedance	50.00000000000000	0.00000000000000	
518.75	0.0473652992924	-0.205817886121	
! Port Impedance	50.00000000000000	0.00000000000000	
520.0	0.0452898789696	-0.2055778882	
! Port Impedance	50.00000000000000	0.00000000000000	
521.25	0.0477868026343	-0.206813781104	
! Port Impedance	50.00000000000000	0.00000000000000	
522.5	0.0474104464313	-0.204227687586	
! Port Impedance	50.00000000000000	0.00000000000000	
523.75	0.0431566522749	-0.203698024823	
! Port Impedance	50.00000000000000	0.00000000000000	
525.0	0.0474381512284	-0.206433078396	
! Port Impedance	50.00000000000000	0.00000000000000	
526.25	0.0466451020544	-0.206087782355	
! Port Impedance	50.00000000000000	0.00000000000000	
527.5	0.0474313418137	-0.205299599576	
! Port Impedance	50.00000000000000	0.00000000000000	
528.75	0.0461947228167	-0.205133178094	
! Port Impedance	50.00000000000000	0.00000000000000	
530.0	0.0470004774778	-0.205714894141	
! Port Impedance	50.00000000000000	0.00000000000000	
531.25	0.0484318088384	-0.205070699561	
! Port Impedance	50.00000000000000	0.00000000000000	
532.5	0.0484317036886	-0.206308925099	
! Port Impedance	50.00000000000000	0.00000000000000	
533.75	0.0475057099303	-0.207765653896	
! Port Impedance	50.00000000000000	0.00000000000000	
535.0	0.0472344755883	-0.208473098056	
! Port Impedance	50.00000000000000	0.00000000000000	
536.25	0.0472188126706	-0.208348969167	
! Port Impedance	50.00000000000000	0.00000000000000	
537.5	0.0473542071795	-0.20818968908	
! Port Impedance	50.00000000000000	0.00000000000000	
538.75	0.0459185259164	-0.208939316385	
! Port Impedance	50.00000000000000	0.00000000000000	
540.0	0.044248882632	-0.209237071219	
! Port Impedance	50.00000000000000	0.00000000000000	
541.25	0.0419160871187	-0.208716786053	
! Port Impedance	50.00000000000000	0.00000000000000	
542.5	0.0418933170908	-0.206407653069	
! Port Impedance	50.00000000000000	0.00000000000000	
543.75	0.0431473189369	-0.205052097523	
! Port Impedance	50.00000000000000	0.00000000000000	
545.0	0.0441410721696	-0.206002786997	
! Port Impedance	50.00000000000000	0.00000000000000	
546.25	0.0454433422947	-0.207001874708	
! Port Impedance	50.00000000000000	0.00000000000000	
547.5	0.0450585254046	-0.206048702697	
! Port Impedance	50.00000000000000	0.00000000000000	
548.75	0.044722884653	-0.206751403442	
! Port Impedance	50.00000000000000	0.00000000000000	
550.0	0.0458228803508	-0.207849342424	
! Port Impedance	50.00000000000000	0.00000000000000	
551.25	0.0460484750926	-0.208981171668	
! Port Impedance	50.00000000000000	0.00000000000000	
552.5	0.0426050846775	-0.209783184801	
! Port Impedance	50.00000000000000	0.00000000000000	
553.75	0.042710786179	-0.206970087052	
! Port Impedance	50.00000000000000	0.00000000000000	
555.0	0.0436388288095	-0.206121551977	
! Port Impedance	50.00000000000000	0.00000000000000	
556.25	0.0434310584052	-0.204710413808	
! Port Impedance	50.00000000000000	0.00000000000000	
557.5	0.0437055758149	-0.203020623081	
! Port Impedance	50.00000000000000	0.00000000000000	
558.75	0.0459654819267	-0.204024256326	
! Port Impedance	50.00000000000000	0.00000000000000	
560.0	0.0448401151204	-0.204117310926	
! Port Impedance	50.00000000000000	0.00000000000000	
561.25	0.0456993460816	-0.205879776904	
! Port Impedance	50.00000000000000	0.00000000000000	
562.5	0.0445126047482	-0.207504332731	
! Port Impedance	50.00000000000000	0.00000000000000	
563.75	0.0437543163028	-0.208018530815	
! Port Impedance	50.00000000000000	0.00000000000000	
565.0	0.0477850409455	-0.207598874134	
! Port Impedance	50.00000000000000	0.00000000000000	
566.25	0.0433486812964	-0.207398438749	
! Port Impedance	50.00000000000000	0.00000000000000	
567.5	0.0432164311004	-0.20746694748	
! Port Impedance	50.00000000000000	0.00000000000000	
568.75	0.0427014248585	-0.206643305661	
! Port Impedance	50.00000000000000	0.00000000000000	
570.0	0.0417529652058	-0.204884603386	
! Port Impedance	50.00000000000000	0.00000000000000	
571.25	0.043813106862	-0.206690278796	
! Port Impedance	50.00000000000000	0.00000000000000	
572.5	0.0434164809945	-0.206874777229	
! Port Impedance	50.00000000000000	0.00000000000000	
573.75	0.0399825219406	-0.210040271965	
! Port Impedance	50.00000000000000	0.00000000000000	
575.0	0.0397145755839	-0.210161354832	
! Port Impedance	50.00000000000000	0.00000000000000	
576.25	0.0395928149066	-0.209831246677	
! Port Impedance	50.00000000000000	0.00000000000000	
577.5	0.0351181569965	-0.209678275803	
! Port Impedance	50.00000000000000	0.00000000000000	
578.75	0.035262851405	-0.206854109202	
! Port Impedance	50.00000000000000	0.00000000000000	
580.0	0.038401066608	-0.204850937223	
! Port Impedance	50.00000000000000	0.00000000000000	
581.25	0.0404221488887	-0.204938221729	
! Port Impedance	50.00000000000000	0.00000000000000	
582.5	0.039876123744	-0.20670193782	
! Port Impedance	50.00000000000000	0.00000000000000	
583.75	0.0378997602188	-0.208333395628	
! Port Impedance	50.00000000000000	0.00000000000000	
585.0	0.0384125354202	-0.20801226388	
! Port Impedance	50.00000000000000	0.00000000000000	
586.25	0.0369626477313	-0.208077438874	
! Port Impedance	50.00000000000000	0.00000000000000	
587.5	0.0322239434646	-0.208549977755	
! Port Impedance	50.00000000000000	0.00000000000000	
588.75	0.0341265868346	-0.205512247671	
! Port Impedance	50.00000000000000	0.00000000000000	
590.0	0.0368991585058	-0.204649446662	
! Port Impedance	50.00000000000000	0.00000000000000	
591.25	0.0373391354843	-0.206847128802	
! Port Impedance	50.00000000000000	0.00000000000000	
592.5	0.035545723976	-0.207565376915	
! Port Impedance	50.00000000000000	0.00000000000000	
593.75	0.0336818450897	-0.206766620897	
! Port Impedance	50.00000000000000	0.00000000000000	
595.0	0.0343678572615	-0.205603285619	
! Port Impedance	50.00000000000000	0.00000000000000	
596.25	0.03704291836	-0.204958209007	
! Port Impedance	50.00000000000000	0.00000000000000	
597.5	0.0350649663965	-0.2043268523	
! Port Impedance	50.00000000000000	0.00000000000000	
598.75	0.0365135479065	-0.203710272521	
! Port Impedance	50.00000000000000	0.00000000000000	
600.0	0.0362678119208	-0.207117960634	
! Port Impedance	50.00000000000000	0.00000000000000	
601.25	0.0338082193489	-0.208845803064	
! Port Impedance	50.00000000000000	0.00000000000000	
602.5	0.0295945641905	-0.20665623053	
! Port Impedance	50.00000000000000	0.00000000000000	
603.75	0.0276164150634	-0.203223354139	
! Port Impedance	50.00000000000000	0.00000000000000	
605.0	0.0308177036426	-0.204060000573	
! Port Impedance	50.00000000000000	0.00000000000000	
606.25	0.0328225592765	-0.203817732536	
! Port Impedance	50.00000000000000	0.00000000000000	
607.5	0.0334865221059	-0.20260388104	
! Port Impedance	50.00000000000000	0.00000000000000	
608.75	0.0326797448979	-0.204475964321	
! Port Impedance	50.00000000000000	0.00000000000000	
610.0	0.0312619142531	-0.205385635986	
! Port Impedance	50.00000000000000	0.00000000000000	
611.25	0.0295441959864	-0.204512091462	
! Port Impedance	50.00000000000000	0.00000000000000	
612.5	0.0294103443583	-0.201835510909	
! Port Impedance	50.00000000000000	0.00000000000000	
613.75	0.0293098109446	-0.202666975656	
! Port Impedance	50.00000000000000	0.00000000000000	
615.0	0.028642412581	-0.20482209109	
! Port Impedance	50.00000000000000	0.00000000000000	
616.25	0.0304143353388	-0.203438070519	
! Port Impedance	50.00000000000000	0.00000000000000	
617.5	0.028974922096	-0.20261797737	
! Port Impedance	50.00000000000000	0.00000000000000	
618.75	0.0281523242045	-0.202443437399	
! Port Impedance	50.00000000000000	0.00000000000000	
620.0	0.0274280922204	-0.20178578821	
! Port Impedance	50.00000000000000	0.00000000000000	
621.25	0.0311987098712	-0.201977416872	
! Port Impedance	50.00000000000000	0.00000000000000	
622.5	0.0298707112325	-0.203626000066	
! Port Impedance	50.00000000000000	0.00000000000000	
623.75	0.0252769001972	-0.204437625803	
! Port Impedance	50.00000000000000	0.00000000000000	
625.0	0.0261818169619	-0.201569084624	
! Port Impedance	50.00000000000000	0.00000000000000	
626.25	0.0279112703634	-0.199706849291	
! Port Impedance	50.00000000000000	0.00000000000000	
627.5	0.0289003015232	-0.200375728948	
! Port Impedance	50.00000000000000	0.00000000000000	
628.75	0.0284761268138	-0.201220743669	
! Port Impedance	50.00000000000000	0.00000000000000	
630.0	0.0280681484693	-0.201592839089	
! Port Impedance	50.00000000000000	0.00000000000000	
631.25	0.0254959518335	-0.201747749055	
! Port Impedance	50.00000000000000	0.00000000000000	
632.5	0.0218008784269	-0.20015513172	
! Port Impedance	50.00000000000000	0.00000000000000	
633.75	0.0255992847119	-0.1990588225	
! Port Impedance	50.00000000000000	0.00000000000000	
635.0	0.0261130976929	-0.199226920694	
! Port Impedance	50.00000000000000	0.00000000000000	
636.25	0.0257835342977	-0.200008118744	
! Port Impedance	50.00000000000000	0.00000000000000	
637.5	0.0254740217271	-0.20045864601	
! Port Impedance	50.00000000000000	0.00000000000000	
638.75	0.0255002768648	-0.199997215853	
! Port Impedance	50.00000000000000	0.00000000000000	
640.0	0.0247548418657	-0.198909181279	
! Port Impedance	50.00000000000000	0.00000000000000	
641.25	0.0243734716496	-0.198837783434	
! Port Impedance	50.00000000000000	0.00000000000000	
642.5	0.0238762618748	-0.199043246759	
! Port Impedance	50.00000000000000	0.00000000000000	
643.75	0.0233576359271	-0.198708803191	
! Port Impedance	50.00000000000000	0.00000000000000	
645.0	0.0238669959625	-0.197264920809	
! Port Impedance	50.00000000000000	0.00000000000000	
646.25	0.0229433824334	-0.197960275752	
! Port Impedance	50.00000000000000	0.00000000000000	
647.5	0.0234116669366	-0.198463054306	
! Port Impedance	50.00000000000000	0.00000000000000	
648.75	0.0229220338993	-0.198146682145	
! Port Impedance	50.00000000000000	0.00000000000000	
650.0	0.0214640911693	-0.197861272437	
! Port Impedance	50.00000000000000	0.00000000000000	
651.25	0.0206959430671	-0.196559196205	
! Port Impedance	50.00000000000000	0.00000000000000	
652.5	0.0226738200817	-0.196190710345	
! Port Impedance	50.00000000000000	0.00000000000000	
653.75	0.022242236187	-0.196345201018	
! Port Impedance	50.00000000000000	0.00000000000000	
655.0	0.0208129893554	-0.198266853208	
! Port Impedance	50.00000000000000	0.00000000000000	
656.25	0.0195959155973	-0.197172403702	
! Port Impedance	50.00000000000000	0.00000000000000	
657.5	0.0206695550987	-0.195999674454	
! Port Impedance	50.00000000000000	0.00000000000000	
658.75	0.0209788334337	-0.195231918232	
! Port Impedance	50.00000000000000	0.00000000000000	
660.0	0.019987147485	-0.19434064932	
! Port Impedance	50.00000000000000	0.00000000000000	
661.25	0.0204549021991	-0.19542437429	
! Port Impedance	50.00000000000000	0.00000000000000	
662.5	0.0203808099387	-0.194789583087	
! Port Impedance	50.00000000000000	0.00000000000000	
663.75	0.0203114306849	-0.194418055101	
! Port Impedance	50.00000000000000	0.00000000000000	
665.0	0.0211729516256	-0.194836735984	
! Port Impedance	50.00000000000000	0.00000000000000	
666.25	0.0198604443331	-0.19415345918	
! Port Impedance	50.00000000000000	0.00000000000000	
667.5	0.0194644760517	-0.193151906946	
! Port Impedance	50.00000000000000	0.00000000000000	
668.75	0.0180638294103	-0.194239898716	
! Port Impedance	50.00000000000000	0.00000000000000	
670.0	0.0160945031537	-0.194239592013	
! Port Impedance	50.00000000000000	0.00000000000000	
671.25	0.0144304690988	-0.19309237185	
! Port Impedance	50.00000000000000	0.00000000000000	
672.5	0.0155484029848	-0.192639224524	
! Port Impedance	50.00000000000000	0.00000000000000	
673.75	0.0155483752483	-0.192994087447	
! Port Impedance	50.00000000000000	0.00000000000000	
675.0	0.0155981595447	-0.19267222558	
! Port Impedance	50.00000000000000	0.00000000000000	
676.25	0.0151419795084	-0.191864832994	
! Port Impedance	50.00000000000000	0.00000000000000	
677.5	0.0157107356479	-0.190761730515	
! Port Impedance	50.00000000000000	0.00000000000000	
678.75	0.0153533387063	-0.192375448304	
! Port Impedance	50.00000000000000	0.00000000000000	
680.0	0.0150313476305	-0.192002048066	
! Port Impedance	50.00000000000000	0.00000000000000	
681.25	0.0140816897677	-0.190649700494	
! Port Impedance	50.00000000000000	0.00000000000000	
682.5	0.0146715709414	-0.189753236255	
! Port Impedance	50.00000000000000	0.00000000000000	
683.75	0.0147044760024	-0.189793617152	
! Port Impedance	50.00000000000000	0.00000000000000	
685.0	0.0147387722176	-0.19040598102	
! Port Impedance	50.00000000000000	0.00000000000000	
686.25	0.0143687433321	-0.19094802176	
! Port Impedance	50.00000000000000	0.00000000000000	
687.5	0.0122145033959	-0.189906549828	
! Port Impedance	50.00000000000000	0.00000000000000	
688.75	0.0137784330764	-0.188767241095	
! Port Impedance	50.00000000000000	0.00000000000000	
690.0	0.0140949811222	-0.18901819323	
! Port Impedance	50.00000000000000	0.00000000000000	
691.25	0.0123035752909	-0.190251796157	
! Port Impedance	50.00000000000000	0.00000000000000	
692.5	0.008182556007	-0.188907225655	
! Port Impedance	50.00000000000000	0.00000000000000	
693.75	0.00396231123265	-0.186163616822	
! Port Impedance	50.00000000000000	0.00000000000000	
695.0	0.0101962756187	-0.187679166603	
! Port Impedance	50.00000000000000	0.00000000000000	
696.25	0.0117734191154	-0.188874708833	
! Port Impedance	50.00000000000000	0.00000000000000	
697.5	0.00923718803052	-0.189062380099	
! Port Impedance	50.00000000000000	0.00000000000000	
698.75	0.00734650158275	-0.187120570151	
! Port Impedance	50.00000000000000	0.00000000000000	
700.0	0.00927495538079	-0.18629168294	
! Port Impedance	50.00000000000000	0.00000000000000	
701.25	0.0100331506528	-0.187219866752	
! Port Impedance	50.00000000000000	0.00000000000000	
702.5	0.00865546032421	-0.186711044313	
! Port Impedance	50.00000000000000	0.00000000000000	
703.75	0.00675095338943	-0.185810840033	
! Port Impedance	50.00000000000000	0.00000000000000	
705.0	0.00920467318362	-0.186040202793	
! Port Impedance	50.00000000000000	0.00000000000000	
706.25	0.0097220885227	-0.185138262547	
! Port Impedance	50.00000000000000	0.00000000000000	
707.5	0.00895941423707	-0.185536557249	
! Port Impedance	50.00000000000000	0.00000000000000	
708.75	0.00840662374504	-0.185184389862	
! Port Impedance	50.00000000000000	0.00000000000000	
710.0	0.00910024423835	-0.183918834405	
! Port Impedance	50.00000000000000	0.00000000000000	
711.25	0.0096804993	-0.184002392066	
! Port Impedance	50.00000000000000	0.00000000000000	
712.5	0.00827323216349	-0.185254625907	
! Port Impedance	50.00000000000000	0.00000000000000	
713.75	0.00544144577154	-0.184301837091	
! Port Impedance	50.00000000000000	0.00000000000000	
715.0	0.00372455911842	-0.181393057321	
! Port Impedance	50.00000000000000	0.00000000000000	
716.25	0.00583684221679	-0.18222025795	
! Port Impedance	50.00000000000000	0.00000000000000	
717.5	0.00591985427282	-0.184061304348	
! Port Impedance	50.00000000000000	0.00000000000000	
718.75	0.00477151249233	-0.184643061951	
! Port Impedance	50.00000000000000	0.00000000000000	
720.0	0.00626432250726	-0.182627952975	
! Port Impedance	50.00000000000000	0.00000000000000	
721.25	0.00660256514076	-0.18187110519	
! Port Impedance	50.00000000000000	0.00000000000000	
722.5	0.00664615152054	-0.182437951266	
! Port Impedance	50.00000000000000	0.00000000000000	
723.75	0.0029057803849	-0.183771513231	
! Port Impedance	50.00000000000000	0.00000000000000	
725.0	0.00336069088209	-0.180982341053	
! Port Impedance	50.00000000000000	0.00000000000000	
726.25	0.0042450936543	-0.179679721095	
! Port Impedance	50.00000000000000	0.00000000000000	
727.5	0.00450030304556	-0.18059293238	
! Port Impedance	50.00000000000000	0.00000000000000	
728.75	0.00150053143174	-0.182303925664	
! Port Impedance	50.00000000000000	0.00000000000000	
730.0	6.44427249862e-05	-0.181656546448	
! Port Impedance	50.00000000000000	0.00000000000000	
731.25	0.00255839673917	-0.177546426522	
! Port Impedance	50.00000000000000	0.00000000000000	
732.5	0.00396846399652	-0.179173764333	
! Port Impedance	50.00000000000000	0.00000000000000	
733.75	0.00233572182606	-0.181758158947	
! Port Impedance	50.00000000000000	0.00000000000000	
735.0	-0.000362237815282	-0.177993498031	
! Port Impedance	50.00000000000000	0.00000000000000	
736.25	0.00237663948121	-0.177122861251	
! Port Impedance	50.00000000000000	0.00000000000000	
737.5	0.00274666663648	-0.178846908555	
! Port Impedance	50.00000000000000	0.00000000000000	
738.75	-0.000346002268798	-0.178702936697	
! Port Impedance	50.00000000000000	0.00000000000000	
740.0	-6.36160999885e-05	-0.177505325936	
! Port Impedance	50.00000000000000	0.00000000000000	
741.25	0.00235749248807	-0.177140143809	
! Port Impedance	50.00000000000000	0.00000000000000	
742.5	0.00306205802127	-0.176781545922	
! Port Impedance	50.00000000000000	0.00000000000000	
743.75	0.00171034635753	-0.178753354124	
! Port Impedance	50.00000000000000	0.00000000000000	
745.0	-0.00107105251099	-0.176191401286	
! Port Impedance	50.00000000000000	0.00000000000000	
746.25	0.00214542613256	-0.172509457874	
! Port Impedance	50.00000000000000	0.00000000000000	
747.5	0.00174207938624	-0.175104609457	
! Port Impedance	50.00000000000000	0.00000000000000	
748.75	-0.000767172737356	-0.176539115784	
! Port Impedance	50.00000000000000	0.00000000000000	
750.0	-0.00296831663951	-0.174633283513	
! Port Impedance	50.00000000000000	0.00000000000000	
