!Created with mwavepy.
# GHz S RI R 50.0 
!freq	ReS11	ImS11	
500.0	0.0455447253326	-0.20962451458	
! Port Impedance	50.00000000000000	0.00000000000000	
501.25	0.0539335703893	-0.200195293062	
! Port Impedance	50.00000000000000	0.00000000000000	
502.5	0.0340231310921	-0.194622116809	
! Port Impedance	50.00000000000000	0.00000000000000	
503.75	0.0391366172408	-0.206333388669	
! Port Impedance	50.00000000000000	0.00000000000000	
505.0	0.0430819409029	-0.210818483192	
! Port Impedance	50.00000000000000	0.00000000000000	
506.25	0.0471128786105	-0.205848913331	
! Port Impedance	50.00000000000000	0.00000000000000	
507.5	0.0436024073346	-0.208581560451	
! Port Impedance	50.00000000000000	0.00000000000000	
508.75	0.0405210726642	-0.211799929733	
! Port Impedance	50.00000000000000	0.00000000000000	
510.0	0.0491469070317	-0.212451221779	
! Port Impedance	50.00000000000000	0.00000000000000	
511.25	0.0452240614051	-0.213850219315	
! Port Impedance	50.00000000000000	0.00000000000000	
512.5	0.0413167386144	-0.208243956145	
! Port Impedance	50.00000000000000	0.00000000000000	
513.75	0.0442155108043	-0.208163157591	
! Port Impedance	50.00000000000000	0.00000000000000	
515.0	0.0437972129492	-0.20595667617	
! Port Impedance	50.00000000000000	0.00000000000000	
516.25	0.0464996147611	-0.204140574286	
! Port Impedance	50.00000000000000	0.00000000000000	
517.5	0.0463372704452	-0.203798885819	
! Port Impedance	50.00000000000000	0.00000000000000	
518.75	0.0474113551154	-0.206016240099	
! Port Impedance	50.00000000000000	0.00000000000000	
520.0	0.0460730961625	-0.205855292963	
! Port Impedance	50.00000000000000	0.00000000000000	
521.25	0.0447610125776	-0.20814106864	
! Port Impedance	50.00000000000000	0.00000000000000	
522.5	0.0448573488077	-0.205286298924	
! Port Impedance	50.00000000000000	0.00000000000000	
523.75	0.0454707516707	-0.200187021013	
! Port Impedance	50.00000000000000	0.00000000000000	
525.0	0.0452491099714	-0.203379042631	
! Port Impedance	50.00000000000000	0.00000000000000	
526.25	0.0450367252754	-0.20517867509	
! Port Impedance	50.00000000000000	0.00000000000000	
527.5	0.0454950947664	-0.204905194462	
! Port Impedance	50.00000000000000	0.00000000000000	
528.75	0.0433568095656	-0.203823684139	
! Port Impedance	50.00000000000000	0.00000000000000	
530.0	0.0455925560483	-0.204589838156	
! Port Impedance	50.00000000000000	0.00000000000000	
531.25	0.0484974296867	-0.205354714185	
! Port Impedance	50.00000000000000	0.00000000000000	
532.5	0.0482785545296	-0.206591604144	
! Port Impedance	50.00000000000000	0.00000000000000	
533.75	0.0465367840577	-0.208756046336	
! Port Impedance	50.00000000000000	0.00000000000000	
535.0	0.0452563748336	-0.209134339403	
! Port Impedance	50.00000000000000	0.00000000000000	
536.25	0.0463244712158	-0.2080311888	
! Port Impedance	50.00000000000000	0.00000000000000	
537.5	0.0463029471641	-0.208520324039	
! Port Impedance	50.00000000000000	0.00000000000000	
538.75	0.0453256593261	-0.209943130126	
! Port Impedance	50.00000000000000	0.00000000000000	
540.0	0.0430573616402	-0.209968278652	
! Port Impedance	50.00000000000000	0.00000000000000	
541.25	0.0404437970243	-0.209147825236	
! Port Impedance	50.00000000000000	0.00000000000000	
542.5	0.0417234081196	-0.206301985792	
! Port Impedance	50.00000000000000	0.00000000000000	
543.75	0.0422587411144	-0.204101417869	
! Port Impedance	50.00000000000000	0.00000000000000	
545.0	0.0436104563918	-0.205811347823	
! Port Impedance	50.00000000000000	0.00000000000000	
546.25	0.0449017623302	-0.207580430449	
! Port Impedance	50.00000000000000	0.00000000000000	
547.5	0.0444952232636	-0.20619313279	
! Port Impedance	50.00000000000000	0.00000000000000	
548.75	0.0447273921099	-0.20672080737	
! Port Impedance	50.00000000000000	0.00000000000000	
550.0	0.0463652442593	-0.207953032324	
! Port Impedance	50.00000000000000	0.00000000000000	
551.25	0.0466672543795	-0.209946446318	
! Port Impedance	50.00000000000000	0.00000000000000	
552.5	0.0429097442586	-0.211025143062	
! Port Impedance	50.00000000000000	0.00000000000000	
553.75	0.0412104614833	-0.209933032884	
! Port Impedance	50.00000000000000	0.00000000000000	
555.0	0.0423570353058	-0.209099964649	
! Port Impedance	50.00000000000000	0.00000000000000	
556.25	0.0421290730328	-0.20760191318	
! Port Impedance	50.00000000000000	0.00000000000000	
557.5	0.038380781057	-0.205983945516	
! Port Impedance	50.00000000000000	0.00000000000000	
558.75	0.0412353023545	-0.204426131781	
! Port Impedance	50.00000000000000	0.00000000000000	
560.0	0.0438650608268	-0.204239000392	
! Port Impedance	50.00000000000000	0.00000000000000	
561.25	0.044777287302	-0.206268868676	
! Port Impedance	50.00000000000000	0.00000000000000	
562.5	0.0434355986785	-0.208544783251	
! Port Impedance	50.00000000000000	0.00000000000000	
563.75	0.0416467228621	-0.209301855882	
! Port Impedance	50.00000000000000	0.00000000000000	
565.0	0.0436645489796	-0.208335954947	
! Port Impedance	50.00000000000000	0.00000000000000	
566.25	0.0419565703645	-0.208317289541	
! Port Impedance	50.00000000000000	0.00000000000000	
567.5	0.040449613194	-0.208945931989	
! Port Impedance	50.00000000000000	0.00000000000000	
568.75	0.040741194053	-0.20694763932	
! Port Impedance	50.00000000000000	0.00000000000000	
570.0	0.0402382005073	-0.205018326153	
! Port Impedance	50.00000000000000	0.00000000000000	
571.25	0.0431029198997	-0.206203075731	
! Port Impedance	50.00000000000000	0.00000000000000	
572.5	0.0429772232545	-0.207434372015	
! Port Impedance	50.00000000000000	0.00000000000000	
573.75	0.0398769017858	-0.210323071797	
! Port Impedance	50.00000000000000	0.00000000000000	
575.0	0.0396664749821	-0.210241121681	
! Port Impedance	50.00000000000000	0.00000000000000	
576.25	0.0394646216721	-0.210047791094	
! Port Impedance	50.00000000000000	0.00000000000000	
577.5	0.0347559974696	-0.210212889554	
! Port Impedance	50.00000000000000	0.00000000000000	
578.75	0.0351797027459	-0.20689281874	
! Port Impedance	50.00000000000000	0.00000000000000	
580.0	0.0377923635633	-0.205372994519	
! Port Impedance	50.00000000000000	0.00000000000000	
581.25	0.0399592169895	-0.20546751538	
! Port Impedance	50.00000000000000	0.00000000000000	
582.5	0.0400264623419	-0.206966835986	
! Port Impedance	50.00000000000000	0.00000000000000	
583.75	0.0378382336863	-0.208415215411	
! Port Impedance	50.00000000000000	0.00000000000000	
585.0	0.0381674491483	-0.20864056679	
! Port Impedance	50.00000000000000	0.00000000000000	
586.25	0.0367632259151	-0.208415123512	
! Port Impedance	50.00000000000000	0.00000000000000	
587.5	0.0324740639999	-0.208964051082	
! Port Impedance	50.00000000000000	0.00000000000000	
588.75	0.0348370910118	-0.205953119074	
! Port Impedance	50.00000000000000	0.00000000000000	
590.0	0.0370564494712	-0.204924612971	
! Port Impedance	50.00000000000000	0.00000000000000	
591.25	0.0370079816485	-0.206848539017	
! Port Impedance	50.00000000000000	0.00000000000000	
592.5	0.0352905926826	-0.207778430395	
! Port Impedance	50.00000000000000	0.00000000000000	
593.75	0.0340599397046	-0.207076255519	
! Port Impedance	50.00000000000000	0.00000000000000	
595.0	0.0343942485961	-0.205895655355	
! Port Impedance	50.00000000000000	0.00000000000000	
596.25	0.0375466796596	-0.205005898652	
! Port Impedance	50.00000000000000	0.00000000000000	
597.5	0.0346684945751	-0.204194525339	
! Port Impedance	50.00000000000000	0.00000000000000	
598.75	0.0360679774721	-0.204206151365	
! Port Impedance	50.00000000000000	0.00000000000000	
600.0	0.0358855474451	-0.207197638384	
! Port Impedance	50.00000000000000	0.00000000000000	
601.25	0.0334188114071	-0.209974929466	
! Port Impedance	50.00000000000000	0.00000000000000	
602.5	0.0298660387551	-0.206850723641	
! Port Impedance	50.00000000000000	0.00000000000000	
603.75	0.0279283696692	-0.203765823602	
! Port Impedance	50.00000000000000	0.00000000000000	
605.0	0.0308017516063	-0.20433216928	
! Port Impedance	50.00000000000000	0.00000000000000	
606.25	0.0327902133897	-0.204170780466	
! Port Impedance	50.00000000000000	0.00000000000000	
607.5	0.0333059634966	-0.202955975852	
! Port Impedance	50.00000000000000	0.00000000000000	
608.75	0.0328146770663	-0.20466755979	
! Port Impedance	50.00000000000000	0.00000000000000	
610.0	0.0318008126496	-0.205374152913	
! Port Impedance	50.00000000000000	0.00000000000000	
611.25	0.0302124017044	-0.205043750482	
! Port Impedance	50.00000000000000	0.00000000000000	
612.5	0.0304623545269	-0.202787278724	
! Port Impedance	50.00000000000000	0.00000000000000	
613.75	0.0283337530447	-0.202735212174	
! Port Impedance	50.00000000000000	0.00000000000000	
615.0	0.0284739185236	-0.205009560195	
! Port Impedance	50.00000000000000	0.00000000000000	
616.25	0.0305488248192	-0.20373371326	
! Port Impedance	50.00000000000000	0.00000000000000	
617.5	0.0293077338489	-0.20292730816	
! Port Impedance	50.00000000000000	0.00000000000000	
618.75	0.0286565652174	-0.202933215326	
! Port Impedance	50.00000000000000	0.00000000000000	
620.0	0.0272455097636	-0.201825241352	
! Port Impedance	50.00000000000000	0.00000000000000	
621.25	0.0307780303993	-0.202204539616	
! Port Impedance	50.00000000000000	0.00000000000000	
622.5	0.0294686282858	-0.203899522204	
! Port Impedance	50.00000000000000	0.00000000000000	
623.75	0.0256034888398	-0.204187550489	
! Port Impedance	50.00000000000000	0.00000000000000	
625.0	0.0261487573088	-0.202041951139	
! Port Impedance	50.00000000000000	0.00000000000000	
626.25	0.0278020666687	-0.200327911138	
! Port Impedance	50.00000000000000	0.00000000000000	
627.5	0.0285076150302	-0.200478958564	
! Port Impedance	50.00000000000000	0.00000000000000	
628.75	0.0285607391165	-0.201329325941	
! Port Impedance	50.00000000000000	0.00000000000000	
630.0	0.028093122149	-0.202596149879	
! Port Impedance	50.00000000000000	0.00000000000000	
631.25	0.0254936632992	-0.202085203829	
! Port Impedance	50.00000000000000	0.00000000000000	
632.5	0.0226852112246	-0.200479511053	
! Port Impedance	50.00000000000000	0.00000000000000	
633.75	0.0255113678535	-0.199463923042	
! Port Impedance	50.00000000000000	0.00000000000000	
635.0	0.0263069720493	-0.199671285001	
! Port Impedance	50.00000000000000	0.00000000000000	
636.25	0.0259908480611	-0.200007784439	
! Port Impedance	50.00000000000000	0.00000000000000	
637.5	0.0252767259779	-0.200846313556	
! Port Impedance	50.00000000000000	0.00000000000000	
638.75	0.0257682971635	-0.199982402991	
! Port Impedance	50.00000000000000	0.00000000000000	
640.0	0.0250004877659	-0.1991102742	
! Port Impedance	50.00000000000000	0.00000000000000	
641.25	0.0248083094203	-0.199282771525	
! Port Impedance	50.00000000000000	0.00000000000000	
642.5	0.0241689171653	-0.199082872619	
! Port Impedance	50.00000000000000	0.00000000000000	
643.75	0.0232940343197	-0.198979744288	
! Port Impedance	50.00000000000000	0.00000000000000	
645.0	0.0236545255298	-0.19801592566	
! Port Impedance	50.00000000000000	0.00000000000000	
646.25	0.0225155498258	-0.198236155371	
! Port Impedance	50.00000000000000	0.00000000000000	
647.5	0.0233069649693	-0.198645657656	
! Port Impedance	50.00000000000000	0.00000000000000	
648.75	0.0229425125251	-0.1982656626	
! Port Impedance	50.00000000000000	0.00000000000000	
650.0	0.0216232759255	-0.197818076653	
! Port Impedance	50.00000000000000	0.00000000000000	
651.25	0.0204030168003	-0.19681033479	
! Port Impedance	50.00000000000000	0.00000000000000	
652.5	0.0223652858783	-0.196229120262	
! Port Impedance	50.00000000000000	0.00000000000000	
653.75	0.0222289885395	-0.1965589459	
! Port Impedance	50.00000000000000	0.00000000000000	
655.0	0.0215598827521	-0.197360528105	
! Port Impedance	50.00000000000000	0.00000000000000	
656.25	0.0208915822314	-0.196802728854	
! Port Impedance	50.00000000000000	0.00000000000000	
657.5	0.0203899269838	-0.196516307792	
! Port Impedance	50.00000000000000	0.00000000000000	
658.75	0.0205597147101	-0.195453779816	
! Port Impedance	50.00000000000000	0.00000000000000	
660.0	0.0199273458981	-0.194534045635	
! Port Impedance	50.00000000000000	0.00000000000000	
661.25	0.0201294527917	-0.195944955329	
! Port Impedance	50.00000000000000	0.00000000000000	
662.5	0.0198677788893	-0.195374573084	
! Port Impedance	50.00000000000000	0.00000000000000	
663.75	0.0200585913907	-0.194161079858	
! Port Impedance	50.00000000000000	0.00000000000000	
665.0	0.0203626947636	-0.194918537788	
! Port Impedance	50.00000000000000	0.00000000000000	
666.25	0.0196664376742	-0.194088093007	
! Port Impedance	50.00000000000000	0.00000000000000	
667.5	0.0195625229897	-0.193391841098	
! Port Impedance	50.00000000000000	0.00000000000000	
668.75	0.0179241576151	-0.194703486973	
! Port Impedance	50.00000000000000	0.00000000000000	
670.0	0.0155815059839	-0.194505477496	
! Port Impedance	50.00000000000000	0.00000000000000	
671.25	0.0141444320885	-0.19310419059	
! Port Impedance	50.00000000000000	0.00000000000000	
672.5	0.0155403287602	-0.192624695973	
! Port Impedance	50.00000000000000	0.00000000000000	
673.75	0.0154617165022	-0.193242219175	
! Port Impedance	50.00000000000000	0.00000000000000	
675.0	0.0156532271962	-0.192977389198	
! Port Impedance	50.00000000000000	0.00000000000000	
676.25	0.0154210338181	-0.192207685584	
! Port Impedance	50.00000000000000	0.00000000000000	
677.5	0.0157837520926	-0.19102217764	
! Port Impedance	50.00000000000000	0.00000000000000	
678.75	0.0153259979353	-0.192638278028	
! Port Impedance	50.00000000000000	0.00000000000000	
680.0	0.0149762036168	-0.19212860404	
! Port Impedance	50.00000000000000	0.00000000000000	
681.25	0.013657331014	-0.191104104025	
! Port Impedance	50.00000000000000	0.00000000000000	
682.5	0.014351791875	-0.189714357341	
! Port Impedance	50.00000000000000	0.00000000000000	
683.75	0.0146691344237	-0.189866798091	
! Port Impedance	50.00000000000000	0.00000000000000	
685.0	0.0149047609296	-0.190956795736	
! Port Impedance	50.00000000000000	0.00000000000000	
686.25	0.0141027035143	-0.191391459434	
! Port Impedance	50.00000000000000	0.00000000000000	
687.5	0.0118806742972	-0.189836006494	
! Port Impedance	50.00000000000000	0.00000000000000	
688.75	0.0137121739627	-0.188741257107	
! Port Impedance	50.00000000000000	0.00000000000000	
690.0	0.0139716672543	-0.189151702421	
! Port Impedance	50.00000000000000	0.00000000000000	
691.25	0.0120186520022	-0.190907026521	
! Port Impedance	50.00000000000000	0.00000000000000	
692.5	0.00951678682415	-0.188774707381	
! Port Impedance	50.00000000000000	0.00000000000000	
693.75	0.00675106639852	-0.186964024495	
! Port Impedance	50.00000000000000	0.00000000000000	
695.0	0.0112609113353	-0.187841625352	
! Port Impedance	50.00000000000000	0.00000000000000	
696.25	0.0123512767253	-0.188882651783	
! Port Impedance	50.00000000000000	0.00000000000000	
697.5	0.00952712863196	-0.18879215063	
! Port Impedance	50.00000000000000	0.00000000000000	
698.75	0.00719750223604	-0.187513136911	
! Port Impedance	50.00000000000000	0.00000000000000	
700.0	0.00897031837483	-0.18614958975	
! Port Impedance	50.00000000000000	0.00000000000000	
701.25	0.0100992573883	-0.1875427714	
! Port Impedance	50.00000000000000	0.00000000000000	
702.5	0.00839521398199	-0.186999134183	
! Port Impedance	50.00000000000000	0.00000000000000	
703.75	0.00712789635735	-0.186122853826	
! Port Impedance	50.00000000000000	0.00000000000000	
705.0	0.00965117205528	-0.186359295781	
! Port Impedance	50.00000000000000	0.00000000000000	
706.25	0.00959747137551	-0.186291986763	
! Port Impedance	50.00000000000000	0.00000000000000	
707.5	0.0084971345342	-0.185746387096	
! Port Impedance	50.00000000000000	0.00000000000000	
708.75	0.00814052385199	-0.184995384941	
! Port Impedance	50.00000000000000	0.00000000000000	
710.0	0.0091384852794	-0.184398892065	
! Port Impedance	50.00000000000000	0.00000000000000	
711.25	0.00971071434322	-0.184309229616	
! Port Impedance	50.00000000000000	0.00000000000000	
712.5	0.00823339061829	-0.185341248223	
! Port Impedance	50.00000000000000	0.00000000000000	
713.75	0.00540252917355	-0.184329458234	
! Port Impedance	50.00000000000000	0.00000000000000	
715.0	0.00489367609762	-0.182123729666	
! Port Impedance	50.00000000000000	0.00000000000000	
716.25	0.00661442465387	-0.182438955782	
! Port Impedance	50.00000000000000	0.00000000000000	
717.5	0.00617633169704	-0.184354628059	
! Port Impedance	50.00000000000000	0.00000000000000	
718.75	0.00484554507631	-0.185076124004	
! Port Impedance	50.00000000000000	0.00000000000000	
720.0	0.00575699053457	-0.182667255542	
! Port Impedance	50.00000000000000	0.00000000000000	
721.25	0.00741416640576	-0.181930080717	
! Port Impedance	50.00000000000000	0.00000000000000	
722.5	0.00694075555175	-0.182866057403	
! Port Impedance	50.00000000000000	0.00000000000000	
723.75	0.00336335970551	-0.183805564726	
! Port Impedance	50.00000000000000	0.00000000000000	
725.0	0.0038211364893	-0.181152318605	
! Port Impedance	50.00000000000000	0.00000000000000	
726.25	0.00522879058671	-0.180125836631	
! Port Impedance	50.00000000000000	0.00000000000000	
727.5	0.00504044263864	-0.180803360316	
! Port Impedance	50.00000000000000	0.00000000000000	
728.75	0.00204633525731	-0.182400616164	
! Port Impedance	50.00000000000000	0.00000000000000	
730.0	0.000489386338362	-0.181667864478	
! Port Impedance	50.00000000000000	0.00000000000000	
731.25	0.00320105063786	-0.178692757061	
! Port Impedance	50.00000000000000	0.00000000000000	
732.5	0.00457836753999	-0.179503375847	
! Port Impedance	50.00000000000000	0.00000000000000	
733.75	0.00241946367057	-0.181704929471	
! Port Impedance	50.00000000000000	0.00000000000000	
735.0	-0.000296373421228	-0.178261379886	
! Port Impedance	50.00000000000000	0.00000000000000	
736.25	0.0024426297503	-0.177555969179	
! Port Impedance	50.00000000000000	0.00000000000000	
737.5	0.00255026893393	-0.179047525827	
! Port Impedance	50.00000000000000	0.00000000000000	
738.75	0.000818748546679	-0.178845868992	
! Port Impedance	50.00000000000000	0.00000000000000	
740.0	0.000735470889078	-0.177769479509	
! Port Impedance	50.00000000000000	0.00000000000000	
741.25	0.00256572169118	-0.177201664694	
! Port Impedance	50.00000000000000	0.00000000000000	
742.5	0.00359384191385	-0.177178916027	
! Port Impedance	50.00000000000000	0.00000000000000	
743.75	0.00201950640558	-0.179351485905	
! Port Impedance	50.00000000000000	0.00000000000000	
745.0	-0.00130491577463	-0.176882473196	
! Port Impedance	50.00000000000000	0.00000000000000	
746.25	0.00163195227095	-0.172285647256	
! Port Impedance	50.00000000000000	0.00000000000000	
747.5	0.00221231725495	-0.176087029487	
! Port Impedance	50.00000000000000	0.00000000000000	
748.75	-0.000633930354288	-0.176658188051	
! Port Impedance	50.00000000000000	0.00000000000000	
750.0	-0.00355271079678	-0.17478438192	
! Port Impedance	50.00000000000000	0.00000000000000	
