!Created with mwavepy.
# GHz S RI R 50.0 
!freq	ReS11	ImS11	
500.0	0.0493376775121	-0.210936839227	
! Port Impedance	50.00000000000000	0.00000000000000	
501.25	0.0468377263814	-0.198326312079	
! Port Impedance	50.00000000000000	0.00000000000000	
502.5	0.0344905719283	-0.197564981365	
! Port Impedance	50.00000000000000	0.00000000000000	
503.75	0.0429710826006	-0.202573219221	
! Port Impedance	50.00000000000000	0.00000000000000	
505.0	0.0414111770248	-0.21152341822	
! Port Impedance	50.00000000000000	0.00000000000000	
506.25	0.0441058765424	-0.201159626235	
! Port Impedance	50.00000000000000	0.00000000000000	
507.5	0.0438975437258	-0.207023170472	
! Port Impedance	50.00000000000000	0.00000000000000	
508.75	0.0462850334869	-0.203111388538	
! Port Impedance	50.00000000000000	0.00000000000000	
510.0	0.0446163864671	-0.211018022556	
! Port Impedance	50.00000000000000	0.00000000000000	
511.25	0.0471445074945	-0.209974932512	
! Port Impedance	50.00000000000000	0.00000000000000	
512.5	0.0440925720733	-0.206475296458	
! Port Impedance	50.00000000000000	0.00000000000000	
513.75	0.0445971109253	-0.203167484388	
! Port Impedance	50.00000000000000	0.00000000000000	
515.0	0.0448540588833	-0.204563977096	
! Port Impedance	50.00000000000000	0.00000000000000	
516.25	0.0461267776441	-0.20410796158	
! Port Impedance	50.00000000000000	0.00000000000000	
517.5	0.0437543587386	-0.20550503751	
! Port Impedance	50.00000000000000	0.00000000000000	
518.75	0.0461769987048	-0.20754151657	
! Port Impedance	50.00000000000000	0.00000000000000	
520.0	0.0446653144002	-0.20628878144	
! Port Impedance	50.00000000000000	0.00000000000000	
521.25	0.0420415588539	-0.202077903701	
! Port Impedance	50.00000000000000	0.00000000000000	
522.5	0.0421154857014	-0.203553946855	
! Port Impedance	50.00000000000000	0.00000000000000	
523.75	0.0452197698535	-0.205677960581	
! Port Impedance	50.00000000000000	0.00000000000000	
525.0	0.0435494399792	-0.203740428296	
! Port Impedance	50.00000000000000	0.00000000000000	
526.25	0.0444993935342	-0.206102437451	
! Port Impedance	50.00000000000000	0.00000000000000	
527.5	0.0446789465204	-0.205459862256	
! Port Impedance	50.00000000000000	0.00000000000000	
528.75	0.0421116180247	-0.203901011697	
! Port Impedance	50.00000000000000	0.00000000000000	
530.0	0.044364991237	-0.204571718722	
! Port Impedance	50.00000000000000	0.00000000000000	
531.25	0.0475400867868	-0.205733054902	
! Port Impedance	50.00000000000000	0.00000000000000	
532.5	0.0470729893186	-0.206760457445	
! Port Impedance	50.00000000000000	0.00000000000000	
533.75	0.0451755609991	-0.208546998663	
! Port Impedance	50.00000000000000	0.00000000000000	
535.0	0.0440557838092	-0.208745306472	
! Port Impedance	50.00000000000000	0.00000000000000	
536.25	0.0449201758868	-0.208452406235	
! Port Impedance	50.00000000000000	0.00000000000000	
537.5	0.0446085394333	-0.208823984815	
! Port Impedance	50.00000000000000	0.00000000000000	
538.75	0.0436484331371	-0.210318362774	
! Port Impedance	50.00000000000000	0.00000000000000	
540.0	0.0413658542895	-0.210278771133	
! Port Impedance	50.00000000000000	0.00000000000000	
541.25	0.0389702996822	-0.20946659949	
! Port Impedance	50.00000000000000	0.00000000000000	
542.5	0.0402651735073	-0.206500445057	
! Port Impedance	50.00000000000000	0.00000000000000	
543.75	0.0402304850983	-0.203692219044	
! Port Impedance	50.00000000000000	0.00000000000000	
545.0	0.0412154144639	-0.205802340643	
! Port Impedance	50.00000000000000	0.00000000000000	
546.25	0.042669281345	-0.207249152478	
! Port Impedance	50.00000000000000	0.00000000000000	
547.5	0.0421541412243	-0.205533750863	
! Port Impedance	50.00000000000000	0.00000000000000	
548.75	0.0416399893438	-0.206106557625	
! Port Impedance	50.00000000000000	0.00000000000000	
550.0	0.0433662353255	-0.208488875402	
! Port Impedance	50.00000000000000	0.00000000000000	
551.25	0.0440689904904	-0.209773047997	
! Port Impedance	50.00000000000000	0.00000000000000	
552.5	0.0398990532551	-0.210060454051	
! Port Impedance	50.00000000000000	0.00000000000000	
553.75	0.0365949193735	-0.208581144109	
! Port Impedance	50.00000000000000	0.00000000000000	
555.0	0.0388668317033	-0.207721883961	
! Port Impedance	50.00000000000000	0.00000000000000	
556.25	0.0402900279556	-0.203920359965	
! Port Impedance	50.00000000000000	0.00000000000000	
557.5	0.0382445255832	-0.201361724614	
! Port Impedance	50.00000000000000	0.00000000000000	
558.75	0.0410110925008	-0.200632100852	
! Port Impedance	50.00000000000000	0.00000000000000	
560.0	0.0442570731821	-0.201575799859	
! Port Impedance	50.00000000000000	0.00000000000000	
561.25	0.045726860975	-0.204496345701	
! Port Impedance	50.00000000000000	0.00000000000000	
562.5	0.044373576918	-0.2070799967	
! Port Impedance	50.00000000000000	0.00000000000000	
563.75	0.0420798021103	-0.208085955476	
! Port Impedance	50.00000000000000	0.00000000000000	
565.0	0.0445302927725	-0.207291026232	
! Port Impedance	50.00000000000000	0.00000000000000	
566.25	0.0424477322757	-0.207148925124	
! Port Impedance	50.00000000000000	0.00000000000000	
567.5	0.0412469272492	-0.207654591125	
! Port Impedance	50.00000000000000	0.00000000000000	
568.75	0.0412364833664	-0.206006980828	
! Port Impedance	50.00000000000000	0.00000000000000	
570.0	0.0408582427225	-0.204411180536	
! Port Impedance	50.00000000000000	0.00000000000000	
571.25	0.0428123175205	-0.205838494045	
! Port Impedance	50.00000000000000	0.00000000000000	
572.5	0.0427370029665	-0.207227609352	
! Port Impedance	50.00000000000000	0.00000000000000	
573.75	0.0399699260898	-0.209672224321	
! Port Impedance	50.00000000000000	0.00000000000000	
575.0	0.0396619804819	-0.209622505591	
! Port Impedance	50.00000000000000	0.00000000000000	
576.25	0.0393587931608	-0.209354237858	
! Port Impedance	50.00000000000000	0.00000000000000	
577.5	0.0347220836841	-0.209580399029	
! Port Impedance	50.00000000000000	0.00000000000000	
578.75	0.0350891676179	-0.206987411109	
! Port Impedance	50.00000000000000	0.00000000000000	
580.0	0.0380116750962	-0.205732299887	
! Port Impedance	50.00000000000000	0.00000000000000	
581.25	0.0395836235053	-0.20540677325	
! Port Impedance	50.00000000000000	0.00000000000000	
582.5	0.0390606118648	-0.206892819817	
! Port Impedance	50.00000000000000	0.00000000000000	
583.75	0.0377721413316	-0.208499413697	
! Port Impedance	50.00000000000000	0.00000000000000	
585.0	0.0379861582978	-0.208346883964	
! Port Impedance	50.00000000000000	0.00000000000000	
586.25	0.0369772116283	-0.20807830268	
! Port Impedance	50.00000000000000	0.00000000000000	
587.5	0.0323874818277	-0.208916286482	
! Port Impedance	50.00000000000000	0.00000000000000	
588.75	0.0345809943846	-0.206174212675	
! Port Impedance	50.00000000000000	0.00000000000000	
590.0	0.0364625353211	-0.205237242168	
! Port Impedance	50.00000000000000	0.00000000000000	
591.25	0.0366866928914	-0.206753024761	
! Port Impedance	50.00000000000000	0.00000000000000	
592.5	0.0351737656426	-0.207395331562	
! Port Impedance	50.00000000000000	0.00000000000000	
593.75	0.0335339970164	-0.206933062132	
! Port Impedance	50.00000000000000	0.00000000000000	
595.0	0.0338351419464	-0.206000611781	
! Port Impedance	50.00000000000000	0.00000000000000	
596.25	0.036799204739	-0.205395100906	
! Port Impedance	50.00000000000000	0.00000000000000	
597.5	0.0342322105932	-0.204825102445	
! Port Impedance	50.00000000000000	0.00000000000000	
598.75	0.0356025388332	-0.20418097756	
! Port Impedance	50.00000000000000	0.00000000000000	
600.0	0.0352658717997	-0.206767953653	
! Port Impedance	50.00000000000000	0.00000000000000	
601.25	0.0328584743368	-0.209663977954	
! Port Impedance	50.00000000000000	0.00000000000000	
602.5	0.0292649702404	-0.20657151019	
! Port Impedance	50.00000000000000	0.00000000000000	
603.75	0.0267119612011	-0.203609638517	
! Port Impedance	50.00000000000000	0.00000000000000	
605.0	0.0298716477163	-0.204083794548	
! Port Impedance	50.00000000000000	0.00000000000000	
606.25	0.0323875861002	-0.204102890414	
! Port Impedance	50.00000000000000	0.00000000000000	
607.5	0.0327981428067	-0.202555486265	
! Port Impedance	50.00000000000000	0.00000000000000	
608.75	0.0320278522133	-0.204409268566	
! Port Impedance	50.00000000000000	0.00000000000000	
610.0	0.0303444211668	-0.20578852536	
! Port Impedance	50.00000000000000	0.00000000000000	
611.25	0.0296770434094	-0.204667377085	
! Port Impedance	50.00000000000000	0.00000000000000	
612.5	0.0299350244136	-0.202343914735	
! Port Impedance	50.00000000000000	0.00000000000000	
613.75	0.027432374665	-0.202545269762	
! Port Impedance	50.00000000000000	0.00000000000000	
615.0	0.0276464390182	-0.205070474847	
! Port Impedance	50.00000000000000	0.00000000000000	
616.25	0.0298931777632	-0.203908446551	
! Port Impedance	50.00000000000000	0.00000000000000	
617.5	0.0284942140467	-0.202575187963	
! Port Impedance	50.00000000000000	0.00000000000000	
618.75	0.0275421320909	-0.202965759929	
! Port Impedance	50.00000000000000	0.00000000000000	
620.0	0.0266853648498	-0.201905721275	
! Port Impedance	50.00000000000000	0.00000000000000	
621.25	0.0304690782907	-0.202113018427	
! Port Impedance	50.00000000000000	0.00000000000000	
622.5	0.0289618385216	-0.203538329877	
! Port Impedance	50.00000000000000	0.00000000000000	
623.75	0.0249532839723	-0.203859712208	
! Port Impedance	50.00000000000000	0.00000000000000	
625.0	0.0257257266746	-0.202015832041	
! Port Impedance	50.00000000000000	0.00000000000000	
626.25	0.0272121217588	-0.200125275897	
! Port Impedance	50.00000000000000	0.00000000000000	
627.5	0.0278047853528	-0.200164547381	
! Port Impedance	50.00000000000000	0.00000000000000	
628.75	0.0278658738807	-0.201023022717	
! Port Impedance	50.00000000000000	0.00000000000000	
630.0	0.0274211887399	-0.202424820956	
! Port Impedance	50.00000000000000	0.00000000000000	
631.25	0.0250556840042	-0.201381613719	
! Port Impedance	50.00000000000000	0.00000000000000	
632.5	0.0223812690183	-0.200609424111	
! Port Impedance	50.00000000000000	0.00000000000000	
633.75	0.025377646708	-0.199514400393	
! Port Impedance	50.00000000000000	0.00000000000000	
635.0	0.0255824685427	-0.199854375212	
! Port Impedance	50.00000000000000	0.00000000000000	
636.25	0.0252155898558	-0.199927675182	
! Port Impedance	50.00000000000000	0.00000000000000	
637.5	0.0245616039686	-0.200436772177	
! Port Impedance	50.00000000000000	0.00000000000000	
638.75	0.0247330958884	-0.200048504263	
! Port Impedance	50.00000000000000	0.00000000000000	
640.0	0.024266171481	-0.199235419157	
! Port Impedance	50.00000000000000	0.00000000000000	
641.25	0.0241474274396	-0.199004899067	
! Port Impedance	50.00000000000000	0.00000000000000	
642.5	0.0234921827084	-0.199334069141	
! Port Impedance	50.00000000000000	0.00000000000000	
643.75	0.0226953090363	-0.198821404199	
! Port Impedance	50.00000000000000	0.00000000000000	
645.0	0.0230475545578	-0.197273947915	
! Port Impedance	50.00000000000000	0.00000000000000	
646.25	0.0219964325382	-0.197735719094	
! Port Impedance	50.00000000000000	0.00000000000000	
647.5	0.0226021559239	-0.198563870526	
! Port Impedance	50.00000000000000	0.00000000000000	
648.75	0.0222781656519	-0.198389778304	
! Port Impedance	50.00000000000000	0.00000000000000	
650.0	0.0211248229839	-0.197675166532	
! Port Impedance	50.00000000000000	0.00000000000000	
651.25	0.0204247052095	-0.196604316621	
! Port Impedance	50.00000000000000	0.00000000000000	
652.5	0.0219535628039	-0.196474602968	
! Port Impedance	50.00000000000000	0.00000000000000	
653.75	0.0214391337783	-0.19672662059	
! Port Impedance	50.00000000000000	0.00000000000000	
655.0	0.0205938785897	-0.197469195918	
! Port Impedance	50.00000000000000	0.00000000000000	
656.25	0.0201826650925	-0.19673432628	
! Port Impedance	50.00000000000000	0.00000000000000	
657.5	0.0201101083222	-0.196211276927	
! Port Impedance	50.00000000000000	0.00000000000000	
658.75	0.020325483335	-0.19519700297	
! Port Impedance	50.00000000000000	0.00000000000000	
660.0	0.0191353193963	-0.194619509223	
! Port Impedance	50.00000000000000	0.00000000000000	
661.25	0.0194122863063	-0.195567103697	
! Port Impedance	50.00000000000000	0.00000000000000	
662.5	0.0195201251471	-0.195040917719	
! Port Impedance	50.00000000000000	0.00000000000000	
663.75	0.0202651089752	-0.194486574641	
! Port Impedance	50.00000000000000	0.00000000000000	
665.0	0.0206073474498	-0.195058422906	
! Port Impedance	50.00000000000000	0.00000000000000	
666.25	0.0190492905651	-0.194436100953	
! Port Impedance	50.00000000000000	0.00000000000000	
667.5	0.0188146166683	-0.193211537743	
! Port Impedance	50.00000000000000	0.00000000000000	
668.75	0.0173317879965	-0.194521988111	
! Port Impedance	50.00000000000000	0.00000000000000	
670.0	0.01519159381	-0.194168263428	
! Port Impedance	50.00000000000000	0.00000000000000	
671.25	0.0138699959743	-0.193114495135	
! Port Impedance	50.00000000000000	0.00000000000000	
672.5	0.0147822628647	-0.19279333455	
! Port Impedance	50.00000000000000	0.00000000000000	
673.75	0.0148496326414	-0.193221616581	
! Port Impedance	50.00000000000000	0.00000000000000	
675.0	0.0151616206563	-0.192982849255	
! Port Impedance	50.00000000000000	0.00000000000000	
676.25	0.014529177646	-0.19215304525	
! Port Impedance	50.00000000000000	0.00000000000000	
677.5	0.0151435951283	-0.190828359187	
! Port Impedance	50.00000000000000	0.00000000000000	
678.75	0.0148710598555	-0.192182117611	
! Port Impedance	50.00000000000000	0.00000000000000	
680.0	0.0143323889424	-0.191806110038	
! Port Impedance	50.00000000000000	0.00000000000000	
681.25	0.013212516664	-0.191004081902	
! Port Impedance	50.00000000000000	0.00000000000000	
682.5	0.0140569331651	-0.189880639321	
! Port Impedance	50.00000000000000	0.00000000000000	
683.75	0.013707841121	-0.190060689382	
! Port Impedance	50.00000000000000	0.00000000000000	
685.0	0.0138090272968	-0.190355463676	
! Port Impedance	50.00000000000000	0.00000000000000	
686.25	0.0134856319961	-0.191159333593	
! Port Impedance	50.00000000000000	0.00000000000000	
687.5	0.0118732908214	-0.19002651133	
! Port Impedance	50.00000000000000	0.00000000000000	
688.75	0.013459876913	-0.188906984467	
! Port Impedance	50.00000000000000	0.00000000000000	
690.0	0.0130891522861	-0.189190732486	
! Port Impedance	50.00000000000000	0.00000000000000	
691.25	0.0116836343358	-0.190176253086	
! Port Impedance	50.00000000000000	0.00000000000000	
692.5	0.00939869782466	-0.188790763611	
! Port Impedance	50.00000000000000	0.00000000000000	
693.75	0.00628408466262	-0.186869400019	
! Port Impedance	50.00000000000000	0.00000000000000	
695.0	0.0105722084956	-0.187821453768	
! Port Impedance	50.00000000000000	0.00000000000000	
696.25	0.0117193963958	-0.188462672656	
! Port Impedance	50.00000000000000	0.00000000000000	
697.5	0.00936339054838	-0.188574021505	
! Port Impedance	50.00000000000000	0.00000000000000	
698.75	0.00662727825304	-0.187494120125	
! Port Impedance	50.00000000000000	0.00000000000000	
700.0	0.0086315101337	-0.186261740293	
! Port Impedance	50.00000000000000	0.00000000000000	
701.25	0.00927012156526	-0.187183620375	
! Port Impedance	50.00000000000000	0.00000000000000	
702.5	0.00760210728163	-0.186901081416	
! Port Impedance	50.00000000000000	0.00000000000000	
703.75	0.00645766622489	-0.185839194843	
! Port Impedance	50.00000000000000	0.00000000000000	
705.0	0.00879709757958	-0.185980914935	
! Port Impedance	50.00000000000000	0.00000000000000	
706.25	0.00912872032207	-0.185906836815	
! Port Impedance	50.00000000000000	0.00000000000000	
707.5	0.00791816976859	-0.185745921997	
! Port Impedance	50.00000000000000	0.00000000000000	
708.75	0.00822500406148	-0.185000657404	
! Port Impedance	50.00000000000000	0.00000000000000	
710.0	0.00851916371505	-0.184439052036	
! Port Impedance	50.00000000000000	0.00000000000000	
711.25	0.00884006592927	-0.184498907177	
! Port Impedance	50.00000000000000	0.00000000000000	
712.5	0.00792083222499	-0.184883066357	
! Port Impedance	50.00000000000000	0.00000000000000	
713.75	0.00519059067216	-0.184231662431	
! Port Impedance	50.00000000000000	0.00000000000000	
715.0	0.00426992012603	-0.182285396452	
! Port Impedance	50.00000000000000	0.00000000000000	
716.25	0.00573573258958	-0.182502233839	
! Port Impedance	50.00000000000000	0.00000000000000	
717.5	0.00553397834803	-0.184267694122	
! Port Impedance	50.00000000000000	0.00000000000000	
718.75	0.00403773706222	-0.184672405479	
! Port Impedance	50.00000000000000	0.00000000000000	
720.0	0.00501834457835	-0.182939438892	
! Port Impedance	50.00000000000000	0.00000000000000	
721.25	0.00647762680508	-0.182010291091	
! Port Impedance	50.00000000000000	0.00000000000000	
722.5	0.00635137250727	-0.182804621457	
! Port Impedance	50.00000000000000	0.00000000000000	
723.75	0.00272284533248	-0.18350231988	
! Port Impedance	50.00000000000000	0.00000000000000	
725.0	0.00384473754482	-0.180699006245	
! Port Impedance	50.00000000000000	0.00000000000000	
726.25	0.00452243026596	-0.180103083935	
! Port Impedance	50.00000000000000	0.00000000000000	
727.5	0.00407914959996	-0.180767304583	
! Port Impedance	50.00000000000000	0.00000000000000	
728.75	0.00165626748909	-0.18205962339	
! Port Impedance	50.00000000000000	0.00000000000000	
730.0	-0.00029731502745	-0.181783118316	
! Port Impedance	50.00000000000000	0.00000000000000	
731.25	0.00262428360277	-0.178410202863	
! Port Impedance	50.00000000000000	0.00000000000000	
732.5	0.00330958923459	-0.179574908223	
! Port Impedance	50.00000000000000	0.00000000000000	
733.75	0.00143411197813	-0.181901756585	
! Port Impedance	50.00000000000000	0.00000000000000	
735.0	-0.00127442748049	-0.177671387341	
! Port Impedance	50.00000000000000	0.00000000000000	
736.25	0.00158804229442	-0.177265312768	
! Port Impedance	50.00000000000000	0.00000000000000	
737.5	0.00190262060959	-0.178589630324	
! Port Impedance	50.00000000000000	0.00000000000000	
738.75	-0.000125316199308	-0.17870156456	
! Port Impedance	50.00000000000000	0.00000000000000	
740.0	-0.000149248326337	-0.177796623859	
! Port Impedance	50.00000000000000	0.00000000000000	
741.25	0.00206980676207	-0.17655662448	
! Port Impedance	50.00000000000000	0.00000000000000	
742.5	0.0016907518978	-0.176651768579	
! Port Impedance	50.00000000000000	0.00000000000000	
743.75	0.000406215228955	-0.178872917729	
! Port Impedance	50.00000000000000	0.00000000000000	
745.0	-0.00212976259028	-0.176121673131	
! Port Impedance	50.00000000000000	0.00000000000000	
746.25	0.000223997894116	-0.171880867126	
! Port Impedance	50.00000000000000	0.00000000000000	
747.5	-0.000549277114149	-0.174671705379	
! Port Impedance	50.00000000000000	0.00000000000000	
748.75	-0.00270600238447	-0.175817826292	
! Port Impedance	50.00000000000000	0.00000000000000	
750.0	-0.00388318177467	-0.17347857561	
! Port Impedance	50.00000000000000	0.00000000000000	
