!Created with mwavepy.
# GHz S RI R 50.0 
!freq	ReS11	ImS11	
500.0	0.167089210198	0.991773868128	
! Port Impedance	50.00000000000000	0.00000000000000	
501.25	0.14579051921	0.983144485218	
! Port Impedance	50.00000000000000	0.00000000000000	
502.5	0.168026192408	0.973379844023	
! Port Impedance	50.00000000000000	0.00000000000000	
503.75	0.18568654085	0.985582280705	
! Port Impedance	50.00000000000000	0.00000000000000	
505.0	0.197306901431	0.982755476955	
! Port Impedance	50.00000000000000	0.00000000000000	
506.25	0.209371989963	0.987426762092	
! Port Impedance	50.00000000000000	0.00000000000000	
507.5	0.211928336855	0.977993894635	
! Port Impedance	50.00000000000000	0.00000000000000	
508.75	0.219768837571	0.967055352566	
! Port Impedance	50.00000000000000	0.00000000000000	
510.0	0.239567687605	0.971047621492	
! Port Impedance	50.00000000000000	0.00000000000000	
511.25	0.2312890373	0.966921367031	
! Port Impedance	50.00000000000000	0.00000000000000	
512.5	0.265211554304	0.977025487323	
! Port Impedance	50.00000000000000	0.00000000000000	
513.75	0.271865054297	0.93469412636	
! Port Impedance	50.00000000000000	0.00000000000000	
515.0	0.285083226761	0.964325875399	
! Port Impedance	50.00000000000000	0.00000000000000	
516.25	0.280338839388	0.963585554036	
! Port Impedance	50.00000000000000	0.00000000000000	
517.5	0.298172308007	0.952787182785	
! Port Impedance	50.00000000000000	0.00000000000000	
518.75	0.312534277626	0.949766385738	
! Port Impedance	50.00000000000000	0.00000000000000	
520.0	0.32193859305	0.940937960504	
! Port Impedance	50.00000000000000	0.00000000000000	
521.25	0.341510484517	0.938200968085	
! Port Impedance	50.00000000000000	0.00000000000000	
522.5	0.344268033558	0.940625952256	
! Port Impedance	50.00000000000000	0.00000000000000	
523.75	0.357588911667	0.93619198603	
! Port Impedance	50.00000000000000	0.00000000000000	
525.0	0.360069883929	0.931929869926	
! Port Impedance	50.00000000000000	0.00000000000000	
526.25	0.372683872052	0.927928913759	
! Port Impedance	50.00000000000000	0.00000000000000	
527.5	0.382494200861	0.924245141415	
! Port Impedance	50.00000000000000	0.00000000000000	
528.75	0.390766536324	0.920499915198	
! Port Impedance	50.00000000000000	0.00000000000000	
530.0	0.399268599045	0.91637561817	
! Port Impedance	50.00000000000000	0.00000000000000	
531.25	0.408300205737	0.913074675181	
! Port Impedance	50.00000000000000	0.00000000000000	
532.5	0.423815607363	0.905721873623	
! Port Impedance	50.00000000000000	0.00000000000000	
533.75	0.429266005324	0.902544561497	
! Port Impedance	50.00000000000000	0.00000000000000	
535.0	0.439855397626	0.897388820601	
! Port Impedance	50.00000000000000	0.00000000000000	
536.25	0.447280364549	0.893081040926	
! Port Impedance	50.00000000000000	0.00000000000000	
537.5	0.457226151776	0.888862791216	
! Port Impedance	50.00000000000000	0.00000000000000	
538.75	0.466071911634	0.88367140665	
! Port Impedance	50.00000000000000	0.00000000000000	
540.0	0.474571919147	0.8795857232	
! Port Impedance	50.00000000000000	0.00000000000000	
541.25	0.482509559286	0.874704026304	
! Port Impedance	50.00000000000000	0.00000000000000	
542.5	0.491807902116	0.870172205884	
! Port Impedance	50.00000000000000	0.00000000000000	
543.75	0.502022060294	0.865336228423	
! Port Impedance	50.00000000000000	0.00000000000000	
545.0	0.511730465238	0.8588696415	
! Port Impedance	50.00000000000000	0.00000000000000	
546.25	0.520674122682	0.853429664291	
! Port Impedance	50.00000000000000	0.00000000000000	
547.5	0.527243189211	0.84910581296	
! Port Impedance	50.00000000000000	0.00000000000000	
548.75	0.535593906943	0.844077319227	
! Port Impedance	50.00000000000000	0.00000000000000	
550.0	0.545426605643	0.836704523083	
! Port Impedance	50.00000000000000	0.00000000000000	
551.25	0.553150657565	0.832121000603	
! Port Impedance	50.00000000000000	0.00000000000000	
552.5	0.56193925101	0.825090098031	
! Port Impedance	50.00000000000000	0.00000000000000	
553.75	0.571022231191	0.818998969777	
! Port Impedance	50.00000000000000	0.00000000000000	
555.0	0.580612395729	0.809985112591	
! Port Impedance	50.00000000000000	0.00000000000000	
556.25	0.585316689358	0.806374862335	
! Port Impedance	50.00000000000000	0.00000000000000	
557.5	0.591935887538	0.800477112285	
! Port Impedance	50.00000000000000	0.00000000000000	
558.75	0.599450264905	0.796645387959	
! Port Impedance	50.00000000000000	0.00000000000000	
560.0	0.606366388855	0.793029169359	
! Port Impedance	50.00000000000000	0.00000000000000	
561.25	0.615970362656	0.787045977061	
! Port Impedance	50.00000000000000	0.00000000000000	
562.5	0.623156886162	0.780938006638	
! Port Impedance	50.00000000000000	0.00000000000000	
563.75	0.631889000952	0.773914838418	
! Port Impedance	50.00000000000000	0.00000000000000	
565.0	0.641404943647	0.766755369117	
! Port Impedance	50.00000000000000	0.00000000000000	
566.25	0.645283525465	0.762660309384	
! Port Impedance	50.00000000000000	0.00000000000000	
567.5	0.653457135476	0.755347249533	
! Port Impedance	50.00000000000000	0.00000000000000	
568.75	0.66005914375	0.75011721633	
! Port Impedance	50.00000000000000	0.00000000000000	
570.0	0.667042360071	0.744300423705	
! Port Impedance	50.00000000000000	0.00000000000000	
571.25	0.677732652149	0.736537466163	
! Port Impedance	50.00000000000000	0.00000000000000	
572.5	0.681552070968	0.731339218481	
! Port Impedance	50.00000000000000	0.00000000000000	
573.75	0.687559560753	0.726230611487	
! Port Impedance	50.00000000000000	0.00000000000000	
575.0	0.694542972367	0.720000850752	
! Port Impedance	50.00000000000000	0.00000000000000	
576.25	0.70116819019	0.712983919713	
! Port Impedance	50.00000000000000	0.00000000000000	
577.5	0.707719642979	0.706064486259	
! Port Impedance	50.00000000000000	0.00000000000000	
578.75	0.714156072226	0.699833067956	
! Port Impedance	50.00000000000000	0.00000000000000	
580.0	0.721390812416	0.692652358543	
! Port Impedance	50.00000000000000	0.00000000000000	
581.25	0.72753146056	0.686034920259	
! Port Impedance	50.00000000000000	0.00000000000000	
582.5	0.733467644628	0.678668346324	
! Port Impedance	50.00000000000000	0.00000000000000	
583.75	0.740951414684	0.672207664077	
! Port Impedance	50.00000000000000	0.00000000000000	
585.0	0.74567651961	0.66469516642	
! Port Impedance	50.00000000000000	0.00000000000000	
586.25	0.753081401844	0.657697288527	
! Port Impedance	50.00000000000000	0.00000000000000	
587.5	0.758716491277	0.650734588591	
! Port Impedance	50.00000000000000	0.00000000000000	
588.75	0.764505315409	0.643834280533	
! Port Impedance	50.00000000000000	0.00000000000000	
590.0	0.77205956269	0.635173282214	
! Port Impedance	50.00000000000000	0.00000000000000	
591.25	0.777781879126	0.629363199092	
! Port Impedance	50.00000000000000	0.00000000000000	
592.5	0.783784726191	0.621588113376	
! Port Impedance	50.00000000000000	0.00000000000000	
593.75	0.788773523105	0.613705126229	
! Port Impedance	50.00000000000000	0.00000000000000	
595.0	0.795300510231	0.606086813109	
! Port Impedance	50.00000000000000	0.00000000000000	
596.25	0.800523239755	0.599019104636	
! Port Impedance	50.00000000000000	0.00000000000000	
597.5	0.80639380198	0.592082959499	
! Port Impedance	50.00000000000000	0.00000000000000	
598.75	0.811914392202	0.584101273041	
! Port Impedance	50.00000000000000	0.00000000000000	
600.0	0.816258883092	0.576823800737	
! Port Impedance	50.00000000000000	0.00000000000000	
601.25	0.822030936259	0.569380196566	
! Port Impedance	50.00000000000000	0.00000000000000	
602.5	0.826250653906	0.562051337444	
! Port Impedance	50.00000000000000	0.00000000000000	
603.75	0.831387870182	0.554051032513	
! Port Impedance	50.00000000000000	0.00000000000000	
605.0	0.837134911972	0.547258814694	
! Port Impedance	50.00000000000000	0.00000000000000	
606.25	0.84174870252	0.539190084671	
! Port Impedance	50.00000000000000	0.00000000000000	
607.5	0.847222464133	0.531879194961	
! Port Impedance	50.00000000000000	0.00000000000000	
608.75	0.852189302809	0.52302295691	
! Port Impedance	50.00000000000000	0.00000000000000	
610.0	0.856948857899	0.515526040215	
! Port Impedance	50.00000000000000	0.00000000000000	
611.25	0.861375390376	0.508240677022	
! Port Impedance	50.00000000000000	0.00000000000000	
612.5	0.864717353772	0.50124179625	
! Port Impedance	50.00000000000000	0.00000000000000	
613.75	0.87157965514	0.490700970585	
! Port Impedance	50.00000000000000	0.00000000000000	
615.0	0.875736754002	0.482889297569	
! Port Impedance	50.00000000000000	0.00000000000000	
616.25	0.880321416171	0.475856722494	
! Port Impedance	50.00000000000000	0.00000000000000	
617.5	0.883613596878	0.468496973329	
! Port Impedance	50.00000000000000	0.00000000000000	
618.75	0.888662662708	0.460478213167	
! Port Impedance	50.00000000000000	0.00000000000000	
620.0	0.892041977048	0.452332470978	
! Port Impedance	50.00000000000000	0.00000000000000	
621.25	0.894972997963	0.444371593883	
! Port Impedance	50.00000000000000	0.00000000000000	
622.5	0.900242379239	0.435880544056	
! Port Impedance	50.00000000000000	0.00000000000000	
623.75	0.903416481378	0.42802082938	
! Port Impedance	50.00000000000000	0.00000000000000	
625.0	0.907502209871	0.419044374185	
! Port Impedance	50.00000000000000	0.00000000000000	
626.25	0.912060688594	0.412012667815	
! Port Impedance	50.00000000000000	0.00000000000000	
627.5	0.915263505713	0.402300071406	
! Port Impedance	50.00000000000000	0.00000000000000	
628.75	0.917807914957	0.395343288305	
! Port Impedance	50.00000000000000	0.00000000000000	
630.0	0.922943913495	0.384456508525	
! Port Impedance	50.00000000000000	0.00000000000000	
631.25	0.925799087601	0.377578641686	
! Port Impedance	50.00000000000000	0.00000000000000	
632.5	0.928589961552	0.371522548141	
! Port Impedance	50.00000000000000	0.00000000000000	
633.75	0.932083420457	0.362665268275	
! Port Impedance	50.00000000000000	0.00000000000000	
635.0	0.934942984806	0.353963496345	
! Port Impedance	50.00000000000000	0.00000000000000	
636.25	0.937360178241	0.345809247684	
! Port Impedance	50.00000000000000	0.00000000000000	
637.5	0.941032435372	0.337398055527	
! Port Impedance	50.00000000000000	0.00000000000000	
638.75	0.944088812352	0.329299590664	
! Port Impedance	50.00000000000000	0.00000000000000	
640.0	0.947350381595	0.320840660108	
! Port Impedance	50.00000000000000	0.00000000000000	
641.25	0.949962731075	0.31259219246	
! Port Impedance	50.00000000000000	0.00000000000000	
642.5	0.952864039859	0.303649842493	
! Port Impedance	50.00000000000000	0.00000000000000	
643.75	0.954854067915	0.295234199668	
! Port Impedance	50.00000000000000	0.00000000000000	
645.0	0.957469644814	0.286322369336	
! Port Impedance	50.00000000000000	0.00000000000000	
646.25	0.960419804245	0.278422803262	
! Port Impedance	50.00000000000000	0.00000000000000	
647.5	0.962947503982	0.270422883193	
! Port Impedance	50.00000000000000	0.00000000000000	
648.75	0.965449538542	0.261892775342	
! Port Impedance	50.00000000000000	0.00000000000000	
650.0	0.966960530392	0.253859777234	
! Port Impedance	50.00000000000000	0.00000000000000	
651.25	0.969851426276	0.245290151944	
! Port Impedance	50.00000000000000	0.00000000000000	
652.5	0.971644702594	0.235818264151	
! Port Impedance	50.00000000000000	0.00000000000000	
653.75	0.972920724711	0.228406886744	
! Port Impedance	50.00000000000000	0.00000000000000	
655.0	0.97462421019	0.222941437838	
! Port Impedance	50.00000000000000	0.00000000000000	
656.25	0.977610867489	0.212470296406	
! Port Impedance	50.00000000000000	0.00000000000000	
657.5	0.979665546817	0.202549779902	
! Port Impedance	50.00000000000000	0.00000000000000	
658.75	0.981729138711	0.193519447063	
! Port Impedance	50.00000000000000	0.00000000000000	
660.0	0.98262131538	0.184866597318	
! Port Impedance	50.00000000000000	0.00000000000000	
661.25	0.98500323848	0.177262324625	
! Port Impedance	50.00000000000000	0.00000000000000	
662.5	0.986192052883	0.168134055583	
! Port Impedance	50.00000000000000	0.00000000000000	
663.75	0.986647427231	0.159007471161	
! Port Impedance	50.00000000000000	0.00000000000000	
665.0	0.98823658793	0.150890731703	
! Port Impedance	50.00000000000000	0.00000000000000	
666.25	0.989165701064	0.142127808075	
! Port Impedance	50.00000000000000	0.00000000000000	
667.5	0.991309894244	0.134251535617	
! Port Impedance	50.00000000000000	0.00000000000000	
668.75	0.992231011937	0.125712419763	
! Port Impedance	50.00000000000000	0.00000000000000	
670.0	0.993386622422	0.116740699368	
! Port Impedance	50.00000000000000	0.00000000000000	
671.25	0.994102731737	0.107446354576	
! Port Impedance	50.00000000000000	0.00000000000000	
672.5	0.994250368747	0.0998463671148	
! Port Impedance	50.00000000000000	0.00000000000000	
673.75	0.995701866026	0.0905251905652	
! Port Impedance	50.00000000000000	0.00000000000000	
675.0	0.995846092971	0.0828691863765	
! Port Impedance	50.00000000000000	0.00000000000000	
676.25	0.996648196455	0.0737753837154	
! Port Impedance	50.00000000000000	0.00000000000000	
677.5	0.998181042228	0.066959230181	
! Port Impedance	50.00000000000000	0.00000000000000	
678.75	0.998419624961	0.057976228876	
! Port Impedance	50.00000000000000	0.00000000000000	
680.0	0.998990957504	0.0480012178317	
! Port Impedance	50.00000000000000	0.00000000000000	
681.25	0.998441117677	0.0394442964619	
! Port Impedance	50.00000000000000	0.00000000000000	
682.5	0.999666006718	0.0305461257528	
! Port Impedance	50.00000000000000	0.00000000000000	
683.75	0.999492060264	0.0229768809222	
! Port Impedance	50.00000000000000	0.00000000000000	
685.0	1.00026083837	0.012506879919	
! Port Impedance	50.00000000000000	0.00000000000000	
686.25	1.00022307401	0.00584266586041	
! Port Impedance	50.00000000000000	0.00000000000000	
687.5	0.999762549335	-0.00335243344531	
! Port Impedance	50.00000000000000	0.00000000000000	
688.75	0.999988435393	-0.0119100202915	
! Port Impedance	50.00000000000000	0.00000000000000	
690.0	0.999514870039	-0.0207819441699	
! Port Impedance	50.00000000000000	0.00000000000000	
691.25	1.0000012815	-0.0286888088258	
! Port Impedance	50.00000000000000	0.00000000000000	
692.5	0.998572138163	-0.0351587789923	
! Port Impedance	50.00000000000000	0.00000000000000	
693.75	0.99911271672	-0.0405168193085	
! Port Impedance	50.00000000000000	0.00000000000000	
695.0	0.998390617359	-0.0513154740457	
! Port Impedance	50.00000000000000	0.00000000000000	
696.25	0.997539966922	-0.0589144833954	
! Port Impedance	50.00000000000000	0.00000000000000	
697.5	0.997066230482	-0.0682892839116	
! Port Impedance	50.00000000000000	0.00000000000000	
698.75	0.996483249243	-0.0791222186621	
! Port Impedance	50.00000000000000	0.00000000000000	
700.0	0.99551427516	-0.0882257416697	
! Port Impedance	50.00000000000000	0.00000000000000	
701.25	0.995222902418	-0.0971909174941	
! Port Impedance	50.00000000000000	0.00000000000000	
702.5	0.994580148894	-0.105342117494	
! Port Impedance	50.00000000000000	0.00000000000000	
703.75	0.994059320321	-0.112270896253	
! Port Impedance	50.00000000000000	0.00000000000000	
705.0	0.992689806444	-0.121860526176	
! Port Impedance	50.00000000000000	0.00000000000000	
706.25	0.992102310127	-0.131177007464	
! Port Impedance	50.00000000000000	0.00000000000000	
707.5	0.99040569433	-0.139327031149	
! Port Impedance	50.00000000000000	0.00000000000000	
708.75	0.989349121137	-0.145942943295	
! Port Impedance	50.00000000000000	0.00000000000000	
710.0	0.987706635874	-0.154705098941	
! Port Impedance	50.00000000000000	0.00000000000000	
711.25	0.986781570449	-0.163170710739	
! Port Impedance	50.00000000000000	0.00000000000000	
712.5	0.985115278283	-0.171339805138	
! Port Impedance	50.00000000000000	0.00000000000000	
713.75	0.983462983309	-0.179726986482	
! Port Impedance	50.00000000000000	0.00000000000000	
715.0	0.982859768418	-0.18546560966	
! Port Impedance	50.00000000000000	0.00000000000000	
716.25	0.980567703489	-0.193098507641	
! Port Impedance	50.00000000000000	0.00000000000000	
717.5	0.978627464813	-0.20316268898	
! Port Impedance	50.00000000000000	0.00000000000000	
718.75	0.977454108357	-0.211814865769	
! Port Impedance	50.00000000000000	0.00000000000000	
720.0	0.974847896623	-0.221377220464	
! Port Impedance	50.00000000000000	0.00000000000000	
721.25	0.973604013659	-0.227471317414	
! Port Impedance	50.00000000000000	0.00000000000000	
722.5	0.972858458764	-0.234617495851	
! Port Impedance	50.00000000000000	0.00000000000000	
723.75	0.970105602891	-0.243772299676	
! Port Impedance	50.00000000000000	0.00000000000000	
725.0	0.968090905871	-0.251002768178	
! Port Impedance	50.00000000000000	0.00000000000000	
726.25	0.966570485448	-0.25814603549	
! Port Impedance	50.00000000000000	0.00000000000000	
727.5	0.963414947737	-0.266797728445	
! Port Impedance	50.00000000000000	0.00000000000000	
728.75	0.961333520755	-0.276134884739	
! Port Impedance	50.00000000000000	0.00000000000000	
730.0	0.957971490748	-0.284228800327	
! Port Impedance	50.00000000000000	0.00000000000000	
731.25	0.956790654203	-0.291326650841	
! Port Impedance	50.00000000000000	0.00000000000000	
732.5	0.954240108532	-0.299431956012	
! Port Impedance	50.00000000000000	0.00000000000000	
733.75	0.951540325467	-0.307290287865	
! Port Impedance	50.00000000000000	0.00000000000000	
735.0	0.949137404615	-0.317076334377	
! Port Impedance	50.00000000000000	0.00000000000000	
736.25	0.94647204128	-0.323986597755	
! Port Impedance	50.00000000000000	0.00000000000000	
737.5	0.943891240329	-0.331921127207	
! Port Impedance	50.00000000000000	0.00000000000000	
738.75	0.941536735833	-0.337504170574	
! Port Impedance	50.00000000000000	0.00000000000000	
740.0	0.937574556145	-0.346858226292	
! Port Impedance	50.00000000000000	0.00000000000000	
741.25	0.934566098639	-0.355137463962	
! Port Impedance	50.00000000000000	0.00000000000000	
742.5	0.931152811658	-0.363979761608	
! Port Impedance	50.00000000000000	0.00000000000000	
743.75	0.928583388798	-0.371155922268	
! Port Impedance	50.00000000000000	0.00000000000000	
745.0	0.925498358476	-0.378835477798	
! Port Impedance	50.00000000000000	0.00000000000000	
746.25	0.923597781606	-0.385792678451	
! Port Impedance	50.00000000000000	0.00000000000000	
747.5	0.920062532354	-0.393981588331	
! Port Impedance	50.00000000000000	0.00000000000000	
748.75	0.916124474137	-0.40058752104	
! Port Impedance	50.00000000000000	0.00000000000000	
750.0	0.911572896078	-0.408024824361	
! Port Impedance	50.00000000000000	0.00000000000000	
