!Created with mwavepy.
# GHz S RI R 50.0 
!freq	ReS11	ImS11	
500.0	0.162819701786	0.979690453051	
! Port Impedance	50.00000000000000	0.00000000000000	
501.25	0.153821058069	0.993268469008	
! Port Impedance	50.00000000000000	0.00000000000000	
502.5	0.180038428861	0.969438116599	
! Port Impedance	50.00000000000000	0.00000000000000	
503.75	0.176202692607	0.986184959113	
! Port Impedance	50.00000000000000	0.00000000000000	
505.0	0.188424645457	0.98083567408	
! Port Impedance	50.00000000000000	0.00000000000000	
506.25	0.206362979551	0.968441481235	
! Port Impedance	50.00000000000000	0.00000000000000	
507.5	0.202283008908	0.977378317586	
! Port Impedance	50.00000000000000	0.00000000000000	
508.75	0.218227639753	0.968932458174	
! Port Impedance	50.00000000000000	0.00000000000000	
510.0	0.232040917712	0.975471922971	
! Port Impedance	50.00000000000000	0.00000000000000	
511.25	0.240563575793	0.977223137054	
! Port Impedance	50.00000000000000	0.00000000000000	
512.5	0.230175733226	0.963549919742	
! Port Impedance	50.00000000000000	0.00000000000000	
513.75	0.268136426089	0.96228743199	
! Port Impedance	50.00000000000000	0.00000000000000	
515.0	0.271378693197	0.966075542228	
! Port Impedance	50.00000000000000	0.00000000000000	
516.25	0.291750711854	0.960208918007	
! Port Impedance	50.00000000000000	0.00000000000000	
517.5	0.299533823377	0.953809713428	
! Port Impedance	50.00000000000000	0.00000000000000	
518.75	0.30702861542	0.953972883763	
! Port Impedance	50.00000000000000	0.00000000000000	
520.0	0.319406573671	0.95359016715	
! Port Impedance	50.00000000000000	0.00000000000000	
521.25	0.31640585134	0.954853759395	
! Port Impedance	50.00000000000000	0.00000000000000	
522.5	0.333440118257	0.941264670848	
! Port Impedance	50.00000000000000	0.00000000000000	
523.75	0.339659214116	0.938091297293	
! Port Impedance	50.00000000000000	0.00000000000000	
525.0	0.354305067417	0.936778752017	
! Port Impedance	50.00000000000000	0.00000000000000	
526.25	0.363978374559	0.931760759276	
! Port Impedance	50.00000000000000	0.00000000000000	
527.5	0.374075236358	0.928064713007	
! Port Impedance	50.00000000000000	0.00000000000000	
528.75	0.383030850558	0.924142040299	
! Port Impedance	50.00000000000000	0.00000000000000	
530.0	0.395489274318	0.919582010111	
! Port Impedance	50.00000000000000	0.00000000000000	
531.25	0.404535633914	0.913026625594	
! Port Impedance	50.00000000000000	0.00000000000000	
532.5	0.412687390144	0.911119849594	
! Port Impedance	50.00000000000000	0.00000000000000	
533.75	0.422063056851	0.905884531055	
! Port Impedance	50.00000000000000	0.00000000000000	
535.0	0.429137517532	0.903403159556	
! Port Impedance	50.00000000000000	0.00000000000000	
536.25	0.439073624067	0.898817921153	
! Port Impedance	50.00000000000000	0.00000000000000	
537.5	0.446556892435	0.89464842957	
! Port Impedance	50.00000000000000	0.00000000000000	
538.75	0.456135227041	0.89064196648	
! Port Impedance	50.00000000000000	0.00000000000000	
540.0	0.465277788927	0.885815294751	
! Port Impedance	50.00000000000000	0.00000000000000	
541.25	0.474766416774	0.88066121289	
! Port Impedance	50.00000000000000	0.00000000000000	
542.5	0.484840990042	0.875605663788	
! Port Impedance	50.00000000000000	0.00000000000000	
543.75	0.491074093045	0.870563634954	
! Port Impedance	50.00000000000000	0.00000000000000	
545.0	0.497887751047	0.867558599101	
! Port Impedance	50.00000000000000	0.00000000000000	
546.25	0.506651252592	0.862929574283	
! Port Impedance	50.00000000000000	0.00000000000000	
547.5	0.515813630802	0.857572492946	
! Port Impedance	50.00000000000000	0.00000000000000	
548.75	0.525724830206	0.851386387991	
! Port Impedance	50.00000000000000	0.00000000000000	
550.0	0.533401774655	0.848127534856	
! Port Impedance	50.00000000000000	0.00000000000000	
551.25	0.541328069583	0.843205576008	
! Port Impedance	50.00000000000000	0.00000000000000	
552.5	0.553031413962	0.837891659723	
! Port Impedance	50.00000000000000	0.00000000000000	
553.75	0.55809891671	0.834155302324	
! Port Impedance	50.00000000000000	0.00000000000000	
555.0	0.563686000497	0.833661187553	
! Port Impedance	50.00000000000000	0.00000000000000	
556.25	0.576684076981	0.825835689005	
! Port Impedance	50.00000000000000	0.00000000000000	
557.5	0.589480954778	0.819316970642	
! Port Impedance	50.00000000000000	0.00000000000000	
558.75	0.5997146939	0.809620947442	
! Port Impedance	50.00000000000000	0.00000000000000	
560.0	0.60776699985	0.799874135653	
! Port Impedance	50.00000000000000	0.00000000000000	
561.25	0.613179252858	0.79367578513	
! Port Impedance	50.00000000000000	0.00000000000000	
562.5	0.621158244015	0.786898966088	
! Port Impedance	50.00000000000000	0.00000000000000	
563.75	0.626910601896	0.782244497757	
! Port Impedance	50.00000000000000	0.00000000000000	
565.0	0.630740471451	0.777839767799	
! Port Impedance	50.00000000000000	0.00000000000000	
566.25	0.642912748469	0.768483116839	
! Port Impedance	50.00000000000000	0.00000000000000	
567.5	0.64818829404	0.763917049071	
! Port Impedance	50.00000000000000	0.00000000000000	
568.75	0.655963473495	0.755988704938	
! Port Impedance	50.00000000000000	0.00000000000000	
570.0	0.663685539027	0.748864111643	
! Port Impedance	50.00000000000000	0.00000000000000	
571.25	0.667550770861	0.743369984217	
! Port Impedance	50.00000000000000	0.00000000000000	
572.5	0.678359953774	0.735511684382	
! Port Impedance	50.00000000000000	0.00000000000000	
573.75	0.686037617293	0.728437702498	
! Port Impedance	50.00000000000000	0.00000000000000	
575.0	0.693220321847	0.720233356434	
! Port Impedance	50.00000000000000	0.00000000000000	
576.25	0.701686053172	0.715729027184	
! Port Impedance	50.00000000000000	0.00000000000000	
577.5	0.707179531486	0.707894437728	
! Port Impedance	50.00000000000000	0.00000000000000	
578.75	0.712966510223	0.700152161804	
! Port Impedance	50.00000000000000	0.00000000000000	
580.0	0.720075646599	0.69502203259	
! Port Impedance	50.00000000000000	0.00000000000000	
581.25	0.726640518953	0.687942005932	
! Port Impedance	50.00000000000000	0.00000000000000	
582.5	0.732810562636	0.680831434723	
! Port Impedance	50.00000000000000	0.00000000000000	
583.75	0.739276769216	0.673680210145	
! Port Impedance	50.00000000000000	0.00000000000000	
585.0	0.746099865864	0.666715725082	
! Port Impedance	50.00000000000000	0.00000000000000	
586.25	0.751697352528	0.66066878998	
! Port Impedance	50.00000000000000	0.00000000000000	
587.5	0.758511682803	0.653291278224	
! Port Impedance	50.00000000000000	0.00000000000000	
588.75	0.763892010288	0.645796069293	
! Port Impedance	50.00000000000000	0.00000000000000	
590.0	0.770371514001	0.638011066177	
! Port Impedance	50.00000000000000	0.00000000000000	
591.25	0.776230758604	0.630587150489	
! Port Impedance	50.00000000000000	0.00000000000000	
592.5	0.780993717699	0.623334190023	
! Port Impedance	50.00000000000000	0.00000000000000	
593.75	0.787493618508	0.616827053715	
! Port Impedance	50.00000000000000	0.00000000000000	
595.0	0.793560665597	0.609462872549	
! Port Impedance	50.00000000000000	0.00000000000000	
596.25	0.798705719173	0.601823870842	
! Port Impedance	50.00000000000000	0.00000000000000	
597.5	0.804740916659	0.59458371974	
! Port Impedance	50.00000000000000	0.00000000000000	
598.75	0.809864575334	0.588055909247	
! Port Impedance	50.00000000000000	0.00000000000000	
600.0	0.816237259131	0.579829242145	
! Port Impedance	50.00000000000000	0.00000000000000	
601.25	0.819386911584	0.573186810743	
! Port Impedance	50.00000000000000	0.00000000000000	
602.5	0.825974471909	0.564075008863	
! Port Impedance	50.00000000000000	0.00000000000000	
603.75	0.830915557826	0.557604552603	
! Port Impedance	50.00000000000000	0.00000000000000	
605.0	0.836419726275	0.549380712135	
! Port Impedance	50.00000000000000	0.00000000000000	
606.25	0.840832313052	0.54119637621	
! Port Impedance	50.00000000000000	0.00000000000000	
607.5	0.845950483131	0.534300664496	
! Port Impedance	50.00000000000000	0.00000000000000	
608.75	0.85039166894	0.526954559597	
! Port Impedance	50.00000000000000	0.00000000000000	
610.0	0.855007962057	0.519391281747	
! Port Impedance	50.00000000000000	0.00000000000000	
611.25	0.859699627288	0.510584241465	
! Port Impedance	50.00000000000000	0.00000000000000	
612.5	0.86570860142	0.500009905801	
! Port Impedance	50.00000000000000	0.00000000000000	
613.75	0.868158367734	0.495772158191	
! Port Impedance	50.00000000000000	0.00000000000000	
615.0	0.872036020019	0.488057242959	
! Port Impedance	50.00000000000000	0.00000000000000	
616.25	0.878525918787	0.479831264298	
! Port Impedance	50.00000000000000	0.00000000000000	
617.5	0.882482406131	0.47111686453	
! Port Impedance	50.00000000000000	0.00000000000000	
618.75	0.88616989885	0.462891974872	
! Port Impedance	50.00000000000000	0.00000000000000	
620.0	0.891144177979	0.455107164575	
! Port Impedance	50.00000000000000	0.00000000000000	
621.25	0.89549486488	0.446600822117	
! Port Impedance	50.00000000000000	0.00000000000000	
622.5	0.898791575214	0.438555885287	
! Port Impedance	50.00000000000000	0.00000000000000	
623.75	0.903130392414	0.4299140256	
! Port Impedance	50.00000000000000	0.00000000000000	
625.0	0.906109554539	0.422089603221	
! Port Impedance	50.00000000000000	0.00000000000000	
626.25	0.910206774081	0.413915916743	
! Port Impedance	50.00000000000000	0.00000000000000	
627.5	0.913395975796	0.407411404931	
! Port Impedance	50.00000000000000	0.00000000000000	
628.75	0.918799542435	0.397405744859	
! Port Impedance	50.00000000000000	0.00000000000000	
630.0	0.920370177248	0.391763382792	
! Port Impedance	50.00000000000000	0.00000000000000	
631.25	0.924526328041	0.382279533094	
! Port Impedance	50.00000000000000	0.00000000000000	
632.5	0.928347543678	0.372037580701	
! Port Impedance	50.00000000000000	0.00000000000000	
633.75	0.931312910439	0.364571564475	
! Port Impedance	50.00000000000000	0.00000000000000	
635.0	0.936183941615	0.356237338505	
! Port Impedance	50.00000000000000	0.00000000000000	
636.25	0.938578249846	0.347919103295	
! Port Impedance	50.00000000000000	0.00000000000000	
637.5	0.940911011739	0.339849406894	
! Port Impedance	50.00000000000000	0.00000000000000	
638.75	0.945083754806	0.330491261548	
! Port Impedance	50.00000000000000	0.00000000000000	
640.0	0.94668857513	0.322433563747	
! Port Impedance	50.00000000000000	0.00000000000000	
641.25	0.950159525702	0.313869910943	
! Port Impedance	50.00000000000000	0.00000000000000	
642.5	0.952976560287	0.305098962174	
! Port Impedance	50.00000000000000	0.00000000000000	
643.75	0.955409875504	0.296527311245	
! Port Impedance	50.00000000000000	0.00000000000000	
645.0	0.958175663265	0.288116201806	
! Port Impedance	50.00000000000000	0.00000000000000	
646.25	0.959679877208	0.279120804795	
! Port Impedance	50.00000000000000	0.00000000000000	
647.5	0.962906396418	0.270223861025	
! Port Impedance	50.00000000000000	0.00000000000000	
648.75	0.965499146301	0.261487191516	
! Port Impedance	50.00000000000000	0.00000000000000	
650.0	0.966966343354	0.253244859129	
! Port Impedance	50.00000000000000	0.00000000000000	
651.25	0.969441663231	0.244784612464	
! Port Impedance	50.00000000000000	0.00000000000000	
652.5	0.971198314854	0.236923712329	
! Port Impedance	50.00000000000000	0.00000000000000	
653.75	0.974580339587	0.228474424901	
! Port Impedance	50.00000000000000	0.00000000000000	
655.0	0.977848305396	0.214751974006	
! Port Impedance	50.00000000000000	0.00000000000000	
656.25	0.978123284798	0.210202145993	
! Port Impedance	50.00000000000000	0.00000000000000	
657.5	0.979502067215	0.202814643132	
! Port Impedance	50.00000000000000	0.00000000000000	
658.75	0.979801527851	0.19468823594	
! Port Impedance	50.00000000000000	0.00000000000000	
660.0	0.98324811621	0.186895473533	
! Port Impedance	50.00000000000000	0.00000000000000	
661.25	0.984354644171	0.177291688844	
! Port Impedance	50.00000000000000	0.00000000000000	
662.5	0.985156618037	0.169302183512	
! Port Impedance	50.00000000000000	0.00000000000000	
663.75	0.986690104903	0.160460833079	
! Port Impedance	50.00000000000000	0.00000000000000	
665.0	0.988374194158	0.152586210211	
! Port Impedance	50.00000000000000	0.00000000000000	
666.25	0.990370610058	0.143993374474	
! Port Impedance	50.00000000000000	0.00000000000000	
667.5	0.991503829338	0.135220924625	
! Port Impedance	50.00000000000000	0.00000000000000	
668.75	0.99237607345	0.127456951491	
! Port Impedance	50.00000000000000	0.00000000000000	
670.0	0.992986199753	0.117857862067	
! Port Impedance	50.00000000000000	0.00000000000000	
671.25	0.993707320642	0.110912783792	
! Port Impedance	50.00000000000000	0.00000000000000	
672.5	0.995294294701	0.102260261548	
! Port Impedance	50.00000000000000	0.00000000000000	
673.75	0.995756585575	0.0935282222387	
! Port Impedance	50.00000000000000	0.00000000000000	
675.0	0.99637511611	0.0855768667607	
! Port Impedance	50.00000000000000	0.00000000000000	
676.25	0.996885901816	0.0764403305606	
! Port Impedance	50.00000000000000	0.00000000000000	
677.5	0.997451834071	0.0672009506781	
! Port Impedance	50.00000000000000	0.00000000000000	
678.75	0.99838589989	0.059261811655	
! Port Impedance	50.00000000000000	0.00000000000000	
680.0	0.997594312846	0.0510545943102	
! Port Impedance	50.00000000000000	0.00000000000000	
681.25	0.998832954832	0.0433734905069	
! Port Impedance	50.00000000000000	0.00000000000000	
682.5	0.99892404274	0.0350386094595	
! Port Impedance	50.00000000000000	0.00000000000000	
683.75	0.999624999706	0.0261271957515	
! Port Impedance	50.00000000000000	0.00000000000000	
685.0	0.999788686304	0.0184233092155	
! Port Impedance	50.00000000000000	0.00000000000000	
686.25	0.999953451087	0.00911103049476	
! Port Impedance	50.00000000000000	0.00000000000000	
687.5	0.999643236105	0.000469315701279	
! Port Impedance	50.00000000000000	0.00000000000000	
688.75	0.999966762077	-0.00695678157367	
! Port Impedance	50.00000000000000	0.00000000000000	
690.0	1.00071126709	-0.0158523099449	
! Port Impedance	50.00000000000000	0.00000000000000	
691.25	0.999586921917	-0.0241816801966	
! Port Impedance	50.00000000000000	0.00000000000000	
692.5	0.99951230403	-0.0346496498038	
! Port Impedance	50.00000000000000	0.00000000000000	
693.75	0.999250568282	-0.0455163935755	
! Port Impedance	50.00000000000000	0.00000000000000	
695.0	0.999424584627	-0.0525540998063	
! Port Impedance	50.00000000000000	0.00000000000000	
696.25	0.99863413534	-0.0615311648522	
! Port Impedance	50.00000000000000	0.00000000000000	
697.5	0.997071544937	-0.0673367141612	
! Port Impedance	50.00000000000000	0.00000000000000	
698.75	0.99759898178	-0.0745179650636	
! Port Impedance	50.00000000000000	0.00000000000000	
700.0	0.997249373376	-0.081900327738	
! Port Impedance	50.00000000000000	0.00000000000000	
701.25	0.996157787253	-0.09022338744	
! Port Impedance	50.00000000000000	0.00000000000000	
702.5	0.995256519059	-0.0974487165396	
! Port Impedance	50.00000000000000	0.00000000000000	
703.75	0.994118155136	-0.109044074481	
! Port Impedance	50.00000000000000	0.00000000000000	
705.0	0.993690266604	-0.115319268033	
! Port Impedance	50.00000000000000	0.00000000000000	
706.25	0.992324367065	-0.123161744241	
! Port Impedance	50.00000000000000	0.00000000000000	
707.5	0.990812752438	-0.131140546712	
! Port Impedance	50.00000000000000	0.00000000000000	
708.75	0.990104304256	-0.139843826866	
! Port Impedance	50.00000000000000	0.00000000000000	
710.0	0.989351040907	-0.14754945974	
! Port Impedance	50.00000000000000	0.00000000000000	
711.25	0.987194259637	-0.156768745478	
! Port Impedance	50.00000000000000	0.00000000000000	
712.5	0.986557592491	-0.163887728865	
! Port Impedance	50.00000000000000	0.00000000000000	
713.75	0.984862138462	-0.172043336757	
! Port Impedance	50.00000000000000	0.00000000000000	
715.0	0.982795638488	-0.183714415793	
! Port Impedance	50.00000000000000	0.00000000000000	
716.25	0.981627760554	-0.191975455621	
! Port Impedance	50.00000000000000	0.00000000000000	
717.5	0.980457639691	-0.198072429454	
! Port Impedance	50.00000000000000	0.00000000000000	
718.75	0.97891315029	-0.206227302382	
! Port Impedance	50.00000000000000	0.00000000000000	
720.0	0.977044609319	-0.213705196363	
! Port Impedance	50.00000000000000	0.00000000000000	
721.25	0.975001245157	-0.222276116231	
! Port Impedance	50.00000000000000	0.00000000000000	
722.5	0.973014330486	-0.231590483107	
! Port Impedance	50.00000000000000	0.00000000000000	
723.75	0.971179368421	-0.239173177053	
! Port Impedance	50.00000000000000	0.00000000000000	
725.0	0.968678313452	-0.24799905913	
! Port Impedance	50.00000000000000	0.00000000000000	
726.25	0.967060848319	-0.256772381157	
! Port Impedance	50.00000000000000	0.00000000000000	
727.5	0.964676390337	-0.263072288029	
! Port Impedance	50.00000000000000	0.00000000000000	
728.75	0.963829074948	-0.271382272431	
! Port Impedance	50.00000000000000	0.00000000000000	
730.0	0.960958262841	-0.278805578655	
! Port Impedance	50.00000000000000	0.00000000000000	
731.25	0.958078761315	-0.286230276613	
! Port Impedance	50.00000000000000	0.00000000000000	
732.5	0.956069190423	-0.295080814642	
! Port Impedance	50.00000000000000	0.00000000000000	
733.75	0.953186994287	-0.302136814357	
! Port Impedance	50.00000000000000	0.00000000000000	
735.0	0.950911964875	-0.309096183083	
! Port Impedance	50.00000000000000	0.00000000000000	
736.25	0.948313509043	-0.317401131266	
! Port Impedance	50.00000000000000	0.00000000000000	
737.5	0.94617816598	-0.324492452993	
! Port Impedance	50.00000000000000	0.00000000000000	
738.75	0.942888966877	-0.334654974845	
! Port Impedance	50.00000000000000	0.00000000000000	
740.0	0.940483328445	-0.340523815102	
! Port Impedance	50.00000000000000	0.00000000000000	
741.25	0.938243381478	-0.34699352054	
! Port Impedance	50.00000000000000	0.00000000000000	
742.5	0.935199047041	-0.354458727485	
! Port Impedance	50.00000000000000	0.00000000000000	
743.75	0.932974641274	-0.362224430138	
! Port Impedance	50.00000000000000	0.00000000000000	
745.0	0.929049640037	-0.370466781127	
! Port Impedance	50.00000000000000	0.00000000000000	
746.25	0.92664048462	-0.378046613366	
! Port Impedance	50.00000000000000	0.00000000000000	
747.5	0.92582252448	-0.385957048901	
! Port Impedance	50.00000000000000	0.00000000000000	
748.75	0.922455321018	-0.392127899439	
! Port Impedance	50.00000000000000	0.00000000000000	
750.0	0.919826516319	-0.400784029798	
! Port Impedance	50.00000000000000	0.00000000000000	
