!Created with mwavepy.
# GHz S RI R 50.0 
!freq	ReS11	ImS11	
500.0	0.105652327121	0.981558502196	
! Port Impedance	50.00000000000000	0.00000000000000	
501.25	0.161074007311	0.991754653259	
! Port Impedance	50.00000000000000	0.00000000000000	
502.5	0.1668560898	0.986729206404	
! Port Impedance	50.00000000000000	0.00000000000000	
503.75	0.189047422139	0.983893298355	
! Port Impedance	50.00000000000000	0.00000000000000	
505.0	0.197532635146	0.980637245003	
! Port Impedance	50.00000000000000	0.00000000000000	
506.25	0.212714512039	0.974778464086	
! Port Impedance	50.00000000000000	0.00000000000000	
507.5	0.216084768655	0.986276337089	
! Port Impedance	50.00000000000000	0.00000000000000	
508.75	0.229228849947	0.978895181743	
! Port Impedance	50.00000000000000	0.00000000000000	
510.0	0.245011111251	0.970822840771	
! Port Impedance	50.00000000000000	0.00000000000000	
511.25	0.25974328417	0.949096814775	
! Port Impedance	50.00000000000000	0.00000000000000	
512.5	0.258494275517	0.970263683371	
! Port Impedance	50.00000000000000	0.00000000000000	
513.75	0.269391240577	0.958243173539	
! Port Impedance	50.00000000000000	0.00000000000000	
515.0	0.286767359757	0.95546378126	
! Port Impedance	50.00000000000000	0.00000000000000	
516.25	0.285180052589	0.951931546136	
! Port Impedance	50.00000000000000	0.00000000000000	
517.5	0.299882853254	0.951550297995	
! Port Impedance	50.00000000000000	0.00000000000000	
518.75	0.3102570396	0.949192497794	
! Port Impedance	50.00000000000000	0.00000000000000	
520.0	0.323499156313	0.944812999502	
! Port Impedance	50.00000000000000	0.00000000000000	
521.25	0.341512179556	0.952801508865	
! Port Impedance	50.00000000000000	0.00000000000000	
522.5	0.34424146388	0.940196326527	
! Port Impedance	50.00000000000000	0.00000000000000	
523.75	0.350864350133	0.937374239797	
! Port Impedance	50.00000000000000	0.00000000000000	
525.0	0.368530305701	0.931594001065	
! Port Impedance	50.00000000000000	0.00000000000000	
526.25	0.376913040542	0.926422547861	
! Port Impedance	50.00000000000000	0.00000000000000	
527.5	0.386999529457	0.923980200287	
! Port Impedance	50.00000000000000	0.00000000000000	
528.75	0.397892022941	0.919013968194	
! Port Impedance	50.00000000000000	0.00000000000000	
530.0	0.404234298882	0.917931395758	
! Port Impedance	50.00000000000000	0.00000000000000	
531.25	0.419209513658	0.908962474292	
! Port Impedance	50.00000000000000	0.00000000000000	
532.5	0.427303805384	0.905026283969	
! Port Impedance	50.00000000000000	0.00000000000000	
533.75	0.434168618976	0.901565488555	
! Port Impedance	50.00000000000000	0.00000000000000	
535.0	0.444061155586	0.896743712655	
! Port Impedance	50.00000000000000	0.00000000000000	
536.25	0.450644662399	0.89212540856	
! Port Impedance	50.00000000000000	0.00000000000000	
537.5	0.464474159672	0.885576834081	
! Port Impedance	50.00000000000000	0.00000000000000	
538.75	0.471667083942	0.881325748952	
! Port Impedance	50.00000000000000	0.00000000000000	
540.0	0.480840491333	0.875469882624	
! Port Impedance	50.00000000000000	0.00000000000000	
541.25	0.487642686513	0.872355919417	
! Port Impedance	50.00000000000000	0.00000000000000	
542.5	0.495271522915	0.867788718203	
! Port Impedance	50.00000000000000	0.00000000000000	
543.75	0.509771948446	0.86313090522	
! Port Impedance	50.00000000000000	0.00000000000000	
545.0	0.519389811	0.855827138279	
! Port Impedance	50.00000000000000	0.00000000000000	
546.25	0.529617185897	0.849923935452	
! Port Impedance	50.00000000000000	0.00000000000000	
547.5	0.536780322232	0.844574532514	
! Port Impedance	50.00000000000000	0.00000000000000	
548.75	0.543666217416	0.840705946024	
! Port Impedance	50.00000000000000	0.00000000000000	
550.0	0.555238695107	0.831881985426	
! Port Impedance	50.00000000000000	0.00000000000000	
551.25	0.562066926649	0.824947482534	
! Port Impedance	50.00000000000000	0.00000000000000	
552.5	0.562156211071	0.82292707419	
! Port Impedance	50.00000000000000	0.00000000000000	
553.75	0.579338832871	0.808835673119	
! Port Impedance	50.00000000000000	0.00000000000000	
555.0	0.591788665153	0.798275314475	
! Port Impedance	50.00000000000000	0.00000000000000	
556.25	0.592463313933	0.795651931675	
! Port Impedance	50.00000000000000	0.00000000000000	
557.5	0.595732695555	0.789608139795	
! Port Impedance	50.00000000000000	0.00000000000000	
558.75	0.601393260324	0.789955738936	
! Port Impedance	50.00000000000000	0.00000000000000	
560.0	0.60791236936	0.790344880404	
! Port Impedance	50.00000000000000	0.00000000000000	
561.25	0.618551127813	0.783057705989	
! Port Impedance	50.00000000000000	0.00000000000000	
562.5	0.624679666138	0.77784913792	
! Port Impedance	50.00000000000000	0.00000000000000	
563.75	0.634931350835	0.770147483512	
! Port Impedance	50.00000000000000	0.00000000000000	
565.0	0.654415965161	0.756000494745	
! Port Impedance	50.00000000000000	0.00000000000000	
566.25	0.647977672701	0.760425465924	
! Port Impedance	50.00000000000000	0.00000000000000	
567.5	0.658132529183	0.749683913293	
! Port Impedance	50.00000000000000	0.00000000000000	
568.75	0.662374176973	0.747986072368	
! Port Impedance	50.00000000000000	0.00000000000000	
570.0	0.668924701647	0.743124600903	
! Port Impedance	50.00000000000000	0.00000000000000	
571.25	0.686178372166	0.730401205971	
! Port Impedance	50.00000000000000	0.00000000000000	
572.5	0.683149632717	0.730759150796	
! Port Impedance	50.00000000000000	0.00000000000000	
573.75	0.685430093301	0.726894837901	
! Port Impedance	50.00000000000000	0.00000000000000	
575.0	0.694984993262	0.720313301995	
! Port Impedance	50.00000000000000	0.00000000000000	
576.25	0.699597396337	0.712607494741	
! Port Impedance	50.00000000000000	0.00000000000000	
577.5	0.707734646486	0.706050475681	
! Port Impedance	50.00000000000000	0.00000000000000	
578.75	0.714239220977	0.699561562505	
! Port Impedance	50.00000000000000	0.00000000000000	
580.0	0.721596837356	0.691564027784	
! Port Impedance	50.00000000000000	0.00000000000000	
581.25	0.727806730488	0.685465802095	
! Port Impedance	50.00000000000000	0.00000000000000	
582.5	0.733244928979	0.679116731369	
! Port Impedance	50.00000000000000	0.00000000000000	
583.75	0.740232038803	0.671351687608	
! Port Impedance	50.00000000000000	0.00000000000000	
585.0	0.746722861688	0.665620856294	
! Port Impedance	50.00000000000000	0.00000000000000	
586.25	0.752217964426	0.658225639736	
! Port Impedance	50.00000000000000	0.00000000000000	
587.5	0.758556941228	0.650646224515	
! Port Impedance	50.00000000000000	0.00000000000000	
588.75	0.764445136892	0.645664073948	
! Port Impedance	50.00000000000000	0.00000000000000	
590.0	0.768477826995	0.637355773793	
! Port Impedance	50.00000000000000	0.00000000000000	
591.25	0.776046835321	0.629195165496	
! Port Impedance	50.00000000000000	0.00000000000000	
592.5	0.782792452378	0.621985954164	
! Port Impedance	50.00000000000000	0.00000000000000	
593.75	0.788710594347	0.614721873301	
! Port Impedance	50.00000000000000	0.00000000000000	
595.0	0.793993456481	0.607470828863	
! Port Impedance	50.00000000000000	0.00000000000000	
596.25	0.799214369084	0.599292543194	
! Port Impedance	50.00000000000000	0.00000000000000	
597.5	0.805070750713	0.591841265107	
! Port Impedance	50.00000000000000	0.00000000000000	
598.75	0.811252345886	0.583842519288	
! Port Impedance	50.00000000000000	0.00000000000000	
600.0	0.81633956613	0.575844200111	
! Port Impedance	50.00000000000000	0.00000000000000	
601.25	0.824826332102	0.563899154526	
! Port Impedance	50.00000000000000	0.00000000000000	
602.5	0.827380309564	0.56249245246	
! Port Impedance	50.00000000000000	0.00000000000000	
603.75	0.832190307816	0.553790483867	
! Port Impedance	50.00000000000000	0.00000000000000	
605.0	0.836750263144	0.547190872414	
! Port Impedance	50.00000000000000	0.00000000000000	
606.25	0.841851780347	0.538641612411	
! Port Impedance	50.00000000000000	0.00000000000000	
607.5	0.847068261109	0.531528125261	
! Port Impedance	50.00000000000000	0.00000000000000	
608.75	0.851967311612	0.523234083959	
! Port Impedance	50.00000000000000	0.00000000000000	
610.0	0.856904764152	0.515287606525	
! Port Impedance	50.00000000000000	0.00000000000000	
611.25	0.861007176099	0.509520510509	
! Port Impedance	50.00000000000000	0.00000000000000	
612.5	0.861613246712	0.506065537561	
! Port Impedance	50.00000000000000	0.00000000000000	
613.75	0.871756550614	0.490705688717	
! Port Impedance	50.00000000000000	0.00000000000000	
615.0	0.875864282358	0.482595282283	
! Port Impedance	50.00000000000000	0.00000000000000	
616.25	0.878096459047	0.476245783213	
! Port Impedance	50.00000000000000	0.00000000000000	
617.5	0.883098687117	0.468369104483	
! Port Impedance	50.00000000000000	0.00000000000000	
618.75	0.887146103307	0.460131648816	
! Port Impedance	50.00000000000000	0.00000000000000	
620.0	0.891486813758	0.452070939892	
! Port Impedance	50.00000000000000	0.00000000000000	
621.25	0.895459926127	0.443880941778	
! Port Impedance	50.00000000000000	0.00000000000000	
622.5	0.899247139525	0.436396422349	
! Port Impedance	50.00000000000000	0.00000000000000	
623.75	0.903549200165	0.429181254942	
! Port Impedance	50.00000000000000	0.00000000000000	
625.0	0.907506850219	0.420163310819	
! Port Impedance	50.00000000000000	0.00000000000000	
626.25	0.910776454976	0.411591496318	
! Port Impedance	50.00000000000000	0.00000000000000	
627.5	0.916052233612	0.400387044287	
! Port Impedance	50.00000000000000	0.00000000000000	
628.75	0.917699020743	0.396558523048	
! Port Impedance	50.00000000000000	0.00000000000000	
630.0	0.925693333391	0.380611002825	
! Port Impedance	50.00000000000000	0.00000000000000	
631.25	0.926025049423	0.376235051309	
! Port Impedance	50.00000000000000	0.00000000000000	
632.5	0.927753324008	0.372168093787	
! Port Impedance	50.00000000000000	0.00000000000000	
633.75	0.931717350201	0.362978644637	
! Port Impedance	50.00000000000000	0.00000000000000	
635.0	0.933700087673	0.354679300088	
! Port Impedance	50.00000000000000	0.00000000000000	
636.25	0.937166478925	0.347000847064	
! Port Impedance	50.00000000000000	0.00000000000000	
637.5	0.940363910333	0.336225022247	
! Port Impedance	50.00000000000000	0.00000000000000	
638.75	0.943286847785	0.328905218787	
! Port Impedance	50.00000000000000	0.00000000000000	
640.0	0.946476133094	0.320554605127	
! Port Impedance	50.00000000000000	0.00000000000000	
641.25	0.948844898279	0.311444733034	
! Port Impedance	50.00000000000000	0.00000000000000	
642.5	0.95171250257	0.304290606878	
! Port Impedance	50.00000000000000	0.00000000000000	
643.75	0.95531261598	0.295763995186	
! Port Impedance	50.00000000000000	0.00000000000000	
645.0	0.95747765327	0.287460947106	
! Port Impedance	50.00000000000000	0.00000000000000	
646.25	0.959748377669	0.279231441401	
! Port Impedance	50.00000000000000	0.00000000000000	
647.5	0.962255574657	0.27098204403	
! Port Impedance	50.00000000000000	0.00000000000000	
648.75	0.964270531643	0.261642836334	
! Port Impedance	50.00000000000000	0.00000000000000	
650.0	0.967604706312	0.254021277373	
! Port Impedance	50.00000000000000	0.00000000000000	
651.25	0.969057618257	0.245875902271	
! Port Impedance	50.00000000000000	0.00000000000000	
652.5	0.970816862982	0.237020875224	
! Port Impedance	50.00000000000000	0.00000000000000	
653.75	0.973445670425	0.231109083907	
! Port Impedance	50.00000000000000	0.00000000000000	
655.0	0.970929908642	0.233547797503	
! Port Impedance	50.00000000000000	0.00000000000000	
656.25	0.975223275265	0.218879019236	
! Port Impedance	50.00000000000000	0.00000000000000	
657.5	0.978095316245	0.202884920688	
! Port Impedance	50.00000000000000	0.00000000000000	
658.75	0.981327209555	0.194837018291	
! Port Impedance	50.00000000000000	0.00000000000000	
660.0	0.982149578758	0.184877517349	
! Port Impedance	50.00000000000000	0.00000000000000	
661.25	0.983431990758	0.176653678309	
! Port Impedance	50.00000000000000	0.00000000000000	
662.5	0.985991629577	0.168310550666	
! Port Impedance	50.00000000000000	0.00000000000000	
663.75	0.987038485569	0.159626247373	
! Port Impedance	50.00000000000000	0.00000000000000	
665.0	0.988067430342	0.151289556797	
! Port Impedance	50.00000000000000	0.00000000000000	
666.25	0.989953286627	0.142985362138	
! Port Impedance	50.00000000000000	0.00000000000000	
667.5	0.990590328452	0.134015410457	
! Port Impedance	50.00000000000000	0.00000000000000	
668.75	0.992229386492	0.125710818097	
! Port Impedance	50.00000000000000	0.00000000000000	
670.0	0.993572186681	0.11807493507	
! Port Impedance	50.00000000000000	0.00000000000000	
671.25	0.993612361659	0.108919040906	
! Port Impedance	50.00000000000000	0.00000000000000	
672.5	0.995391586151	0.100124475764	
! Port Impedance	50.00000000000000	0.00000000000000	
673.75	0.995543894885	0.0912680476763	
! Port Impedance	50.00000000000000	0.00000000000000	
675.0	0.996145499016	0.0830488260214	
! Port Impedance	50.00000000000000	0.00000000000000	
676.25	0.997931619982	0.0750678527194	
! Port Impedance	50.00000000000000	0.00000000000000	
677.5	0.997733640671	0.0686889344628	
! Port Impedance	50.00000000000000	0.00000000000000	
678.75	0.99762769711	0.0596749900541	
! Port Impedance	50.00000000000000	0.00000000000000	
680.0	0.998389310187	0.0494106885097	
! Port Impedance	50.00000000000000	0.00000000000000	
681.25	0.999528748986	0.0406432268694	
! Port Impedance	50.00000000000000	0.00000000000000	
682.5	0.999310727231	0.0320017306648	
! Port Impedance	50.00000000000000	0.00000000000000	
683.75	0.999412552491	0.0227926152757	
! Port Impedance	50.00000000000000	0.00000000000000	
685.0	1.00018506424	0.0150075728695	
! Port Impedance	50.00000000000000	0.00000000000000	
686.25	0.999674276052	0.00503536336927	
! Port Impedance	50.00000000000000	0.00000000000000	
687.5	1.00054135315	-0.00259016920326	
! Port Impedance	50.00000000000000	0.00000000000000	
688.75	0.999682522098	-0.0107232701369	
! Port Impedance	50.00000000000000	0.00000000000000	
690.0	1.00001319743	-0.0199061311449	
! Port Impedance	50.00000000000000	0.00000000000000	
691.25	0.999811042588	-0.028701775517	
! Port Impedance	50.00000000000000	0.00000000000000	
692.5	1.00042046223	-0.030462334541	
! Port Impedance	50.00000000000000	0.00000000000000	
693.75	1.00070617609	-0.0311664596667	
! Port Impedance	50.00000000000000	0.00000000000000	
695.0	0.998816328215	-0.0429583303749	
! Port Impedance	50.00000000000000	0.00000000000000	
696.25	0.998123812088	-0.0507702117478	
! Port Impedance	50.00000000000000	0.00000000000000	
697.5	0.998412717624	-0.0658377497279	
! Port Impedance	50.00000000000000	0.00000000000000	
698.75	0.997334574005	-0.0770313951888	
! Port Impedance	50.00000000000000	0.00000000000000	
700.0	0.996447490034	-0.0872854385709	
! Port Impedance	50.00000000000000	0.00000000000000	
701.25	0.995021994967	-0.0960470183959	
! Port Impedance	50.00000000000000	0.00000000000000	
702.5	0.994265942335	-0.105250528105	
! Port Impedance	50.00000000000000	0.00000000000000	
703.75	0.993975293541	-0.107888715031	
! Port Impedance	50.00000000000000	0.00000000000000	
705.0	0.992052880291	-0.12078849893	
! Port Impedance	50.00000000000000	0.00000000000000	
706.25	0.991671891915	-0.130865076749	
! Port Impedance	50.00000000000000	0.00000000000000	
707.5	0.990435247646	-0.138012683013	
! Port Impedance	50.00000000000000	0.00000000000000	
708.75	0.988817580157	-0.146223363585	
! Port Impedance	50.00000000000000	0.00000000000000	
710.0	0.988137504823	-0.154485864463	
! Port Impedance	50.00000000000000	0.00000000000000	
711.25	0.986891063445	-0.163502543818	
! Port Impedance	50.00000000000000	0.00000000000000	
712.5	0.985353975688	-0.171510153003	
! Port Impedance	50.00000000000000	0.00000000000000	
713.75	0.983565581514	-0.179204274519	
! Port Impedance	50.00000000000000	0.00000000000000	
715.0	0.983952836494	-0.179866449625	
! Port Impedance	50.00000000000000	0.00000000000000	
716.25	0.980908777241	-0.188633738101	
! Port Impedance	50.00000000000000	0.00000000000000	
717.5	0.978481476991	-0.200584835175	
! Port Impedance	50.00000000000000	0.00000000000000	
718.75	0.977802006549	-0.208812631967	
! Port Impedance	50.00000000000000	0.00000000000000	
720.0	0.975540886914	-0.219590380667	
! Port Impedance	50.00000000000000	0.00000000000000	
721.25	0.973095178785	-0.226647889608	
! Port Impedance	50.00000000000000	0.00000000000000	
722.5	0.971060759331	-0.230548735263	
! Port Impedance	50.00000000000000	0.00000000000000	
723.75	0.970236030344	-0.240001507028	
! Port Impedance	50.00000000000000	0.00000000000000	
725.0	0.969503573051	-0.247695537734	
! Port Impedance	50.00000000000000	0.00000000000000	
726.25	0.966156354188	-0.252678012821	
! Port Impedance	50.00000000000000	0.00000000000000	
727.5	0.962929928006	-0.263038119325	
! Port Impedance	50.00000000000000	0.00000000000000	
728.75	0.963022180261	-0.270502210106	
! Port Impedance	50.00000000000000	0.00000000000000	
730.0	0.960479988817	-0.279442154669	
! Port Impedance	50.00000000000000	0.00000000000000	
731.25	0.956843162977	-0.288742987548	
! Port Impedance	50.00000000000000	0.00000000000000	
732.5	0.953722378062	-0.295571742079	
! Port Impedance	50.00000000000000	0.00000000000000	
733.75	0.951732287595	-0.305490568035	
! Port Impedance	50.00000000000000	0.00000000000000	
735.0	0.948164375125	-0.316073696827	
! Port Impedance	50.00000000000000	0.00000000000000	
736.25	0.945346923806	-0.323922239748	
! Port Impedance	50.00000000000000	0.00000000000000	
737.5	0.942625770315	-0.332829173924	
! Port Impedance	50.00000000000000	0.00000000000000	
738.75	0.942341481592	-0.335057667034	
! Port Impedance	50.00000000000000	0.00000000000000	
740.0	0.937775007473	-0.345223306038	
! Port Impedance	50.00000000000000	0.00000000000000	
741.25	0.933091142226	-0.35493065631	
! Port Impedance	50.00000000000000	0.00000000000000	
742.5	0.931861445296	-0.363702657908	
! Port Impedance	50.00000000000000	0.00000000000000	
743.75	0.928099091208	-0.370270530065	
! Port Impedance	50.00000000000000	0.00000000000000	
745.0	0.925199480375	-0.378306699612	
! Port Impedance	50.00000000000000	0.00000000000000	
746.25	0.921195869137	-0.385216157956	
! Port Impedance	50.00000000000000	0.00000000000000	
747.5	0.916601353804	-0.39367433137	
! Port Impedance	50.00000000000000	0.00000000000000	
748.75	0.913655200093	-0.40156099447	
! Port Impedance	50.00000000000000	0.00000000000000	
750.0	0.91021800984	-0.408583906355	
! Port Impedance	50.00000000000000	0.00000000000000	
