!Created with mwavepy.
# GHz S RI R 50.0 
!freq	ReS11	ImS11	
500.0	0.611630248044	0.698104794912	
! Port Impedance	50.00000000000000	0.00000000000000	
501.25	0.658740531821	0.708971301478	
! Port Impedance	50.00000000000000	0.00000000000000	
502.5	0.653119923607	0.710996489667	
! Port Impedance	50.00000000000000	0.00000000000000	
503.75	0.690479679736	0.703605213536	
! Port Impedance	50.00000000000000	0.00000000000000	
505.0	0.692419354072	0.703533855535	
! Port Impedance	50.00000000000000	0.00000000000000	
506.25	0.659337811154	0.689445224843	
! Port Impedance	50.00000000000000	0.00000000000000	
507.5	0.711545531594	0.686763862986	
! Port Impedance	50.00000000000000	0.00000000000000	
508.75	0.735006184584	0.672031085729	
! Port Impedance	50.00000000000000	0.00000000000000	
510.0	0.742353709804	0.663438683874	
! Port Impedance	50.00000000000000	0.00000000000000	
511.25	0.763513864237	0.641085124386	
! Port Impedance	50.00000000000000	0.00000000000000	
512.5	0.758349638784	0.622399860573	
! Port Impedance	50.00000000000000	0.00000000000000	
513.75	0.788903507917	0.596781936338	
! Port Impedance	50.00000000000000	0.00000000000000	
515.0	0.760728118719	0.601614129821	
! Port Impedance	50.00000000000000	0.00000000000000	
516.25	0.776529938575	0.596550453452	
! Port Impedance	50.00000000000000	0.00000000000000	
517.5	0.784677153179	0.58095623724	
! Port Impedance	50.00000000000000	0.00000000000000	
518.75	0.797918089612	0.574150634006	
! Port Impedance	50.00000000000000	0.00000000000000	
520.0	0.803687284645	0.587301124406	
! Port Impedance	50.00000000000000	0.00000000000000	
521.25	0.801662589822	0.566389729348	
! Port Impedance	50.00000000000000	0.00000000000000	
522.5	0.824595374634	0.554613152719	
! Port Impedance	50.00000000000000	0.00000000000000	
523.75	0.835092817096	0.545104746918	
! Port Impedance	50.00000000000000	0.00000000000000	
525.0	0.838067128679	0.525196600295	
! Port Impedance	50.00000000000000	0.00000000000000	
526.25	0.852210730209	0.510432405987	
! Port Impedance	50.00000000000000	0.00000000000000	
527.5	0.852804243644	0.498261517402	
! Port Impedance	50.00000000000000	0.00000000000000	
528.75	0.857915077217	0.488551465848	
! Port Impedance	50.00000000000000	0.00000000000000	
530.0	0.866516606406	0.474195758183	
! Port Impedance	50.00000000000000	0.00000000000000	
531.25	0.876526697842	0.460519454477	
! Port Impedance	50.00000000000000	0.00000000000000	
532.5	0.884550541695	0.446771367726	
! Port Impedance	50.00000000000000	0.00000000000000	
533.75	0.883880594593	0.436051604235	
! Port Impedance	50.00000000000000	0.00000000000000	
535.0	0.890331605007	0.426376390069	
! Port Impedance	50.00000000000000	0.00000000000000	
536.25	0.897339205562	0.410499971741	
! Port Impedance	50.00000000000000	0.00000000000000	
537.5	0.905726079116	0.40021322812	
! Port Impedance	50.00000000000000	0.00000000000000	
538.75	0.909007143075	0.382751611763	
! Port Impedance	50.00000000000000	0.00000000000000	
540.0	0.909620043038	0.37416579596	
! Port Impedance	50.00000000000000	0.00000000000000	
541.25	0.913453885136	0.358398664713	
! Port Impedance	50.00000000000000	0.00000000000000	
542.5	0.917660896315	0.350740666547	
! Port Impedance	50.00000000000000	0.00000000000000	
543.75	0.928748942943	0.340060104236	
! Port Impedance	50.00000000000000	0.00000000000000	
545.0	0.933938850543	0.331353730469	
! Port Impedance	50.00000000000000	0.00000000000000	
546.25	0.945287030656	0.315198796034	
! Port Impedance	50.00000000000000	0.00000000000000	
547.5	0.944635375026	0.301979139924	
! Port Impedance	50.00000000000000	0.00000000000000	
548.75	0.956142357611	0.279837992641	
! Port Impedance	50.00000000000000	0.00000000000000	
550.0	0.952986205527	0.260153118527	
! Port Impedance	50.00000000000000	0.00000000000000	
551.25	0.953457830543	0.239667824674	
! Port Impedance	50.00000000000000	0.00000000000000	
552.5	0.938288437213	0.2374310338	
! Port Impedance	50.00000000000000	0.00000000000000	
553.75	0.942736980587	0.235898709774	
! Port Impedance	50.00000000000000	0.00000000000000	
555.0	0.950607573523	0.229823609745	
! Port Impedance	50.00000000000000	0.00000000000000	
556.25	0.959320212705	0.210949497571	
! Port Impedance	50.00000000000000	0.00000000000000	
557.5	0.956180715305	0.206025023129	
! Port Impedance	50.00000000000000	0.00000000000000	
558.75	0.95826536516	0.195392542727	
! Port Impedance	50.00000000000000	0.00000000000000	
560.0	0.964107780463	0.182896180558	
! Port Impedance	50.00000000000000	0.00000000000000	
561.25	0.972480696672	0.165052539712	
! Port Impedance	50.00000000000000	0.00000000000000	
562.5	0.976277508001	0.152775733497	
! Port Impedance	50.00000000000000	0.00000000000000	
563.75	0.976194484556	0.136414706146	
! Port Impedance	50.00000000000000	0.00000000000000	
565.0	0.981346438358	0.137367186767	
! Port Impedance	50.00000000000000	0.00000000000000	
566.25	0.977518249345	0.109563728882	
! Port Impedance	50.00000000000000	0.00000000000000	
567.5	0.982480031086	0.100561532369	
! Port Impedance	50.00000000000000	0.00000000000000	
568.75	0.97926447394	0.0876928532441	
! Port Impedance	50.00000000000000	0.00000000000000	
570.0	0.983134635581	0.0742735675863	
! Port Impedance	50.00000000000000	0.00000000000000	
571.25	0.987813476569	0.068671738215	
! Port Impedance	50.00000000000000	0.00000000000000	
572.5	0.990638414708	0.0466118546015	
! Port Impedance	50.00000000000000	0.00000000000000	
573.75	0.99033824969	0.030309517434	
! Port Impedance	50.00000000000000	0.00000000000000	
575.0	0.989985752619	0.0111791011674	
! Port Impedance	50.00000000000000	0.00000000000000	
576.25	0.991132802855	0.00306463175536	
! Port Impedance	50.00000000000000	0.00000000000000	
577.5	0.982926202871	-0.0180165218844	
! Port Impedance	50.00000000000000	0.00000000000000	
578.75	0.984888598604	-0.0234217614259	
! Port Impedance	50.00000000000000	0.00000000000000	
580.0	0.983452219441	-0.032307030379	
! Port Impedance	50.00000000000000	0.00000000000000	
581.25	0.992497813194	-0.0431485887373	
! Port Impedance	50.00000000000000	0.00000000000000	
582.5	0.986408315787	-0.0570138729099	
! Port Impedance	50.00000000000000	0.00000000000000	
583.75	0.989593829116	-0.0819051956508	
! Port Impedance	50.00000000000000	0.00000000000000	
585.0	0.989446640654	-0.0881178765892	
! Port Impedance	50.00000000000000	0.00000000000000	
586.25	0.979719626623	-0.11106858772	
! Port Impedance	50.00000000000000	0.00000000000000	
587.5	0.976393910671	-0.125296335221	
! Port Impedance	50.00000000000000	0.00000000000000	
588.75	0.960608592897	-0.124782101106	
! Port Impedance	50.00000000000000	0.00000000000000	
590.0	0.967597326055	-0.122773232945	
! Port Impedance	50.00000000000000	0.00000000000000	
591.25	0.984841992246	-0.121340904426	
! Port Impedance	50.00000000000000	0.00000000000000	
592.5	0.988164133343	-0.156307132786	
! Port Impedance	50.00000000000000	0.00000000000000	
593.75	0.988571664149	-0.174314629979	
! Port Impedance	50.00000000000000	0.00000000000000	
595.0	0.975033114716	-0.192074777102	
! Port Impedance	50.00000000000000	0.00000000000000	
596.25	0.974257094901	-0.204699862317	
! Port Impedance	50.00000000000000	0.00000000000000	
597.5	0.966008702853	-0.212220457994	
! Port Impedance	50.00000000000000	0.00000000000000	
598.75	0.96546338498	-0.226392453317	
! Port Impedance	50.00000000000000	0.00000000000000	
600.0	0.967722339105	-0.240360732113	
! Port Impedance	50.00000000000000	0.00000000000000	
601.25	0.951835019249	-0.255232319839	
! Port Impedance	50.00000000000000	0.00000000000000	
602.5	0.944816291813	-0.268681504271	
! Port Impedance	50.00000000000000	0.00000000000000	
603.75	0.939168865263	-0.26854629026	
! Port Impedance	50.00000000000000	0.00000000000000	
605.0	0.937225461873	-0.283093357733	
! Port Impedance	50.00000000000000	0.00000000000000	
606.25	0.945798411779	-0.290388534823	
! Port Impedance	50.00000000000000	0.00000000000000	
607.5	0.939593319257	-0.298148459478	
! Port Impedance	50.00000000000000	0.00000000000000	
608.75	0.940467550651	-0.319904439059	
! Port Impedance	50.00000000000000	0.00000000000000	
610.0	0.93257671813	-0.329234634472	
! Port Impedance	50.00000000000000	0.00000000000000	
611.25	0.919079389701	-0.33966433059	
! Port Impedance	50.00000000000000	0.00000000000000	
612.5	0.919715508054	-0.350609285007	
! Port Impedance	50.00000000000000	0.00000000000000	
613.75	0.917778516179	-0.355480634519	
! Port Impedance	50.00000000000000	0.00000000000000	
615.0	0.911972853889	-0.375882471366	
! Port Impedance	50.00000000000000	0.00000000000000	
616.25	0.917558481586	-0.387220848736	
! Port Impedance	50.00000000000000	0.00000000000000	
617.5	0.905609288479	-0.393973019187	
! Port Impedance	50.00000000000000	0.00000000000000	
618.75	0.893907486364	-0.414023040835	
! Port Impedance	50.00000000000000	0.00000000000000	
620.0	0.898766866304	-0.415691656227	
! Port Impedance	50.00000000000000	0.00000000000000	
621.25	0.894962462377	-0.426367208365	
! Port Impedance	50.00000000000000	0.00000000000000	
622.5	0.889656136254	-0.451372465522	
! Port Impedance	50.00000000000000	0.00000000000000	
623.75	0.87816988468	-0.455449561632	
! Port Impedance	50.00000000000000	0.00000000000000	
625.0	0.861499842001	-0.460276981943	
! Port Impedance	50.00000000000000	0.00000000000000	
626.25	0.863566725701	-0.465059134911	
! Port Impedance	50.00000000000000	0.00000000000000	
627.5	0.870792787	-0.464346298035	
! Port Impedance	50.00000000000000	0.00000000000000	
628.75	0.87207656573	-0.487692051937	
! Port Impedance	50.00000000000000	0.00000000000000	
630.0	0.870504936638	-0.520412888056	
! Port Impedance	50.00000000000000	0.00000000000000	
631.25	0.843727287666	-0.526625623836	
! Port Impedance	50.00000000000000	0.00000000000000	
632.5	0.820382735831	-0.537478212608	
! Port Impedance	50.00000000000000	0.00000000000000	
633.75	0.826296614409	-0.542044906729	
! Port Impedance	50.00000000000000	0.00000000000000	
635.0	0.818163462	-0.537070378874	
! Port Impedance	50.00000000000000	0.00000000000000	
636.25	0.807804261844	-0.55242455716	
! Port Impedance	50.00000000000000	0.00000000000000	
637.5	0.810077737188	-0.562618851831	
! Port Impedance	50.00000000000000	0.00000000000000	
638.75	0.797999675507	-0.559856139452	
! Port Impedance	50.00000000000000	0.00000000000000	
640.0	0.790144024443	-0.570332642108	
! Port Impedance	50.00000000000000	0.00000000000000	
641.25	0.796728533706	-0.58354699993	
! Port Impedance	50.00000000000000	0.00000000000000	
642.5	0.787949881821	-0.594155464797	
! Port Impedance	50.00000000000000	0.00000000000000	
643.75	0.775175297162	-0.607122427439	
! Port Impedance	50.00000000000000	0.00000000000000	
645.0	0.775992193887	-0.61305825547	
! Port Impedance	50.00000000000000	0.00000000000000	
646.25	0.767380542992	-0.62124860277	
! Port Impedance	50.00000000000000	0.00000000000000	
647.5	0.754855908937	-0.640358218528	
! Port Impedance	50.00000000000000	0.00000000000000	
648.75	0.754125217278	-0.653028223276	
! Port Impedance	50.00000000000000	0.00000000000000	
650.0	0.742928063607	-0.647809997953	
! Port Impedance	50.00000000000000	0.00000000000000	
651.25	0.720264623716	-0.657095989163	
! Port Impedance	50.00000000000000	0.00000000000000	
652.5	0.72723299898	-0.672328535744	
! Port Impedance	50.00000000000000	0.00000000000000	
653.75	0.726702375573	-0.671515176919	
! Port Impedance	50.00000000000000	0.00000000000000	
655.0	0.702240507373	-0.689707332906	
! Port Impedance	50.00000000000000	0.00000000000000	
656.25	0.695943449776	-0.704983655071	
! Port Impedance	50.00000000000000	0.00000000000000	
657.5	0.694658718846	-0.697838373917	
! Port Impedance	50.00000000000000	0.00000000000000	
658.75	0.678698658805	-0.70108687704	
! Port Impedance	50.00000000000000	0.00000000000000	
660.0	0.671240766851	-0.718178678033	
! Port Impedance	50.00000000000000	0.00000000000000	
661.25	0.669063839351	-0.72852873561	
! Port Impedance	50.00000000000000	0.00000000000000	
662.5	0.648090308757	-0.725974179182	
! Port Impedance	50.00000000000000	0.00000000000000	
663.75	0.640453034209	-0.731940513553	
! Port Impedance	50.00000000000000	0.00000000000000	
665.0	0.652142337508	-0.740615691203	
! Port Impedance	50.00000000000000	0.00000000000000	
666.25	0.647758227936	-0.752895684588	
! Port Impedance	50.00000000000000	0.00000000000000	
667.5	0.624941524716	-0.77246933749	
! Port Impedance	50.00000000000000	0.00000000000000	
668.75	0.609086404954	-0.787119612252	
! Port Impedance	50.00000000000000	0.00000000000000	
670.0	0.595386474538	-0.777653972556	
! Port Impedance	50.00000000000000	0.00000000000000	
671.25	0.576837736838	-0.773694806007	
! Port Impedance	50.00000000000000	0.00000000000000	
672.5	0.579469239929	-0.783595896745	
! Port Impedance	50.00000000000000	0.00000000000000	
673.75	0.582831006942	-0.784791378211	
! Port Impedance	50.00000000000000	0.00000000000000	
675.0	0.566644482718	-0.784533900104	
! Port Impedance	50.00000000000000	0.00000000000000	
676.25	0.560115470637	-0.80338046318	
! Port Impedance	50.00000000000000	0.00000000000000	
677.5	0.564161729817	-0.811182150388	
! Port Impedance	50.00000000000000	0.00000000000000	
678.75	0.548828185768	-0.814683174067	
! Port Impedance	50.00000000000000	0.00000000000000	
680.0	0.52816162103	-0.826110054191	
! Port Impedance	50.00000000000000	0.00000000000000	
681.25	0.524606413011	-0.833882590304	
! Port Impedance	50.00000000000000	0.00000000000000	
682.5	0.523716918631	-0.830999411034	
! Port Impedance	50.00000000000000	0.00000000000000	
683.75	0.505329440537	-0.834248493586	
! Port Impedance	50.00000000000000	0.00000000000000	
685.0	0.48810482635	-0.854090950647	
! Port Impedance	50.00000000000000	0.00000000000000	
686.25	0.483390024678	-0.854822360083	
! Port Impedance	50.00000000000000	0.00000000000000	
687.5	0.476874834075	-0.845117053078	
! Port Impedance	50.00000000000000	0.00000000000000	
688.75	0.46596115874	-0.85553026047	
! Port Impedance	50.00000000000000	0.00000000000000	
690.0	0.459880308568	-0.871632056599	
! Port Impedance	50.00000000000000	0.00000000000000	
691.25	0.454098577764	-0.873949682408	
! Port Impedance	50.00000000000000	0.00000000000000	
692.5	0.428726265713	-0.870599638102	
! Port Impedance	50.00000000000000	0.00000000000000	
693.75	0.406029030514	-0.882274674772	
! Port Impedance	50.00000000000000	0.00000000000000	
695.0	0.414174795042	-0.891353796344	
! Port Impedance	50.00000000000000	0.00000000000000	
696.25	0.409276383103	-0.889716865758	
! Port Impedance	50.00000000000000	0.00000000000000	
697.5	0.385854969196	-0.890164114054	
! Port Impedance	50.00000000000000	0.00000000000000	
698.75	0.374530407519	-0.902565220237	
! Port Impedance	50.00000000000000	0.00000000000000	
700.0	0.381928944821	-0.900047196431	
! Port Impedance	50.00000000000000	0.00000000000000	
701.25	0.372888070981	-0.895436942028	
! Port Impedance	50.00000000000000	0.00000000000000	
702.5	0.354449969222	-0.904518729074	
! Port Impedance	50.00000000000000	0.00000000000000	
703.75	0.346070080586	-0.918259537517	
! Port Impedance	50.00000000000000	0.00000000000000	
705.0	0.345045388622	-0.920532047342	
! Port Impedance	50.00000000000000	0.00000000000000	
706.25	0.323530082745	-0.916620982528	
! Port Impedance	50.00000000000000	0.00000000000000	
707.5	0.304215133654	-0.913078834636	
! Port Impedance	50.00000000000000	0.00000000000000	
708.75	0.312434314506	-0.911876859337	
! Port Impedance	50.00000000000000	0.00000000000000	
710.0	0.317934633726	-0.913446177532	
! Port Impedance	50.00000000000000	0.00000000000000	
711.25	0.303220926638	-0.922590733982	
! Port Impedance	50.00000000000000	0.00000000000000	
712.5	0.286464590793	-0.939032169916	
! Port Impedance	50.00000000000000	0.00000000000000	
713.75	0.277678563401	-0.942765020974	
! Port Impedance	50.00000000000000	0.00000000000000	
715.0	0.262802140572	-0.938033118026	
! Port Impedance	50.00000000000000	0.00000000000000	
716.25	0.24802940355	-0.941672680006	
! Port Impedance	50.00000000000000	0.00000000000000	
717.5	0.235142136076	-0.953596954427	
! Port Impedance	50.00000000000000	0.00000000000000	
718.75	0.230225144483	-0.957407068005	
! Port Impedance	50.00000000000000	0.00000000000000	
720.0	0.224396172288	-0.947679672924	
! Port Impedance	50.00000000000000	0.00000000000000	
721.25	0.208950200886	-0.9466470953	
! Port Impedance	50.00000000000000	0.00000000000000	
722.5	0.198678978181	-0.954829818442	
! Port Impedance	50.00000000000000	0.00000000000000	
723.75	0.18805333208	-0.957613030032	
! Port Impedance	50.00000000000000	0.00000000000000	
725.0	0.179537133014	-0.951817865389	
! Port Impedance	50.00000000000000	0.00000000000000	
726.25	0.170287604267	-0.952375129843	
! Port Impedance	50.00000000000000	0.00000000000000	
727.5	0.159739531882	-0.958576161749	
! Port Impedance	50.00000000000000	0.00000000000000	
728.75	0.147280451192	-0.96644036209	
! Port Impedance	50.00000000000000	0.00000000000000	
730.0	0.134845413733	-0.963032393394	
! Port Impedance	50.00000000000000	0.00000000000000	
731.25	0.125170356132	-0.957654003305	
! Port Impedance	50.00000000000000	0.00000000000000	
732.5	0.117997227027	-0.965219690531	
! Port Impedance	50.00000000000000	0.00000000000000	
733.75	0.110809354467	-0.97041242319	
! Port Impedance	50.00000000000000	0.00000000000000	
735.0	0.0983486395288	-0.961129478506	
! Port Impedance	50.00000000000000	0.00000000000000	
736.25	0.0913034100393	-0.961188322677	
! Port Impedance	50.00000000000000	0.00000000000000	
737.5	0.0815138956317	-0.966109794977	
! Port Impedance	50.00000000000000	0.00000000000000	
738.75	0.0699445058689	-0.970997609075	
! Port Impedance	50.00000000000000	0.00000000000000	
740.0	0.0636248650514	-0.971248607814	
! Port Impedance	50.00000000000000	0.00000000000000	
741.25	0.0528687963314	-0.971679202088	
! Port Impedance	50.00000000000000	0.00000000000000	
742.5	0.0386753277676	-0.973659599792	
! Port Impedance	50.00000000000000	0.00000000000000	
743.75	0.0274191809185	-0.978458566717	
! Port Impedance	50.00000000000000	0.00000000000000	
745.0	0.0127836951156	-0.964633990204	
! Port Impedance	50.00000000000000	0.00000000000000	
746.25	0.0163384465946	-0.952601257263	
! Port Impedance	50.00000000000000	0.00000000000000	
747.5	0.0100395091647	-0.967926307939	
! Port Impedance	50.00000000000000	0.00000000000000	
748.75	-0.0111992647125	-0.974474378961	
! Port Impedance	50.00000000000000	0.00000000000000	
750.0	-0.0237356382027	-0.971202284098	
! Port Impedance	50.00000000000000	0.00000000000000	
