!Created with mwavepy.
# GHz S RI R 50.0 
!freq	ReS11	ImS11	
500.0	0.610933373241	0.752550544762	
! Port Impedance	50.00000000000000	0.00000000000000	
501.25	0.626677463823	0.720619159072	
! Port Impedance	50.00000000000000	0.00000000000000	
502.5	0.62558938166	0.749527065864	
! Port Impedance	50.00000000000000	0.00000000000000	
503.75	0.642650183524	0.747131548157	
! Port Impedance	50.00000000000000	0.00000000000000	
505.0	0.652441491016	0.750220956343	
! Port Impedance	50.00000000000000	0.00000000000000	
506.25	0.655999793472	0.734842031064	
! Port Impedance	50.00000000000000	0.00000000000000	
507.5	0.663469503652	0.737742702316	
! Port Impedance	50.00000000000000	0.00000000000000	
508.75	0.689383992826	0.721749125446	
! Port Impedance	50.00000000000000	0.00000000000000	
510.0	0.703112795275	0.705497291525	
! Port Impedance	50.00000000000000	0.00000000000000	
511.25	0.723704242945	0.704074882491	
! Port Impedance	50.00000000000000	0.00000000000000	
512.5	0.716409515809	0.65645705279	
! Port Impedance	50.00000000000000	0.00000000000000	
513.75	0.730820615741	0.641721516732	
! Port Impedance	50.00000000000000	0.00000000000000	
515.0	0.723919993616	0.649708354946	
! Port Impedance	50.00000000000000	0.00000000000000	
516.25	0.728573886491	0.651246077236	
! Port Impedance	50.00000000000000	0.00000000000000	
517.5	0.739401985134	0.643686774345	
! Port Impedance	50.00000000000000	0.00000000000000	
518.75	0.752682925764	0.639563414425	
! Port Impedance	50.00000000000000	0.00000000000000	
520.0	0.739853091391	0.629428314173	
! Port Impedance	50.00000000000000	0.00000000000000	
521.25	0.77356408504	0.606259756195	
! Port Impedance	50.00000000000000	0.00000000000000	
522.5	0.779232305629	0.615251231333	
! Port Impedance	50.00000000000000	0.00000000000000	
523.75	0.790168505522	0.605810682122	
! Port Impedance	50.00000000000000	0.00000000000000	
525.0	0.80040162741	0.58368334375	
! Port Impedance	50.00000000000000	0.00000000000000	
526.25	0.809763867462	0.574191123134	
! Port Impedance	50.00000000000000	0.00000000000000	
527.5	0.811780150742	0.564054541003	
! Port Impedance	50.00000000000000	0.00000000000000	
528.75	0.816312064331	0.553671034456	
! Port Impedance	50.00000000000000	0.00000000000000	
530.0	0.825609659249	0.545627091924	
! Port Impedance	50.00000000000000	0.00000000000000	
531.25	0.839596296231	0.532911261541	
! Port Impedance	50.00000000000000	0.00000000000000	
532.5	0.845717250007	0.517179736782	
! Port Impedance	50.00000000000000	0.00000000000000	
533.75	0.846665936927	0.503426158397	
! Port Impedance	50.00000000000000	0.00000000000000	
535.0	0.852895237719	0.49584068465	
! Port Impedance	50.00000000000000	0.00000000000000	
536.25	0.859061837025	0.486667675988	
! Port Impedance	50.00000000000000	0.00000000000000	
537.5	0.868330797636	0.47509655903	
! Port Impedance	50.00000000000000	0.00000000000000	
538.75	0.871834561083	0.459696376927	
! Port Impedance	50.00000000000000	0.00000000000000	
540.0	0.873420504939	0.4505414182	
! Port Impedance	50.00000000000000	0.00000000000000	
541.25	0.877756960275	0.438228635662	
! Port Impedance	50.00000000000000	0.00000000000000	
542.5	0.883268743839	0.431038254726	
! Port Impedance	50.00000000000000	0.00000000000000	
543.75	0.894883307185	0.420456120133	
! Port Impedance	50.00000000000000	0.00000000000000	
545.0	0.901410924526	0.409776004835	
! Port Impedance	50.00000000000000	0.00000000000000	
546.25	0.912632912334	0.395726135324	
! Port Impedance	50.00000000000000	0.00000000000000	
547.5	0.912377746196	0.38387715451	
! Port Impedance	50.00000000000000	0.00000000000000	
548.75	0.925113481161	0.365184636966	
! Port Impedance	50.00000000000000	0.00000000000000	
550.0	0.924818752432	0.348472747693	
! Port Impedance	50.00000000000000	0.00000000000000	
551.25	0.926348293801	0.326717886765	
! Port Impedance	50.00000000000000	0.00000000000000	
552.5	0.912936133345	0.324024332194	
! Port Impedance	50.00000000000000	0.00000000000000	
553.75	0.917974797287	0.318102617506	
! Port Impedance	50.00000000000000	0.00000000000000	
555.0	0.924640304166	0.307443472545	
! Port Impedance	50.00000000000000	0.00000000000000	
556.25	0.928634442423	0.295525890137	
! Port Impedance	50.00000000000000	0.00000000000000	
557.5	0.924895613579	0.290124802642	
! Port Impedance	50.00000000000000	0.00000000000000	
558.75	0.929772470892	0.286970795612	
! Port Impedance	50.00000000000000	0.00000000000000	
560.0	0.937452443513	0.280300056742	
! Port Impedance	50.00000000000000	0.00000000000000	
561.25	0.948455088506	0.264778204681	
! Port Impedance	50.00000000000000	0.00000000000000	
562.5	0.953222604241	0.253782305453	
! Port Impedance	50.00000000000000	0.00000000000000	
563.75	0.955662486867	0.235016880707	
! Port Impedance	50.00000000000000	0.00000000000000	
565.0	0.963536474122	0.226445407486	
! Port Impedance	50.00000000000000	0.00000000000000	
566.25	0.960793329296	0.214690671991	
! Port Impedance	50.00000000000000	0.00000000000000	
567.5	0.967040783991	0.20219064423	
! Port Impedance	50.00000000000000	0.00000000000000	
568.75	0.966255216833	0.193096805707	
! Port Impedance	50.00000000000000	0.00000000000000	
570.0	0.970700055511	0.181800057236	
! Port Impedance	50.00000000000000	0.00000000000000	
571.25	0.976487451458	0.170120380641	
! Port Impedance	50.00000000000000	0.00000000000000	
572.5	0.981389156068	0.156078145937	
! Port Impedance	50.00000000000000	0.00000000000000	
573.75	0.982517615643	0.140954108754	
! Port Impedance	50.00000000000000	0.00000000000000	
575.0	0.98377637927	0.12549736544	
! Port Impedance	50.00000000000000	0.00000000000000	
576.25	0.985888790812	0.117785450828	
! Port Impedance	50.00000000000000	0.00000000000000	
577.5	0.982049973637	0.0999249414993	
! Port Impedance	50.00000000000000	0.00000000000000	
578.75	0.983424924762	0.0924913555051	
! Port Impedance	50.00000000000000	0.00000000000000	
580.0	0.983720933517	0.0823963529171	
! Port Impedance	50.00000000000000	0.00000000000000	
581.25	0.992411414131	0.0729879551855	
! Port Impedance	50.00000000000000	0.00000000000000	
582.5	0.989649462907	0.0598898231367	
! Port Impedance	50.00000000000000	0.00000000000000	
583.75	0.994320049641	0.0372023171549	
! Port Impedance	50.00000000000000	0.00000000000000	
585.0	0.995040329808	0.0309163243196	
! Port Impedance	50.00000000000000	0.00000000000000	
586.25	0.990022938148	0.0095086806573	
! Port Impedance	50.00000000000000	0.00000000000000	
587.5	0.986821001926	-0.0036339127281	
! Port Impedance	50.00000000000000	0.00000000000000	
588.75	0.975648504855	-0.00675351770124	
! Port Impedance	50.00000000000000	0.00000000000000	
590.0	0.979703254082	-0.00485553044415	
! Port Impedance	50.00000000000000	0.00000000000000	
591.25	0.994266748053	-0.00465965000361	
! Port Impedance	50.00000000000000	0.00000000000000	
592.5	1.00233427296	-0.0360187159083	
! Port Impedance	50.00000000000000	0.00000000000000	
593.75	1.00391818983	-0.0535862297983	
! Port Impedance	50.00000000000000	0.00000000000000	
595.0	0.994642681662	-0.0718027455595	
! Port Impedance	50.00000000000000	0.00000000000000	
596.25	0.995002233755	-0.0830337775595	
! Port Impedance	50.00000000000000	0.00000000000000	
597.5	0.98788917236	-0.0921871246429	
! Port Impedance	50.00000000000000	0.00000000000000	
598.75	0.989799976764	-0.107439563358	
! Port Impedance	50.00000000000000	0.00000000000000	
600.0	0.993135501318	-0.119329130891	
! Port Impedance	50.00000000000000	0.00000000000000	
601.25	0.980573524997	-0.137136177488	
! Port Impedance	50.00000000000000	0.00000000000000	
602.5	0.976570792658	-0.146800192835	
! Port Impedance	50.00000000000000	0.00000000000000	
603.75	0.971027791733	-0.149910600928	
! Port Impedance	50.00000000000000	0.00000000000000	
605.0	0.971447677103	-0.162937225178	
! Port Impedance	50.00000000000000	0.00000000000000	
606.25	0.979386789665	-0.170958683526	
! Port Impedance	50.00000000000000	0.00000000000000	
607.5	0.974060210971	-0.178182358795	
! Port Impedance	50.00000000000000	0.00000000000000	
608.75	0.976907200191	-0.198281495036	
! Port Impedance	50.00000000000000	0.00000000000000	
610.0	0.972162863938	-0.207595432832	
! Port Impedance	50.00000000000000	0.00000000000000	
611.25	0.961955794328	-0.21854574235	
! Port Impedance	50.00000000000000	0.00000000000000	
612.5	0.963723693738	-0.226711803953	
! Port Impedance	50.00000000000000	0.00000000000000	
613.75	0.960153406274	-0.23838236807	
! Port Impedance	50.00000000000000	0.00000000000000	
615.0	0.956297989684	-0.259358799927	
! Port Impedance	50.00000000000000	0.00000000000000	
616.25	0.962012270922	-0.267026567858	
! Port Impedance	50.00000000000000	0.00000000000000	
617.5	0.953340295879	-0.274682583331	
! Port Impedance	50.00000000000000	0.00000000000000	
618.75	0.946506153301	-0.292952731312	
! Port Impedance	50.00000000000000	0.00000000000000	
620.0	0.95002755856	-0.298470860235	
! Port Impedance	50.00000000000000	0.00000000000000	
621.25	0.946274770914	-0.307431651966	
! Port Impedance	50.00000000000000	0.00000000000000	
622.5	0.944116406226	-0.33175855739	
! Port Impedance	50.00000000000000	0.00000000000000	
623.75	0.935771756745	-0.337415436866	
! Port Impedance	50.00000000000000	0.00000000000000	
625.0	0.921768354025	-0.343812973135	
! Port Impedance	50.00000000000000	0.00000000000000	
626.25	0.923705098273	-0.349903770494	
! Port Impedance	50.00000000000000	0.00000000000000	
627.5	0.927049171831	-0.351417566926	
! Port Impedance	50.00000000000000	0.00000000000000	
628.75	0.931021454985	-0.370570801655	
! Port Impedance	50.00000000000000	0.00000000000000	
630.0	0.931401029142	-0.406480219733	
! Port Impedance	50.00000000000000	0.00000000000000	
631.25	0.910263449762	-0.412099623816	
! Port Impedance	50.00000000000000	0.00000000000000	
632.5	0.893082487131	-0.422756975662	
! Port Impedance	50.00000000000000	0.00000000000000	
633.75	0.89580240875	-0.42864773925	
! Port Impedance	50.00000000000000	0.00000000000000	
635.0	0.887875063584	-0.425748954667	
! Port Impedance	50.00000000000000	0.00000000000000	
636.25	0.879209142279	-0.441939369104	
! Port Impedance	50.00000000000000	0.00000000000000	
637.5	0.882041392477	-0.451826113754	
! Port Impedance	50.00000000000000	0.00000000000000	
638.75	0.870591300712	-0.451790462082	
! Port Impedance	50.00000000000000	0.00000000000000	
640.0	0.864895359395	-0.463064350376	
! Port Impedance	50.00000000000000	0.00000000000000	
641.25	0.870845902485	-0.47627079568	
! Port Impedance	50.00000000000000	0.00000000000000	
642.5	0.863829527228	-0.486119535615	
! Port Impedance	50.00000000000000	0.00000000000000	
643.75	0.85358704837	-0.499297442659	
! Port Impedance	50.00000000000000	0.00000000000000	
645.0	0.854193197405	-0.50795254851	
! Port Impedance	50.00000000000000	0.00000000000000	
646.25	0.84857309506	-0.515956047477	
! Port Impedance	50.00000000000000	0.00000000000000	
647.5	0.837869557052	-0.534941366399	
! Port Impedance	50.00000000000000	0.00000000000000	
648.75	0.837055567136	-0.547583370223	
! Port Impedance	50.00000000000000	0.00000000000000	
650.0	0.826507424192	-0.546256074478	
! Port Impedance	50.00000000000000	0.00000000000000	
651.25	0.807098818704	-0.557432275989	
! Port Impedance	50.00000000000000	0.00000000000000	
652.5	0.814831579559	-0.570160626062	
! Port Impedance	50.00000000000000	0.00000000000000	
653.75	0.812624548932	-0.570034463348	
! Port Impedance	50.00000000000000	0.00000000000000	
655.0	0.794971958306	-0.581976223522	
! Port Impedance	50.00000000000000	0.00000000000000	
656.25	0.792267719787	-0.603213849407	
! Port Impedance	50.00000000000000	0.00000000000000	
657.5	0.78686238855	-0.601801321927	
! Port Impedance	50.00000000000000	0.00000000000000	
658.75	0.770756557922	-0.607653141725	
! Port Impedance	50.00000000000000	0.00000000000000	
660.0	0.764455036401	-0.624839781151	
! Port Impedance	50.00000000000000	0.00000000000000	
661.25	0.763359322874	-0.635289563594	
! Port Impedance	50.00000000000000	0.00000000000000	
662.5	0.744513518475	-0.63693777595	
! Port Impedance	50.00000000000000	0.00000000000000	
663.75	0.738680040769	-0.641593937281	
! Port Impedance	50.00000000000000	0.00000000000000	
665.0	0.7491213334	-0.648924739792	
! Port Impedance	50.00000000000000	0.00000000000000	
666.25	0.743864966634	-0.662559379246	
! Port Impedance	50.00000000000000	0.00000000000000	
667.5	0.725979185418	-0.683029379046	
! Port Impedance	50.00000000000000	0.00000000000000	
668.75	0.712713877698	-0.698633045978	
! Port Impedance	50.00000000000000	0.00000000000000	
670.0	0.698013888771	-0.693221633277	
! Port Impedance	50.00000000000000	0.00000000000000	
671.25	0.678997372813	-0.693497868542	
! Port Impedance	50.00000000000000	0.00000000000000	
672.5	0.682512412359	-0.704130101194	
! Port Impedance	50.00000000000000	0.00000000000000	
673.75	0.68558627073	-0.704106380168	
! Port Impedance	50.00000000000000	0.00000000000000	
675.0	0.671750476483	-0.706289704369	
! Port Impedance	50.00000000000000	0.00000000000000	
676.25	0.667775597752	-0.723305469738	
! Port Impedance	50.00000000000000	0.00000000000000	
677.5	0.671133402966	-0.730875120484	
! Port Impedance	50.00000000000000	0.00000000000000	
678.75	0.655726336725	-0.736162582478	
! Port Impedance	50.00000000000000	0.00000000000000	
680.0	0.636587417507	-0.749279770943	
! Port Impedance	50.00000000000000	0.00000000000000	
681.25	0.633689502312	-0.759397900223	
! Port Impedance	50.00000000000000	0.00000000000000	
682.5	0.632123118225	-0.757591885285	
! Port Impedance	50.00000000000000	0.00000000000000	
683.75	0.614554669091	-0.762909133924	
! Port Impedance	50.00000000000000	0.00000000000000	
685.0	0.60092549186	-0.782604118017	
! Port Impedance	50.00000000000000	0.00000000000000	
686.25	0.595967149594	-0.784723807115	
! Port Impedance	50.00000000000000	0.00000000000000	
687.5	0.589081518998	-0.778227953501	
! Port Impedance	50.00000000000000	0.00000000000000	
688.75	0.578133713203	-0.790411381604	
! Port Impedance	50.00000000000000	0.00000000000000	
690.0	0.572746456757	-0.805618200361	
! Port Impedance	50.00000000000000	0.00000000000000	
691.25	0.565711797001	-0.810598819251	
! Port Impedance	50.00000000000000	0.00000000000000	
692.5	0.54566110092	-0.809263042292	
! Port Impedance	50.00000000000000	0.00000000000000	
693.75	0.532596202927	-0.819150258907	
! Port Impedance	50.00000000000000	0.00000000000000	
695.0	0.536232349943	-0.827661963844	
! Port Impedance	50.00000000000000	0.00000000000000	
696.25	0.52966576606	-0.828211541771	
! Port Impedance	50.00000000000000	0.00000000000000	
697.5	0.506930428969	-0.832861458006	
! Port Impedance	50.00000000000000	0.00000000000000	
698.75	0.496620363735	-0.846374629577	
! Port Impedance	50.00000000000000	0.00000000000000	
700.0	0.49821294934	-0.847083783721	
! Port Impedance	50.00000000000000	0.00000000000000	
701.25	0.488452354812	-0.84374983161	
! Port Impedance	50.00000000000000	0.00000000000000	
702.5	0.470773234978	-0.855142436527	
! Port Impedance	50.00000000000000	0.00000000000000	
703.75	0.468168899815	-0.866965079554	
! Port Impedance	50.00000000000000	0.00000000000000	
705.0	0.464005265745	-0.870196405475	
! Port Impedance	50.00000000000000	0.00000000000000	
706.25	0.444041968035	-0.871341677127	
! Port Impedance	50.00000000000000	0.00000000000000	
707.5	0.42352785153	-0.869096652306	
! Port Impedance	50.00000000000000	0.00000000000000	
708.75	0.430213416099	-0.867149102365	
! Port Impedance	50.00000000000000	0.00000000000000	
710.0	0.434524962816	-0.869547764582	
! Port Impedance	50.00000000000000	0.00000000000000	
711.25	0.420269058926	-0.880898883847	
! Port Impedance	50.00000000000000	0.00000000000000	
712.5	0.405811575885	-0.898129808693	
! Port Impedance	50.00000000000000	0.00000000000000	
713.75	0.396443099367	-0.902999516901	
! Port Impedance	50.00000000000000	0.00000000000000	
715.0	0.387199833874	-0.899547104212	
! Port Impedance	50.00000000000000	0.00000000000000	
716.25	0.373340693946	-0.905082924911	
! Port Impedance	50.00000000000000	0.00000000000000	
717.5	0.359203777487	-0.917050669935	
! Port Impedance	50.00000000000000	0.00000000000000	
718.75	0.354264127415	-0.921203058284	
! Port Impedance	50.00000000000000	0.00000000000000	
720.0	0.343849907354	-0.915686106713	
! Port Impedance	50.00000000000000	0.00000000000000	
721.25	0.329214392307	-0.918116395804	
! Port Impedance	50.00000000000000	0.00000000000000	
722.5	0.318829934155	-0.926366758936	
! Port Impedance	50.00000000000000	0.00000000000000	
723.75	0.308933209168	-0.928315738639	
! Port Impedance	50.00000000000000	0.00000000000000	
725.0	0.300334872895	-0.925604531823	
! Port Impedance	50.00000000000000	0.00000000000000	
726.25	0.293775078798	-0.927656240173	
! Port Impedance	50.00000000000000	0.00000000000000	
727.5	0.283128395563	-0.934374971275	
! Port Impedance	50.00000000000000	0.00000000000000	
728.75	0.271355369338	-0.941817084485	
! Port Impedance	50.00000000000000	0.00000000000000	
730.0	0.26029664374	-0.939964084939	
! Port Impedance	50.00000000000000	0.00000000000000	
731.25	0.248299234149	-0.938601392987	
! Port Impedance	50.00000000000000	0.00000000000000	
732.5	0.238970275132	-0.946342699974	
! Port Impedance	50.00000000000000	0.00000000000000	
733.75	0.228934787044	-0.952044876174	
! Port Impedance	50.00000000000000	0.00000000000000	
735.0	0.213733388673	-0.945443318671	
! Port Impedance	50.00000000000000	0.00000000000000	
736.25	0.207458952779	-0.948522797808	
! Port Impedance	50.00000000000000	0.00000000000000	
737.5	0.200000384296	-0.95200258046	
! Port Impedance	50.00000000000000	0.00000000000000	
738.75	0.193548554251	-0.955558250834	
! Port Impedance	50.00000000000000	0.00000000000000	
740.0	0.18352162088	-0.958794820769	
! Port Impedance	50.00000000000000	0.00000000000000	
741.25	0.171837189793	-0.960901164812	
! Port Impedance	50.00000000000000	0.00000000000000	
742.5	0.156193047112	-0.965005533756	
! Port Impedance	50.00000000000000	0.00000000000000	
743.75	0.142701100339	-0.968919661721	
! Port Impedance	50.00000000000000	0.00000000000000	
745.0	0.126506501643	-0.958764302084	
! Port Impedance	50.00000000000000	0.00000000000000	
746.25	0.129726048172	-0.948646715967	
! Port Impedance	50.00000000000000	0.00000000000000	
747.5	0.124869471871	-0.960804697963	
! Port Impedance	50.00000000000000	0.00000000000000	
748.75	0.106106413536	-0.968203703602	
! Port Impedance	50.00000000000000	0.00000000000000	
750.0	0.0924091264275	-0.968539063214	
! Port Impedance	50.00000000000000	0.00000000000000	
