!Created with mwavepy.
# GHz S RI R 50.0 
!freq	ReS11	ImS11	
500.0	0.667645768713	0.727591241196	
! Port Impedance	50.00000000000000	0.00000000000000	
501.25	0.684212296145	0.677784033216	
! Port Impedance	50.00000000000000	0.00000000000000	
502.5	0.706223519186	0.680354689392	
! Port Impedance	50.00000000000000	0.00000000000000	
503.75	0.710694764243	0.675407790481	
! Port Impedance	50.00000000000000	0.00000000000000	
505.0	0.725642664951	0.672765190726	
! Port Impedance	50.00000000000000	0.00000000000000	
506.25	0.728894354603	0.667819335548	
! Port Impedance	50.00000000000000	0.00000000000000	
507.5	0.7416409637	0.637613089982	
! Port Impedance	50.00000000000000	0.00000000000000	
508.75	0.760810958855	0.640694877673	
! Port Impedance	50.00000000000000	0.00000000000000	
510.0	0.775432733896	0.632125208652	
! Port Impedance	50.00000000000000	0.00000000000000	
511.25	0.80864359971	0.62367170012	
! Port Impedance	50.00000000000000	0.00000000000000	
512.5	0.771619836383	0.592787005712	
! Port Impedance	50.00000000000000	0.00000000000000	
513.75	0.779848457504	0.579190008627	
! Port Impedance	50.00000000000000	0.00000000000000	
515.0	0.790544855254	0.563575181107	
! Port Impedance	50.00000000000000	0.00000000000000	
516.25	0.798212094623	0.555833120619	
! Port Impedance	50.00000000000000	0.00000000000000	
517.5	0.807617561829	0.547115163481	
! Port Impedance	50.00000000000000	0.00000000000000	
518.75	0.821557449083	0.541631449338	
! Port Impedance	50.00000000000000	0.00000000000000	
520.0	0.83447425453	0.55237912207	
! Port Impedance	50.00000000000000	0.00000000000000	
521.25	0.832222049612	0.521503235188	
! Port Impedance	50.00000000000000	0.00000000000000	
522.5	0.845402893225	0.516642218116	
! Port Impedance	50.00000000000000	0.00000000000000	
523.75	0.851290695098	0.502181950631	
! Port Impedance	50.00000000000000	0.00000000000000	
525.0	0.866158234497	0.48875941956	
! Port Impedance	50.00000000000000	0.00000000000000	
526.25	0.874099272826	0.467092199887	
! Port Impedance	50.00000000000000	0.00000000000000	
527.5	0.876914531189	0.453547725045	
! Port Impedance	50.00000000000000	0.00000000000000	
528.75	0.87979996687	0.443016718378	
! Port Impedance	50.00000000000000	0.00000000000000	
530.0	0.889741125324	0.430047906411	
! Port Impedance	50.00000000000000	0.00000000000000	
531.25	0.898798949627	0.414933140587	
! Port Impedance	50.00000000000000	0.00000000000000	
532.5	0.908318899407	0.397644006671	
! Port Impedance	50.00000000000000	0.00000000000000	
533.75	0.905250979957	0.384437937908	
! Port Impedance	50.00000000000000	0.00000000000000	
535.0	0.913794714934	0.373729243352	
! Port Impedance	50.00000000000000	0.00000000000000	
536.25	0.918281696205	0.362240921357	
! Port Impedance	50.00000000000000	0.00000000000000	
537.5	0.925518274427	0.350229568038	
! Port Impedance	50.00000000000000	0.00000000000000	
538.75	0.927021431723	0.331866334431	
! Port Impedance	50.00000000000000	0.00000000000000	
540.0	0.927318188829	0.322065567505	
! Port Impedance	50.00000000000000	0.00000000000000	
541.25	0.93022629708	0.307129351376	
! Port Impedance	50.00000000000000	0.00000000000000	
542.5	0.9345458273	0.29979615174	
! Port Impedance	50.00000000000000	0.00000000000000	
543.75	0.944694724642	0.28770189639	
! Port Impedance	50.00000000000000	0.00000000000000	
545.0	0.95126151885	0.277871584198	
! Port Impedance	50.00000000000000	0.00000000000000	
546.25	0.96183614939	0.260992851528	
! Port Impedance	50.00000000000000	0.00000000000000	
547.5	0.960386464476	0.248467341098	
! Port Impedance	50.00000000000000	0.00000000000000	
548.75	0.971877883942	0.226123471106	
! Port Impedance	50.00000000000000	0.00000000000000	
550.0	0.967805292276	0.205681213986	
! Port Impedance	50.00000000000000	0.00000000000000	
551.25	0.968054950331	0.186151546958	
! Port Impedance	50.00000000000000	0.00000000000000	
552.5	0.952907551377	0.183946822189	
! Port Impedance	50.00000000000000	0.00000000000000	
553.75	0.959626624117	0.183818392824	
! Port Impedance	50.00000000000000	0.00000000000000	
555.0	0.97052989502	0.178817471954	
! Port Impedance	50.00000000000000	0.00000000000000	
556.25	0.980154726743	0.154729074738	
! Port Impedance	50.00000000000000	0.00000000000000	
557.5	0.978026042987	0.144453193252	
! Port Impedance	50.00000000000000	0.00000000000000	
558.75	0.979572859951	0.130884970523	
! Port Impedance	50.00000000000000	0.00000000000000	
560.0	0.981315583885	0.116011951718	
! Port Impedance	50.00000000000000	0.00000000000000	
561.25	0.986608384346	0.0960272843426	
! Port Impedance	50.00000000000000	0.00000000000000	
562.5	0.987612719058	0.0830618952177	
! Port Impedance	50.00000000000000	0.00000000000000	
563.75	0.98448292981	0.0660568044699	
! Port Impedance	50.00000000000000	0.00000000000000	
565.0	0.991045672408	0.0672375661032	
! Port Impedance	50.00000000000000	0.00000000000000	
566.25	0.983565491443	0.0409115817116	
! Port Impedance	50.00000000000000	0.00000000000000	
567.5	0.988667391973	0.0308505938929	
! Port Impedance	50.00000000000000	0.00000000000000	
568.75	0.983153237651	0.0178219256451	
! Port Impedance	50.00000000000000	0.00000000000000	
570.0	0.985594827514	0.00555892003293	
! Port Impedance	50.00000000000000	0.00000000000000	
571.25	0.988656147086	-0.00122614411207	
! Port Impedance	50.00000000000000	0.00000000000000	
572.5	0.992497308814	-0.0235876611133	
! Port Impedance	50.00000000000000	0.00000000000000	
573.75	0.988745362783	-0.0404797991394	
! Port Impedance	50.00000000000000	0.00000000000000	
575.0	0.990050645903	-0.0604248402617	
! Port Impedance	50.00000000000000	0.00000000000000	
576.25	0.989857215617	-0.0676812159156	
! Port Impedance	50.00000000000000	0.00000000000000	
577.5	0.978101789566	-0.0878269139266	
! Port Impedance	50.00000000000000	0.00000000000000	
578.75	0.979040464347	-0.0944067527697	
! Port Impedance	50.00000000000000	0.00000000000000	
580.0	0.977609425517	-0.101883333204	
! Port Impedance	50.00000000000000	0.00000000000000	
581.25	0.986365746883	-0.114991990944	
! Port Impedance	50.00000000000000	0.00000000000000	
582.5	0.979374199269	-0.126998895683	
! Port Impedance	50.00000000000000	0.00000000000000	
583.75	0.980448285746	-0.15334497096	
! Port Impedance	50.00000000000000	0.00000000000000	
585.0	0.981011566014	-0.160641475958	
! Port Impedance	50.00000000000000	0.00000000000000	
586.25	0.968695849235	-0.18324850866	
! Port Impedance	50.00000000000000	0.00000000000000	
587.5	0.961006412661	-0.195181040335	
! Port Impedance	50.00000000000000	0.00000000000000	
588.75	0.946245870553	-0.193745367516	
! Port Impedance	50.00000000000000	0.00000000000000	
590.0	0.95504793114	-0.191069406731	
! Port Impedance	50.00000000000000	0.00000000000000	
591.25	0.972283702387	-0.191729297284	
! Port Impedance	50.00000000000000	0.00000000000000	
592.5	0.975930228032	-0.229697668766	
! Port Impedance	50.00000000000000	0.00000000000000	
593.75	0.972514688511	-0.247103826909	
! Port Impedance	50.00000000000000	0.00000000000000	
595.0	0.958118308761	-0.264785477856	
! Port Impedance	50.00000000000000	0.00000000000000	
596.25	0.956956397445	-0.276071258293	
! Port Impedance	50.00000000000000	0.00000000000000	
597.5	0.946396492266	-0.283039021671	
! Port Impedance	50.00000000000000	0.00000000000000	
598.75	0.945068694053	-0.299085459608	
! Port Impedance	50.00000000000000	0.00000000000000	
600.0	0.947550275327	-0.313981759077	
! Port Impedance	50.00000000000000	0.00000000000000	
601.25	0.928583038128	-0.328285030554	
! Port Impedance	50.00000000000000	0.00000000000000	
602.5	0.919374622643	-0.340436683768	
! Port Impedance	50.00000000000000	0.00000000000000	
603.75	0.913794905289	-0.339408941962	
! Port Impedance	50.00000000000000	0.00000000000000	
605.0	0.911533005627	-0.353867189343	
! Port Impedance	50.00000000000000	0.00000000000000	
606.25	0.920178569323	-0.363268399968	
! Port Impedance	50.00000000000000	0.00000000000000	
607.5	0.912998963633	-0.367404232039	
! Port Impedance	50.00000000000000	0.00000000000000	
608.75	0.912771436434	-0.392205015943	
! Port Impedance	50.00000000000000	0.00000000000000	
610.0	0.903143278745	-0.400163742488	
! Port Impedance	50.00000000000000	0.00000000000000	
611.25	0.888622789811	-0.409977125397	
! Port Impedance	50.00000000000000	0.00000000000000	
612.5	0.889492486293	-0.419385940297	
! Port Impedance	50.00000000000000	0.00000000000000	
613.75	0.886333568461	-0.424258358709	
! Port Impedance	50.00000000000000	0.00000000000000	
615.0	0.879499774609	-0.446073128509	
! Port Impedance	50.00000000000000	0.00000000000000	
616.25	0.882803596553	-0.456404892402	
! Port Impedance	50.00000000000000	0.00000000000000	
617.5	0.870844802155	-0.463358832559	
! Port Impedance	50.00000000000000	0.00000000000000	
618.75	0.857828383244	-0.480176338129	
! Port Impedance	50.00000000000000	0.00000000000000	
620.0	0.862753402416	-0.485033790823	
! Port Impedance	50.00000000000000	0.00000000000000	
621.25	0.858421971658	-0.494119880225	
! Port Impedance	50.00000000000000	0.00000000000000	
622.5	0.850923601311	-0.519755193805	
! Port Impedance	50.00000000000000	0.00000000000000	
623.75	0.837479264414	-0.523196056924	
! Port Impedance	50.00000000000000	0.00000000000000	
625.0	0.820662663812	-0.524797729612	
! Port Impedance	50.00000000000000	0.00000000000000	
626.25	0.823864307923	-0.529817119854	
! Port Impedance	50.00000000000000	0.00000000000000	
627.5	0.830617301511	-0.528878078663	
! Port Impedance	50.00000000000000	0.00000000000000	
628.75	0.831469654493	-0.552796581861	
! Port Impedance	50.00000000000000	0.00000000000000	
630.0	0.827405408619	-0.588204662022	
! Port Impedance	50.00000000000000	0.00000000000000	
631.25	0.798634535456	-0.590781499232	
! Port Impedance	50.00000000000000	0.00000000000000	
632.5	0.773653834979	-0.599734361822	
! Port Impedance	50.00000000000000	0.00000000000000	
633.75	0.779720324633	-0.603222783329	
! Port Impedance	50.00000000000000	0.00000000000000	
635.0	0.772937279666	-0.598477686514	
! Port Impedance	50.00000000000000	0.00000000000000	
636.25	0.759356947937	-0.613343799935	
! Port Impedance	50.00000000000000	0.00000000000000	
637.5	0.762468241871	-0.622383910556	
! Port Impedance	50.00000000000000	0.00000000000000	
638.75	0.749814410459	-0.619433424074	
! Port Impedance	50.00000000000000	0.00000000000000	
640.0	0.741587177103	-0.628131424002	
! Port Impedance	50.00000000000000	0.00000000000000	
641.25	0.746898355036	-0.64282456995	
! Port Impedance	50.00000000000000	0.00000000000000	
642.5	0.738422414266	-0.651801761097	
! Port Impedance	50.00000000000000	0.00000000000000	
643.75	0.724435871114	-0.664568358818	
! Port Impedance	50.00000000000000	0.00000000000000	
645.0	0.723480564909	-0.672317524059	
! Port Impedance	50.00000000000000	0.00000000000000	
646.25	0.716100003032	-0.678536906086	
! Port Impedance	50.00000000000000	0.00000000000000	
647.5	0.700637017608	-0.69623287734	
! Port Impedance	50.00000000000000	0.00000000000000	
648.75	0.698919425332	-0.708409272485	
! Port Impedance	50.00000000000000	0.00000000000000	
650.0	0.688454523177	-0.703923567983	
! Port Impedance	50.00000000000000	0.00000000000000	
651.25	0.66524688765	-0.709432739508	
! Port Impedance	50.00000000000000	0.00000000000000	
652.5	0.672521419889	-0.725248424178	
! Port Impedance	50.00000000000000	0.00000000000000	
653.75	0.67043794168	-0.72454383208	
! Port Impedance	50.00000000000000	0.00000000000000	
655.0	0.645104213059	-0.740017825006	
! Port Impedance	50.00000000000000	0.00000000000000	
656.25	0.638574712013	-0.755957767129	
! Port Impedance	50.00000000000000	0.00000000000000	
657.5	0.63794061923	-0.748171461095	
! Port Impedance	50.00000000000000	0.00000000000000	
658.75	0.621215017293	-0.74921914581	
! Port Impedance	50.00000000000000	0.00000000000000	
660.0	0.612991040078	-0.766398679434	
! Port Impedance	50.00000000000000	0.00000000000000	
661.25	0.610544925203	-0.775712114571	
! Port Impedance	50.00000000000000	0.00000000000000	
662.5	0.58794806108	-0.772900165434	
! Port Impedance	50.00000000000000	0.00000000000000	
663.75	0.580982964249	-0.777822501383	
! Port Impedance	50.00000000000000	0.00000000000000	
665.0	0.59196053352	-0.786480427766	
! Port Impedance	50.00000000000000	0.00000000000000	
666.25	0.585946924967	-0.799678105494	
! Port Impedance	50.00000000000000	0.00000000000000	
667.5	0.561762290187	-0.817957192534	
! Port Impedance	50.00000000000000	0.00000000000000	
668.75	0.544203821794	-0.832379184536	
! Port Impedance	50.00000000000000	0.00000000000000	
670.0	0.531651177519	-0.818988875605	
! Port Impedance	50.00000000000000	0.00000000000000	
671.25	0.512574880218	-0.812538984983	
! Port Impedance	50.00000000000000	0.00000000000000	
672.5	0.515985612127	-0.824465882024	
! Port Impedance	50.00000000000000	0.00000000000000	
673.75	0.518268203113	-0.825385436951	
! Port Impedance	50.00000000000000	0.00000000000000	
675.0	0.50402878777	-0.824088940942	
! Port Impedance	50.00000000000000	0.00000000000000	
676.25	0.49563368742	-0.841199027548	
! Port Impedance	50.00000000000000	0.00000000000000	
677.5	0.499919839886	-0.850142872596	
! Port Impedance	50.00000000000000	0.00000000000000	
678.75	0.483185691051	-0.852533511871	
! Port Impedance	50.00000000000000	0.00000000000000	
680.0	0.462293953967	-0.85994743256	
! Port Impedance	50.00000000000000	0.00000000000000	
681.25	0.458007459537	-0.869246018831	
! Port Impedance	50.00000000000000	0.00000000000000	
682.5	0.45811567094	-0.865866012321	
! Port Impedance	50.00000000000000	0.00000000000000	
683.75	0.43934421454	-0.867246080674	
! Port Impedance	50.00000000000000	0.00000000000000	
685.0	0.421192940949	-0.886135547721	
! Port Impedance	50.00000000000000	0.00000000000000	
686.25	0.416772998119	-0.886484323796	
! Port Impedance	50.00000000000000	0.00000000000000	
687.5	0.410312296632	-0.874464263652	
! Port Impedance	50.00000000000000	0.00000000000000	
688.75	0.400700784638	-0.88429280105	
! Port Impedance	50.00000000000000	0.00000000000000	
690.0	0.39410325033	-0.900954075807	
! Port Impedance	50.00000000000000	0.00000000000000	
691.25	0.38733219239	-0.902425282476	
! Port Impedance	50.00000000000000	0.00000000000000	
692.5	0.362417937661	-0.897870088672	
! Port Impedance	50.00000000000000	0.00000000000000	
693.75	0.337791548623	-0.907824259541	
! Port Impedance	50.00000000000000	0.00000000000000	
695.0	0.34734160286	-0.916925668687	
! Port Impedance	50.00000000000000	0.00000000000000	
696.25	0.342198423207	-0.916398710406	
! Port Impedance	50.00000000000000	0.00000000000000	
697.5	0.319975787943	-0.914917039685	
! Port Impedance	50.00000000000000	0.00000000000000	
698.75	0.306862501239	-0.925211463802	
! Port Impedance	50.00000000000000	0.00000000000000	
700.0	0.314813845883	-0.922715335017	
! Port Impedance	50.00000000000000	0.00000000000000	
701.25	0.307220657541	-0.91777818828	
! Port Impedance	50.00000000000000	0.00000000000000	
702.5	0.287579439455	-0.926217832468	
! Port Impedance	50.00000000000000	0.00000000000000	
703.75	0.280756034727	-0.938685533338	
! Port Impedance	50.00000000000000	0.00000000000000	
705.0	0.278773111273	-0.940204179139	
! Port Impedance	50.00000000000000	0.00000000000000	
706.25	0.257902832465	-0.935555512649	
! Port Impedance	50.00000000000000	0.00000000000000	
707.5	0.239244699858	-0.930167626308	
! Port Impedance	50.00000000000000	0.00000000000000	
708.75	0.247725447093	-0.92962290198	
! Port Impedance	50.00000000000000	0.00000000000000	
710.0	0.25430471398	-0.93068814846	
! Port Impedance	50.00000000000000	0.00000000000000	
711.25	0.238776828156	-0.940321663217	
! Port Impedance	50.00000000000000	0.00000000000000	
712.5	0.220370189929	-0.956794857888	
! Port Impedance	50.00000000000000	0.00000000000000	
713.75	0.210785881591	-0.959621237743	
! Port Impedance	50.00000000000000	0.00000000000000	
715.0	0.198002515237	-0.952898966652	
! Port Impedance	50.00000000000000	0.00000000000000	
716.25	0.183308803298	-0.95608467231	
! Port Impedance	50.00000000000000	0.00000000000000	
717.5	0.169304336675	-0.96719166937	
! Port Impedance	50.00000000000000	0.00000000000000	
718.75	0.163724651156	-0.970335025093	
! Port Impedance	50.00000000000000	0.00000000000000	
720.0	0.158445471709	-0.959042184772	
! Port Impedance	50.00000000000000	0.00000000000000	
721.25	0.144058187751	-0.95804177707	
! Port Impedance	50.00000000000000	0.00000000000000	
722.5	0.134223649363	-0.966953794015	
! Port Impedance	50.00000000000000	0.00000000000000	
723.75	0.124247903267	-0.96773418849	
! Port Impedance	50.00000000000000	0.00000000000000	
725.0	0.116101942526	-0.96223720683	
! Port Impedance	50.00000000000000	0.00000000000000	
726.25	0.107047171167	-0.961323611217	
! Port Impedance	50.00000000000000	0.00000000000000	
727.5	0.0960423047362	-0.96742239382	
! Port Impedance	50.00000000000000	0.00000000000000	
728.75	0.0838432710958	-0.974354285707	
! Port Impedance	50.00000000000000	0.00000000000000	
730.0	0.0702165715648	-0.970635592841	
! Port Impedance	50.00000000000000	0.00000000000000	
731.25	0.0622252690492	-0.963580580135	
! Port Impedance	50.00000000000000	0.00000000000000	
732.5	0.0550064376905	-0.972020222047	
! Port Impedance	50.00000000000000	0.00000000000000	
733.75	0.0459094230267	-0.976544788588	
! Port Impedance	50.00000000000000	0.00000000000000	
735.0	0.034424768173	-0.966628439815	
! Port Impedance	50.00000000000000	0.00000000000000	
736.25	0.0288721304481	-0.966879792098	
! Port Impedance	50.00000000000000	0.00000000000000	
737.5	0.019413446342	-0.971075792418	
! Port Impedance	50.00000000000000	0.00000000000000	
738.75	0.00716667294037	-0.97490048071	
! Port Impedance	50.00000000000000	0.00000000000000	
740.0	0.000391112964344	-0.974739430018	
! Port Impedance	50.00000000000000	0.00000000000000	
741.25	-0.00983661729033	-0.974208897281	
! Port Impedance	50.00000000000000	0.00000000000000	
742.5	-0.0223559406606	-0.976977219685	
! Port Impedance	50.00000000000000	0.00000000000000	
743.75	-0.0343193894187	-0.980364699381	
! Port Impedance	50.00000000000000	0.00000000000000	
745.0	-0.0457236092511	-0.965649564129	
! Port Impedance	50.00000000000000	0.00000000000000	
746.25	-0.0424095714604	-0.954160106472	
! Port Impedance	50.00000000000000	0.00000000000000	
747.5	-0.0506398928569	-0.971587469793	
! Port Impedance	50.00000000000000	0.00000000000000	
748.75	-0.0685258436259	-0.976219563272	
! Port Impedance	50.00000000000000	0.00000000000000	
750.0	-0.0848583362736	-0.975194532635	
! Port Impedance	50.00000000000000	0.00000000000000	
