!Created with mwavepy.
# GHz S RI R 50.0 
!freq	ReS11	ImS11	
500.0	0.0595521351117	-0.206892038484	
! Port Impedance	50.00000000000000	0.00000000000000	
501.25	0.0409039381737	-0.207743679397	
! Port Impedance	50.00000000000000	0.00000000000000	
502.5	0.0529698603004	-0.207198373261	
! Port Impedance	50.00000000000000	0.00000000000000	
503.75	0.0528796957847	-0.201495841087	
! Port Impedance	50.00000000000000	0.00000000000000	
505.0	0.0491590239152	-0.203019489669	
! Port Impedance	50.00000000000000	0.00000000000000	
506.25	0.0538792576665	-0.202621583865	
! Port Impedance	50.00000000000000	0.00000000000000	
507.5	0.0521159089971	-0.202465945169	
! Port Impedance	50.00000000000000	0.00000000000000	
508.75	0.0510873487118	-0.202761513326	
! Port Impedance	50.00000000000000	0.00000000000000	
510.0	0.0514449349526	-0.203547785983	
! Port Impedance	50.00000000000000	0.00000000000000	
511.25	0.0520360542303	-0.204066251708	
! Port Impedance	50.00000000000000	0.00000000000000	
512.5	0.0506048272563	-0.207987100306	
! Port Impedance	50.00000000000000	0.00000000000000	
513.75	0.0529611700388	-0.205540689271	
! Port Impedance	50.00000000000000	0.00000000000000	
515.0	0.0531897998146	-0.203906011207	
! Port Impedance	50.00000000000000	0.00000000000000	
516.25	0.0525376227954	-0.205144510858	
! Port Impedance	50.00000000000000	0.00000000000000	
517.5	0.0528742077718	-0.20708347107	
! Port Impedance	50.00000000000000	0.00000000000000	
518.75	0.0516666965564	-0.206478379247	
! Port Impedance	50.00000000000000	0.00000000000000	
520.0	0.0520765682869	-0.205781261237	
! Port Impedance	50.00000000000000	0.00000000000000	
521.25	0.0502678094564	-0.208891628481	
! Port Impedance	50.00000000000000	0.00000000000000	
522.5	0.0542188898133	-0.208445631424	
! Port Impedance	50.00000000000000	0.00000000000000	
523.75	0.0552612357773	-0.205411499261	
! Port Impedance	50.00000000000000	0.00000000000000	
525.0	0.0536344092006	-0.207362367649	
! Port Impedance	50.00000000000000	0.00000000000000	
526.25	0.0510901849248	-0.206474488465	
! Port Impedance	50.00000000000000	0.00000000000000	
527.5	0.0514289714519	-0.206640810972	
! Port Impedance	50.00000000000000	0.00000000000000	
528.75	0.0521886464133	-0.207272836414	
! Port Impedance	50.00000000000000	0.00000000000000	
530.0	0.0514674002748	-0.20678120262	
! Port Impedance	50.00000000000000	0.00000000000000	
531.25	0.051014896984	-0.20713208631	
! Port Impedance	50.00000000000000	0.00000000000000	
532.5	0.0506806786684	-0.207142463636	
! Port Impedance	50.00000000000000	0.00000000000000	
533.75	0.0505095359174	-0.206655064127	
! Port Impedance	50.00000000000000	0.00000000000000	
535.0	0.0510114727186	-0.206367314088	
! Port Impedance	50.00000000000000	0.00000000000000	
536.25	0.0505012562866	-0.207137845164	
! Port Impedance	50.00000000000000	0.00000000000000	
537.5	0.0501198380839	-0.207276827385	
! Port Impedance	50.00000000000000	0.00000000000000	
538.75	0.0500551035148	-0.207263128666	
! Port Impedance	50.00000000000000	0.00000000000000	
540.0	0.0499759849827	-0.207287536724	
! Port Impedance	50.00000000000000	0.00000000000000	
541.25	0.0504856325769	-0.207462361245	
! Port Impedance	50.00000000000000	0.00000000000000	
542.5	0.0497634488586	-0.207720514883	
! Port Impedance	50.00000000000000	0.00000000000000	
543.75	0.0492158209736	-0.208041610041	
! Port Impedance	50.00000000000000	0.00000000000000	
545.0	0.0490880649502	-0.207533960031	
! Port Impedance	50.00000000000000	0.00000000000000	
546.25	0.0489148762565	-0.207499806662	
! Port Impedance	50.00000000000000	0.00000000000000	
547.5	0.0488660470553	-0.207747204759	
! Port Impedance	50.00000000000000	0.00000000000000	
548.75	0.0488778706604	-0.207973441932	
! Port Impedance	50.00000000000000	0.00000000000000	
550.0	0.0484378722509	-0.207736210144	
! Port Impedance	50.00000000000000	0.00000000000000	
551.25	0.0483165926123	-0.207781692892	
! Port Impedance	50.00000000000000	0.00000000000000	
552.5	0.0489757300774	-0.207361648416	
! Port Impedance	50.00000000000000	0.00000000000000	
553.75	0.0485253066438	-0.208541574203	
! Port Impedance	50.00000000000000	0.00000000000000	
555.0	0.047671153579	-0.209007865357	
! Port Impedance	50.00000000000000	0.00000000000000	
556.25	0.0472048275959	-0.209348035224	
! Port Impedance	50.00000000000000	0.00000000000000	
557.5	0.0455165599547	-0.210434405068	
! Port Impedance	50.00000000000000	0.00000000000000	
558.75	0.045415584049	-0.209118755072	
! Port Impedance	50.00000000000000	0.00000000000000	
560.0	0.0455761286834	-0.208443269635	
! Port Impedance	50.00000000000000	0.00000000000000	
561.25	0.0452059129333	-0.208221015225	
! Port Impedance	50.00000000000000	0.00000000000000	
562.5	0.0453270861814	-0.208196224347	
! Port Impedance	50.00000000000000	0.00000000000000	
563.75	0.0449481740495	-0.208187375255	
! Port Impedance	50.00000000000000	0.00000000000000	
565.0	0.0436942664422	-0.207873572874	
! Port Impedance	50.00000000000000	0.00000000000000	
566.25	0.0447233938604	-0.207519930927	
! Port Impedance	50.00000000000000	0.00000000000000	
567.5	0.0439653401818	-0.207662605017	
! Port Impedance	50.00000000000000	0.00000000000000	
568.75	0.044594780007	-0.207380810015	
! Port Impedance	50.00000000000000	0.00000000000000	
570.0	0.0442575628743	-0.207712372066	
! Port Impedance	50.00000000000000	0.00000000000000	
571.25	0.0436850321219	-0.207226944596	
! Port Impedance	50.00000000000000	0.00000000000000	
572.5	0.0435131734499	-0.207162546015	
! Port Impedance	50.00000000000000	0.00000000000000	
573.75	0.0435435952701	-0.206806898022	
! Port Impedance	50.00000000000000	0.00000000000000	
575.0	0.0433450454855	-0.206772868664	
! Port Impedance	50.00000000000000	0.00000000000000	
576.25	0.0432605922302	-0.206593463627	
! Port Impedance	50.00000000000000	0.00000000000000	
577.5	0.0441483218964	-0.205986038055	
! Port Impedance	50.00000000000000	0.00000000000000	
578.75	0.0437330251925	-0.206681617842	
! Port Impedance	50.00000000000000	0.00000000000000	
580.0	0.0429974527454	-0.207171611573	
! Port Impedance	50.00000000000000	0.00000000000000	
581.25	0.0417907022773	-0.207099519951	
! Port Impedance	50.00000000000000	0.00000000000000	
582.5	0.0418496655031	-0.206450594222	
! Port Impedance	50.00000000000000	0.00000000000000	
583.75	0.0419126061998	-0.206108892831	
! Port Impedance	50.00000000000000	0.00000000000000	
585.0	0.0410677911575	-0.206030371071	
! Port Impedance	50.00000000000000	0.00000000000000	
586.25	0.0412740005026	-0.205796546268	
! Port Impedance	50.00000000000000	0.00000000000000	
587.5	0.0415843749709	-0.205709375504	
! Port Impedance	50.00000000000000	0.00000000000000	
588.75	0.0413230221829	-0.205747460163	
! Port Impedance	50.00000000000000	0.00000000000000	
590.0	0.0405120678992	-0.206039131352	
! Port Impedance	50.00000000000000	0.00000000000000	
591.25	0.0399372566998	-0.205509062493	
! Port Impedance	50.00000000000000	0.00000000000000	
592.5	0.0396704725681	-0.20530727402	
! Port Impedance	50.00000000000000	0.00000000000000	
593.75	0.0397500873698	-0.205206324525	
! Port Impedance	50.00000000000000	0.00000000000000	
595.0	0.0392527538417	-0.205210891213	
! Port Impedance	50.00000000000000	0.00000000000000	
596.25	0.0387259078405	-0.204925033728	
! Port Impedance	50.00000000000000	0.00000000000000	
597.5	0.0386251001252	-0.205284690632	
! Port Impedance	50.00000000000000	0.00000000000000	
598.75	0.0377479382181	-0.205357362023	
! Port Impedance	50.00000000000000	0.00000000000000	
600.0	0.0375623191047	-0.204377014094	
! Port Impedance	50.00000000000000	0.00000000000000	
601.25	0.0374691852177	-0.204070688307	
! Port Impedance	50.00000000000000	0.00000000000000	
602.5	0.0379430402649	-0.203954140685	
! Port Impedance	50.00000000000000	0.00000000000000	
603.75	0.0381330511997	-0.20474844451	
! Port Impedance	50.00000000000000	0.00000000000000	
605.0	0.0373192964708	-0.204163103156	
! Port Impedance	50.00000000000000	0.00000000000000	
606.25	0.03661644122	-0.204115437942	
! Port Impedance	50.00000000000000	0.00000000000000	
607.5	0.0358980523533	-0.204418008182	
! Port Impedance	50.00000000000000	0.00000000000000	
608.75	0.0356243570702	-0.203522308362	
! Port Impedance	50.00000000000000	0.00000000000000	
610.0	0.0358332905992	-0.202432018613	
! Port Impedance	50.00000000000000	0.00000000000000	
611.25	0.0359574620226	-0.202911761246	
! Port Impedance	50.00000000000000	0.00000000000000	
612.5	0.035628947527	-0.203228317674	
! Port Impedance	50.00000000000000	0.00000000000000	
613.75	0.035056208514	-0.203144753247	
! Port Impedance	50.00000000000000	0.00000000000000	
615.0	0.034769674343	-0.202294637771	
! Port Impedance	50.00000000000000	0.00000000000000	
616.25	0.0336559240577	-0.202395852373	
! Port Impedance	50.00000000000000	0.00000000000000	
617.5	0.0335674783537	-0.202424818816	
! Port Impedance	50.00000000000000	0.00000000000000	
618.75	0.0339729469162	-0.201600118536	
! Port Impedance	50.00000000000000	0.00000000000000	
620.0	0.0334513514872	-0.202324568483	
! Port Impedance	50.00000000000000	0.00000000000000	
621.25	0.0322092570229	-0.202003850423	
! Port Impedance	50.00000000000000	0.00000000000000	
622.5	0.0321411478289	-0.20137663111	
! Port Impedance	50.00000000000000	0.00000000000000	
623.75	0.0328789710491	-0.200957742491	
! Port Impedance	50.00000000000000	0.00000000000000	
625.0	0.03251912318	-0.200990468637	
! Port Impedance	50.00000000000000	0.00000000000000	
626.25	0.0318483076064	-0.201352642495	
! Port Impedance	50.00000000000000	0.00000000000000	
627.5	0.0311573298875	-0.201459105303	
! Port Impedance	50.00000000000000	0.00000000000000	
628.75	0.0306333835421	-0.200946465738	
! Port Impedance	50.00000000000000	0.00000000000000	
630.0	0.0298924906779	-0.200208280517	
! Port Impedance	50.00000000000000	0.00000000000000	
631.25	0.0304338959428	-0.199835291287	
! Port Impedance	50.00000000000000	0.00000000000000	
632.5	0.0317602342831	-0.199900828177	
! Port Impedance	50.00000000000000	0.00000000000000	
633.75	0.029937078599	-0.200144631958	
! Port Impedance	50.00000000000000	0.00000000000000	
635.0	0.0292328050707	-0.199934638947	
! Port Impedance	50.00000000000000	0.00000000000000	
636.25	0.0291248314606	-0.199455762418	
! Port Impedance	50.00000000000000	0.00000000000000	
637.5	0.0287914415323	-0.198638627697	
! Port Impedance	50.00000000000000	0.00000000000000	
638.75	0.0287750759863	-0.198447741858	
! Port Impedance	50.00000000000000	0.00000000000000	
640.0	0.028306476751	-0.198746453879	
! Port Impedance	50.00000000000000	0.00000000000000	
641.25	0.028029071217	-0.199014652346	
! Port Impedance	50.00000000000000	0.00000000000000	
642.5	0.0274337950805	-0.19811401019	
! Port Impedance	50.00000000000000	0.00000000000000	
643.75	0.0270957484126	-0.197925201765	
! Port Impedance	50.00000000000000	0.00000000000000	
645.0	0.027027956886	-0.198241409657	
! Port Impedance	50.00000000000000	0.00000000000000	
646.25	0.0269016627942	-0.197833037964	
! Port Impedance	50.00000000000000	0.00000000000000	
647.5	0.026391192178	-0.197518903742	
! Port Impedance	50.00000000000000	0.00000000000000	
648.75	0.025859500991	-0.197019248329	
! Port Impedance	50.00000000000000	0.00000000000000	
650.0	0.0258610109217	-0.19666840204	
! Port Impedance	50.00000000000000	0.00000000000000	
651.25	0.0260614138839	-0.196572674205	
! Port Impedance	50.00000000000000	0.00000000000000	
652.5	0.0254528249885	-0.196620382369	
! Port Impedance	50.00000000000000	0.00000000000000	
653.75	0.0244931068364	-0.196683084938	
! Port Impedance	50.00000000000000	0.00000000000000	
655.0	0.0244020180054	-0.195212795075	
! Port Impedance	50.00000000000000	0.00000000000000	
656.25	0.0249337361643	-0.195022199233	
! Port Impedance	50.00000000000000	0.00000000000000	
657.5	0.0240970788963	-0.195393459299	
! Port Impedance	50.00000000000000	0.00000000000000	
658.75	0.0237012919607	-0.195604456878	
! Port Impedance	50.00000000000000	0.00000000000000	
660.0	0.0232597319366	-0.195428103347	
! Port Impedance	50.00000000000000	0.00000000000000	
661.25	0.0226049341069	-0.19463078613	
! Port Impedance	50.00000000000000	0.00000000000000	
662.5	0.0224596165862	-0.194381714703	
! Port Impedance	50.00000000000000	0.00000000000000	
663.75	0.0224812469736	-0.194485544993	
! Port Impedance	50.00000000000000	0.00000000000000	
665.0	0.0222800403784	-0.194464798673	
! Port Impedance	50.00000000000000	0.00000000000000	
666.25	0.0212358167128	-0.194133019704	
! Port Impedance	50.00000000000000	0.00000000000000	
667.5	0.0208189907269	-0.193311347927	
! Port Impedance	50.00000000000000	0.00000000000000	
668.75	0.021153746399	-0.19300151746	
! Port Impedance	50.00000000000000	0.00000000000000	
670.0	0.0213840944737	-0.19299368421	
! Port Impedance	50.00000000000000	0.00000000000000	
671.25	0.0206611858707	-0.192942433257	
! Port Impedance	50.00000000000000	0.00000000000000	
672.5	0.0201423791365	-0.19266625273	
! Port Impedance	50.00000000000000	0.00000000000000	
673.75	0.0199086458766	-0.192289543915	
! Port Impedance	50.00000000000000	0.00000000000000	
675.0	0.0200441013079	-0.191984924728	
! Port Impedance	50.00000000000000	0.00000000000000	
676.25	0.0197334384733	-0.192011955803	
! Port Impedance	50.00000000000000	0.00000000000000	
677.5	0.0190397997754	-0.19216432136	
! Port Impedance	50.00000000000000	0.00000000000000	
678.75	0.0186930435239	-0.19125748499	
! Port Impedance	50.00000000000000	0.00000000000000	
680.0	0.0186613123647	-0.19080962455	
! Port Impedance	50.00000000000000	0.00000000000000	
681.25	0.0182012752233	-0.190978123793	
! Port Impedance	50.00000000000000	0.00000000000000	
682.5	0.0177226875839	-0.190878917454	
! Port Impedance	50.00000000000000	0.00000000000000	
683.75	0.0173681727217	-0.190610023248	
! Port Impedance	50.00000000000000	0.00000000000000	
685.0	0.0172244884176	-0.18973358915	
! Port Impedance	50.00000000000000	0.00000000000000	
686.25	0.017088447223	-0.189503679462	
! Port Impedance	50.00000000000000	0.00000000000000	
687.5	0.0172037481498	-0.189753947756	
! Port Impedance	50.00000000000000	0.00000000000000	
688.75	0.0163625008127	-0.18975808724	
! Port Impedance	50.00000000000000	0.00000000000000	
690.0	0.0158538295491	-0.188943065424	
! Port Impedance	50.00000000000000	0.00000000000000	
691.25	0.0157264303055	-0.188454151093	
! Port Impedance	50.00000000000000	0.00000000000000	
692.5	0.0163295846185	-0.188678549515	
! Port Impedance	50.00000000000000	0.00000000000000	
693.75	0.0173386029907	-0.188547432286	
! Port Impedance	50.00000000000000	0.00000000000000	
695.0	0.0156575088783	-0.187838548955	
! Port Impedance	50.00000000000000	0.00000000000000	
696.25	0.0146637627114	-0.187237217682	
! Port Impedance	50.00000000000000	0.00000000000000	
697.5	0.0149528256666	-0.187244874547	
! Port Impedance	50.00000000000000	0.00000000000000	
698.75	0.015403640568	-0.187362165369	
! Port Impedance	50.00000000000000	0.00000000000000	
700.0	0.0142628088602	-0.186895969052	
! Port Impedance	50.00000000000000	0.00000000000000	
701.25	0.0136916676379	-0.186457823804	
! Port Impedance	50.00000000000000	0.00000000000000	
702.5	0.0136426352055	-0.186286236043	
! Port Impedance	50.00000000000000	0.00000000000000	
703.75	0.0136290331771	-0.186038620854	
! Port Impedance	50.00000000000000	0.00000000000000	
705.0	0.0127659975502	-0.185673967008	
! Port Impedance	50.00000000000000	0.00000000000000	
706.25	0.0124684196223	-0.185351090213	
! Port Impedance	50.00000000000000	0.00000000000000	
707.5	0.0124117193926	-0.185351847626	
! Port Impedance	50.00000000000000	0.00000000000000	
708.75	0.0124331220886	-0.18497201057	
! Port Impedance	50.00000000000000	0.00000000000000	
710.0	0.0121206326784	-0.184640892088	
! Port Impedance	50.00000000000000	0.00000000000000	
711.25	0.0110991176398	-0.184396765265	
! Port Impedance	50.00000000000000	0.00000000000000	
712.5	0.0114531190848	-0.184121913291	
! Port Impedance	50.00000000000000	0.00000000000000	
713.75	0.0111975427201	-0.183844313556	
! Port Impedance	50.00000000000000	0.00000000000000	
715.0	0.0116601686643	-0.183881503224	
! Port Impedance	50.00000000000000	0.00000000000000	
716.25	0.0106414301726	-0.183441866982	
! Port Impedance	50.00000000000000	0.00000000000000	
717.5	0.0104832930966	-0.182852469979	
! Port Impedance	50.00000000000000	0.00000000000000	
718.75	0.0103319333223	-0.182417878137	
! Port Impedance	50.00000000000000	0.00000000000000	
720.0	0.00985507577051	-0.1824020514	
! Port Impedance	50.00000000000000	0.00000000000000	
721.25	0.00948285874814	-0.182382465908	
! Port Impedance	50.00000000000000	0.00000000000000	
722.5	0.00899064888865	-0.181286282128	
! Port Impedance	50.00000000000000	0.00000000000000	
723.75	0.00975477258334	-0.180881006797	
! Port Impedance	50.00000000000000	0.00000000000000	
725.0	0.00961098933467	-0.180532587667	
! Port Impedance	50.00000000000000	0.00000000000000	
726.25	0.00879908686604	-0.18114398888	
! Port Impedance	50.00000000000000	0.00000000000000	
727.5	0.00842966243096	-0.180460925471	
! Port Impedance	50.00000000000000	0.00000000000000	
728.75	0.00857892768828	-0.179909546717	
! Port Impedance	50.00000000000000	0.00000000000000	
730.0	0.00824660888863	-0.179835761021	
! Port Impedance	50.00000000000000	0.00000000000000	
731.25	0.00811737113919	-0.180352345045	
! Port Impedance	50.00000000000000	0.00000000000000	
732.5	0.00720847577138	-0.179437823554	
! Port Impedance	50.00000000000000	0.00000000000000	
733.75	0.0073970928629	-0.178993707595	
! Port Impedance	50.00000000000000	0.00000000000000	
735.0	0.00709869412327	-0.178935375871	
! Port Impedance	50.00000000000000	0.00000000000000	
736.25	0.00638447122316	-0.178825619552	
! Port Impedance	50.00000000000000	0.00000000000000	
737.5	0.00649903474908	-0.178317626489	
! Port Impedance	50.00000000000000	0.00000000000000	
738.75	0.00686775296653	-0.178042777798	
! Port Impedance	50.00000000000000	0.00000000000000	
740.0	0.00622739168539	-0.177565239162	
! Port Impedance	50.00000000000000	0.00000000000000	
741.25	0.00575979308238	-0.17782206339	
! Port Impedance	50.00000000000000	0.00000000000000	
742.5	0.00555500039437	-0.177672167181	
! Port Impedance	50.00000000000000	0.00000000000000	
743.75	0.00537329483489	-0.176410370649	
! Port Impedance	50.00000000000000	0.00000000000000	
745.0	0.00567207929634	-0.17647111525	
! Port Impedance	50.00000000000000	0.00000000000000	
746.25	0.0051217211507	-0.176831213478	
! Port Impedance	50.00000000000000	0.00000000000000	
747.5	0.00460123568698	-0.175833567389	
! Port Impedance	50.00000000000000	0.00000000000000	
748.75	0.00487151222401	-0.175854342399	
! Port Impedance	50.00000000000000	0.00000000000000	
750.0	0.00441076286021	-0.175642857035	
! Port Impedance	50.00000000000000	0.00000000000000	
