!Created with mwavepy.
# GHz S RI R 50.0 
!freq	ReS11	ImS11	
500.0	0.0471116346095	-0.204088652283	
! Port Impedance	50.00000000000000	0.00000000000000	
501.25	0.0522363033495	-0.208536041869	
! Port Impedance	50.00000000000000	0.00000000000000	
502.5	0.0475677871267	-0.202212790248	
! Port Impedance	50.00000000000000	0.00000000000000	
503.75	0.049171132841	-0.199571861157	
! Port Impedance	50.00000000000000	0.00000000000000	
505.0	0.0523417159315	-0.202485119944	
! Port Impedance	50.00000000000000	0.00000000000000	
506.25	0.0518519539126	-0.201979595753	
! Port Impedance	50.00000000000000	0.00000000000000	
507.5	0.0524105447159	-0.204943917898	
! Port Impedance	50.00000000000000	0.00000000000000	
508.75	0.0508121511813	-0.20526861285	
! Port Impedance	50.00000000000000	0.00000000000000	
510.0	0.0495865673235	-0.20133404263	
! Port Impedance	50.00000000000000	0.00000000000000	
511.25	0.0508239352362	-0.206221777886	
! Port Impedance	50.00000000000000	0.00000000000000	
512.5	0.0487474755641	-0.208975269668	
! Port Impedance	50.00000000000000	0.00000000000000	
513.75	0.0525563189455	-0.205020687518	
! Port Impedance	50.00000000000000	0.00000000000000	
515.0	0.0499972172698	-0.204565419379	
! Port Impedance	50.00000000000000	0.00000000000000	
516.25	0.050305566751	-0.203782273711	
! Port Impedance	50.00000000000000	0.00000000000000	
517.5	0.0518600676631	-0.205344014699	
! Port Impedance	50.00000000000000	0.00000000000000	
518.75	0.0510384494804	-0.204067217417	
! Port Impedance	50.00000000000000	0.00000000000000	
520.0	0.0509082728337	-0.20650934264	
! Port Impedance	50.00000000000000	0.00000000000000	
521.25	0.0512777806884	-0.207454775804	
! Port Impedance	50.00000000000000	0.00000000000000	
522.5	0.0508862037738	-0.205790356238	
! Port Impedance	50.00000000000000	0.00000000000000	
523.75	0.0516862967364	-0.207461454927	
! Port Impedance	50.00000000000000	0.00000000000000	
525.0	0.0511025785265	-0.207571291502	
! Port Impedance	50.00000000000000	0.00000000000000	
526.25	0.0507483478881	-0.206293019083	
! Port Impedance	50.00000000000000	0.00000000000000	
527.5	0.0505548356874	-0.206617327162	
! Port Impedance	50.00000000000000	0.00000000000000	
528.75	0.0500486660604	-0.206573165163	
! Port Impedance	50.00000000000000	0.00000000000000	
530.0	0.050070924505	-0.206560492037	
! Port Impedance	50.00000000000000	0.00000000000000	
531.25	0.0501109547787	-0.206324909173	
! Port Impedance	50.00000000000000	0.00000000000000	
532.5	0.0502332779559	-0.2070186381	
! Port Impedance	50.00000000000000	0.00000000000000	
533.75	0.0501291446922	-0.206994342331	
! Port Impedance	50.00000000000000	0.00000000000000	
535.0	0.0504538749659	-0.207279354311	
! Port Impedance	50.00000000000000	0.00000000000000	
536.25	0.0500325981127	-0.207504452324	
! Port Impedance	50.00000000000000	0.00000000000000	
537.5	0.049760151607	-0.207361510353	
! Port Impedance	50.00000000000000	0.00000000000000	
538.75	0.0496802905424	-0.207547359366	
! Port Impedance	50.00000000000000	0.00000000000000	
540.0	0.0489648737189	-0.207763467383	
! Port Impedance	50.00000000000000	0.00000000000000	
541.25	0.0490656927184	-0.207339631514	
! Port Impedance	50.00000000000000	0.00000000000000	
542.5	0.0493741665566	-0.207554414508	
! Port Impedance	50.00000000000000	0.00000000000000	
543.75	0.048925730395	-0.20705667968	
! Port Impedance	50.00000000000000	0.00000000000000	
545.0	0.0489170388312	-0.207397118019	
! Port Impedance	50.00000000000000	0.00000000000000	
546.25	0.0486999984091	-0.207408822126	
! Port Impedance	50.00000000000000	0.00000000000000	
547.5	0.0485166781585	-0.207640449958	
! Port Impedance	50.00000000000000	0.00000000000000	
548.75	0.0484467170799	-0.207534812033	
! Port Impedance	50.00000000000000	0.00000000000000	
550.0	0.0485989719245	-0.207741935282	
! Port Impedance	50.00000000000000	0.00000000000000	
551.25	0.0482153278251	-0.20830636245	
! Port Impedance	50.00000000000000	0.00000000000000	
552.5	0.0482922869671	-0.207733075147	
! Port Impedance	50.00000000000000	0.00000000000000	
553.75	0.0474642277805	-0.209486198585	
! Port Impedance	50.00000000000000	0.00000000000000	
555.0	0.0475868413049	-0.209277190837	
! Port Impedance	50.00000000000000	0.00000000000000	
556.25	0.0468023081258	-0.209416956042	
! Port Impedance	50.00000000000000	0.00000000000000	
557.5	0.0451703031398	-0.210841176545	
! Port Impedance	50.00000000000000	0.00000000000000	
558.75	0.0448687701359	-0.208600568184	
! Port Impedance	50.00000000000000	0.00000000000000	
560.0	0.0453123483982	-0.208114971782	
! Port Impedance	50.00000000000000	0.00000000000000	
561.25	0.0453247658209	-0.208183301497	
! Port Impedance	50.00000000000000	0.00000000000000	
562.5	0.0450744520152	-0.208345549433	
! Port Impedance	50.00000000000000	0.00000000000000	
563.75	0.0446215148892	-0.208331424864	
! Port Impedance	50.00000000000000	0.00000000000000	
565.0	0.0432743726215	-0.208172564632	
! Port Impedance	50.00000000000000	0.00000000000000	
566.25	0.0441157321292	-0.207868754116	
! Port Impedance	50.00000000000000	0.00000000000000	
567.5	0.0435229728645	-0.207955364631	
! Port Impedance	50.00000000000000	0.00000000000000	
568.75	0.0436814193186	-0.2072495123	
! Port Impedance	50.00000000000000	0.00000000000000	
570.0	0.0435772465151	-0.207131441814	
! Port Impedance	50.00000000000000	0.00000000000000	
571.25	0.0435622173027	-0.206802052328	
! Port Impedance	50.00000000000000	0.00000000000000	
572.5	0.043313377071	-0.207390832036	
! Port Impedance	50.00000000000000	0.00000000000000	
573.75	0.0432464469973	-0.207007701766	
! Port Impedance	50.00000000000000	0.00000000000000	
575.0	0.0431473991412	-0.206722524362	
! Port Impedance	50.00000000000000	0.00000000000000	
576.25	0.0427757499307	-0.206950339734	
! Port Impedance	50.00000000000000	0.00000000000000	
577.5	0.0432738712031	-0.206663372246	
! Port Impedance	50.00000000000000	0.00000000000000	
578.75	0.0432042990259	-0.206822164932	
! Port Impedance	50.00000000000000	0.00000000000000	
580.0	0.0418498181585	-0.20673470239	
! Port Impedance	50.00000000000000	0.00000000000000	
581.25	0.0418364080276	-0.206712683426	
! Port Impedance	50.00000000000000	0.00000000000000	
582.5	0.0411174133657	-0.206564260041	
! Port Impedance	50.00000000000000	0.00000000000000	
583.75	0.040971376344	-0.206387161891	
! Port Impedance	50.00000000000000	0.00000000000000	
585.0	0.0409551381746	-0.206205495119	
! Port Impedance	50.00000000000000	0.00000000000000	
586.25	0.0407087195244	-0.206349316022	
! Port Impedance	50.00000000000000	0.00000000000000	
587.5	0.0408465552618	-0.205359537604	
! Port Impedance	50.00000000000000	0.00000000000000	
588.75	0.0403119951216	-0.206185211369	
! Port Impedance	50.00000000000000	0.00000000000000	
590.0	0.0400138720913	-0.20605710949	
! Port Impedance	50.00000000000000	0.00000000000000	
591.25	0.0395124943502	-0.205719156662	
! Port Impedance	50.00000000000000	0.00000000000000	
592.5	0.0394158336018	-0.205289200818	
! Port Impedance	50.00000000000000	0.00000000000000	
593.75	0.0387785248015	-0.205540101343	
! Port Impedance	50.00000000000000	0.00000000000000	
595.0	0.0383328227981	-0.205257841246	
! Port Impedance	50.00000000000000	0.00000000000000	
596.25	0.0371106332926	-0.205245421443	
! Port Impedance	50.00000000000000	0.00000000000000	
597.5	0.0380068082193	-0.205224477935	
! Port Impedance	50.00000000000000	0.00000000000000	
598.75	0.0374466971271	-0.204842608176	
! Port Impedance	50.00000000000000	0.00000000000000	
600.0	0.037244259532	-0.20476822194	
! Port Impedance	50.00000000000000	0.00000000000000	
601.25	0.0369316610574	-0.204599667828	
! Port Impedance	50.00000000000000	0.00000000000000	
602.5	0.0371228455817	-0.204332861479	
! Port Impedance	50.00000000000000	0.00000000000000	
603.75	0.0373012666646	-0.204400395301	
! Port Impedance	50.00000000000000	0.00000000000000	
605.0	0.0369091306373	-0.203946958852	
! Port Impedance	50.00000000000000	0.00000000000000	
606.25	0.0359775212855	-0.203977258425	
! Port Impedance	50.00000000000000	0.00000000000000	
607.5	0.0355940288764	-0.204198899349	
! Port Impedance	50.00000000000000	0.00000000000000	
608.75	0.0353349776782	-0.203766776881	
! Port Impedance	50.00000000000000	0.00000000000000	
610.0	0.0346253046337	-0.20356351142	
! Port Impedance	50.00000000000000	0.00000000000000	
611.25	0.0345389395899	-0.20321492408	
! Port Impedance	50.00000000000000	0.00000000000000	
612.5	0.0344783148564	-0.203340921425	
! Port Impedance	50.00000000000000	0.00000000000000	
613.75	0.0340668553981	-0.20273669791	
! Port Impedance	50.00000000000000	0.00000000000000	
615.0	0.0341127542416	-0.202534712114	
! Port Impedance	50.00000000000000	0.00000000000000	
616.25	0.0331714765315	-0.202623156625	
! Port Impedance	50.00000000000000	0.00000000000000	
617.5	0.0331327693638	-0.202377097831	
! Port Impedance	50.00000000000000	0.00000000000000	
618.75	0.0327511631496	-0.202124139321	
! Port Impedance	50.00000000000000	0.00000000000000	
620.0	0.032804965847	-0.202126781383	
! Port Impedance	50.00000000000000	0.00000000000000	
621.25	0.0320718986018	-0.201976033404	
! Port Impedance	50.00000000000000	0.00000000000000	
622.5	0.0315867597185	-0.201726134802	
! Port Impedance	50.00000000000000	0.00000000000000	
623.75	0.0318723447626	-0.201369247306	
! Port Impedance	50.00000000000000	0.00000000000000	
625.0	0.0311762620355	-0.20136661916	
! Port Impedance	50.00000000000000	0.00000000000000	
626.25	0.0307976086699	-0.201185777532	
! Port Impedance	50.00000000000000	0.00000000000000	
627.5	0.0300603055623	-0.200922996519	
! Port Impedance	50.00000000000000	0.00000000000000	
628.75	0.0302180278242	-0.200799495983	
! Port Impedance	50.00000000000000	0.00000000000000	
630.0	0.0294878073397	-0.200937531814	
! Port Impedance	50.00000000000000	0.00000000000000	
631.25	0.0290466965032	-0.200430894152	
! Port Impedance	50.00000000000000	0.00000000000000	
632.5	0.0293574667673	-0.199987625736	
! Port Impedance	50.00000000000000	0.00000000000000	
633.75	0.0291116348485	-0.199702428443	
! Port Impedance	50.00000000000000	0.00000000000000	
635.0	0.0285697592506	-0.199727567856	
! Port Impedance	50.00000000000000	0.00000000000000	
636.25	0.028204924733	-0.199679498796	
! Port Impedance	50.00000000000000	0.00000000000000	
637.5	0.0276541640673	-0.199073805071	
! Port Impedance	50.00000000000000	0.00000000000000	
638.75	0.0269222406413	-0.19944880031	
! Port Impedance	50.00000000000000	0.00000000000000	
640.0	0.0268455747328	-0.198932202885	
! Port Impedance	50.00000000000000	0.00000000000000	
641.25	0.0263599867714	-0.19865061912	
! Port Impedance	50.00000000000000	0.00000000000000	
642.5	0.0263134485503	-0.198526645316	
! Port Impedance	50.00000000000000	0.00000000000000	
643.75	0.0259537344215	-0.198411143685	
! Port Impedance	50.00000000000000	0.00000000000000	
645.0	0.0254880540154	-0.197947360212	
! Port Impedance	50.00000000000000	0.00000000000000	
646.25	0.0252379861559	-0.197652287643	
! Port Impedance	50.00000000000000	0.00000000000000	
647.5	0.0251891155619	-0.197567984561	
! Port Impedance	50.00000000000000	0.00000000000000	
648.75	0.0244693374039	-0.197496363209	
! Port Impedance	50.00000000000000	0.00000000000000	
650.0	0.0243737348406	-0.197245779141	
! Port Impedance	50.00000000000000	0.00000000000000	
651.25	0.0235219854101	-0.196906812567	
! Port Impedance	50.00000000000000	0.00000000000000	
652.5	0.0232322879167	-0.196272781058	
! Port Impedance	50.00000000000000	0.00000000000000	
653.75	0.023607221853	-0.196291958334	
! Port Impedance	50.00000000000000	0.00000000000000	
655.0	0.0238255162725	-0.196093403117	
! Port Impedance	50.00000000000000	0.00000000000000	
656.25	0.0229271249687	-0.19600730563	
! Port Impedance	50.00000000000000	0.00000000000000	
657.5	0.0216336721435	-0.196122096501	
! Port Impedance	50.00000000000000	0.00000000000000	
658.75	0.0215139821427	-0.195268734143	
! Port Impedance	50.00000000000000	0.00000000000000	
660.0	0.0219979661867	-0.195044787957	
! Port Impedance	50.00000000000000	0.00000000000000	
661.25	0.0219764575199	-0.195031842458	
! Port Impedance	50.00000000000000	0.00000000000000	
662.5	0.0213621856332	-0.195211649047	
! Port Impedance	50.00000000000000	0.00000000000000	
663.75	0.0207605649976	-0.194691917001	
! Port Impedance	50.00000000000000	0.00000000000000	
665.0	0.0202272130237	-0.193981356446	
! Port Impedance	50.00000000000000	0.00000000000000	
666.25	0.0205749373422	-0.193808569533	
! Port Impedance	50.00000000000000	0.00000000000000	
667.5	0.0204006204317	-0.19383682952	
! Port Impedance	50.00000000000000	0.00000000000000	
668.75	0.0200962750896	-0.193742934202	
! Port Impedance	50.00000000000000	0.00000000000000	
670.0	0.019878327932	-0.193380049513	
! Port Impedance	50.00000000000000	0.00000000000000	
671.25	0.0197001608429	-0.192909757025	
! Port Impedance	50.00000000000000	0.00000000000000	
672.5	0.0193641809836	-0.192803162472	
! Port Impedance	50.00000000000000	0.00000000000000	
673.75	0.0192560366303	-0.192333102006	
! Port Impedance	50.00000000000000	0.00000000000000	
675.0	0.0185532639383	-0.192180363483	
! Port Impedance	50.00000000000000	0.00000000000000	
676.25	0.0186928593589	-0.191763422522	
! Port Impedance	50.00000000000000	0.00000000000000	
677.5	0.0185257536515	-0.19187097402	
! Port Impedance	50.00000000000000	0.00000000000000	
678.75	0.0184959117953	-0.19131324747	
! Port Impedance	50.00000000000000	0.00000000000000	
680.0	0.0177185890495	-0.191239222936	
! Port Impedance	50.00000000000000	0.00000000000000	
681.25	0.0172533149913	-0.191067746373	
! Port Impedance	50.00000000000000	0.00000000000000	
682.5	0.0171101368494	-0.190753812808	
! Port Impedance	50.00000000000000	0.00000000000000	
683.75	0.0169434573535	-0.190365860049	
! Port Impedance	50.00000000000000	0.00000000000000	
685.0	0.0164464245768	-0.190181434995	
! Port Impedance	50.00000000000000	0.00000000000000	
686.25	0.0160293835963	-0.189896179824	
! Port Impedance	50.00000000000000	0.00000000000000	
687.5	0.0160228971709	-0.189559495049	
! Port Impedance	50.00000000000000	0.00000000000000	
688.75	0.0157457149483	-0.189181052075	
! Port Impedance	50.00000000000000	0.00000000000000	
690.0	0.0153771865742	-0.18902699025	
! Port Impedance	50.00000000000000	0.00000000000000	
691.25	0.0152577528302	-0.188850740603	
! Port Impedance	50.00000000000000	0.00000000000000	
692.5	0.0157227804398	-0.188657172814	
! Port Impedance	50.00000000000000	0.00000000000000	
693.75	0.0166207255128	-0.188487236106	
! Port Impedance	50.00000000000000	0.00000000000000	
695.0	0.0150229035208	-0.187965010749	
! Port Impedance	50.00000000000000	0.00000000000000	
696.25	0.0145805798581	-0.187357471716	
! Port Impedance	50.00000000000000	0.00000000000000	
697.5	0.0149850430224	-0.187248725096	
! Port Impedance	50.00000000000000	0.00000000000000	
698.75	0.0147052209134	-0.187144918871	
! Port Impedance	50.00000000000000	0.00000000000000	
700.0	0.0137280067454	-0.18687827712	
! Port Impedance	50.00000000000000	0.00000000000000	
701.25	0.0132234604179	-0.186354570162	
! Port Impedance	50.00000000000000	0.00000000000000	
702.5	0.0132780591214	-0.18650699299	
! Port Impedance	50.00000000000000	0.00000000000000	
703.75	0.0134101574788	-0.186024807053	
! Port Impedance	50.00000000000000	0.00000000000000	
705.0	0.0123491915225	-0.185835866059	
! Port Impedance	50.00000000000000	0.00000000000000	
706.25	0.0121533793312	-0.185545325667	
! Port Impedance	50.00000000000000	0.00000000000000	
707.5	0.0119630180606	-0.185304771283	
! Port Impedance	50.00000000000000	0.00000000000000	
708.75	0.0120619439072	-0.184979818741	
! Port Impedance	50.00000000000000	0.00000000000000	
710.0	0.0112871266466	-0.184797969447	
! Port Impedance	50.00000000000000	0.00000000000000	
711.25	0.0108393587002	-0.184346829614	
! Port Impedance	50.00000000000000	0.00000000000000	
712.5	0.0108673871535	-0.184145475011	
! Port Impedance	50.00000000000000	0.00000000000000	
713.75	0.0109422140215	-0.183937570447	
! Port Impedance	50.00000000000000	0.00000000000000	
715.0	0.0112243939387	-0.183704050553	
! Port Impedance	50.00000000000000	0.00000000000000	
716.25	0.0105552198122	-0.18329009109	
! Port Impedance	50.00000000000000	0.00000000000000	
717.5	0.0102600501864	-0.182775715959	
! Port Impedance	50.00000000000000	0.00000000000000	
718.75	0.0104600239946	-0.182362851644	
! Port Impedance	50.00000000000000	0.00000000000000	
720.0	0.0100178395165	-0.182343118715	
! Port Impedance	50.00000000000000	0.00000000000000	
721.25	0.0090050926095	-0.182314982071	
! Port Impedance	50.00000000000000	0.00000000000000	
722.5	0.00917371865636	-0.182006951934	
! Port Impedance	50.00000000000000	0.00000000000000	
723.75	0.00986927209761	-0.181003052861	
! Port Impedance	50.00000000000000	0.00000000000000	
725.0	0.00888120596081	-0.181252752396	
! Port Impedance	50.00000000000000	0.00000000000000	
726.25	0.00843010928656	-0.181288629682	
! Port Impedance	50.00000000000000	0.00000000000000	
727.5	0.00829979117472	-0.180691785342	
! Port Impedance	50.00000000000000	0.00000000000000	
728.75	0.00833996639615	-0.179826610179	
! Port Impedance	50.00000000000000	0.00000000000000	
730.0	0.00865732790729	-0.179657712943	
! Port Impedance	50.00000000000000	0.00000000000000	
731.25	0.0076116820352	-0.180433902959	
! Port Impedance	50.00000000000000	0.00000000000000	
732.5	0.00718450825554	-0.179512716056	
! Port Impedance	50.00000000000000	0.00000000000000	
733.75	0.00734260622246	-0.178822398501	
! Port Impedance	50.00000000000000	0.00000000000000	
735.0	0.00717603875475	-0.179126175219	
! Port Impedance	50.00000000000000	0.00000000000000	
736.25	0.00629510466318	-0.178963429129	
! Port Impedance	50.00000000000000	0.00000000000000	
737.5	0.0061462706352	-0.178181545374	
! Port Impedance	50.00000000000000	0.00000000000000	
738.75	0.00633960587019	-0.177775537348	
! Port Impedance	50.00000000000000	0.00000000000000	
740.0	0.00603808579209	-0.17770556737	
! Port Impedance	50.00000000000000	0.00000000000000	
741.25	0.00569295092691	-0.177637725569	
! Port Impedance	50.00000000000000	0.00000000000000	
742.5	0.00505041807183	-0.176923733812	
! Port Impedance	50.00000000000000	0.00000000000000	
743.75	0.00584126590954	-0.176349456354	
! Port Impedance	50.00000000000000	0.00000000000000	
745.0	0.00489659007804	-0.17664406688	
! Port Impedance	50.00000000000000	0.00000000000000	
746.25	0.00493191597642	-0.177054204965	
! Port Impedance	50.00000000000000	0.00000000000000	
747.5	0.00391770164527	-0.175798026117	
! Port Impedance	50.00000000000000	0.00000000000000	
748.75	0.00459496333953	-0.175956904209	
! Port Impedance	50.00000000000000	0.00000000000000	
750.0	0.00470738579259	-0.175949378881	
! Port Impedance	50.00000000000000	0.00000000000000	
