!Created with mwavepy.
# GHz S RI R 50.0 
!freq	ReS11	ImS11	
500.0	-1.02928207375	0.0113270094992	
! Port Impedance	50.00000000000000	0.00000000000000	
501.25	-0.989547620937	0.0119489667743	
! Port Impedance	50.00000000000000	0.00000000000000	
502.5	-0.983736580661	-0.0087506736409	
! Port Impedance	50.00000000000000	0.00000000000000	
503.75	-0.999070740823	-2.12607666318e-05	
! Port Impedance	50.00000000000000	0.00000000000000	
505.0	-0.997192174906	0.00300671342206	
! Port Impedance	50.00000000000000	0.00000000000000	
506.25	-1.02221954647	-0.0155161340855	
! Port Impedance	50.00000000000000	0.00000000000000	
507.5	-1.00313860328	-0.00352882501442	
! Port Impedance	50.00000000000000	0.00000000000000	
508.75	-0.998794560879	-0.00910916605644	
! Port Impedance	50.00000000000000	0.00000000000000	
510.0	-1.00382778451	-0.00892465963722	
! Port Impedance	50.00000000000000	0.00000000000000	
511.25	-1.00405816538	0.000939167757176	
! Port Impedance	50.00000000000000	0.00000000000000	
512.5	-0.982820497943	0.0287214271812	
! Port Impedance	50.00000000000000	0.00000000000000	
513.75	-1.00040226889	0.0116540705362	
! Port Impedance	50.00000000000000	0.00000000000000	
515.0	-0.995576378612	0.000352374340439	
! Port Impedance	50.00000000000000	0.00000000000000	
516.25	-0.978658780422	0.0047734426844	
! Port Impedance	50.00000000000000	0.00000000000000	
517.5	-1.00103168945	0.0110274293825	
! Port Impedance	50.00000000000000	0.00000000000000	
518.75	-1.00736357711	-0.00358265146264	
! Port Impedance	50.00000000000000	0.00000000000000	
520.0	-1.00501806692	-0.00326349778356	
! Port Impedance	50.00000000000000	0.00000000000000	
521.25	-1.00358935038	0.00530002238263	
! Port Impedance	50.00000000000000	0.00000000000000	
522.5	-1.00178251358	1.35466940143e-05	
! Port Impedance	50.00000000000000	0.00000000000000	
523.75	-0.985922372041	0.00207915540603	
! Port Impedance	50.00000000000000	0.00000000000000	
525.0	-1.00332096515	-0.0015205799332	
! Port Impedance	50.00000000000000	0.00000000000000	
526.25	-1.00233658452	0.000569895646225	
! Port Impedance	50.00000000000000	0.00000000000000	
527.5	-1.00147436714	0.00246950102067	
! Port Impedance	50.00000000000000	0.00000000000000	
528.75	-1.00175453434	0.00392982409084	
! Port Impedance	50.00000000000000	0.00000000000000	
530.0	-1.00042798736	0.00427948201888	
! Port Impedance	50.00000000000000	0.00000000000000	
531.25	-0.999132086916	0.00334476246839	
! Port Impedance	50.00000000000000	0.00000000000000	
532.5	-0.999895372668	0.00242676090811	
! Port Impedance	50.00000000000000	0.00000000000000	
533.75	-1.00013831368	0.00111270948696	
! Port Impedance	50.00000000000000	0.00000000000000	
535.0	-1.00115972084	0.00251244400656	
! Port Impedance	50.00000000000000	0.00000000000000	
536.25	-1.00080622742	0.00156832655788	
! Port Impedance	50.00000000000000	0.00000000000000	
537.5	-1.00112403955	0.0044078311108	
! Port Impedance	50.00000000000000	0.00000000000000	
538.75	-1.00111068271	0.00203970362105	
! Port Impedance	50.00000000000000	0.00000000000000	
540.0	-1.00102719208	0.00237254099748	
! Port Impedance	50.00000000000000	0.00000000000000	
541.25	-1.0016317443	0.00196118062499	
! Port Impedance	50.00000000000000	0.00000000000000	
542.5	-1.00137430952	0.00116688172399	
! Port Impedance	50.00000000000000	0.00000000000000	
543.75	-1.00129063068	0.00730552515549	
! Port Impedance	50.00000000000000	0.00000000000000	
545.0	-1.00079789558	0.00617802177864	
! Port Impedance	50.00000000000000	0.00000000000000	
546.25	-1.00160047829	0.00466920363671	
! Port Impedance	50.00000000000000	0.00000000000000	
547.5	-1.00124302374	0.00629151098104	
! Port Impedance	50.00000000000000	0.00000000000000	
548.75	-1.00140789363	0.00641751290203	
! Port Impedance	50.00000000000000	0.00000000000000	
550.0	-0.999350005223	0.00426344467649	
! Port Impedance	50.00000000000000	0.00000000000000	
551.25	-0.999968341322	0.00351752541275	
! Port Impedance	50.00000000000000	0.00000000000000	
552.5	-1.00234783252	0.00214420677548	
! Port Impedance	50.00000000000000	0.00000000000000	
553.75	-1.00360739367	0.00580865637989	
! Port Impedance	50.00000000000000	0.00000000000000	
555.0	-1.00189396822	0.00883623802277	
! Port Impedance	50.00000000000000	0.00000000000000	
556.25	-1.00343027924	0.00563065873373	
! Port Impedance	50.00000000000000	0.00000000000000	
557.5	-1.00583522759	0.00956879916394	
! Port Impedance	50.00000000000000	0.00000000000000	
558.75	-1.00476595047	0.0097392855913	
! Port Impedance	50.00000000000000	0.00000000000000	
560.0	-1.00259013517	0.00572182581709	
! Port Impedance	50.00000000000000	0.00000000000000	
561.25	-1.00210350608	0.0074091877976	
! Port Impedance	50.00000000000000	0.00000000000000	
562.5	-1.00257545532	0.00468618345006	
! Port Impedance	50.00000000000000	0.00000000000000	
563.75	-1.00284300949	0.00736582983919	
! Port Impedance	50.00000000000000	0.00000000000000	
565.0	-1.00229273857	0.0178615501983	
! Port Impedance	50.00000000000000	0.00000000000000	
566.25	-1.00176139482	0.00339000386099	
! Port Impedance	50.00000000000000	0.00000000000000	
567.5	-1.0036495357	0.00648592843262	
! Port Impedance	50.00000000000000	0.00000000000000	
568.75	-1.00418888698	0.002687376095	
! Port Impedance	50.00000000000000	0.00000000000000	
570.0	-1.00241022094	0.00309090962968	
! Port Impedance	50.00000000000000	0.00000000000000	
571.25	-1.00137290117	0.0120043457412	
! Port Impedance	50.00000000000000	0.00000000000000	
572.5	-1.00194728732	0.00251091457621	
! Port Impedance	50.00000000000000	0.00000000000000	
573.75	-1.0007734207	-6.38666565383e-05	
! Port Impedance	50.00000000000000	0.00000000000000	
575.0	-1.00228754832	0.000854497705061	
! Port Impedance	50.00000000000000	0.00000000000000	
576.25	-1.00138336967	-0.00116108539271	
! Port Impedance	50.00000000000000	0.00000000000000	
577.5	-1.00207083384	6.2594110067e-05	
! Port Impedance	50.00000000000000	0.00000000000000	
578.75	-1.00227938899	0.000727332204565	
! Port Impedance	50.00000000000000	0.00000000000000	
580.0	-1.00203104135	-0.000660361250278	
! Port Impedance	50.00000000000000	0.00000000000000	
581.25	-1.00301350658	0.000752631456788	
! Port Impedance	50.00000000000000	0.00000000000000	
582.5	-1.00302593617	-0.00201780584376	
! Port Impedance	50.00000000000000	0.00000000000000	
583.75	-1.00214463991	-0.000236745067811	
! Port Impedance	50.00000000000000	0.00000000000000	
585.0	-1.00198784859	-9.64956393578e-05	
! Port Impedance	50.00000000000000	0.00000000000000	
586.25	-1.00311504342	-0.000685808052538	
! Port Impedance	50.00000000000000	0.00000000000000	
587.5	-1.00275815804	0.000771296053879	
! Port Impedance	50.00000000000000	0.00000000000000	
588.75	-1.00232883042	-0.00199438052638	
! Port Impedance	50.00000000000000	0.00000000000000	
590.0	-1.00149658164	-0.00193403663233	
! Port Impedance	50.00000000000000	0.00000000000000	
591.25	-1.00278690381	0.00141779086502	
! Port Impedance	50.00000000000000	0.00000000000000	
592.5	-1.00321272368	0.00061489976977	
! Port Impedance	50.00000000000000	0.00000000000000	
593.75	-1.00196501902	-8.08496215898e-05	
! Port Impedance	50.00000000000000	0.00000000000000	
595.0	-1.00292166805	-0.000146812937785	
! Port Impedance	50.00000000000000	0.00000000000000	
596.25	-1.00184905839	-0.00132777599467	
! Port Impedance	50.00000000000000	0.00000000000000	
597.5	-1.00295968604	0.000138108325203	
! Port Impedance	50.00000000000000	0.00000000000000	
598.75	-1.00210475444	-0.000216231621847	
! Port Impedance	50.00000000000000	0.00000000000000	
600.0	-1.00270877091	0.00102963064621	
! Port Impedance	50.00000000000000	0.00000000000000	
601.25	-1.00153817633	0.00424528296451	
! Port Impedance	50.00000000000000	0.00000000000000	
602.5	-1.00195465113	0.000603328247692	
! Port Impedance	50.00000000000000	0.00000000000000	
603.75	-1.00240160756	0.000954154942931	
! Port Impedance	50.00000000000000	0.00000000000000	
605.0	-1.00289883135	0.00182348884812	
! Port Impedance	50.00000000000000	0.00000000000000	
606.25	-1.00197196971	0.00253286824265	
! Port Impedance	50.00000000000000	0.00000000000000	
607.5	-1.00202975699	0.00106674989862	
! Port Impedance	50.00000000000000	0.00000000000000	
608.75	-1.00165180303	0.00150260699301	
! Port Impedance	50.00000000000000	0.00000000000000	
610.0	-1.00175573651	0.0020784117538	
! Port Impedance	50.00000000000000	0.00000000000000	
611.25	-1.00186964924	0.000425670246779	
! Port Impedance	50.00000000000000	0.00000000000000	
612.5	-1.00204457688	-0.00609088461004	
! Port Impedance	50.00000000000000	0.00000000000000	
613.75	-1.00093844503	0.00339745970481	
! Port Impedance	50.00000000000000	0.00000000000000	
615.0	-1.000393406	0.00562930781247	
! Port Impedance	50.00000000000000	0.00000000000000	
616.25	-1.00143427143	0.000271374333438	
! Port Impedance	50.00000000000000	0.00000000000000	
617.5	-1.00189236338	0.00298838450446	
! Port Impedance	50.00000000000000	0.00000000000000	
618.75	-1.00077544563	0.00152362977943	
! Port Impedance	50.00000000000000	0.00000000000000	
620.0	-1.00177654128	0.00240402153967	
! Port Impedance	50.00000000000000	0.00000000000000	
621.25	-1.00129341504	0.00187248642088	
! Port Impedance	50.00000000000000	0.00000000000000	
622.5	-1.0015927937	0.00124344030098	
! Port Impedance	50.00000000000000	0.00000000000000	
623.75	-1.00101820014	0.00193897006032	
! Port Impedance	50.00000000000000	0.00000000000000	
625.0	-1.00068102035	0.00131930557278	
! Port Impedance	50.00000000000000	0.00000000000000	
626.25	-1.00180687273	0.00140613322363	
! Port Impedance	50.00000000000000	0.00000000000000	
627.5	-1.00082633691	0.00549972039017	
! Port Impedance	50.00000000000000	0.00000000000000	
628.75	-1.00164515608	0.000406630390279	
! Port Impedance	50.00000000000000	0.00000000000000	
630.0	-1.00013480637	0.0053373916816	
! Port Impedance	50.00000000000000	0.00000000000000	
631.25	-1.00038952913	0.00186462042884	
! Port Impedance	50.00000000000000	0.00000000000000	
632.5	-1.00046688698	-0.000661144975708	
! Port Impedance	50.00000000000000	0.00000000000000	
633.75	-1.00108490775	0.00015570504218	
! Port Impedance	50.00000000000000	0.00000000000000	
635.0	-1.00151348915	-0.00201254320727	
! Port Impedance	50.00000000000000	0.00000000000000	
636.25	-1.00152309272	-0.000344875356955	
! Port Impedance	50.00000000000000	0.00000000000000	
637.5	-1.00146101361	0.0014093401343	
! Port Impedance	50.00000000000000	0.00000000000000	
638.75	-1.00093101467	0.000520173802632	
! Port Impedance	50.00000000000000	0.00000000000000	
640.0	-1.00027746321	9.54289581711e-05	
! Port Impedance	50.00000000000000	0.00000000000000	
641.25	-1.00035367363	-0.000697066453364	
! Port Impedance	50.00000000000000	0.00000000000000	
642.5	-1.00044709279	0.000120043143762	
! Port Impedance	50.00000000000000	0.00000000000000	
643.75	-1.00028127325	1.81046870388e-05	
! Port Impedance	50.00000000000000	0.00000000000000	
645.0	-1.00024741346	-0.000438233923175	
! Port Impedance	50.00000000000000	0.00000000000000	
646.25	-0.999989930662	0.000145896835795	
! Port Impedance	50.00000000000000	0.00000000000000	
647.5	-1.00019238237	0.000671067667553	
! Port Impedance	50.00000000000000	0.00000000000000	
648.75	-1.00041099544	-0.000114120567426	
! Port Impedance	50.00000000000000	0.00000000000000	
650.0	-1.00061991277	-1.17554384101e-05	
! Port Impedance	50.00000000000000	0.00000000000000	
651.25	-1.00008582389	-0.000717425164338	
! Port Impedance	50.00000000000000	0.00000000000000	
652.5	-0.999777824694	-0.00196464541426	
! Port Impedance	50.00000000000000	0.00000000000000	
653.75	-1.00011616369	-0.00219302146643	
! Port Impedance	50.00000000000000	0.00000000000000	
655.0	-1.00112693072	-0.00943850724819	
! Port Impedance	50.00000000000000	0.00000000000000	
656.25	-1.00023573446	-0.00491573312825	
! Port Impedance	50.00000000000000	0.00000000000000	
657.5	-0.999826818264	-0.000496235503643	
! Port Impedance	50.00000000000000	0.00000000000000	
658.75	-0.999524828067	-0.00143612685417	
! Port Impedance	50.00000000000000	0.00000000000000	
660.0	-1.00001682375	-0.00142048963952	
! Port Impedance	50.00000000000000	0.00000000000000	
661.25	-0.998897018301	-0.000745165220072	
! Port Impedance	50.00000000000000	0.00000000000000	
662.5	-0.999175753605	-0.000787322917776	
! Port Impedance	50.00000000000000	0.00000000000000	
663.75	-0.999544987723	-0.000955589540368	
! Port Impedance	50.00000000000000	0.00000000000000	
665.0	-0.999181349509	-0.00189297819626	
! Port Impedance	50.00000000000000	0.00000000000000	
666.25	-0.999399266111	-0.00074978400302	
! Port Impedance	50.00000000000000	0.00000000000000	
667.5	-0.999580537287	-0.00219288713806	
! Port Impedance	50.00000000000000	0.00000000000000	
668.75	-0.999136275738	-0.000996882179272	
! Port Impedance	50.00000000000000	0.00000000000000	
670.0	-0.999243583094	-0.000767246221625	
! Port Impedance	50.00000000000000	0.00000000000000	
671.25	-0.998903092821	-0.00133273616671	
! Port Impedance	50.00000000000000	0.00000000000000	
672.5	-0.999250421354	-0.000861096686965	
! Port Impedance	50.00000000000000	0.00000000000000	
673.75	-0.998816102214	-0.00150148534379	
! Port Impedance	50.00000000000000	0.00000000000000	
675.0	-0.998445006973	-0.000983484426555	
! Port Impedance	50.00000000000000	0.00000000000000	
676.25	-0.99984389976	-0.00196483293999	
! Port Impedance	50.00000000000000	0.00000000000000	
677.5	-0.999926752705	-0.00437116541082	
! Port Impedance	50.00000000000000	0.00000000000000	
678.75	-0.999349947939	-0.00402624508535	
! Port Impedance	50.00000000000000	0.00000000000000	
680.0	-0.999146107175	-0.00162806157533	
! Port Impedance	50.00000000000000	0.00000000000000	
681.25	-0.999473992115	-0.00225685930145	
! Port Impedance	50.00000000000000	0.00000000000000	
682.5	-0.99966357774	-0.0021847286441	
! Port Impedance	50.00000000000000	0.00000000000000	
683.75	-0.999319013901	-0.00265436465769	
! Port Impedance	50.00000000000000	0.00000000000000	
685.0	-0.999983529482	-0.0021280127093	
! Port Impedance	50.00000000000000	0.00000000000000	
686.25	-0.999316708977	-0.00108602290271	
! Port Impedance	50.00000000000000	0.00000000000000	
687.5	-0.998879312982	-0.00275057479759	
! Port Impedance	50.00000000000000	0.00000000000000	
688.75	-0.999780816457	-0.0027662889817	
! Port Impedance	50.00000000000000	0.00000000000000	
690.0	-0.999518826189	-0.00151456756547	
! Port Impedance	50.00000000000000	0.00000000000000	
691.25	-1.00006577061	-0.00232332359527	
! Port Impedance	50.00000000000000	0.00000000000000	
692.5	-0.999196200766	-0.00811314210613	
! Port Impedance	50.00000000000000	0.00000000000000	
693.75	-0.999437343056	-0.0154597736892	
! Port Impedance	50.00000000000000	0.00000000000000	
695.0	-1.00052976248	-0.0100838548289	
! Port Impedance	50.00000000000000	0.00000000000000	
696.25	-1.00129461462	-0.00976892250967	
! Port Impedance	50.00000000000000	0.00000000000000	
697.5	-1.00011799527	-0.00627961738227	
! Port Impedance	50.00000000000000	0.00000000000000	
698.75	-1.00014299318	-0.00452526154026	
! Port Impedance	50.00000000000000	0.00000000000000	
700.0	-1.00066795013	-0.00220229386011	
! Port Impedance	50.00000000000000	0.00000000000000	
701.25	-1.00050464591	-0.00209764647289	
! Port Impedance	50.00000000000000	0.00000000000000	
702.5	-1.00032557757	-0.00237374627679	
! Port Impedance	50.00000000000000	0.00000000000000	
703.75	-1.00078508786	-0.00611753730306	
! Port Impedance	50.00000000000000	0.00000000000000	
705.0	-1.0017809194	-0.00359331627345	
! Port Impedance	50.00000000000000	0.00000000000000	
706.25	-1.00112248271	-0.00302466345306	
! Port Impedance	50.00000000000000	0.00000000000000	
707.5	-1.0007718325	-0.00300049299002	
! Port Impedance	50.00000000000000	0.00000000000000	
708.75	-1.00097341336	-0.00277982035691	
! Port Impedance	50.00000000000000	0.00000000000000	
710.0	-1.00139923535	-0.00198402613793	
! Port Impedance	50.00000000000000	0.00000000000000	
711.25	-1.00193564055	-0.00332020151541	
! Port Impedance	50.00000000000000	0.00000000000000	
712.5	-1.00139758735	-0.00300392051234	
! Port Impedance	50.00000000000000	0.00000000000000	
713.75	-1.00009423703	-0.00297203533604	
! Port Impedance	50.00000000000000	0.00000000000000	
715.0	-1.00160817249	-0.00871482409955	
! Port Impedance	50.00000000000000	0.00000000000000	
716.25	-1.00245717299	-0.00915970152402	
! Port Impedance	50.00000000000000	0.00000000000000	
717.5	-1.00179186857	-0.00475939527499	
! Port Impedance	50.00000000000000	0.00000000000000	
718.75	-1.00206692142	-0.003807374246	
! Port Impedance	50.00000000000000	0.00000000000000	
720.0	-1.00216371607	-0.00265197406637	
! Port Impedance	50.00000000000000	0.00000000000000	
721.25	-1.00305878033	-0.0042356322232	
! Port Impedance	50.00000000000000	0.00000000000000	
722.5	-1.00263084744	-0.00623603602723	
! Port Impedance	50.00000000000000	0.00000000000000	
723.75	-1.00133477026	-0.00431895414999	
! Port Impedance	50.00000000000000	0.00000000000000	
725.0	-1.00279458003	-0.00569630622779	
! Port Impedance	50.00000000000000	0.00000000000000	
726.25	-1.0038275768	-0.0100291943296	
! Port Impedance	50.00000000000000	0.00000000000000	
727.5	-1.00327892161	-0.00658048095461	
! Port Impedance	50.00000000000000	0.00000000000000	
728.75	-1.00188798178	-0.00471129019317	
! Port Impedance	50.00000000000000	0.00000000000000	
730.0	-1.00289567082	-0.00494834440149	
! Port Impedance	50.00000000000000	0.00000000000000	
731.25	-1.00332312923	-0.00667698125299	
! Port Impedance	50.00000000000000	0.00000000000000	
732.5	-1.00324963594	-0.00581732250188	
! Port Impedance	50.00000000000000	0.00000000000000	
733.75	-1.00293194758	-0.00344427290692	
! Port Impedance	50.00000000000000	0.00000000000000	
735.0	-1.00294628677	-0.00184675613127	
! Port Impedance	50.00000000000000	0.00000000000000	
736.25	-1.00370132768	-0.00179697239155	
! Port Impedance	50.00000000000000	0.00000000000000	
737.5	-1.00377083037	-0.00228403512264	
! Port Impedance	50.00000000000000	0.00000000000000	
738.75	-1.00320727223	-0.00476659337982	
! Port Impedance	50.00000000000000	0.00000000000000	
740.0	-1.00301153379	-0.00305649612886	
! Port Impedance	50.00000000000000	0.00000000000000	
741.25	-1.00294903052	-0.00143746537057	
! Port Impedance	50.00000000000000	0.00000000000000	
742.5	-1.00356999517	-0.00126189165213	
! Port Impedance	50.00000000000000	0.00000000000000	
743.75	-1.00361268884	-0.00132334244837	
! Port Impedance	50.00000000000000	0.00000000000000	
745.0	-1.00366480558	-0.00178602960531	
! Port Impedance	50.00000000000000	0.00000000000000	
746.25	-1.00380075602	-0.00195464487447	
! Port Impedance	50.00000000000000	0.00000000000000	
747.5	-1.00349087555	-0.00128761001544	
! Port Impedance	50.00000000000000	0.00000000000000	
748.75	-1.00414648628	0.000825319277154	
! Port Impedance	50.00000000000000	0.00000000000000	
750.0	-1.0038759813	-0.00144199903137	
! Port Impedance	50.00000000000000	0.00000000000000	
