!Created with mwavepy.
# GHz S RI R 50.0 
!freq	ReS11	ImS11	
500.0	-0.971026955928	0.0132857931188	
! Port Impedance	50.00000000000000	0.00000000000000	
501.25	-0.980345443256	0.0334165105619	
! Port Impedance	50.00000000000000	0.00000000000000	
502.5	-0.994246151411	-0.00810448198912	
! Port Impedance	50.00000000000000	0.00000000000000	
503.75	-1.0038688832	0.00314922260828	
! Port Impedance	50.00000000000000	0.00000000000000	
505.0	-1.00384528833	-0.00358510723887	
! Port Impedance	50.00000000000000	0.00000000000000	
506.25	-0.997330050337	0.0180419895283	
! Port Impedance	50.00000000000000	0.00000000000000	
507.5	-0.995752149726	0.000816988317817	
! Port Impedance	50.00000000000000	0.00000000000000	
508.75	-0.995364100143	0.0120857670013	
! Port Impedance	50.00000000000000	0.00000000000000	
510.0	-0.995218032221	0.00398146903444	
! Port Impedance	50.00000000000000	0.00000000000000	
511.25	-1.00041672781	0.00447257016631	
! Port Impedance	50.00000000000000	0.00000000000000	
512.5	-1.02970582345	0.0174676170643	
! Port Impedance	50.00000000000000	0.00000000000000	
513.75	-1.00152840385	0.00869025938172	
! Port Impedance	50.00000000000000	0.00000000000000	
515.0	-1.00208315746	0.00725089284275	
! Port Impedance	50.00000000000000	0.00000000000000	
516.25	-1.00223542251	0.00420583421092	
! Port Impedance	50.00000000000000	0.00000000000000	
517.5	-0.989565092388	-0.00299058976324	
! Port Impedance	50.00000000000000	0.00000000000000	
518.75	-0.990567838498	0.00748570448472	
! Port Impedance	50.00000000000000	0.00000000000000	
520.0	-0.996857994077	0.000427178441396	
! Port Impedance	50.00000000000000	0.00000000000000	
521.25	-0.998016547589	0.00281402826854	
! Port Impedance	50.00000000000000	0.00000000000000	
522.5	-0.999877692992	0.0041092891173	
! Port Impedance	50.00000000000000	0.00000000000000	
523.75	-1.00512952098	0.00177560902329	
! Port Impedance	50.00000000000000	0.00000000000000	
525.0	-0.997871401685	0.00441559222648	
! Port Impedance	50.00000000000000	0.00000000000000	
526.25	-0.999123166661	0.0019343815221	
! Port Impedance	50.00000000000000	0.00000000000000	
527.5	-1.00159953316	0.00284752197342	
! Port Impedance	50.00000000000000	0.00000000000000	
528.75	-1.00107063359	0.00400551852156	
! Port Impedance	50.00000000000000	0.00000000000000	
530.0	-1.00039536648	0.00452473405295	
! Port Impedance	50.00000000000000	0.00000000000000	
531.25	-1.00358727979	0.00575841582068	
! Port Impedance	50.00000000000000	0.00000000000000	
532.5	-1.00028983483	0.00293687852821	
! Port Impedance	50.00000000000000	0.00000000000000	
533.75	-1.00140873184	0.0023425884842	
! Port Impedance	50.00000000000000	0.00000000000000	
535.0	-1.00083626468	0.00237239197346	
! Port Impedance	50.00000000000000	0.00000000000000	
536.25	-1.0002136582	0.00209772940201	
! Port Impedance	50.00000000000000	0.00000000000000	
537.5	-1.00086973621	0.00180389095627	
! Port Impedance	50.00000000000000	0.00000000000000	
538.75	-1.00089104542	0.00182610275361	
! Port Impedance	50.00000000000000	0.00000000000000	
540.0	-1.00127179477	0.00296361898696	
! Port Impedance	50.00000000000000	0.00000000000000	
541.25	-1.00181296717	0.00302879456338	
! Port Impedance	50.00000000000000	0.00000000000000	
542.5	-1.00156767935	0.00293236094515	
! Port Impedance	50.00000000000000	0.00000000000000	
543.75	-1.00165906601	0.00329688774224	
! Port Impedance	50.00000000000000	0.00000000000000	
545.0	-1.00143140019	0.00138675627734	
! Port Impedance	50.00000000000000	0.00000000000000	
546.25	-1.00068505412	0.0020591554952	
! Port Impedance	50.00000000000000	0.00000000000000	
547.5	-1.00119675325	0.000868091613542	
! Port Impedance	50.00000000000000	0.00000000000000	
548.75	-1.00096906522	0.00145542210774	
! Port Impedance	50.00000000000000	0.00000000000000	
550.0	-1.00037557589	0.00221770814528	
! Port Impedance	50.00000000000000	0.00000000000000	
551.25	-0.999958234227	0.00237340397437	
! Port Impedance	50.00000000000000	0.00000000000000	
552.5	-0.999419753323	0.00270208043164	
! Port Impedance	50.00000000000000	0.00000000000000	
553.75	-0.998457265216	0.00141252135861	
! Port Impedance	50.00000000000000	0.00000000000000	
555.0	-0.998235365267	0.000884800054854	
! Port Impedance	50.00000000000000	0.00000000000000	
556.25	-0.998410521287	0.000465264285144	
! Port Impedance	50.00000000000000	0.00000000000000	
557.5	-0.997274212726	-0.000697295699661	
! Port Impedance	50.00000000000000	0.00000000000000	
558.75	-0.998258364341	-8.19097796086e-05	
! Port Impedance	50.00000000000000	0.00000000000000	
560.0	-0.998940398483	-0.000663313951538	
! Port Impedance	50.00000000000000	0.00000000000000	
561.25	-0.998732096337	-0.000563435306176	
! Port Impedance	50.00000000000000	0.00000000000000	
562.5	-0.99852432783	-0.00162297641927	
! Port Impedance	50.00000000000000	0.00000000000000	
563.75	-0.99911420561	-0.000840866591875	
! Port Impedance	50.00000000000000	0.00000000000000	
565.0	-0.999654214668	5.78126415636e-05	
! Port Impedance	50.00000000000000	0.00000000000000	
566.25	-1.00048539614	-0.000378222406871	
! Port Impedance	50.00000000000000	0.00000000000000	
567.5	-0.999607826887	-0.000840761661177	
! Port Impedance	50.00000000000000	0.00000000000000	
568.75	-0.999506231192	0.00103195962254	
! Port Impedance	50.00000000000000	0.00000000000000	
570.0	-1.0001409263	0.00108325899082	
! Port Impedance	50.00000000000000	0.00000000000000	
571.25	-0.999790988788	-0.00018678042234	
! Port Impedance	50.00000000000000	0.00000000000000	
572.5	-1.00014471453	6.22607826453e-05	
! Port Impedance	50.00000000000000	0.00000000000000	
573.75	-0.999676869766	-0.000531480523592	
! Port Impedance	50.00000000000000	0.00000000000000	
575.0	-1.00034628141	-0.000525853467203	
! Port Impedance	50.00000000000000	0.00000000000000	
576.25	-0.998809434637	0.000648260286284	
! Port Impedance	50.00000000000000	0.00000000000000	
577.5	-1.00001566222	-0.00153255183737	
! Port Impedance	50.00000000000000	0.00000000000000	
578.75	-1.00007440135	-0.000702792286781	
! Port Impedance	50.00000000000000	0.00000000000000	
580.0	-0.999647164115	0.000991900983414	
! Port Impedance	50.00000000000000	0.00000000000000	
581.25	-0.999852753007	-0.000698726206752	
! Port Impedance	50.00000000000000	0.00000000000000	
582.5	-1.00029707522	0.000930791930499	
! Port Impedance	50.00000000000000	0.00000000000000	
583.75	-1.00039895672	0.000364235100816	
! Port Impedance	50.00000000000000	0.00000000000000	
585.0	-1.00043358249	0.00023633757411	
! Port Impedance	50.00000000000000	0.00000000000000	
586.25	-0.999775405588	-0.000261071173925	
! Port Impedance	50.00000000000000	0.00000000000000	
587.5	-0.999809476973	-0.000289160303183	
! Port Impedance	50.00000000000000	0.00000000000000	
588.75	-1.0002481859	0.000879642034185	
! Port Impedance	50.00000000000000	0.00000000000000	
590.0	-1.00047377218	0.000932990538914	
! Port Impedance	50.00000000000000	0.00000000000000	
591.25	-1.00024004297	0.000429903207871	
! Port Impedance	50.00000000000000	0.00000000000000	
592.5	-1.00033571845	-0.000345062702319	
! Port Impedance	50.00000000000000	0.00000000000000	
593.75	-1.00053784853	0.000554927757856	
! Port Impedance	50.00000000000000	0.00000000000000	
595.0	-1.00006330621	-0.000383087488593	
! Port Impedance	50.00000000000000	0.00000000000000	
596.25	-1.00073251606	0.00172057422347	
! Port Impedance	50.00000000000000	0.00000000000000	
597.5	-1.00111077023	0.00111750963393	
! Port Impedance	50.00000000000000	0.00000000000000	
598.75	-0.999970672335	0.0020543001849	
! Port Impedance	50.00000000000000	0.00000000000000	
600.0	-1.00092729491	-0.000100596233229	
! Port Impedance	50.00000000000000	0.00000000000000	
601.25	-1.00066178884	-7.57949147288e-05	
! Port Impedance	50.00000000000000	0.00000000000000	
602.5	-1.00087818731	0.00111193584426	
! Port Impedance	50.00000000000000	0.00000000000000	
603.75	-1.00041039341	-0.000249733671815	
! Port Impedance	50.00000000000000	0.00000000000000	
605.0	-1.00101024473	-0.000806903319476	
! Port Impedance	50.00000000000000	0.00000000000000	
606.25	-1.00102004301	0.000185783156416	
! Port Impedance	50.00000000000000	0.00000000000000	
607.5	-1.00083614533	-0.000248385704511	
! Port Impedance	50.00000000000000	0.00000000000000	
608.75	-1.00065174185	0.000983490896505	
! Port Impedance	50.00000000000000	0.00000000000000	
610.0	-1.00112019751	0.000604577058602	
! Port Impedance	50.00000000000000	0.00000000000000	
611.25	-1.0017739141	0.00063844262763	
! Port Impedance	50.00000000000000	0.00000000000000	
612.5	-1.0007328407	0.00157610748758	
! Port Impedance	50.00000000000000	0.00000000000000	
613.75	-1.00111770725	0.00121592825173	
! Port Impedance	50.00000000000000	0.00000000000000	
615.0	-1.00041259049	-0.000267154682137	
! Port Impedance	50.00000000000000	0.00000000000000	
616.25	-1.00104363645	0.00158943388873	
! Port Impedance	50.00000000000000	0.00000000000000	
617.5	-1.00001949263	-0.000103126775418	
! Port Impedance	50.00000000000000	0.00000000000000	
618.75	-1.00115580669	-5.36269731066e-07	
! Port Impedance	50.00000000000000	0.00000000000000	
620.0	-1.00029703097	-0.000831750789073	
! Port Impedance	50.00000000000000	0.00000000000000	
621.25	-1.00098770539	-7.83899283139e-05	
! Port Impedance	50.00000000000000	0.00000000000000	
622.5	-1.00064606071	-0.000205138544151	
! Port Impedance	50.00000000000000	0.00000000000000	
623.75	-1.00135811165	-0.000341448937512	
! Port Impedance	50.00000000000000	0.00000000000000	
625.0	-1.00095939977	-0.000203365475048	
! Port Impedance	50.00000000000000	0.00000000000000	
626.25	-1.00089047822	-0.0008827558931	
! Port Impedance	50.00000000000000	0.00000000000000	
627.5	-1.00190974354	-0.000565700249842	
! Port Impedance	50.00000000000000	0.00000000000000	
628.75	-1.00075213963	0.000331456640719	
! Port Impedance	50.00000000000000	0.00000000000000	
630.0	-1.00119328956	1.96072992817e-05	
! Port Impedance	50.00000000000000	0.00000000000000	
631.25	-1.00122169672	-0.000549971539901	
! Port Impedance	50.00000000000000	0.00000000000000	
632.5	-1.00094181302	0.000602477047601	
! Port Impedance	50.00000000000000	0.00000000000000	
633.75	-1.00147717113	0.000190113100721	
! Port Impedance	50.00000000000000	0.00000000000000	
635.0	-1.00143589033	0.000434923035205	
! Port Impedance	50.00000000000000	0.00000000000000	
636.25	-1.00044853413	0.000575065063589	
! Port Impedance	50.00000000000000	0.00000000000000	
637.5	-1.00140760614	0.000485040490074	
! Port Impedance	50.00000000000000	0.00000000000000	
638.75	-1.00161914875	0.00119898139844	
! Port Impedance	50.00000000000000	0.00000000000000	
640.0	-1.00149568018	0.00121923967971	
! Port Impedance	50.00000000000000	0.00000000000000	
641.25	-1.00188018415	0.00235910745385	
! Port Impedance	50.00000000000000	0.00000000000000	
642.5	-1.00109044746	0.00097597572264	
! Port Impedance	50.00000000000000	0.00000000000000	
643.75	-1.00106585373	0.000811664108591	
! Port Impedance	50.00000000000000	0.00000000000000	
645.0	-1.002633274	0.00173838720129	
! Port Impedance	50.00000000000000	0.00000000000000	
646.25	-1.0015529763	0.00152537294712	
! Port Impedance	50.00000000000000	0.00000000000000	
647.5	-1.00162686877	0.00167738256131	
! Port Impedance	50.00000000000000	0.00000000000000	
648.75	-1.00173951837	0.00180013316579	
! Port Impedance	50.00000000000000	0.00000000000000	
650.0	-1.00113376489	0.00144934660101	
! Port Impedance	50.00000000000000	0.00000000000000	
651.25	-1.00156246418	0.00161257805456	
! Port Impedance	50.00000000000000	0.00000000000000	
652.5	-1.00202813799	0.00209413519759	
! Port Impedance	50.00000000000000	0.00000000000000	
653.75	-1.00177754153	0.00145807478091	
! Port Impedance	50.00000000000000	0.00000000000000	
655.0	-1.00209335073	0.00181279148741	
! Port Impedance	50.00000000000000	0.00000000000000	
656.25	-1.00171439066	0.00189900331244	
! Port Impedance	50.00000000000000	0.00000000000000	
657.5	-1.00279914548	0.00206964306429	
! Port Impedance	50.00000000000000	0.00000000000000	
658.75	-1.0020245964	0.00201135871704	
! Port Impedance	50.00000000000000	0.00000000000000	
660.0	-1.00164533468	0.00185580631185	
! Port Impedance	50.00000000000000	0.00000000000000	
661.25	-1.00187931767	0.0018224330584	
! Port Impedance	50.00000000000000	0.00000000000000	
662.5	-1.00193964256	0.00166457056326	
! Port Impedance	50.00000000000000	0.00000000000000	
663.75	-1.00271390455	0.00172648148269	
! Port Impedance	50.00000000000000	0.00000000000000	
665.0	-1.0027128627	0.00181766371078	
! Port Impedance	50.00000000000000	0.00000000000000	
666.25	-1.00236998319	0.00171156989729	
! Port Impedance	50.00000000000000	0.00000000000000	
667.5	-1.00245062778	0.00232958970264	
! Port Impedance	50.00000000000000	0.00000000000000	
668.75	-1.00241660234	0.00110381811765	
! Port Impedance	50.00000000000000	0.00000000000000	
670.0	-1.00167734212	0.00143679021513	
! Port Impedance	50.00000000000000	0.00000000000000	
671.25	-1.00236009029	0.00120789884344	
! Port Impedance	50.00000000000000	0.00000000000000	
672.5	-1.0027018248	0.000377552124908	
! Port Impedance	50.00000000000000	0.00000000000000	
673.75	-1.00215339549	0.000488229302189	
! Port Impedance	50.00000000000000	0.00000000000000	
675.0	-1.00201267573	0.000700606385193	
! Port Impedance	50.00000000000000	0.00000000000000	
676.25	-1.00190482866	0.000909232992154	
! Port Impedance	50.00000000000000	0.00000000000000	
677.5	-1.00223968653	0.000815849672167	
! Port Impedance	50.00000000000000	0.00000000000000	
678.75	-1.0019497518	0.000614978371655	
! Port Impedance	50.00000000000000	0.00000000000000	
680.0	-1.00252235884	9.31829531358e-05	
! Port Impedance	50.00000000000000	0.00000000000000	
681.25	-1.00197915144	0.000552438930725	
! Port Impedance	50.00000000000000	0.00000000000000	
682.5	-1.00255193928	0.000925158583846	
! Port Impedance	50.00000000000000	0.00000000000000	
683.75	-1.00238838292	0.00148269751612	
! Port Impedance	50.00000000000000	0.00000000000000	
685.0	-1.00174000458	0.00113638023261	
! Port Impedance	50.00000000000000	0.00000000000000	
686.25	-1.00234080463	0.000764588779742	
! Port Impedance	50.00000000000000	0.00000000000000	
687.5	-1.00263523967	0.0011827605904	
! Port Impedance	50.00000000000000	0.00000000000000	
688.75	-1.00219648843	0.00081347886046	
! Port Impedance	50.00000000000000	0.00000000000000	
690.0	-1.00230140635	0.000300834075771	
! Port Impedance	50.00000000000000	0.00000000000000	
691.25	-1.00230763906	0.000807339264786	
! Port Impedance	50.00000000000000	0.00000000000000	
692.5	-1.00218494244	0.00186462871896	
! Port Impedance	50.00000000000000	0.00000000000000	
693.75	-1.00178364021	0.00105943341672	
! Port Impedance	50.00000000000000	0.00000000000000	
695.0	-1.00222994501	0.00167636806709	
! Port Impedance	50.00000000000000	0.00000000000000	
696.25	-1.00257037662	0.00152089409408	
! Port Impedance	50.00000000000000	0.00000000000000	
697.5	-1.00146707717	0.00157662926298	
! Port Impedance	50.00000000000000	0.00000000000000	
698.75	-1.00264627643	0.000338391177401	
! Port Impedance	50.00000000000000	0.00000000000000	
700.0	-1.00094046266	0.00115969681272	
! Port Impedance	50.00000000000000	0.00000000000000	
701.25	-1.00177262881	0.000977765182938	
! Port Impedance	50.00000000000000	0.00000000000000	
702.5	-1.00207740065	0.000428397426419	
! Port Impedance	50.00000000000000	0.00000000000000	
703.75	-1.00153828839	0.00105668263026	
! Port Impedance	50.00000000000000	0.00000000000000	
705.0	-1.00142789697	0.00010814031187	
! Port Impedance	50.00000000000000	0.00000000000000	
706.25	-1.00183090004	0.000808216903627	
! Port Impedance	50.00000000000000	0.00000000000000	
707.5	-1.0019131981	0.0010090683763	
! Port Impedance	50.00000000000000	0.00000000000000	
708.75	-1.00189775373	0.000834347244204	
! Port Impedance	50.00000000000000	0.00000000000000	
710.0	-1.0016349503	0.00123732774553	
! Port Impedance	50.00000000000000	0.00000000000000	
711.25	-1.00163934671	0.00131828867392	
! Port Impedance	50.00000000000000	0.00000000000000	
712.5	-1.00177354552	0.00155508124685	
! Port Impedance	50.00000000000000	0.00000000000000	
713.75	-1.00206589306	0.00053734244083	
! Port Impedance	50.00000000000000	0.00000000000000	
715.0	-1.00181076949	0.000105108763069	
! Port Impedance	50.00000000000000	0.00000000000000	
716.25	-1.00115435206	0.000513024030148	
! Port Impedance	50.00000000000000	0.00000000000000	
717.5	-1.0015556518	4.36971702922e-05	
! Port Impedance	50.00000000000000	0.00000000000000	
718.75	-1.00129031172	0.000572594437691	
! Port Impedance	50.00000000000000	0.00000000000000	
720.0	-1.0006632442	-0.000422081142015	
! Port Impedance	50.00000000000000	0.00000000000000	
721.25	-1.00085576658	0.000152699048448	
! Port Impedance	50.00000000000000	0.00000000000000	
722.5	-1.00121703342	0.000149156371286	
! Port Impedance	50.00000000000000	0.00000000000000	
723.75	-1.00116184254	0.000776861426636	
! Port Impedance	50.00000000000000	0.00000000000000	
725.0	-1.00071054202	0.00148498033434	
! Port Impedance	50.00000000000000	0.00000000000000	
726.25	-1.00079859825	0.00148108474003	
! Port Impedance	50.00000000000000	0.00000000000000	
727.5	-1.00017780901	0.000820976460817	
! Port Impedance	50.00000000000000	0.00000000000000	
728.75	-1.00100373385	-0.000769900927978	
! Port Impedance	50.00000000000000	0.00000000000000	
730.0	-1.00032727891	-0.000276345633294	
! Port Impedance	50.00000000000000	0.00000000000000	
731.25	-1.00128418621	0.000280882053519	
! Port Impedance	50.00000000000000	0.00000000000000	
732.5	-1.00121059467	-0.000703022237699	
! Port Impedance	50.00000000000000	0.00000000000000	
733.75	-1.00064860924	-0.000568980297654	
! Port Impedance	50.00000000000000	0.00000000000000	
735.0	-1.00060148393	0.000277149427547	
! Port Impedance	50.00000000000000	0.00000000000000	
736.25	-1.00043937065	-0.000228543983951	
! Port Impedance	50.00000000000000	0.00000000000000	
737.5	-0.999997947986	0.0003446699962	
! Port Impedance	50.00000000000000	0.00000000000000	
738.75	-1.0007205407	0.000223333195892	
! Port Impedance	50.00000000000000	0.00000000000000	
740.0	-1.00075346156	-0.00108863662909	
! Port Impedance	50.00000000000000	0.00000000000000	
741.25	-1.0004680315	-0.00080943726002	
! Port Impedance	50.00000000000000	0.00000000000000	
742.5	-1.00093642887	-0.000715881872105	
! Port Impedance	50.00000000000000	0.00000000000000	
743.75	-1.00090497646	-0.000630470324164	
! Port Impedance	50.00000000000000	0.00000000000000	
745.0	-0.999950262519	-0.000974441446007	
! Port Impedance	50.00000000000000	0.00000000000000	
746.25	-1.00016071479	-0.000337357200216	
! Port Impedance	50.00000000000000	0.00000000000000	
747.5	-1.00061473027	0.000286399181729	
! Port Impedance	50.00000000000000	0.00000000000000	
748.75	-1.00034418849	-0.00159425607854	
! Port Impedance	50.00000000000000	0.00000000000000	
750.0	-1.00066357293	-0.000374180666331	
! Port Impedance	50.00000000000000	0.00000000000000	
