!  2-Port S-parameters saved by WinCal
! VAR MeasName=S-Parameters (CALIBRATED_DATA) read from VNA (ZVA67-4Port)
! VAR MeasDate=6/13/2018 12:01:58 PM
! VAR NAME=tx_220GHz_Vadj_refl_1V1
! VAR FILENAME=tx_220GHz_Vadj_refl_1V1.S2P
! VAR DATE=6/13/2018 12:01:58 PM
! VAR PHYS_PORTS=1,2
!
# Hz S MA R 50
140000000000.000 +1.2252435857E-001 -6.0499525269E+001  +2.5599312904E-001 +1.3633704989E+002  +1.9432182731E-003 -3.2426282308E+001  +7.9877003689E-001 +3.4477683153E+001 
140100000000.000 +1.1132971525E-001 -6.0810867403E+001  +2.5749635432E-001 +1.3610143645E+002  +1.2841621886E-003 +1.8297919936E+001  +8.0375582219E-001 +3.3632079503E+001 
140200000000.000 +1.0292140589E-001 -6.7702388572E+001  +2.6014765593E-001 +1.3564192342E+002  +2.2530504583E-003 -2.8730078770E+001  +8.0906886568E-001 +3.3783313227E+001 
140300000000.000 +1.1272276387E-001 -7.0943753153E+001  +2.6104887829E-001 +1.3551637998E+002  +2.2512196601E-003 -3.8057543441E+001  +8.0831018119E-001 +3.3969174675E+001 
140400000000.000 +1.1516087875E-001 -7.0352704956E+001  +2.6329980815E-001 +1.3501181051E+002  +1.5911804992E-003 -2.4137772185E+001  +8.0648970066E-001 +3.3178670329E+001 
140500000000.000 +1.1089469407E-001 -7.1348605245E+001  +2.6561710146E-001 +1.3375520035E+002  +8.5016151277E-004 -6.6285523016E+001  +8.1501867496E-001 +3.3242021401E+001 
140600000000.000 +1.0927473955E-001 -7.2451400583E+001  +2.6614526027E-001 +1.3327598178E+002  +1.6284146385E-003 -1.6447345808E+001  +8.1313349780E-001 +3.3837992885E+001 
140700000000.000 +1.1066174113E-001 -7.3567453819E+001  +2.6759296624E-001 +1.3236725902E+002  +5.5387470570E-004 -4.5529232573E+001  +8.0628443080E-001 +3.3508739801E+001 
140800000000.000 +1.0716395323E-001 -7.6881228667E+001  +2.6958490270E-001 +1.3179848099E+002  +8.5788259766E-004 -4.4960217826E+001  +8.0131662123E-001 +3.2674588117E+001 
140900000000.000 +1.1353929240E-001 -7.9274605118E+001  +2.7095395966E-001 +1.3107179288E+002  +1.4735747823E-003 -2.9577012524E+001  +8.1750298324E-001 +3.2784168242E+001 
141000000000.000 +1.1679671501E-001 -7.9449927746E+001  +2.7132183561E-001 +1.3066126924E+002  +1.6457535972E-003 -1.5200199156E+001  +8.1049022540E-001 +3.2933477031E+001 
141100000000.000 +1.0994088881E-001 -7.4738040143E+001  +2.7324651558E-001 +1.2979762874E+002  +8.9651328350E-004 -4.6973711122E+001  +8.0709927029E-001 +3.2464602438E+001 
141200000000.000 +1.0173364826E-001 -8.0452690379E+001  +2.7480965730E-001 +1.2941405644E+002  +1.9356324453E-003 -6.8451432387E+001  +8.1339994795E-001 +3.2300493626E+001 
141300000000.000 +1.0069885439E-001 -8.5595487286E+001  +2.7725570261E-001 +1.2865767491E+002  +1.6648089436E-003 -5.0963588799E+001  +8.1188779675E-001 +3.2441471378E+001 
141400000000.000 +1.1038719321E-001 -8.4238845968E+001  +2.7958349251E-001 +1.2805685539E+002  +8.8688731966E-004 -3.1683618927E+001  +8.0720764082E-001 +3.2044301355E+001 
141500000000.000 +1.0387035881E-001 -8.6262444142E+001  +2.8190641716E-001 +1.2711606491E+002  +1.8025343013E-003 -5.8883696315E+001  +8.1267069756E-001 +3.1357749494E+001 
141600000000.000 +1.0958730375E-001 -8.9206950519E+001  +2.8209067022E-001 +1.2641845363E+002  +1.1001083940E-003 -5.6663901295E+001  +8.1469740496E-001 +3.1795405589E+001 
141700000000.000 +1.1009572495E-001 -8.8577168137E+001  +2.8379552145E-001 +1.2569890275E+002  +1.6601901034E-003 -5.2296866359E+001  +8.0987547124E-001 +3.1690210538E+001 
141800000000.000 +1.0101628449E-001 -8.9960662749E+001  +2.8589606978E-001 +1.2487973018E+002  +3.0880347051E-004 -2.4561103133E+001  +8.1197961625E-001 +3.1189791333E+001 
141900000000.000 +1.0496495945E-001 -9.5969691431E+001  +2.8503112543E-001 +1.2427869645E+002  +1.0445251212E-003 -4.8544643017E+001  +8.1739084740E-001 +3.0969440037E+001 
142000000000.000 +1.1160972093E-001 -9.7385914889E+001  +2.8911253787E-001 +1.2334532737E+002  +8.5903152326E-004 -3.0421744604E+001  +8.1661201440E-001 +3.1241096660E+001 
142100000000.000 +1.1053623266E-001 -9.5586174332E+001  +2.8884683772E-001 +1.2304464836E+002  +1.1578097939E-003 -4.4666549882E+001  +8.1502305871E-001 +3.1154083311E+001 
142200000000.000 +1.0987649310E-001 -9.8228539308E+001  +2.9056218245E-001 +1.2214628930E+002  +9.6698016870E-004 -8.0030191323E+001  +8.1337227125E-001 +3.1102140544E+001 
142300000000.000 +1.1578879008E-001 -9.8233423832E+001  +2.9205136244E-001 +1.2146558571E+002  +9.3867827515E-004 -7.1518953718E+001  +8.1054381733E-001 +3.0780625189E+001 
142400000000.000 +1.1394579077E-001 -9.5538278958E+001  +2.9403901437E-001 +1.2090542945E+002  +9.6235842206E-004 -7.3361639244E+001  +8.1593914660E-001 +3.0434209996E+001 
142500000000.000 +1.0496908644E-001 -9.8694216913E+001  +2.9560035604E-001 +1.2025885091E+002  +5.5055400389E-004 -5.0655700031E+001  +8.1899947687E-001 +3.0851413780E+001 
142600000000.000 +1.0812609775E-001 -1.0374017500E+002  +2.9817405679E-001 +1.1945288838E+002  +6.1102275676E-004 -6.7235029583E+001  +8.1031361781E-001 +3.0865624459E+001 
142700000000.000 +1.1660128225E-001 -1.0358192724E+002  +2.9882690280E-001 +1.1879208942E+002  +7.6880383079E-004 -5.1683810400E+001  +8.0759425820E-001 +3.0082914013E+001 
142800000000.000 +1.1283493388E-001 -1.0178127618E+002  +3.0114310130E-001 +1.1814593697E+002  +5.3711024150E-004 -7.3746663719E+001  +8.1536896479E-001 +2.9662013836E+001 
142900000000.000 +1.0676532269E-001 -1.0560945379E+002  +3.0148206901E-001 +1.1750446991E+002  +5.9380402496E-004 -4.2925223932E+001  +8.1655210938E-001 +3.0056079440E+001 
143000000000.000 +1.1522292005E-001 -1.0982804698E+002  +3.0302231474E-001 +1.1674043593E+002  +1.1410551393E-003 -7.8701615158E+001  +8.0974984794E-001 +2.9958326903E+001 
143100000000.000 +1.2222376587E-001 -1.0629172518E+002  +3.0527846034E-001 +1.1598233119E+002  +6.2461126252E-004 -5.9837150931E+001  +8.1049893818E-001 +2.9339671800E+001 
143200000000.000 +1.1513058249E-001 -1.0497447578E+002  +3.0532875727E-001 +1.1540592177E+002  +6.3945541467E-004 -7.0792111678E+001  +8.1708167668E-001 +2.9281169707E+001 
143300000000.000 +1.1188071001E-001 -1.1006683410E+002  +3.0753457160E-001 +1.1457133231E+002  +1.0591788820E-003 -9.4239427712E+001  +8.1447348766E-001 +2.9643309865E+001 
143400000000.000 +1.2010014017E-001 -1.1151100683E+002  +3.1001977628E-001 +1.1397971857E+002  +8.1116068247E-004 -9.0817771891E+001  +8.0697016837E-001 +2.9140813186E+001 
143500000000.000 +1.1794372402E-001 -1.0979153623E+002  +3.1128608627E-001 +1.1332428493E+002  +7.7871058846E-004 -7.0603501357E+001  +8.1273580487E-001 +2.8437718548E+001 
143600000000.000 +1.1216095335E-001 -1.1163640903E+002  +3.1238995923E-001 +1.1251978525E+002  +2.3956369784E-004 -9.2188508447E+001  +8.2046427830E-001 +2.8974639477E+001 
143700000000.000 +1.1669585433E-001 -1.1491212741E+002  +3.1454137190E-001 +1.1163189063E+002  +8.1308995041E-004 -1.0856945275E+002  +8.0935975944E-001 +2.9386649937E+001 
143800000000.000 +1.1982538179E-001 -1.1357933023E+002  +3.1833113985E-001 +1.1089995344E+002  +5.0004263064E-004 -1.1195673518E+002  +8.0123239069E-001 +2.8343903834E+001 
143900000000.000 +1.1408620829E-001 -1.1436800563E+002  +3.1953284625E-001 +1.1028683042E+002  +6.0285183322E-004 -1.1216192374E+002  +8.1308543869E-001 +2.7863507907E+001 
144000000000.000 +1.1568506518E-001 -1.1843719167E+002  +3.2102452180E-001 +1.0962762248E+002  +4.8781386396E-004 -1.0742503623E+002  +8.1522098899E-001 +2.8448259261E+001 
144100000000.000 +1.2101328332E-001 -1.1874230665E+002  +3.2229259917E-001 +1.0883472033E+002  +6.8121757173E-004 -1.2411406997E+002  +8.0579109335E-001 +2.8266590359E+001 
144200000000.000 +1.2062817599E-001 -1.1716023466E+002  +3.2450928848E-001 +1.0803109652E+002  +4.5528736536E-004 -8.3167988366E+001  +8.0731514667E-001 +2.7613500318E+001 
144300000000.000 +1.1434177468E-001 -1.1854544641E+002  +3.2626936699E-001 +1.0748709007E+002  +4.9416432508E-004 -1.0882841499E+002  +8.1324853980E-001 +2.7635987625E+001 
144400000000.000 +1.1466362344E-001 -1.2261392518E+002  +3.2836004330E-001 +1.0682437539E+002  +4.6604434402E-004 -9.9418375204E+001  +8.0859187314E-001 +2.7691417582E+001 
144500000000.000 +1.1961377520E-001 -1.2388345065E+002  +3.3096934120E-001 +1.0613331662E+002  +2.1537531537E-004 -8.4582015519E+001  +8.0683117145E-001 +2.7159985860E+001 
144600000000.000 +1.2180338819E-001 -1.2337774933E+002  +3.3198762194E-001 +1.0543252940E+002  +6.7332583071E-004 -1.2059009550E+002  +8.1136844088E-001 +2.6886777923E+001 
144700000000.000 +1.2043681381E-001 -1.2421250449E+002  +3.3340082050E-001 +1.0466121975E+002  +4.7937298786E-004 -1.3086671475E+002  +8.1199619441E-001 +2.7039989240E+001 
144800000000.000 +1.2171658048E-001 -1.2552005144E+002  +3.3623599957E-001 +1.0381938043E+002  +5.2575810530E-004 -1.2873289376E+002  +8.0951098887E-001 +2.7001990240E+001 
144900000000.000 +1.2268810020E-001 -1.2525374712E+002  +3.3702119890E-001 +1.0299590853E+002  +5.3278151876E-004 -1.2149286510E+002  +8.0753129301E-001 +2.6769190003E+001 
145000000000.000 +1.1989277187E-001 -1.2650248969E+002  +3.3930133227E-001 +1.0232152353E+002  +5.7634602642E-004 -1.4231463753E+002  +8.0797774824E-001 +2.6454377203E+001 
145100000000.000 +1.2062075225E-001 -1.2882112903E+002  +3.4102378939E-001 +1.0144312061E+002  +4.3001794181E-004 -1.2520012959E+002  +8.0928701687E-001 +2.6305399643E+001 
145200000000.000 +1.2296556824E-001 -1.2949293139E+002  +3.4315008202E-001 +1.0072907378E+002  +2.1329185829E-004 -1.2536566237E+002  +8.1053439738E-001 +2.6250843416E+001 
145300000000.000 +1.2174701622E-001 -1.3037241131E+002  +3.4470064888E-001 +1.0026698020E+002  +5.1596056087E-004 -1.3637103962E+002  +8.0918013224E-001 +2.6250666726E+001 
145400000000.000 +1.2488352878E-001 -1.3218092401E+002  +3.4656445825E-001 +9.9537805611E+001  +4.6869015927E-004 -1.4738844926E+002  +8.0535177001E-001 +2.6084650893E+001 
145500000000.000 +1.2708604827E-001 -1.3035543771E+002  +3.4862447178E-001 +9.8639720273E+001  +4.8352088641E-004 -1.5568375440E+002  +8.0346316195E-001 +2.5557822941E+001 
145600000000.000 +1.2066904302E-001 -1.2961875805E+002  +3.5039149292E-001 +9.7866440909E+001  +7.5380471168E-004 -1.4428337676E+002  +8.0627549793E-001 +2.5321531049E+001 
145700000000.000 +1.1560619570E-001 -1.3368562658E+002  +3.5251845025E-001 +9.6982932210E+001  +7.0186226573E-004 -1.3912735352E+002  +8.0606135769E-001 +2.5377723986E+001 
145800000000.000 +1.1961088399E-001 -1.3766759598E+002  +3.5578014359E-001 +9.6301203408E+001  +4.6791052267E-004 -1.5595696311E+002  +8.0178335068E-001 +2.4973880043E+001 
145900000000.000 +1.2468196792E-001 -1.3742534223E+002  +3.5718268038E-001 +9.5694060145E+001  +6.1012591684E-004 -1.4496521878E+002  +8.0494890322E-001 +2.4401018529E+001 
146000000000.000 +1.2340637726E-001 -1.3652814188E+002  +3.5934626621E-001 +9.4980980686E+001  +6.3632610651E-004 -1.5919780674E+002  +8.1207632418E-001 +2.4452152172E+001 
146100000000.000 +1.1948723055E-001 -1.3840653973E+002  +3.6148131911E-001 +9.4036937378E+001  +7.2040028606E-004 -1.7901048194E+002  +8.1007084300E-001 +2.4892684342E+001 
146200000000.000 +1.1858867015E-001 -1.4143602205E+002  +3.6493333937E-001 +9.3055665260E+001  +5.5817558793E-004 -1.6357368063E+002  +8.0306893115E-001 +2.4539027199E+001 
146300000000.000 +1.2128644035E-001 -1.4406716093E+002  +3.6878966801E-001 +9.2524719713E+001  +4.5531120471E-004 -1.7982999029E+002  +8.0602671171E-001 +2.3948461969E+001 
146400000000.000 +1.2474171384E-001 -1.4525214065E+002  +3.7028140768E-001 +9.1913509942E+001  +8.3798112986E-004 -1.6887089428E+002  +8.1041157073E-001 +2.4117231129E+001 
146500000000.000 +1.2797188548E-001 -1.4568219600E+002  +3.7179676933E-001 +9.1002193851E+001  +9.0075381598E-004 -1.6469012913E+002  +8.0436903671E-001 +2.4307291352E+001 
146600000000.000 +1.3050941810E-001 -1.4485133676E+002  +3.7485752848E-001 +9.0132135932E+001  +6.5285377775E-004 -1.7022243501E+002  +7.9895620547E-001 +2.3741283013E+001 
146700000000.000 +1.2652491134E-001 -1.4356674775E+002  +3.7704045184E-001 +8.9243342286E+001  +9.2617517917E-004 +1.6897295024E+002  +8.0224593157E-001 +2.3209336252E+001 
146800000000.000 +1.1976163336E-001 -1.4554103965E+002  +3.7987316170E-001 +8.8374837050E+001  +5.9135178658E-004 +1.7975178284E+002  +8.0436693443E-001 +2.3227910136E+001 
146900000000.000 +1.1975611375E-001 -1.4938650647E+002  +3.8306259266E-001 +8.7511874155E+001  +6.0965776202E-004 +1.6177418668E+002  +8.0220405218E-001 +2.3015328188E+001 
147000000000.000 +1.2370333679E-001 -1.5101179579E+002  +3.8603170993E-001 +8.6869627777E+001  +6.6348346073E-004 +1.5752387299E+002  +8.0322780362E-001 +2.2712032000E+001 
147100000000.000 +1.2468522157E-001 -1.5183528022E+002  +3.8860848751E-001 +8.6232544744E+001  +6.2069991679E-004 +1.6887471840E+002  +8.0509087888E-001 +2.2789706268E+001 
147200000000.000 +1.2364684143E-001 -1.5338599041E+002  +3.9084190882E-001 +8.5154326993E+001  +6.8628743410E-004 +1.7100699738E+002  +7.9918550591E-001 +2.2681890732E+001 
147300000000.000 +1.2517659032E-001 -1.5474353046E+002  +3.9339725165E-001 +8.4399023605E+001  +8.4962884221E-004 +1.7909884406E+002  +7.9757510829E-001 +2.1996153196E+001 
147400000000.000 +1.2504372256E-001 -1.5518734707E+002  +3.9661250639E-001 +8.3767722705E+001  +6.6674988485E-004 +1.7900886747E+002  +8.0539277840E-001 +2.1630780207E+001 
147500000000.000 +1.2535598334E-001 -1.5788576781E+002  +3.9880957764E-001 +8.3057015096E+001  +6.5980890827E-004 +1.6571087654E+002  +8.0923942333E-001 +2.2081502988E+001 
147600000000.000 +1.2935447718E-001 -1.5903483943E+002  +4.0045580059E-001 +8.2277482667E+001  +6.8868018695E-004 +1.7043725402E+002  +8.0218825002E-001 +2.2189630493E+001 
147700000000.000 +1.3065972575E-001 -1.5963178793E+002  +4.0245420799E-001 +8.1579182850E+001  +8.7708214471E-004 +1.7251296475E+002  +7.9892111461E-001 +2.1516194629E+001 
147800000000.000 +1.3191980184E-001 -1.6126076243E+002  +4.0399935974E-001 +8.0790233041E+001  +7.3427648546E-004 +1.6010221273E+002  +8.0577847838E-001 +2.1250281011E+001 
147900000000.000 +1.3544150177E-001 -1.6165009645E+002  +4.0567834998E-001 +8.0054489500E+001  +6.7320872300E-004 +1.6264578091E+002  +8.0691991401E-001 +2.1575750703E+001 
148000000000.000 +1.3795714346E-001 -1.6068188076E+002  +4.0740116862E-001 +7.9360380201E+001  +7.3220872210E-004 +1.5761327412E+002  +8.0081640846E-001 +2.1434012518E+001 
148100000000.000 +1.3408634544E-001 -1.6059162298E+002  +4.0913563804E-001 +7.8452013852E+001  +7.0349993894E-004 +1.5388254405E+002  +8.0022395715E-001 +2.0935541604E+001 
148200000000.000 +1.3128168189E-001 -1.6337732950E+002  +4.1102901218E-001 +7.7521741462E+001  +8.6866152427E-004 +1.5858970728E+002  +8.0285434079E-001 +2.0952381818E+001 
148300000000.000 +1.3447613756E-001 -1.6567354796E+002  +4.1393935904E-001 +7.6693975914E+001  +7.4491865183E-004 +1.5482164643E+002  +7.9732595392E-001 +2.1028189792E+001 
148400000000.000 +1.3705235396E-001 -1.6616918010E+002  +4.1658114739E-001 +7.5874926876E+001  +7.5097607926E-004 +1.6672369851E+002  +7.9139599062E-001 +2.0325441920E+001 
148500000000.000 +1.3564631460E-001 -1.6727070738E+002  +4.1974661073E-001 +7.5086135691E+001  +8.2842873611E-004 +1.5522191121E+002  +7.9644992717E-001 +1.9587505601E+001 
148600000000.000 +1.3660706329E-001 -1.7013503455E+002  +4.2113426010E-001 +7.4495726445E+001  +9.9336221841E-004 +1.5447050096E+002  +8.0322337705E-001 +1.9764335888E+001 
148700000000.000 +1.4344296281E-001 -1.7174425760E+002  +4.2447550927E-001 +7.3807525408E+001  +1.0260651917E-003 +1.5360831622E+002  +8.0044007513E-001 +2.0001893913E+001 
148800000000.000 +1.4753619174E-001 -1.7074631312E+002  +4.2572452648E-001 +7.3007827767E+001  +1.0084762391E-003 +1.7732706534E+002  +7.9683964564E-001 +1.9583491250E+001 
148900000000.000 +1.4454584290E-001 -1.7039764255E+002  +4.2804053184E-001 +7.2153591184E+001  +9.0254643002E-004 +1.5229460601E+002  +8.0159861103E-001 +1.9273105023E+001 
149000000000.000 +1.4396257675E-001 -1.7278573288E+002  +4.3056954082E-001 +7.1317250581E+001  +8.0020752192E-004 +1.4174865009E+002  +8.0561262919E-001 +1.9453875550E+001 
149100000000.000 +1.4788585451E-001 -1.7418046400E+002  +4.3363056859E-001 +7.0562641479E+001  +8.9487895495E-004 +1.5268789951E+002  +8.0201072353E-001 +1.9626218576E+001 
149200000000.000 +1.4986987097E-001 -1.7400385867E+002  +4.3672337059E-001 +6.9751658490E+001  +8.4763185075E-004 +1.4169791877E+002  +8.0070989391E-001 +1.9289888817E+001 
149300000000.000 +1.4732331870E-001 -1.7493809972E+002  +4.3873625872E-001 +6.8900461201E+001  +8.9466398345E-004 +1.5666860014E+002  +8.0080281271E-001 +1.9237024892E+001 
149400000000.000 +1.5039690688E-001 -1.7738894017E+002  +4.4179680292E-001 +6.8157281069E+001  +9.2977426816E-004 +1.4112466922E+002  +7.9786761364E-001 +1.9237273831E+001 
149500000000.000 +1.5641813702E-001 -1.7774740938E+002  +4.4430732532E-001 +6.7425274828E+001  +1.1506211911E-003 +1.4030919736E+002  +7.9301335094E-001 +1.8747403406E+001 
149600000000.000 +1.5711388645E-001 -1.7691001652E+002  +4.4729651085E-001 +6.6714732039E+001  +8.7365506847E-004 +1.3940649696E+002  +7.9566246592E-001 +1.8196906630E+001 
149700000000.000 +1.5375878980E-001 -1.7787249631E+002  +4.4952351896E-001 +6.6034637082E+001  +1.0192788117E-003 +1.6051241900E+002  +7.9941813625E-001 +1.8087581971E+001 
149800000000.000 +1.5549193701E-001 -1.7934624921E+002  +4.5133053857E-001 +6.5205988886E+001  +1.0229041776E-003 +1.4166998986E+002  +7.9753310886E-001 +1.8111238929E+001 
149900000000.000 +1.5895379341E-001 -1.7946300476E+002  +4.5416824133E-001 +6.4290397768E+001  +9.2256770761E-004 +1.3047097867E+002  +7.9857313032E-001 +1.7730543723E+001 
150000000000.000 +1.5781739790E-001 -1.7990922348E+002  +4.5660784696E-001 +6.3543602424E+001  +1.1111894420E-003 +1.3445885462E+002  +8.0091733788E-001 +1.7824853521E+001 
150100000000.000 +1.5596818221E-001 +1.7826590097E+002  +4.5889508620E-001 +6.2596601748E+001  +1.1277338683E-003 +1.3545252537E+002  +7.9821816654E-001 +1.8027080916E+001 
150200000000.000 +1.5939318269E-001 +1.7629241930E+002  +4.6223846305E-001 +6.1631568756E+001  +1.1373209566E-003 +1.3718488647E+002  +7.9196028669E-001 +1.7769114719E+001 
150300000000.000 +1.6274911698E-001 +1.7575239816E+002  +4.6537522926E-001 +6.0828572164E+001  +1.0107716715E-003 +1.3721897111E+002  +7.9196703679E-001 +1.7038823993E+001 
150400000000.000 +1.6499120512E-001 +1.7526744718E+002  +4.6713745988E-001 +6.0110935506E+001  +1.1302770355E-003 +1.3796316653E+002  +7.9793215230E-001 +1.6887909383E+001 
150500000000.000 +1.6616173781E-001 +1.7487752534E+002  +4.6961062964E-001 +5.9493352647E+001  +1.1028781937E-003 +1.4282462588E+002  +8.0025522218E-001 +1.7135729233E+001 
150600000000.000 +1.6844365365E-001 +1.7430980168E+002  +4.7194032608E-001 +5.8798163824E+001  +1.3509508904E-003 +1.4536066071E+002  +7.9550961431E-001 +1.6989863042E+001 
150700000000.000 +1.6855916125E-001 +1.7365372127E+002  +4.7411672457E-001 +5.8151796336E+001  +1.1670752076E-003 +1.1523492293E+002  +7.9459247086E-001 +1.6723064055E+001 
150800000000.000 +1.6946027522E-001 +1.7281808425E+002  +4.7713528509E-001 +5.7230492963E+001  +1.2120920755E-003 +1.1582350071E+002  +7.9553335559E-001 +1.6672247237E+001 
150900000000.000 +1.7267058152E-001 +1.7137251325E+002  +4.7911215676E-001 +5.6278370598E+001  +9.7144513756E-004 +1.2226214248E+002  +7.9210544530E-001 +1.6559118991E+001 
151000000000.000 +1.7735608777E-001 +1.7123696113E+002  +4.8215664619E-001 +5.5540053658E+001  +1.2614050648E-003 +1.2068470015E+002  +7.9199580182E-001 +1.6200565619E+001 
151100000000.000 +1.7663052916E-001 +1.7175879191E+002  +4.8436531182E-001 +5.4851652833E+001  +1.5613188908E-003 +1.1213011196E+002  +7.9500494159E-001 +1.6056200081E+001 
151200000000.000 +1.7515200939E-001 +1.7118959346E+002  +4.8663880587E-001 +5.4096057886E+001  +1.3832702932E-003 +1.1358719895E+002  +7.9401122432E-001 +1.6220324706E+001 
