!Agilent Technologies,E5071B,JP1KK00288,A.09.10
!Date: Thu Apr 05 13:49:22 2012
!Data & Calibration Information:
!Freq	S11:SOLT4(ON)	S12:SOLT4(ON)	S13:SOLT4(ON)	S14:SOLT4(ON)
!	S21:SOLT4(ON)	S22:SOLT4(ON)	S23:SOLT4(ON)	S24:SOLT4(ON)
!	S31:SOLT4(ON)	S32:SOLT4(ON)	S33:SOLT4(ON)	S34:SOLT4(ON)
!	S41:SOLT4(ON)	S42:SOLT4(ON)	S43:SOLT4(ON)	S44:SOLT4(ON)
# Hz S dB R 75
500000000	-2.290151e-001	1.778212e+002	-5.257496e+001	-1.346546e+002	-8.687434e+001	9.442201e+001	-8.099038e+001	1.194139e+002
	-5.252684e+001	-1.350884e+002	-2.278388e-001	8.767636e+001	-4.435702e+001	-1.585657e+002	-8.235984e+001	7.708928e+001
	-9.278039e+001	1.394612e+002	-4.433175e+001	-1.586653e+002	-3.599178e-001	1.343644e+002	-4.911372e+001	-1.076955e+002
	-8.139571e+001	1.290694e+002	-8.043464e+001	7.007673e+001	-4.901740e+001	-1.074071e+002	-2.562045e-001	-1.730847e+002
515000000	-2.352992e-001	1.717063e+002	-5.475798e+001	-1.394722e+002	-7.655414e+001	6.534026e+001	-7.881042e+001	1.215191e+002
	-5.479444e+001	-1.398341e+002	-2.278229e-001	8.266051e+001	-4.403522e+001	-1.644527e+002	-8.072984e+001	5.813541e+001
	-7.702660e+001	6.650916e+001	-4.406099e+001	-1.641571e+002	-3.648456e-001	1.275618e+002	-4.898826e+001	-1.133617e+002
	-8.311042e+001	1.185348e+002	-8.424527e+001	5.787872e+001	-4.900782e+001	-1.133155e+002	-2.603002e-001	-1.774287e+002
530000000	-2.441681e-001	1.654957e+002	-5.779051e+001	-1.430180e+002	-7.167433e+001	5.425718e+001	-7.996753e+001	1.041218e+002
	-5.761491e+001	-1.435059e+002	-2.296476e-001	7.757560e+001	-4.382641e+001	-1.702070e+002	-7.821796e+001	5.633112e+001
	-7.126522e+001	5.632761e+001	-4.380708e+001	-1.702318e+002	-3.689621e-001	1.207369e+002	-4.889519e+001	-1.189523e+002
	-8.150689e+001	1.060551e+002	-8.038090e+001	6.108524e+001	-4.890779e+001	-1.187758e+002	-2.636991e-001	1.782807e+002
545000000	-2.510088e-001	1.592225e+002	-6.348814e+001	-1.430029e+002	-6.718340e+001	4.688169e+001	-8.082876e+001	1.300668e+002
	-6.282737e+001	-1.433093e+002	-2.333455e-001	7.244737e+001	-4.352470e+001	-1.764045e+002	-7.930699e+001	3.945835e+001
	-6.737093e+001	4.678777e+001	-4.352966e+001	-1.764294e+002	-3.646576e-001	1.138715e+002	-4.881301e+001	-1.242556e+002
	-7.978296e+001	1.160243e+002	-7.868794e+001	4.123758e+001	-4.883895e+001	-1.236178e+002	-2.692151e-001	1.740227e+002
560000000	-2.577412e-001	1.528538e+002	-7.683523e+001	-1.006435e+002	-6.438223e+001	4.578811e+001	-7.362227e+001	1.118921e+002
	-7.535726e+001	-1.133199e+002	-2.366900e-001	6.725845e+001	-4.327394e+001	1.775815e+002	-8.150050e+001	5.208444e+001
	-6.463837e+001	4.424445e+001	-4.326161e+001	1.774128e+002	-3.607117e-001	1.069777e+002	-4.876028e+001	-1.293303e+002
	-7.470224e+001	1.141719e+002	-7.832846e+001	4.925627e+001	-4.870311e+001	-1.294714e+002	-2.700765e-001	1.698082e+002
575000000	-2.629655e-001	1.464095e+002	-6.548413e+001	4.616835e+000	-6.219067e+001	3.720409e+001	-7.284300e+001	8.836896e+001
	-6.490030e+001	2.148802e+000	-2.447704e-001	6.196799e+001	-4.293351e+001	1.712840e+002	-7.932016e+001	2.572547e+001
	-6.231169e+001	3.690971e+001	-4.294589e+001	1.710986e+002	-3.562344e-001	1.000460e+002	-4.862242e+001	-1.357594e+002
	-7.271334e+001	7.799572e+001	-8.117043e+001	2.814813e+001	-4.859208e+001	-1.353990e+002	-2.727738e-001	1.656383e+002
590000000	-2.709749e-001	1.398536e+002	-5.849111e+001	5.072187e+000	-6.072903e+001	2.945968e+001	-7.497102e+001	6.529202e+001
	-5.847135e+001	5.278524e+000	-2.552779e-001	5.654160e+001	-4.262693e+001	1.650443e+002	-7.904885e+001	2.553411e+001
	-6.067812e+001	2.888658e+001	-4.265055e+001	1.649939e+002	-3.570041e-001	9.307997e+001	-4.863742e+001	-1.411774e+002
	-7.485349e+001	7.147540e+001	-7.877112e+001	1.696258e+001	-4.859568e+001	-1.412334e+002	-2.733110e-001	1.615172e+002
605000000	-2.789916e-001	1.332071e+002	-5.420712e+001	2.193329e+000	-5.892076e+001	2.288600e+001	-7.499769e+001	4.883100e+001
	-5.422293e+001	1.289605e+000	-2.694289e-001	5.096361e+001	-4.224679e+001	1.587990e+002	-7.713350e+001	4.079689e+001
	-5.906837e+001	2.293194e+001	-4.224735e+001	1.586834e+002	-3.599514e-001	8.603458e+001	-4.854287e+001	-1.469028e+002
	-7.502128e+001	5.819643e+001	-7.970234e+001	3.068947e+001	-4.848937e+001	-1.472987e+002	-2.769394e-001	1.574447e+002
620000000	-2.872722e-001	1.264434e+002	-5.126339e+001	-4.026001e+000	-5.745982e+001	1.604015e+001	-7.545095e+001	4.212954e+001
	-5.126056e+001	-4.198791e+000	-2.850320e-001	4.521925e+001	-4.184942e+001	1.520538e+002	-7.673319e+001	2.039473e+001
	-5.772781e+001	1.591732e+001	-4.188285e+001	1.521079e+002	-3.738213e-001	7.887618e+001	-4.853639e+001	-1.528335e+002
	-7.682727e+001	3.970193e+001	-7.924312e+001	2.252040e+001	-4.842747e+001	-1.529029e+002	-2.771701e-001	1.534248e+002
635000000	-2.990626e-001	1.195645e+002	-4.895312e+001	-1.029781e+001	-5.650136e+001	7.414509e+000	-7.708456e+001	5.246819e+001
	-4.906532e+001	-1.032517e+001	-2.992437e-001	3.926360e+001	-4.151357e+001	1.455485e+002	-7.837047e+001	1.715143e+001
	-5.631652e+001	7.267818e+000	-4.151230e+001	1.452197e+002	-3.868709e-001	7.159303e+001	-4.842413e+001	-1.585209e+002
	-7.798106e+001	4.570537e+001	-7.749017e+001	8.603619e+000	-4.846043e+001	-1.583028e+002	-2.769104e-001	1.494421e+002
650000000	-3.099426e-001	1.125164e+002	-4.721626e+001	-1.775535e+001	-5.519681e+001	-4.018188e-001	-7.636656e+001	5.475652e+001
	-4.732788e+001	-1.751310e+001	-3.140315e-001	3.306879e+001	-4.107272e+001	1.385019e+002	-7.837457e+001	-3.222993e+000
	-5.534137e+001	-8.386386e-001	-4.108621e+001	1.384080e+002	-4.000380e-001	6.419008e+001	-4.842771e+001	-1.652409e+002
	-7.515345e+001	5.739784e+001	-7.577787e+001	-5.097085e+000	-4.841243e+001	-1.650804e+002	-2.777612e-001	1.455135e+002
665000000	-3.231886e-001	1.052714e+002	-4.589016e+001	-2.473180e+001	-5.436676e+001	-7.092695e+000	-7.593808e+001	4.084694e+001
	-4.599200e+001	-2.504749e+001	-3.361127e-001	2.661143e+001	-4.064747e+001	1.315403e+002	-8.033566e+001	-9.463619e+000
	-5.439145e+001	-8.058791e+000	-4.063565e+001	1.313303e+002	-4.142473e-001	5.662488e+001	-4.838476e+001	-1.711767e+002
	-7.648221e+001	5.351191e+001	-7.662904e+001	-2.589643e+001	-4.847195e+001	-1.713221e+002	-2.797775e-001	1.416368e+002
680000000	-3.348479e-001	9.779387e+001	-4.491677e+001	-3.208856e+001	-5.338735e+001	-1.462926e+001	-7.363271e+001	2.903886e+001
	-4.489255e+001	-3.191546e+001	-3.600128e-001	1.982536e+001	-4.017819e+001	1.241994e+002	-8.074165e+001	8.608562e+000
	-5.361409e+001	-1.526042e+001	-4.019579e+001	1.241943e+002	-4.233645e-001	4.900559e+001	-4.851106e+001	-1.776934e+002
	-7.511354e+001	2.135108e+001	-8.255229e+001	-6.173758e+000	-4.853169e+001	-1.779588e+002	-2.778452e-001	1.378021e+002
695000000	-3.501282e-001	9.006670e+001	-4.416617e+001	-3.930177e+001	-5.298106e+001	-2.385615e+001	-7.563087e+001	1.293412e+001
	-4.421356e+001	-3.901278e+001	-3.864016e-001	1.268734e+001	-3.969966e+001	1.170990e+002	-7.850769e+001	5.281834e+000
	-5.271855e+001	-2.218571e+001	-3.969272e+001	1.168000e+002	-4.307684e-001	4.120995e+001	-4.865548e+001	1.768569e+002
	-7.527773e+001	4.306926e+001	-8.007477e+001	-4.499341e+000	-4.858807e+001	1.770737e+002	-2.761753e-001	1.340087e+002
710000000	-3.636952e-001	8.204440e+001	-4.373051e+001	-4.650191e+001	-5.210674e+001	-3.099714e+001	-7.619544e+001	2.494510e+001
	-4.363608e+001	-4.653519e+001	-4.197398e-001	5.112693e+000	-3.920962e+001	1.089985e+002	-8.138507e+001	1.973006e+001
	-5.201932e+001	-3.127935e+001	-3.920420e+001	1.090059e+002	-4.359645e-001	3.339939e+001	-4.871963e+001	1.719868e+002
	-7.333175e+001	1.809075e+001	-8.211212e+001	-1.357584e+001	-4.867779e+001	1.727029e+002	-2.749332e-001	1.302154e+002
725000000	-3.818809e-001	7.366704e+001	-4.357513e+001	-5.434690e+001	-5.129985e+001	-3.905823e+001	-7.586276e+001	3.374841e+001
	-4.357463e+001	-5.416613e+001	-4.607618e-001	-3.006032e+000	-3.863680e+001	1.004369e+002	-7.869571e+001	-2.789198e+001
	-5.140060e+001	-4.059735e+001	-3.867790e+001	1.006591e+002	-4.411150e-001	2.540781e+001	-4.866405e+001	1.669538e+002
	-7.562241e+001	2.084498e+001	-8.282200e+001	-3.569734e+001	-4.866202e+001	1.661429e+002	-2.746850e-001	1.264699e+002
740000000	-4.065593e-001	6.498134e+001	-4.390912e+001	-6.212536e+001	-5.081912e+001	-4.909137e+001	-7.522661e+001	1.460747e+001
	-4.389300e+001	-6.213429e+001	-5.137163e-001	-1.174630e+001	-3.814377e+001	9.183075e+001	-7.840061e+001	-4.134787e+001
	-5.096983e+001	-4.835933e+001	-3.814040e+001	9.216475e+001	-4.520994e-001	1.741727e+001	-4.861264e+001	1.614306e+002
	-7.252787e+001	1.183066e+001	-7.856472e+001	-3.180132e+001	-4.854037e+001	1.618252e+002	-2.734627e-001	1.227110e+002
755000000	-4.350917e-001	5.579761e+001	-4.486312e+001	-6.941484e+001	-5.049719e+001	-5.746224e+001	-7.475013e+001	-4.337632e+000
	-4.495849e+001	-6.989190e+001	-5.794682e-001	-2.129424e+001	-3.756846e+001	8.295402e+001	-7.857977e+001	-1.661148e+001
	-5.051276e+001	-5.711768e+001	-3.760047e+001	8.301742e+001	-4.733733e-001	9.248076e+000	-4.848390e+001	1.550186e+002
	-7.842475e+001	1.494074e+001	-7.490354e+001	-1.165718e+001	-4.848366e+001	1.545273e+002	-2.744928e-001	1.190557e+002
770000000	-4.731906e-001	4.609792e+001	-4.718306e+001	-7.564633e+001	-5.014824e+001	-6.680383e+001	-7.487565e+001	-1.352119e+001
	-4.734627e+001	-7.649388e+001	-6.603047e-001	-3.179374e+001	-3.701870e+001	7.335795e+001	-7.607161e+001	-8.276798e+000
	-5.016243e+001	-6.580117e+001	-3.703305e+001	7.343012e+001	-5.042061e-001	9.340373e-001	-4.860188e+001	1.484649e+002
	-7.619873e+001	7.799208e+000	-7.428537e+001	-2.020968e+001	-4.859701e+001	1.489033e+002	-2.742280e-001	1.154196e+002
785000000	-5.176226e-001	3.578702e+001	-5.281908e+001	-7.315471e+001	-4.989936e+001	-7.591462e+001	-8.151661e+001	-7.978251e+000
	-5.290238e+001	-7.546077e+001	-7.597945e-001	-4.350726e+001	-3.641123e+001	6.313883e+001	-7.146856e+001	-4.811196e+001
	-4.986174e+001	-7.669393e+001	-3.644558e+001	6.307485e+001	-5.325095e-001	-7.551038e+000	-4.865699e+001	1.426938e+002
	-8.019213e+001	-1.133990e+001	-7.197810e+001	-3.829991e+001	-4.867954e+001	1.421944e+002	-2.734780e-001	1.117481e+002
800000000	-5.693815e-001	2.477453e+001	-5.643102e+001	2.889498e+001	-4.971309e+001	-8.571032e+001	-7.469209e+001	1.340526e+000
	-5.661245e+001	2.716969e+001	-8.779185e-001	-5.670832e+001	-3.587251e+001	5.216885e+001	-7.147546e+001	-7.591693e+001
	-4.983390e+001	-8.569896e+001	-3.589204e+001	5.225806e+001	-5.664064e-001	-1.614027e+001	-4.873969e+001	1.374994e+002
	-7.450302e+001	5.658025e+000	-7.507077e+001	-6.395054e+001	-4.868712e+001	1.377213e+002	-2.689065e-001	1.080963e+002
815000000	-6.346168e-001	1.283965e+001	-4.573975e+001	4.642356e+001	-4.987432e+001	-9.693743e+001	-7.296685e+001	-8.681636e+000
	-4.572392e+001	4.645665e+001	-1.026331e+000	-7.173312e+001	-3.537796e+001	4.035980e+001	-7.761316e+001	-1.131346e+002
	-4.986018e+001	-9.618180e+001	-3.538917e+001	4.047640e+001	-5.993984e-001	-2.481428e+001	-4.861560e+001	1.314258e+002
	-7.166978e+001	-8.722565e+000	-7.683394e+001	-1.227173e+002	-4.853690e+001	1.317615e+002	-2.644996e-001	1.045674e+002
830000000	-7.190997e-001	-2.234697e-001	-4.052694e+001	3.780735e+001	-5.012718e+001	-1.081708e+002	-7.191396e+001	-1.707098e+001
	-4.049784e+001	3.764603e+001	-1.195686e+000	-8.894926e+001	-3.487323e+001	2.748518e+001	-8.155108e+001	-1.404868e+002
	-5.027991e+001	-1.075236e+002	-3.490430e+001	2.745360e+001	-6.286992e-001	-3.363825e+001	-4.865475e+001	1.250842e+002
	-7.160113e+001	-2.058266e+001	-8.331740e+001	-1.060567e+002	-4.864960e+001	1.245924e+002	-2.578674e-001	1.010022e+002
845000000	-8.265418e-001	-1.478421e+001	-3.814799e+001	2.615213e+001	-5.086443e+001	-1.206889e+002	-7.416546e+001	-3.515557e+001
	-3.814471e+001	2.637391e+001	-1.386471e+000	-1.089101e+002	-3.448046e+001	1.336248e+001	-8.291884e+001	-1.393491e+002
	-5.087624e+001	-1.204793e+002	-3.452255e+001	1.345360e+001	-6.525401e-001	-4.257105e+001	-4.874000e+001	1.191032e+002
	-7.332087e+001	-5.133937e+001	-8.730463e+001	-1.495124e+002	-4.874752e+001	1.182986e+002	-2.600976e-001	9.746782e+001
860000000	-9.759291e-001	-3.133633e+001	-3.980104e+001	2.200553e+001	-5.241751e+001	-1.321848e+002	-7.528971e+001	-5.471066e+001
	-3.980785e+001	2.191481e+001	-1.585520e+000	-1.319364e+002	-3.425998e+001	-2.121192e+000	-9.280604e+001	1.435813e+002
	-5.242318e+001	-1.317185e+002	-3.428984e+001	-1.881042e+000	-6.726109e-001	-5.141480e+001	-4.875941e+001	1.123346e+002
	-7.653143e+001	-5.069812e+001	-8.316685e+001	1.770181e+002	-4.874174e+001	1.119984e+002	-2.569149e-001	9.405768e+001
875000000	-1.183723e+000	-5.084081e+001	-3.887385e+001	1.118858e+002	-5.507997e+001	-1.390619e+002	-7.875761e+001	-6.666428e+001
	-3.886792e+001	1.121483e+002	-1.778082e+000	-1.585016e+002	-3.422629e+001	-1.901082e+001	-9.004239e+001	-4.523432e+001
	-5.481436e+001	-1.380035e+002	-3.425559e+001	-1.894979e+001	-6.946336e-001	-6.026258e+001	-4.890299e+001	1.065716e+002
	-7.537881e+001	-7.855544e+001	-9.037314e+001	-8.460395e+001	-4.889225e+001	1.061927e+002	-2.518323e-001	9.055910e+001
890000000	-1.531401e+000	-7.481385e+001	-2.428472e+001	1.151727e+002	-5.767025e+001	-1.223932e+002	-8.180770e+001	-9.325987e+001
	-2.427535e+001	1.152347e+002	-1.968325e+000	1.710713e+002	-3.456330e+001	-3.766916e+001	-9.178341e+001	1.727324e+002
	-5.735583e+001	-1.227191e+002	-3.455682e+001	-3.737238e+001	-7.159802e-001	-6.921249e+001	-4.906145e+001	1.006304e+002
	-8.082563e+001	-9.378125e+001	-1.005633e+002	1.486391e+002	-4.892644e+001	1.000814e+002	-2.543738e-001	8.707573e+001
905000000	-2.268214e+000	-1.062797e+002	-1.493339e+001	8.773421e+001	-5.379298e+001	-1.046844e+002	-8.867220e+001	-2.951957e+001
	-1.492743e+001	8.773197e+001	-2.318679e+000	1.364269e+002	-3.537378e+001	-5.815808e+001	-8.199121e+001	3.743872e+001
	-5.390221e+001	-1.034049e+002	-3.539686e+001	-5.804629e+001	-7.412727e-001	-7.805182e+001	-4.906005e+001	9.484972e+001
	-9.039236e+001	-1.517916e+002	-9.961511e+001	5.887337e+001	-4.908764e+001	9.504521e+001	-2.521130e-001	8.368744e+001
920000000	-4.232574e+000	-1.498778e+002	-8.067130e+000	4.849185e+001	-4.942030e+001	-1.294154e+002	-7.954180e+001	3.202759e+001
	-8.062902e+000	4.847723e+001	-3.503235e+000	9.792178e+001	-3.730501e+001	-7.992627e+001	-8.390151e+001	4.541789e+000
	-4.931564e+001	-1.284024e+002	-3.731124e+001	-7.984778e+001	-7.690744e-001	-8.685854e+001	-4.920646e+001	8.875567e+001
	-8.686323e+001	5.238523e+001	-7.853857e+001	3.644387e+000	-4.915927e+001	8.821921e+001	-2.523517e-001	8.030347e+001
935000000	-9.100146e+000	1.509060e+002	-3.960208e+000	2.482820e+000	-4.787564e+001	-1.760623e+002	-7.545706e+001	-2.055688e+001
	-3.957625e+000	2.439561e+000	-6.715566e+000	6.366488e+001	-4.088369e+001	-9.500802e+001	-7.757468e+001	-3.403041e+001
	-4.791477e+001	-1.767114e+002	-4.088592e+001	-9.517231e+001	-8.002888e-001	-9.569011e+001	-4.930963e+001	8.280452e+001
	-7.468933e+001	-1.002396e+001	-8.089172e+001	-3.018984e+001	-4.941051e+001	8.195324e+001	-2.476215e-001	7.691454e+001
940000000	-1.148008e+001	1.265242e+002	-3.216658e+000	-1.234062e+001	-4.812061e+001	1.643499e+002	-7.706851e+001	-1.921989e+001
	-3.216710e+000	-1.239798e+001	-8.195382e+000	5.656838e+001	-4.224574e+001	-9.621906e+001	-7.793896e+001	-4.000078e+001
	-4.809549e+001	1.644282e+002	-4.224737e+001	-9.597448e+001	-8.098048e-001	-9.862187e+001	-4.935113e+001	8.086059e+001
	-7.524181e+001	-1.850062e+001	-7.765812e+001	-4.416222e+001	-4.931293e+001	8.013142e+001	-2.488444e-001	7.578911e+001
945000000	-1.396460e+001	9.815399e+001	-2.709669e+000	-2.627556e+001	-4.850274e+001	1.462610e+002	-7.521692e+001	-2.873048e+001
	-2.712068e+000	-2.631809e+001	-9.665135e+000	5.266549e+001	-4.345111e+001	-9.532292e+001	-7.629201e+001	-4.856213e+001
	-4.845595e+001	1.457823e+002	-4.348341e+001	-9.544299e+001	-8.189892e-001	-1.015553e+002	-4.933376e+001	7.866130e+001
	-7.688141e+001	-4.986080e+001	-7.993951e+001	-4.834048e+001	-4.939280e+001	7.853933e+001	-2.468287e-001	7.463209e+001
950000000	-1.596449e+001	6.514867e+001	-2.376396e+000	-3.915591e+001	-4.893994e+001	1.269730e+002	-7.519238e+001	-4.474747e+001
	-2.376454e+000	-3.918389e+001	-1.091889e+001	5.178055e+001	-4.446815e+001	-9.344176e+001	-7.689020e+001	-5.265021e+001
	-4.900283e+001	1.268189e+002	-4.444506e+001	-9.315097e+001	-8.284667e-001	-1.044878e+002	-4.943509e+001	7.607871e+001
	-7.866952e+001	-4.814748e+001	-7.632519e+001	-6.524406e+001	-4.939860e+001	7.755970e+001	-2.485551e-001	7.346536e+001
970000000	-1.538129e+001	-4.262951e+001	-1.839617e+000	-8.146278e+001	-4.938685e+001	5.203218e+001	-7.540184e+001	-6.087452e+001
	-1.840725e+000	-8.150778e+001	-1.235622e+001	5.524693e+001	-4.656950e+001	-8.240840e+001	-7.794314e+001	-8.634392e+001
	-4.941727e+001	5.179757e+001	-4.659207e+001	-8.224453e+001	-8.572101e-001	-1.160975e+002	-4.963204e+001	6.845762e+001
	-7.746743e+001	-7.730081e+001	-7.951855e+001	-9.782781e+001	-4.970326e+001	6.793743e+001	-2.416810e-001	6.896372e+001
990000000	-1.426017e+001	-9.729008e+001	-1.663909e+000	-1.141871e+002	-4.742167e+001	-2.962526e+000	-7.803826e+001	-1.014301e+002
	-1.667770e+000	-1.142383e+002	-1.200447e+001	4.716018e+001	-4.697038e+001	-7.463354e+001	-7.786392e+001	-1.056761e+002
	-4.728507e+001	-2.611926e+000	-4.693035e+001	-7.470493e+001	-8.682546e-001	-1.274748e+002	-4.992247e+001	6.094141e+001
	-8.290474e+001	-1.419673e+002	-7.842644e+001	-1.310528e+002	-4.997510e+001	6.008321e+001	-2.358745e-001	6.454940e+001
1010000000	-1.457560e+001	-1.405627e+002	-1.529332e+000	-1.420202e+002	-4.542668e+001	-3.944077e+001	-8.179106e+001	1.599750e+002
	-1.537065e+000	-1.420219e+002	-1.223607e+001	3.590183e+001	-4.639574e+001	-7.294588e+001	-7.720627e+001	-1.557637e+002
	-4.542808e+001	-3.906682e+001	-4.625496e+001	-7.259398e+001	-8.688960e-001	-1.386413e+002	-5.026827e+001	5.362021e+001
	-8.634891e+001	1.284347e+002	-7.841180e+001	-1.657123e+002	-5.032527e+001	5.402770e+001	-2.322679e-001	6.013653e+001
1030000000	-1.541726e+001	1.780592e+002	-1.418578e+000	-1.669159e+002	-4.417791e+001	-6.819883e+001	-8.164765e+001	1.056319e+002
	-1.423130e+000	-1.669306e+002	-1.293987e+001	2.655548e+001	-4.543765e+001	-7.667595e+001	-7.506251e+001	1.491836e+002
	-4.415657e+001	-6.791478e+001	-4.537587e+001	-7.695807e+001	-8.609300e-001	-1.494052e+002	-5.035944e+001	4.770133e+001
	-8.675685e+001	7.995960e+001	-7.497434e+001	1.391083e+002	-5.041698e+001	4.841065e+001	-2.331980e-001	5.581203e+001
1050000000	-1.628883e+001	1.367006e+002	-1.331803e+000	1.700990e+002	-4.354471e+001	-9.134670e+001	-7.491812e+001	5.802208e+001
	-1.331719e+000	1.700823e+002	-1.386982e+001	2.027774e+001	-4.474032e+001	-8.497786e+001	-7.451761e+001	8.729705e+001
	-4.351949e+001	-9.158940e+001	-4.470030e+001	-8.531897e+001	-8.577192e-001	-1.598209e+002	-5.074685e+001	4.256735e+001
	-7.410127e+001	6.685351e+001	-7.654578e+001	9.543475e+001	-5.071632e+001	4.245407e+001	-2.369335e-001	5.149387e+001
1070000000	-1.700438e+001	9.562759e+001	-1.268400e+000	1.485148e+002	-4.333333e+001	-1.123711e+002	-7.290190e+001	4.727467e+001
	-1.269184e+000	1.484796e+002	-1.480701e+001	1.743875e+001	-4.448595e+001	-9.588424e+001	-7.398010e+001	7.964647e+001
	-4.334842e+001	-1.118887e+002	-4.441999e+001	-9.540407e+001	-8.575514e-001	-1.699969e+002	-5.030045e+001	3.373493e+001
	-7.274329e+001	5.261311e+001	-7.275788e+001	8.785108e+001	-5.036602e+001	3.478265e+001	-2.418517e-001	4.718182e+001
1090000000	-1.758096e+001	5.503109e+001	-1.230397e+000	1.279609e+002	-4.348487e+001	-1.300140e+002	-6.788409e+001	2.417400e+001
	-1.233006e+000	1.279344e+002	-1.557339e+001	1.804274e+001	-4.424503e+001	-1.067365e+002	-6.900367e+001	6.081110e+001
	-4.349712e+001	-1.304212e+002	-4.419926e+001	-1.072970e+002	-8.668641e-001	-1.799083e+002	-5.064198e+001	2.756371e+001
	-6.964129e+001	2.569352e+001	-7.061476e+001	4.660114e+001	-5.068362e+001	2.696312e+001	-2.400241e-001	4.278973e+001
1110000000	-1.797850e+001	1.407185e+001	-1.215908e+000	1.082433e+002	-4.394223e+001	-1.467660e+002	-6.759911e+001	-1.015686e+001
	-1.221502e+000	1.082212e+002	-1.591167e+001	2.137546e+001	-4.432041e+001	-1.194419e+002	-6.819900e+001	2.287589e+001
