! Mini-Circuits		
! S3P DATA File Format		
! Type: 2 Way 0 degree Power Splitter		
! Model: EP2C+	
! Wafer / Lot / Date Code: BH102P002-02/03 / BH102P002-02/03-01EV / 1432		
! AUTO PORT EXTENSION DONE: PORT<1>=128.60ps; PORT<2>=85.81ps; PORT<3>=85.38ps		
! Network Analyzer: PNA-X N5242A - 423 4 ports;  Serial number: 71256		
! PINOUT: SUMPORT=PORT1 , OUT1 PORT=PORT2 , OUT2 PORT=PORT3		
! TEST CONDITIONS: INPUT POWER = -10 dBm @ Temperature = + 25 deg C		
! S/N: Unit# 1
! Date: 09-Sep-2014
! All S Parameters are in dB deg format
!		
# MHz S DB R 50		
!
!Frequency        S11 dB  S11 DEG   S12 dB  S12 DEG   S13 dB  S13 DEG
!                 S21 dB  S21 DEG   S22 dB  S22 DEG   S23 dB  S23 DEG
!                 S31 dB  S31 DEG   S32 dB  S32 DEG   S33 dB  S33 DEG
  10.0000     -1.017521E+001  1.799233E+002 -3.732846E+000 -7.123462E-001 -3.715355E+000 -3.364799E-001
              -3.733404E+000 -7.104672E-001 -1.101509E+001  1.785185E+002 -4.077767E+000 -6.941584E-001
              -3.716506E+000 -2.151694E-001 -4.067590E+000 -5.184082E-001 -1.100749E+001  1.778786E+002
  20.0000     -1.013692E+001  1.789414E+002 -3.735646E+000 -6.309659E-001 -3.719037E+000 -8.538262E-001
              -3.733379E+000 -6.521145E-001 -1.095765E+001  1.770020E+002 -4.071208E+000 -1.792110E+000
              -3.710452E+000 -9.008236E-001 -4.063389E+000 -1.875089E+000 -1.098520E+001  1.773916E+002
  30.0000     -1.017883E+001  1.784326E+002 -3.704804E+000 -1.134488E+000 -3.723955E+000 -1.189005E+000
              -3.704059E+000 -1.152674E+000 -1.098175E+001  1.754192E+002 -4.088219E+000 -2.636368E+000
              -3.728474E+000 -1.276375E+000 -4.100138E+000 -2.701766E+000 -1.095093E+001  1.755662E+002
  40.0000     -1.020350E+001  1.781184E+002 -3.712583E+000 -1.656838E+000 -3.714869E+000 -1.611094E+000
              -3.712674E+000 -1.665511E+000 -1.101577E+001  1.740501E+002 -4.093396E+000 -3.482039E+000
              -3.719444E+000 -1.584013E+000 -4.096603E+000 -3.443012E+000 -1.101016E+001  1.738568E+002
  50.0000     -1.019136E+001  1.777756E+002 -3.726993E+000 -2.010164E+000 -3.712440E+000 -2.029330E+000
              -3.720041E+000 -2.032366E+000 -1.101285E+001  1.727277E+002 -4.096235E+000 -4.353098E+000
              -3.706316E+000 -2.057644E+000 -4.096395E+000 -4.373484E+000 -1.104146E+001  1.726516E+002
  60.0000     -1.017789E+001  1.773722E+002 -3.715456E+000 -2.433849E+000 -3.720824E+000 -2.533724E+000
              -3.719425E+000 -2.438788E+000 -1.101781E+001  1.711470E+002 -4.103380E+000 -5.246216E+000
              -3.721465E+000 -2.530762E+000 -4.103905E+000 -5.244979E+000 -1.102624E+001  1.712197E+002
  70.0000     -1.019251E+001  1.768882E+002 -3.709110E+000 -2.842610E+000 -3.720761E+000 -2.873323E+000
              -3.710009E+000 -2.855381E+000 -1.102013E+001  1.697149E+002 -4.120670E+000 -6.120235E+000
              -3.721146E+000 -2.873035E+000 -4.124227E+000 -6.091787E+000 -1.101561E+001  1.696535E+002
  80.0000     -1.020430E+001  1.765359E+002 -3.715303E+000 -3.286349E+000 -3.712858E+000 -3.282509E+000
              -3.717531E+000 -3.286646E+000 -1.103554E+001  1.682998E+002 -4.130510E+000 -6.935725E+000
              -3.715999E+000 -3.268999E+000 -4.131163E+000 -6.918015E+000 -1.104229E+001  1.681047E+002
  90.0000     -1.019765E+001  1.761546E+002 -3.720660E+000 -3.661266E+000 -3.715074E+000 -3.715791E+000
              -3.718842E+000 -3.638925E+000 -1.104655E+001  1.669119E+002 -4.141635E+000 -7.799535E+000
              -3.713295E+000 -3.683830E+000 -4.140372E+000 -7.806513E+000 -1.106357E+001  1.668140E+002
 100.0000     -1.019854E+001  1.756230E+002 -3.716813E+000 -4.009543E+000 -3.721781E+000 -4.097695E+000
              -3.715286E+000 -4.017365E+000 -1.105969E+001  1.654589E+002 -4.157395E+000 -8.699833E+000
              -3.718674E+000 -4.086972E+000 -4.157148E+000 -8.690720E+000 -1.107076E+001  1.653803E+002
 200.0000     -1.027285E+001  1.716866E+002 -3.720652E+000 -7.958703E+000 -3.720377E+000 -8.092881E+000
              -3.719857E+000 -7.941704E+000 -1.131514E+001  1.516217E+002 -4.368321E+000 -1.693880E+001
              -3.722056E+000 -8.059847E+000 -4.372892E+000 -1.693560E+001 -1.133295E+001  1.513725E+002
 300.0000     -1.034795E+001  1.679773E+002 -3.722549E+000 -1.184186E+001 -3.720070E+000 -1.200683E+001
              -3.719778E+000 -1.183450E+001 -1.165401E+001  1.384745E+002 -4.686106E+000 -2.476453E+001
              -3.718286E+000 -1.198993E+001 -4.686944E+000 -2.476785E+001 -1.168719E+001  1.380885E+002
 400.0000     -1.045285E+001  1.638597E+002 -3.716966E+000 -1.570884E+001 -3.725811E+000 -1.594331E+001
              -3.718240E+000 -1.569837E+001 -1.207701E+001  1.257666E+002 -5.083548E+000 -3.200138E+001
              -3.725099E+000 -1.593965E+001 -5.079829E+000 -3.201388E+001 -1.210908E+001  1.251680E+002
 500.0000     -1.052014E+001  1.600576E+002 -3.716720E+000 -1.955543E+001 -3.725795E+000 -1.986411E+001
              -3.715142E+000 -1.952649E+001 -1.253328E+001  1.138009E+002 -5.531035E+000 -3.875351E+001
              -3.727004E+000 -1.980418E+001 -5.534485E+000 -3.872128E+001 -1.257299E+001  1.130207E+002
 600.0000     -1.065017E+001  1.560827E+002 -3.713633E+000 -2.339228E+001 -3.722882E+000 -2.374369E+001
              -3.714856E+000 -2.341215E+001 -1.301672E+001  1.023478E+002 -6.020372E+000 -4.497348E+001
              -3.721720E+000 -2.374215E+001 -6.019562E+000 -4.495146E+001 -1.306508E+001  1.012633E+002
 700.0000     -1.077249E+001  1.517036E+002 -3.708467E+000 -2.726557E+001 -3.719784E+000 -2.767513E+001
              -3.708076E+000 -2.723424E+001 -1.346378E+001  9.131578E+001 -6.532624E+000 -5.060816E+001
              -3.723071E+000 -2.764873E+001 -6.536669E+000 -5.061864E+001 -1.348623E+001  8.997091E+001
 800.0000     -1.088805E+001  1.475021E+002 -3.701330E+000 -3.111370E+001 -3.714996E+000 -3.155090E+001
              -3.702505E+000 -3.111090E+001 -1.392019E+001  8.091878E+001 -7.047290E+000 -5.586345E+001
              -3.715655E+000 -3.154536E+001 -7.046756E+000 -5.586477E+001 -1.393240E+001  7.943987E+001
 900.0000     -1.103403E+001  1.431200E+002 -3.691465E+000 -3.495733E+001 -3.706464E+000 -3.546345E+001
              -3.691004E+000 -3.494407E+001 -1.432369E+001  7.118205E+001 -7.580122E+000 -6.076315E+001
              -3.706683E+000 -3.544165E+001 -7.581291E+000 -6.075233E+001 -1.433263E+001  6.942828E+001
1000.0000     -1.118654E+001  1.383524E+002 -3.682634E+000 -3.882080E+001 -3.699581E+000 -3.939200E+001
              -3.685213E+000 -3.882726E+001 -1.467823E+001  6.189032E+001 -8.112490E+000 -6.528497E+001
              -3.700685E+000 -3.937998E+001 -8.110421E+000 -6.527351E+001 -1.467451E+001  5.993965E+001
1100.0000     -1.131069E+001  1.336901E+002 -3.676261E+000 -4.271824E+001 -3.694847E+000 -4.332077E+001
              -3.673643E+000 -4.268889E+001 -1.499850E+001  5.320176E+001 -8.640125E+000 -6.953780E+001
              -3.693431E+000 -4.327970E+001 -8.640498E+000 -6.952987E+001 -1.497885E+001  5.112556E+001
1200.0000     -1.147545E+001  1.285414E+002 -3.670321E+000 -4.657760E+001 -3.687845E+000 -4.724720E+001
              -3.667045E+000 -4.658295E+001 -1.526482E+001  4.489621E+001 -9.151040E+000 -7.345647E+001
              -3.686767E+000 -4.724140E+001 -9.154246E+000 -7.344150E+001 -1.522481E+001  4.237593E+001
1300.0000     -1.160304E+001  1.233669E+002 -3.660583E+000 -5.047229E+001 -3.679760E+000 -5.119677E+001
              -3.660192E+000 -5.044884E+001 -1.549907E+001  3.720246E+001 -9.657639E+000 -7.718495E+001
              -3.680175E+000 -5.115520E+001 -9.660927E+000 -7.716500E+001 -1.541440E+001  3.453431E+001
1400.0000     -1.174067E+001  1.182476E+002 -3.653121E+000 -5.435367E+001 -3.670520E+000 -5.510849E+001
              -3.648865E+000 -5.435808E+001 -1.571313E+001  2.993775E+001 -1.014751E+001 -8.067457E+001
              -3.672998E+000 -5.510098E+001 -1.015592E+001 -8.065021E+001 -1.557890E+001  2.718948E+001
1500.0000     -1.188133E+001  1.127907E+002 -3.642023E+000 -5.825158E+001 -3.662275E+000 -5.906418E+001
              -3.637827E+000 -5.824243E+001 -1.588547E+001  2.323004E+001 -1.063820E+001 -8.397388E+001
              -3.664108E+000 -5.903518E+001 -1.064929E+001 -8.393137E+001 -1.569802E+001  2.040981E+001
1600.0000     -1.199687E+001  1.073159E+002 -3.634809E+000 -6.215335E+001 -3.659093E+000 -6.302463E+001
              -3.631314E+000 -6.216482E+001 -1.605268E+001  1.682407E+001 -1.110413E+001 -8.712580E+001
              -3.657756E+000 -6.300848E+001 -1.111110E+001 -8.707314E+001 -1.582368E+001  1.402736E+001
1700.0000     -1.212784E+001  1.018503E+002 -3.627192E+000 -6.604888E+001 -3.653544E+000 -6.696284E+001
              -3.625257E+000 -6.606152E+001 -1.621531E+001  1.083409E+001 -1.156091E+001 -9.013480E+001
              -3.655791E+000 -6.696526E+001 -1.157018E+001 -9.010993E+001 -1.595869E+001  8.098296E+000
1800.0000     -1.224810E+001  9.641334E+001 -3.620697E+000 -6.998882E+001 -3.646322E+000 -7.094588E+001
              -3.620165E+000 -6.996346E+001 -1.637078E+001  5.181927E+000 -1.199772E+001 -9.301317E+001
              -3.649839E+000 -7.090443E+001 -1.200935E+001 -9.296756E+001 -1.607339E+001  2.450327E+000
1900.0000     -1.236294E+001  9.109312E+001 -3.616852E+000 -7.389027E+001 -3.642740E+000 -7.487541E+001
              -3.616523E+000 -7.388747E+001 -1.652704E+001 -2.229488E-001 -1.241644E+001 -9.576428E+001
              -3.646260E+000 -7.485388E+001 -1.242392E+001 -9.571806E+001 -1.619161E+001 -2.817007E+000
2000.0000     -1.249495E+001  8.586649E+001 -3.609423E+000 -7.781358E+001 -3.637754E+000 -7.885947E+001
              -3.607696E+000 -7.778996E+001 -1.673254E+001 -5.157896E+000 -1.283494E+001 -9.854505E+001
              -3.639170E+000 -7.880949E+001 -1.284085E+001 -9.848957E+001 -1.636141E+001 -7.658048E+000
2100.0000     -1.263387E+001  8.071770E+001 -3.600924E+000 -8.175488E+001 -3.626410E+000 -8.281014E+001
              -3.599475E+000 -8.171962E+001 -1.696329E+001 -1.020343E+001 -1.321259E+001 -1.012350E+002
              -3.633471E+000 -8.280087E+001 -1.322460E+001 -1.012295E+002 -1.653721E+001 -1.242447E+001
2200.0000     -1.278029E+001  7.579559E+001 -3.593459E+000 -8.565758E+001 -3.624780E+000 -8.678210E+001
              -3.594032E+000 -8.564544E+001 -1.721606E+001 -1.495321E+001 -1.359182E+001 -1.039792E+002
              -3.625461E+000 -8.674641E+001 -1.359727E+001 -1.039308E+002 -1.676769E+001 -1.691399E+001
2300.0000     -1.294519E+001  7.092304E+001 -3.588386E+000 -8.958404E+001 -3.616539E+000 -9.076139E+001
              -3.585179E+000 -8.955641E+001 -1.749297E+001 -1.960097E+001 -1.393934E+001 -1.066685E+002
              -3.617735E+000 -9.071385E+001 -1.394521E+001 -1.066234E+002 -1.701271E+001 -2.130967E+001
2400.0000     -1.314956E+001  6.645940E+001 -3.582860E+000 -9.353195E+001 -3.610964E+000 -9.472804E+001
              -3.582232E+000 -9.350508E+001 -1.783848E+001 -2.407816E+001 -1.427780E+001 -1.094508E+002
              -3.613581E+000 -9.469779E+001 -1.428457E+001 -1.094322E+002 -1.732683E+001 -2.538591E+001
2500.0000     -1.340182E+001  6.215916E+001 -3.568814E+000 -9.744979E+001 -3.597148E+000 -9.871739E+001
              -3.567924E+000 -9.745101E+001 -1.828709E+001 -2.859033E+001 -1.459541E+001 -1.125172E+002
              -3.597152E+000 -9.868727E+001 -1.460547E+001 -1.124622E+002 -1.774187E+001 -2.942566E+001
2600.0000     -1.371435E+001  5.833580E+001 -3.556745E+000 -1.014091E+002 -3.589364E+000 -1.027219E+002
              -3.554546E+000 -1.013935E+002 -1.883169E+001 -3.288764E+001 -1.491935E+001 -1.157397E+002
              -3.586595E+000 -1.026604E+002 -1.492306E+001 -1.156818E+002 -1.825402E+001 -3.307298E+001
2700.0000     -1.405880E+001  5.462036E+001 -3.544634E+000 -1.053884E+002 -3.574300E+000 -1.067144E+002
              -3.543582E+000 -1.053788E+002 -1.944355E+001 -3.721515E+001 -1.524380E+001 -1.189529E+002
              -3.574993E+000 -1.067014E+002 -1.524534E+001 -1.189119E+002 -1.883422E+001 -3.653962E+001
2800.0000     -1.448574E+001  5.124767E+001 -3.528780E+000 -1.093716E+002 -3.560796E+000 -1.107622E+002
              -3.533584E+000 -1.093632E+002 -2.021531E+001 -4.122532E+001 -1.559908E+001 -1.224465E+002
              -3.563844E+000 -1.107197E+002 -1.560078E+001 -1.223782E+002 -1.960028E+001 -3.969291E+001
2900.0000     -1.495920E+001  4.823279E+001 -3.516752E+000 -1.133718E+002 -3.548742E+000 -1.148006E+002
              -3.518732E+000 -1.133687E+002 -2.109393E+001 -4.558012E+001 -1.592968E+001 -1.259657E+002
              -3.545674E+000 -1.147712E+002 -1.592874E+001 -1.259154E+002 -2.046015E+001 -4.302505E+001
3000.0000     -1.546783E+001  4.567120E+001 -3.505382E+000 -1.173910E+002 -3.534164E+000 -1.188800E+002
              -3.504893E+000 -1.174102E+002 -2.219307E+001 -4.991486E+001 -1.627618E+001 -1.297686E+002
              -3.533436E+000 -1.188594E+002 -1.627725E+001 -1.296868E+002 -2.151247E+001 -4.588749E+001
3100.0000     -1.608075E+001  4.407254E+001 -3.492016E+000 -1.214604E+002 -3.519653E+000 -1.229592E+002
              -3.492523E+000 -1.214419E+002 -2.358819E+001 -5.461345E+001 -1.663781E+001 -1.339012E+002
              -3.521337E+000 -1.229287E+002 -1.664615E+001 -1.338749E+002 -2.291129E+001 -4.827319E+001
3200.0000     -1.678447E+001  4.300385E+001 -3.476065E+000 -1.255458E+002 -3.504179E+000 -1.270949E+002
              -3.478746E+000 -1.255261E+002 -2.538615E+001 -5.966502E+001 -1.703894E+001 -1.382635E+002
              -3.506337E+000 -1.270622E+002 -1.704372E+001 -1.382059E+002 -2.473265E+001 -4.996224E+001
3300.0000     -1.748628E+001  4.300483E+001 -3.469129E+000 -1.296477E+002 -3.495301E+000 -1.312531E+002
              -3.466767E+000 -1.296304E+002 -2.766916E+001 -6.551794E+001 -1.747031E+001 -1.427453E+002
              -3.495235E+000 -1.312082E+002 -1.747565E+001 -1.426607E+002 -2.709582E+001 -5.039137E+001
3400.0000     -1.822754E+001  4.417202E+001 -3.459894E+000 -1.337616E+002 -3.486362E+000 -1.354205E+002
              -3.460176E+000 -1.337235E+002 -3.087717E+001 -7.347522E+001 -1.793594E+001 -1.474574E+002
              -3.487782E+000 -1.353530E+002 -1.794279E+001 -1.473835E+002 -3.041940E+001 -4.947467E+001
3500.0000     -1.897136E+001  4.647752E+001 -3.455810E+000 -1.379014E+002 -3.481542E+000 -1.396087E+002
              -3.457558E+000 -1.378865E+002 -3.606849E+001 -8.912041E+001 -1.843482E+001 -1.524779E+002
              -3.481745E+000 -1.395574E+002 -1.844204E+001 -1.524213E+002 -3.582611E+001 -3.878200E+001
3600.0000     -1.958941E+001  5.075272E+001 -3.454140E+000 -1.420434E+002 -3.475814E+000 -1.438042E+002
              -3.452283E+000 -1.420271E+002 -4.333457E+001 -1.570584E+002 -1.897598E+001 -1.580130E+002
              -3.477870E+000 -1.437405E+002 -1.898894E+001 -1.579788E+002 -4.149367E+001  2.891091E+001
3700.0000     -2.010266E+001  5.602461E+001 -3.453271E+000 -1.462136E+002 -3.476693E+000 -1.480044E+002
              -3.454257E+000 -1.461909E+002 -3.601183E+001  1.353261E+002 -1.956678E+001 -1.637822E+002
              -3.476866E+000 -1.479645E+002 -1.956865E+001 -1.636724E+002 -3.419653E+001  8.023684E+001
3800.0000     -2.022899E+001  6.215510E+001 -3.462976E+000 -1.503647E+002 -3.480078E+000 -1.522314E+002
              -3.457521E+000 -1.503461E+002 -3.068697E+001  1.205245E+002 -2.019197E+001 -1.699135E+002
              -3.481850E+000 -1.521835E+002 -2.020501E+001 -1.697994E+002 -2.921671E+001  8.862275E+001
3900.0000     -2.010798E+001  6.808447E+001 -3.466683E+000 -1.545484E+002 -3.486777E+000 -1.564583E+002
              -3.467963E+000 -1.545424E+002 -2.742843E+001  1.127766E+002 -2.089231E+001 -1.762563E+002
              -3.490170E+000 -1.564148E+002 -2.089491E+001 -1.761346E+002 -2.612467E+001  9.032281E+001
4000.0000     -1.969937E+001  7.381905E+001 -3.479645E+000 -1.587178E+002 -3.497814E+000 -1.606706E+002
              -3.481158E+000 -1.587013E+002 -2.496971E+001  1.071165E+002 -2.163217E+001  1.766052E+002
              -3.501312E+000 -1.606204E+002 -2.164139E+001  1.766335E+002 -2.380050E+001  8.928361E+001
4100.0000     -1.909127E+001  7.826589E+001 -3.496973E+000 -1.628520E+002 -3.512523E+000 -1.648722E+002
              -3.494383E+000 -1.628396E+002 -2.308385E+001  1.022696E+002 -2.242917E+001  1.685242E+002
              -3.515408E+000 -1.648116E+002 -2.244657E+001  1.685926E+002 -2.195531E+001  8.770108E+001
4200.0000     -1.839820E+001  8.137769E+001 -3.510488E+000 -1.670119E+002 -3.531329E+000 -1.690701E+002
              -3.511260E+000 -1.669938E+002 -2.160220E+001  9.790916E+001 -2.328301E+001  1.596769E+002
              -3.529516E+000 -1.690361E+002 -2.329456E+001  1.597128E+002 -2.050511E+001  8.561183E+001
4300.0000     -1.772508E+001  8.321441E+001 -3.531607E+000 -1.711631E+002 -3.549524E+000 -1.732523E+002
              -3.529849E+000 -1.711266E+002 -2.043907E+001  9.386696E+001 -2.422978E+001  1.500407E+002
              -3.551958E+000 -1.731850E+002 -2.424027E+001  1.501487E+002 -1.938430E+001  8.302423E+001
4400.0000     -1.710234E+001  8.376997E+001 -3.555029E+000 -1.752673E+002 -3.570294E+000 -1.774202E+002
              -3.550151E+000 -1.752573E+002 -1.945963E+001  8.980258E+001 -2.522796E+001  1.389542E+002
              -3.571362E+000 -1.773862E+002 -2.524612E+001  1.389913E+002 -1.842302E+001  8.012734E+001
4500.0000     -1.649300E+001  8.330920E+001 -3.574728E+000 -1.793735E+002 -3.591820E+000  1.784102E+002
              -3.571697E+000 -1.793788E+002 -1.863411E+001  8.643380E+001 -2.612362E+001  1.268189E+002
              -3.592890E+000  1.784462E+002 -2.612506E+001  1.268174E+002 -1.766255E+001  7.757404E+001
4600.0000     -1.590418E+001  8.225104E+001 -3.596806E+000  1.765285E+002 -3.613814E+000  1.742805E+002
              -3.594166E+000  1.765343E+002 -1.793690E+001  8.314938E+001 -2.685851E+001  1.128247E+002
              -3.614811E+000  1.743074E+002 -2.686287E+001  1.129106E+002 -1.697618E+001  7.515471E+001
4700.0000     -1.542392E+001  8.078577E+001 -3.616931E+000  1.724656E+002 -3.638996E+000  1.701501E+002
              -3.615622E+000  1.724665E+002 -1.736065E+001  7.969889E+001 -2.740185E+001  9.708178E+001
              -3.637613E+000  1.701975E+002 -2.740812E+001  9.718296E+001 -1.644448E+001  7.237939E+001
4800.0000     -1.502823E+001  7.912753E+001 -3.639337E+000  1.683853E+002 -3.656511E+000  1.660455E+002
              -3.636080E+000  1.684091E+002 -1.689848E+001  7.643155E+001 -2.763441E+001  8.050561E+001
              -3.658157E+000  1.660888E+002 -2.761572E+001  8.060405E+001 -1.600266E+001  6.956973E+001
4900.0000     -1.473910E+001  7.670694E+001 -3.655797E+000  1.643382E+002 -3.676240E+000  1.619437E+002
              -3.653318E+000  1.643596E+002 -1.653522E+001  7.325007E+001 -2.757375E+001  6.452895E+001
              -3.674646E+000  1.619872E+002 -2.760087E+001  6.461815E+001 -1.562934E+001  6.691736E+001
5000.0000     -1.448528E+001  7.386311E+001 -3.671522E+000  1.602944E+002 -3.691628E+000  1.578708E+002
              -3.668448E+000  1.603094E+002 -1.623247E+001  7.031676E+001 -2.725431E+001  4.993169E+001
              -3.693516E+000  1.578963E+002 -2.726444E+001  4.992523E+001 -1.535120E+001  6.479046E+001
5100.0000     -1.428301E+001  7.076858E+001 -3.686720E+000  1.562753E+002 -3.706010E+000  1.537910E+002
              -3.686286E+000  1.562601E+002 -1.600364E+001  6.754330E+001 -2.668321E+001  3.628408E+001
              -3.709209E+000  1.538264E+002 -2.670673E+001  3.637120E+001 -1.517403E+001  6.237622E+001
5200.0000     -1.414008E+001  6.786820E+001 -3.699321E+000  1.522270E+002 -3.720335E+000  1.497027E+002
              -3.697213E+000  1.522367E+002 -1.580597E+001  6.476530E+001 -2.595951E+001  2.444996E+001
              -3.719691E+000  1.497412E+002 -2.595901E+001  2.466108E+001 -1.504639E+001  6.007298E+001
5300.0000     -1.405811E+001  6.509451E+001 -3.705709E+000  1.482041E+002 -3.728491E+000  1.456581E+002
