! Touchstone file exported from HFSS 2018.2.0
!        File:           test.aedt
!        Generated:      4:09:18  mai 02, 2019
!        Design:         test
!        Project:        test
!        Setup:          Setup1
!        Solution:       Sweep
!
!Data is not renormalized
# GHZ S MA
! Modal data exported
! Port[1] = 1:1
! Port[2] = 2:1
! Port[3] = 3:1
0.02             0.0538023247382588 -57.1413735641328 0.696804014535973 -9.8874443840198 0.715098197655778 -10.0750666510042 
                0.696804014535973 -9.88744438401982 0.532131636874431 175.3176514295   0.480788281318617 -9.12725199053183 
                0.715098197655778 -10.0750666510042 0.480788281318617 -9.12725199053185 0.507277702227405 175.150081994265 
! Gamma         !               0.000389117152195246 0.41955854039217 0.000136322756792017 0.419305391927887 0.000140961269102568 0.419310013591731 
! Port Impedance6.46754473977243 -0.00592542198549208 14.3712479229787 -0.00459213751226698 13.6029933630324 -0.00457221432411241 

0.0201           0.0539302468396757 -57.3576454740963 0.696799654206768 -9.93689370021626 0.715092250354669 -10.1254535666156 
                0.696799654206768 -9.93689370021627 0.532130677501271 175.294125175549 0.480795145996369 -9.17290162656569 
                0.715092250354669 -10.1254535666157 0.480795145996369 -9.17290162656571 0.507279071564039 175.125707332099 
! Gamma         !               0.000390089903104547 0.421655357875201 0.000136663344309799 0.421401577435143 0.000141313397914704 0.421406210636037 
! Port Impedance6.46752996611774 -0.0059106778876866 14.3712364792719 -0.00458070290041055 13.6029819689317 -0.00456082961329471 

0.0202           0.0540585263628856 -57.5732435448261 0.696795275423412 -9.98634337098724 0.715086276790563 -10.1758407799705 
                0.696795275423412 -9.98634337098726 0.532129708718023 175.270599323137 0.480802051742203 -9.21855402764299 
                0.715086276790563 -10.1758407799705 0.480802051742203 -9.21855402764301 0.507280443016223 175.101333060736 
! Gamma         !               0.000391060223192731 0.423752172951748 0.000137003080726194 0.423497762099832 0.000141664646780253 0.423502406809224 
! Port Impedance6.46751530240653 -0.00589604324511252 14.3712251207188 -0.00456935319837608 13.6029706596166 -0.00454952944198402 

0.0203           0.0541871611955915 -57.7881707602505 0.696790878125766 -10.0357934048287 0.715080276899906 -10.2262283003164 
                0.696790878125765 -10.0357934048288 0.532128730611631 175.247073868762 0.480808998488871 -9.26420920312997 
                0.715080276899905 -10.2262283003165 0.480808998488871 -9.26420920312999 0.507281816675151 175.076959176309 
! Gamma         !               0.000392028131384791 0.425848985639551 0.000137341972667599 0.425593945928162 0.00014201502255023 0.425598602117713 
! Port Impedance6.46750074728001 -0.00588151671688943 14.371213846267  -0.00455808736572619 13.6029594340392 -0.00453831277428565 

0.0204           0.0543161492392292 -58.002430106692 0.696786462252824 -10.0852438099594 0.715074250617909 -10.2766161365675 
                0.696786462252824 -10.0852438099594 0.532127743267771 175.223548808945 0.480815986170249 -9.30986716241693 
                0.715074250617909 -10.2766161365675 0.480815986170249 -9.30986716241694 0.50728319263071 175.052585674971 
! Gamma         !               0.000392993646335573 0.427945795956112 0.000137680026665804 0.427690128926264 0.000142364531977839 0.42769479656784 
! Port Impedance6.46748629940269 -0.0058670969847001 14.3712026548823 -0.00454690437953313 13.6029482911698 -0.00452717859173807 

0.0205           0.0544454884089659 -58.2160245724483 0.696782027742855 -10.1346945943272 0.715068197878752 -10.3270042973125 
                0.696782027742855 -10.1346945943273 0.532126746770886 175.20002414023  0.480823014721316 -9.35552791491828 
                0.715068197878752 -10.3270042973126 0.480823014721316 -9.35552791491828 0.507284570971515 175.028212552892 
! Gamma         !               0.000393956786435287 0.430042603918703 0.000138017249159929 0.429786311100181 0.000142713181720478 0.429790990165857 
! Port Impedance6.46747195746183 -0.00585278275231333 14.3711915455479 -0.0045358032340084 13.602937229996  -0.00451612589294412 

0.0206           0.0545751766336953 -58.4289571473818 0.696777574533534 -10.1841457656166 0.715062118615761 -10.377392790824 
                0.696777574533534 -10.1841457656166 0.532125741204218 175.176499859182 0.480830084078129 -9.40119147007228 
                0.71506211861576 -10.3773927908241 0.480830084078129 -9.4011914700723 0.507285951784944 175.003839806263 
! Gamma         !               0.000394917569814916 0.43213940954437 0.000138353646498315 0.431882492455885 0.000143060978341686 0.431887182917935 
! Port Impedance6.467457720167   -0.00583857274511916 14.3711805172643 -0.00452478294014187 13.6029262495226 -0.00450515369321181 

0.0207           0.054705211856031 -58.6412308225176 0.696773102562072 -10.2335973312552 0.715056012761583 -10.4277816250669 
                0.696773102562072 -10.2335973312552 0.532124726649837 175.15297596239  0.480837194177798 -9.44685783734101 
                0.715056012761583 -10.427781625067 0.480837194177798 -9.44685783734102 0.507287335157169 174.979467431294 
! Gamma         !               0.000395876014351494 0.434236212849941 0.000138689224940372 0.433978672999264 0.000143407928313064 0.433983374830164 
! Port Impedance6.46744358624959 -0.00582446570967598 14.371169569049  -0.0045138425253503 13.6029153487713 -0.00449426102420428 

0.0208           0.0548355920322967 -58.8528485896483 0.696768611765332 -10.2830492984215 0.71504988024835 -10.4781708077081 
                0.696768611765332 -10.2830492984216 0.532123703188674 175.129452446464 0.480844344958462 -9.49252702621015 
                0.715049880248349 -10.4781708077081 0.480844344958463 -9.49252702621016 0.507288721173186 174.955095424215 
! Gamma         !               0.000396832137673286 0.436333013852026 0.000139023990658399 0.436074852736137 0.000143754038016148 0.436079565908557 
! Port Impedance6.46742955446236 -0.00581046041326917 14.371158699936  -0.00450298103313469 13.6029045267804 -0.0044834469335987 

0.0209           0.0549663151325138 -59.0638134409485 0.696764102079936 -10.3325016740521 0.715043721007817 -10.5285603461255 
                0.696764102079936 -10.3325016740521 0.532122670900551 175.105929308038 0.480851536359272 -9.53819904618887 
                0.715043721007816 -10.5285603461256 0.480851536359272 -9.53819904618887 0.507290109916848 174.930723781276 
! Gamma         !               0.000397785957164861 0.438429812567028 0.000139357949739353 0.438171031672244 0.000144099313744241 0.438175756159052 
! Port Impedance6.46741562357896 -0.0057965556434809 14.3711479089755 -0.00449219752274644 13.602893782604  -0.00447271048475388 

0.021            0.0550973791403869 -59.2741283685961 0.696759573442369 -10.381954464849 0.715037534971508 -10.5789502474179 
                0.696759573442369 -10.381954464849 0.532121629864209 175.08240654377  0.480858768320361 -9.58387390680968 
                0.715037534971508 -10.578950247418 0.480858768320361 -9.58387390680969 0.507291501470892 174.906352498746 
! Gamma         !               0.000398737489972044 0.440526609011142 0.000139691108186592 0.440267209813256 0.000144443761704215 0.440271945587512 
! Port Impedance6.46740179239352 -0.00578275020777087 14.3711371952334 -0.00448149106886183 13.6028831153123 -0.00446205075638617 

