!Keysight Technologies,N5242A,MY48420869,A.10.65.01
!Date: Wednesday, September 11, 2019 19:31:13
!Correction: S33(Full 4 Port(1,2,3,4)) 
!S43(Full 4 Port(1,2,3,4)) 
!S34(Full 4 Port(1,2,3,4)) 
!S44(Full 4 Port(1,2,3,4)) 
!S2P File: Measurements: S33, S43, S34, S44:
!
!Created with skrf (http://scikit-rf.org).
# Hz S RI R 50.0 
!freq ReS11 ImS11 ReS21 ImS21 ReS12 ImS12 ReS22 ImS22
1000000000.0 -0.3021294713904519 -0.938275608544059 -0.0020438088305574477 -0.0005693818092310987 -0.0020741537801235626 -0.0005394841960417864 -0.3042078287104608 -0.935805809156406
1001000000.0 -0.2605995969094431 -0.9499692032489454 -0.0019048891325161934 -0.0005168658135703019 -0.001976479951869046 -0.0004213837928003325 -0.30474123045659357 -0.9353706253876785
1002000000.0 -0.2667532825714178 -0.9484077101356795 -0.0018138915226891446 -0.00038716228517577035 -0.001846089828065486 -0.000351251264606482 -0.3065401962982829 -0.9348784768809388
1003000000.0 -0.27369945076636265 -0.946546770979104 -0.0017474602528740198 -0.0002957188928605588 -0.0017057278929010502 -0.0002800261740622763 -0.3086230013598576 -0.9342967321884644
1004000000.0 -0.28112980724989817 -0.9444483017635176 -0.001654037594372687 -0.0002533760199599174 -0.0016842114698607299 -0.00021701311265433972 -0.3105817582517176 -0.9338543469912417
1005000000.0 -0.2887161464094682 -0.942263609617907 -0.0015704116320524768 -0.00017986625695773356 -0.001571486808301089 -0.00012297387848042872 -0.31251464840008636 -0.9333202697209424
1006000000.0 -0.2962177839336233 -0.9400622898877146 -0.0015014104488242407 -0.0001265820639797738 -0.0015155850802192345 -0.00010508454583069556 -0.31460463311694636 -0.9328769976366119
1007000000.0 -0.30341750455390143 -0.9379001857852569 -0.0014563588637057426 -7.409807223896173e-05 -0.001420809519364547 -9.55442540999262e-05 -0.31658396727992233 -0.932388909412438
1008000000.0 -0.30993017621476715 -0.9358178579815895 -0.0013580528349672414 -3.1565789667526146e-05 -0.0013772394717171037 5.82906096525761e-07 -0.31856623204623663 -0.9319098288392121
1009000000.0 -0.3155769159271869 -0.934141774325782 -0.001326949349769497 -8.824877483807111e-06 -0.001339051090025965 5.995130594477636e-06 -0.3204683444377918 -0.9315975692158527
1010000000.0 -0.320039555034002 -0.9326561750691075 -0.001313704924849111 2.196064703575824e-05 -0.0012660575390743794 3.5489880002465665e-06 -0.3222630052157134 -0.931224502384889
1011000000.0 -0.32383155625070226 -0.9311727503625834 -0.0012149326173697748 3.4374361338902e-05 -0.0012157726910222205 3.7040507041960506e-05 -0.32418158497392935 -0.930523694753086
1012000000.0 -0.3267480626883611 -0.9299692441985073 -0.0012012091232847131 5.089856918523467e-05 -0.00115753079531042 4.7388905909365793e-05 -0.3260430763824473 -0.9300378242512128
1013000000.0 -0.3290109311381157 -0.9291007846705421 -0.0011240049012347013 6.928407333041932e-05 -0.0011522965325057744 8.990218655119856e-05 -0.3278285574508853 -0.9293997866751702
1014000000.0 -0.33070652277766116 -0.9283354658740731 -0.001087428056707607 8.900925785045248e-05 -0.0011162003565053597 7.303305154461569e-05 -0.32972794245142545 -0.9288348784551763
1015000000.0 -0.33200736129594977 -0.9278907555239296 -0.0010811835333293014 0.00012172283219924551 -0.0010603614560365166 9.169610911688852e-05 -0.3314591367215527 -0.9282612295831328
1016000000.0 -0.3329150015121763 -0.9274898959523113 -0.000994634905456558 9.874076682346554e-05 -0.0010101477071930516 8.154889120615053e-05 -0.3332543247398416 -0.9277665494878139
1017000000.0 -0.3338239807480151 -0.9272454869034976 -0.0009982174043014157 0.00011636342539477953 -0.000998743029013848 9.282341709383042e-05 -0.33500969960440685 -0.9271363210034881
1018000000.0 -0.3347051931472283 -0.9271035622462329 -0.0009687074184354941 0.00011155799253635098 -0.0009110287214166513 0.00012498818283785472 -0.3368213215308379 -0.9265776855491968
1019000000.0 -0.33575643858550724 -0.9269562948891851 -0.0009594815220632317 0.00012060014288763288 -0.0009430568908257197 9.99763801193176e-05 -0.3386735019137675 -0.926011659510689
1020000000.0 -0.33705612033089305 -0.9267767327186914 -0.000893344444302732 9.468760472401397e-05 -0.000911650751177866 0.00010067278734980509 -0.34040103013533357 -0.9253837556332759
1021000000.0 -0.33881804218275313 -0.9258548023728983 -0.0008531626885652403 0.0001340975642752906 -0.0008804350575601774 0.00016013900491456236 -0.3422397538717001 -0.9248732908474114
1022000000.0 -0.340620433857336 -0.9249726021571244 -0.0008576935498262482 0.00013122962323432202 -0.0008507087141897557 0.00012241319409553398 -0.34405511181825693 -0.9242001079328401
1023000000.0 -0.3422029431336502 -0.9242617930262071 -0.0007965337953851397 0.00013624043895421026 -0.0008338384343682728 0.0001223089165259045 -0.3458497163533417 -0.9235426429298569
1024000000.0 -0.3439830751766407 -0.9234988129507952 -0.0007883251783790121 0.00013357370462004092 -0.0008070148758302223 0.00013030955195926955 -0.34770848444631797 -0.9227565668058743
1025000000.0 -0.345650554847654 -0.9227695343526744 -0.000793230028421446 0.00013709945091572878 -0.0007741924251712376 0.0001201193376554454 -0.3496375488455867 -0.9220898226888661
1026000000.0 -0.3473179156233529 -0.9222336968054392 -0.0007484110264903928 0.0001414712288644248 -0.000737483782589913 0.00013320194769459218 -0.3514120741824915 -0.9214147045126232
1027000000.0 -0.3490313247519356 -0.921718539981587 -0.000744173436095318 0.0001568406597144944 -0.0007251128840886178 0.00014388202093283247 -0.35319996634223405 -0.9206417884919684
1028000000.0 -0.35069559200086975 -0.9211595836105336 -0.0006978948654521835 0.0001367789756240694 -0.0007295833284291051 0.00017096841105911098 -0.3549047278719822 -0.9199626633360816
1029000000.0 -0.3524228755351899 -0.920813675790763 -0.0007193955504885931 0.00015545379197937607 -0.0007427668891442003 0.00015827905051028283 -0.3567432537960578 -0.9191817725225516
1030000000.0 -0.35423401377553076 -0.9202739942325342 -0.0006734594897264455 0.0001496219228928584 -0.0006824368248364887 0.00016990722196051468 -0.3583573946150183 -0.9184845228652531
1031000000.0 -0.35560832851939506 -0.9194856235370683 -0.0006832868583279564 0.00014459194658306696 -0.0006565948135888802 0.0001446833724687958 -0.3602006727366805 -0.917644548739836
1032000000.0 -0.35728193075889453 -0.9187726964013727 -0.0006525490121399069 0.00014611827075678276 -0.0006976944009947344 0.00015490931729131549 -0.3618836703984792 -0.9168420551358683
1033000000.0 -0.35897865711198446 -0.9180609125098242 -0.0006154518119693078 0.00015441873127907736 -0.0006325096013491484 0.00015009463735171218 -0.3636055710525018 -0.9160283864260889
1034000000.0 -0.3605830572443589 -0.9173479597390244 -0.0006306945910616345 0.00013975533647705372 -0.0006229895068483131 0.00016667084596055684 -0.36538215681728414 -0.9152198221821624
1035000000.0 -0.3622055651787951 -0.9167536731608323 -0.0006224687686092193 0.0001516371398900867 -0.0006092165810902197 0.00014110832435967178 -0.3669980194773681 -0.9144716606401945
1036000000.0 -0.36394187281259477 -0.9161350746028338 -0.0005980427292346095 0.00015747606581572744 -0.0006121897903916951 0.0001215694218035194 -0.3687428581127803 -0.9136524894983181
1037000000.0 -0.3657399424134717 -0.9154844273111621 -0.0005954084944883777 0.00014602786915622588 -0.0005847888856642203 0.00013333666705240784 -0.37034841413483743 -0.9128012104419007
1038000000.0 -0.3674153710027125 -0.9149844047565896 -0.0005750930721702244 0.0001494792340563877 -0.0005626196024353839 0.0001451471819900371 -0.3719552248155189 -0.9121382681608965
1039000000.0 -0.36929509283232753 -0.9142841326889186 -0.0005734334728733588 0.00014279083000668814 -0.0005850751858040633 0.000145326276009614 -0.37350467932927744 -0.9113640033678407
1040000000.0 -0.3711957050333197 -0.9137362108779864 -0.0005242866423418893 0.0001686484399712 -0.0005577950863698639 0.00014126153638974135 -0.3751260469581042 -0.9106856295119676
1041000000.0 -0.3726741466240279 -0.9129709802946839 -0.0005502563502922033 0.00013769201761715087 -0.0005393953451022543 0.00017337615166850072 -0.3767144031142478 -0.9097703603183451
1042000000.0 -0.3742978729315987 -0.9122479148322091 -0.0005244758946874035 0.00012918942020636036 -0.0005259659069245411 0.00014465749685764646 -0.37821966030681614 -0.9089076774672963
1043000000.0 -0.3758761842125006 -0.9116300951461361 -0.0004945925583089481 0.0001310459916429802 -0.0005335342796999833 0.00014414722248453485 -0.3799170895990663 -0.9079775414392143
1044000000.0 -0.37754564162551474 -0.9108484922000223 -0.0005281381381210867 0.00019057512036726627 -0.0005089105411505071 0.00015891010314030075 -0.3813557139768099 -0.9071442431787321
1045000000.0 -0.3792018063709429 -0.9102232682495228 -0.0005306531295269927 0.00016369610033402208 -0.0005012070836451427 0.0001489009657224224 -0.38301406937686994 -0.9063796917232808
1046000000.0 -0.3809213867847553 -0.909420565169464 -0.0005058390835462257 0.00015771657177540824 -0.00048062066010569316 0.00015460119644296428 -0.38459448772050686 -0.9057019273592486
1047000000.0 -0.38259320637634947 -0.9087304471785899 -0.0005143915066840995 0.0001306252296190649 -0.000504618467417499 0.0001446781450922685 -0.3861256579479688 -0.9050011274189157
1048000000.0 -0.38441070491479834 -0.9080082285744838 -0.0005084174696363773 0.00015658653446668825 -0.0005012163257113478 0.00017570172619637815 -0.3876673945523031 -0.9042181479475927
1049000000.0 -0.38622515657832934 -0.9071914204947983 -0.0004805344275673883 0.0001480569242314822 -0.0005054775314971841 0.00014236542392088568 -0.389316058225995 -0.9035164092556593
1050000000.0 -0.38804820930955314 -0.9063732593452868 -0.00048669003132373957 0.0001825043512004857 -0.0004713729924506138 0.00015014482853525026 -0.3907779862532376 -0.9029408188541618
1051000000.0 -0.3895727126754667 -0.9057266825930006 -0.000473956997526849 0.0001468478240565461 -0.00048055149296343425 0.00014418241356748174 -0.39222785125251425 -0.9020579951098621
1052000000.0 -0.39118261211515015 -0.9050681160702112 -0.0004888454436801118 0.0001272873250337974 -0.00045539022669843223 0.00014890306069542894 -0.3934755230030104 -0.901225359099339
1053000000.0 -0.3928557616814253 -0.9043099505110902 -0.00044355165228199164 0.0001552097432452756 -0.00046353288030338743 0.00013772790507969183 -0.39489377253085056 -0.9004918635561369
1054000000.0 -0.394416111006823 -0.9036041937993977 -0.00045099329250648877 0.00012206022617009114 -0.0004693059653876533 0.00015326410737857341 -0.3963042016342255 -0.8996452374273024
1055000000.0 -0.3961291465538095 -0.9027969431827467 -0.0004554034198256678 0.00013994048528319876 -0.00044026422586925147 0.00012762007297621448 -0.39782558352925823 -0.89897133181264
1056000000.0 -0.39778697821862496 -0.9020782090942562 -0.0004420173186240316 0.00013859286575347018 -0.00043823176445752075 0.00014901831271321565 -0.3993049805327333 -0.8983094257329962
1057000000.0 -0.3994659701214408 -0.9012347093254636 -0.000415281027872367 0.00016311268310991258 -0.00043227382504140965 0.00011450276963319124 -0.4007982608558709 -0.8975477745847039
1058000000.0 -0.4011617537746079 -0.900419602750174 -0.000415167268844016 0.00011030276063380613 -0.0003943266290451467 0.00013292220645863206 -0.40251263297521717 -0.8969619238608001
1059000000.0 -0.40290073220532435 -0.8995528784237475 -0.0004085154167323317 0.00013869774335540765 -0.00041673035469370207 0.000159885184941823 -0.40427034942003737 -0.8963191573149497
1060000000.0 -0.4046200795721808 -0.8986672048743101 -0.00042052029585324145 0.00015173289901116978 -0.00043807149362917616 0.0001319708073263013 -0.40606586645021675 -0.8957373163087968
1061000000.0 -0.4061853420408554 -0.8979109278433121 -0.0003963469925998987 0.00011766297030005844 -0.00039425342632239374 0.00015197828506744745 -0.4073245452636581 -0.8951050205495641
1062000000.0 -0.40780137746307416 -0.8972338960696536 -0.0003801674582079736 0.0001388473570020565 -0.0003751023822475738 0.0001609175087230715 -0.4085664926366488 -0.89451826197293
1063000000.0 -0.4093579084034411 -0.8964008546481838 -0.00038864256453679293 0.00016644757738219014 -0.00042056010065144193 0.00015751536610170396 -0.4099478208489609 -0.8939008078552441
1064000000.0 -0.4109192833783142 -0.8957294527422294 -0.0004067005543738009 0.0001488794824415615 -0.00036356556366701215 0.0001260748280054249 -0.4113805974445672 -0.893262015370651
1065000000.0 -0.41257966975565324 -0.8948390561457146 -0.0003747913410685655 0.00013492247132309806 -0.00039273362650902324 0.0001268216495785661 -0.41287120712097897 -0.8927309528829892
1066000000.0 -0.41423961589784997 -0.8941021371090743 -0.0003691207740014666 0.00012471240810740108 -0.0003904455790541306 0.0001423808894286898 -0.4145021427361232 -0.8919902773634844
1067000000.0 -0.41585854652147597 -0.8932927524799293 -0.0003834736912094697 0.0001659154378260175 -0.0003824564040428561 0.00013722410351271432 -0.41633532178178584 -0.8913011343027335
1068000000.0 -0.41753600480279673 -0.8924656548494074 -0.00037709092001623405 0.000129885516341796 -0.0003593580064486149 0.0001648626181922875 -0.4180526510183618 -0.8905824101382279
1069000000.0 -0.4191280407006002 -0.8916144204987141 -0.0003819992494893153 0.00016568941118772767 -0.00033640904563779435 0.00014229014439461624 -0.42001804174665824 -0.8898824329403897
1070000000.0 -0.4207895463711117 -0.8907592868849893 -0.0003792549418609232 0.00014506886571455865 -0.00035591551854402613 0.00014551498358113222 -0.4219201423438292 -0.8889240969897831
1071000000.0 -0.4222212086313481 -0.8900195098411661 -0.00035082906158729357 0.00013219281611981767 -0.0003389123506662908 0.00013846519553039382 -0.42336387887206756 -0.8885441215795697
1072000000.0 -0.4237204163431474 -0.8891924951764111 -0.00036365439916557764 0.0001433557989692327 -0.0003337239937056556 0.00012338502152225433 -0.42473565078533654 -0.888004997338369
1073000000.0 -0.4252529969901788 -0.8883918245822398 -0.0003173750097203186 0.00014850912733955926 -0.0003740589486365349 0.00015646718492122124 -0.4264209867359583 -0.8875611420004339
1074000000.0 -0.42677310283251046 -0.8875220696262905 -0.0003465769968078203 0.0001541050775424252 -0.0003477251772916804 0.00014415045705373422 -0.42806947940706885 -0.8870019156352199
1075000000.0 -0.42824019437290733 -0.8866391989486235 -0.00031161094571617527 0.00011474301278973717 -0.00037698041634126313 0.0001233938366433907 -0.429702498764118 -0.8861935086996359
1076000000.0 -0.4298806850233461 -0.8858378211740268 -0.0003712277571831662 0.0001477667689993147 -0.00033299092603756485 0.0001245131230393686 -0.4314978435662792 -0.8854554310038204
1077000000.0 -0.4314988095801164 -0.8850576652044577 -0.0003144966994623536 0.00014229512996491697 -0.00033714123466254396 0.00012389613057744615 -0.43314637829268404 -0.8846115224321897
1078000000.0 -0.43305337849716224 -0.884262544227358 -0.00034369113595489656 0.00012119898126077168 -0.0003432684603102171 0.00014666934150426949 -0.4349130108124696 -0.8837007001105746
1079000000.0 -0.43483633478609285 -0.8834596675742692 -0.0003164463231965246 0.00012754639187664903 -0.00031707416066738264 0.00010023337882998908 -0.43669930523043143 -0.8825904103456281
1080000000.0 -0.4364168309026539 -0.8827054515716568 -0.00031271093327137084 0.00012334765902991205 -0.00033275325435543014 0.0001398675676579803 -0.43837661078443335 -0.8815824213352698
1081000000.0 -0.4378577995247629 -0.8820074090389778 -0.00029611202712430916 0.0001354721605423896 -0.00032060992687776423 0.00014079037879278526 -0.44024070148123723 -0.8810195666949363
1082000000.0 -0.4392606543233629 -0.8811210872560363 -0.0003038607702773222 0.00017838585352087123 -0.0003176710408062648 0.00013888043710517695 -0.4419697071525698 -0.8803863596032208
1083000000.0 -0.44086014258386746 -0.8803466594708487 -0.0002961337082793591 0.00010838050769553953 -0.00034347736552642674 0.00013646283140928927 -0.4439405750920029 -0.8795840912034804
1084000000.0 -0.4424005843947304 -0.8795762610455127 -0.00032193254314794484 0.0001305765947784505 -0.0003173820943766152 0.00014695862840613774 -0.4457201799009845 -0.8788087891211774
1085000000.0 -0.44389280933834735 -0.8787039060897509 -0.00032337843706901274 0.0001545278886212703 -0.00029920964696235873 0.00015649644064686966 -0.4474745934087938 -0.8778906657160163
1086000000.0 -0.44548784102850303 -0.8779757532387932 -0.00027468145746760095 0.00012061544193445534 -0.0002547615580736684 0.00012486589626289402 -0.4491099091115561 -0.877103879941854
1087000000.0 -0.44717555154199434 -0.8770856614467867 -0.00029921532208673074 0.00019101420372586917 -0.00030807420838240896 0.0001225353376367222 -0.4507277132209387 -0.8761650094527123
1088000000.0 -0.4488409698317286 -0.8763094423537071 -0.00027823994089723963 0.00013461160165617855 -0.00029523721554759063 0.0001266119709882694 -0.4523271814952834 -0.875274963433173
1089000000.0 -0.45063520571088755 -0.8754990503652874 -0.0003268607718888823 0.00012309893260024034 -0.00031374601007145875 0.00011811989652022481 -0.45383450639962514 -0.8743093755823509
1090000000.0 -0.4523806952668745 -0.8746215976950056 -0.0002940884160738327 0.0001251279366450658 -0.0002792387163041066 0.00014412245413745271 -0.4552274979598444 -0.8733897632758968
1091000000.0 -0.4537580989461511 -0.8739364847701125 -0.00027575849500257097 0.00011847656762188971 -0.0002819935862740503 0.00015253182230749802 -0.45707344614333123 -0.8724538084448372
1092000000.0 -0.45514520699957434 -0.8733270818239124 -0.00029320915070316225 0.0001386268796614251 -0.00027359169587817616 0.00013279936614564265 -0.4590324113138528 -0.871369203396679
1093000000.0 -0.4565523484536251 -0.87261587867748 -0.00025455288410339527 0.00013797920106011088 -0.00029360667235536357 0.0001224362900403502 -0.46084586924340853 -0.8704253258554754
1094000000.0 -0.45804727023676006 -0.8718132683423379 -0.0002698203021910098 0.00011734959743452976 -0.00026988946150994353 0.000134657155047766 -0.46253767042257243 -0.8694974940537161
1095000000.0 -0.4596318129709159 -0.8709850432971389 -0.0002878865911668659 0.0001278348134110914 -0.00031702052575683276 0.00015168109749682238 -0.4641983577953632 -0.8683337418160749
1096000000.0 -0.46123593763037785 -0.8701019552199597 -0.0002997483019710523 0.00015279806039252109 -0.00027125688098453374 0.00012060182373787363 -0.46575194519329294 -0.8675326874531113
1097000000.0 -0.4629175076159846 -0.8692617729570162 -0.0002829397410567235 0.0001228628496329205 -0.00028857820492555125 0.00015554776407832345 -0.4673899191987316 -0.8665855769834285
1098000000.0 -0.46464164021525095 -0.8683965357886537 -0.00028031294129499834 0.00011785792644169795 -0.00027527221482709157 0.00010170357503818067 -0.46877423126533546 -0.8657594112531063
1099000000.0 -0.4663731773592883 -0.8674161467498821 -0.00027968873912835563 0.00012550194465908794 -0.00025897345211098945 0.00011907417738637854 -0.4702148051645129 -0.8648263975652024
1100000000.0 -0.4681871184070928 -0.8664758241958402 -0.00026852773906942514 0.0001480559765196936 -0.0002639451385716231 0.00011595519879673245 -0.47155415947833434 -0.8640007646373851
1101000000.0 -0.469684988066468 -0.8656706773800804 -0.0002719034894889331 0.00011714188857623329 -0.00027749053060894 0.0001151870707035326 -0.4731719532127607 -0.8631264918255358
1102000000.0 -0.4713233724015115 -0.8649031243303121 -0.000273805125084579 0.00011407147623808534 -0.0002676576931942185 0.00012936738659163918 -0.4747695217331702 -0.8621876235488064
1103000000.0 -0.4729751416217847 -0.8641423549772052 -0.00028050701074861987 0.00014164912427885344 -0.0002683840475459581 0.00012125843666114204 -0.47623175767029796 -0.8611886576490565
1104000000.0 -0.47465779301979444 -0.8632947435233248 -0.00028619506060018665 0.0001421445505616817 -0.0002640767523283264 0.00011464401801302141 -0.4779588833399011 -0.8602101336657186
1105000000.0 -0.4762147368416182 -0.8625586736790004 -0.0002662320982362777 0.00015627871630078478 -0.0002250026866663 0.00013376115633716474 -0.4793770310930866 -0.859264518758282
