!Keysight Technologies,N5242A,MY48420869,A.10.65.01
!Date: Friday, September 13, 2019 11:45:47
!Correction: S33(Full 4 Port(1,2,3,4)) 
!S43(Full 4 Port(1,2,3,4)) 
!S34(Full 4 Port(1,2,3,4)) 
!S44(Full 4 Port(1,2,3,4)) 
!S2P File: Measurements: S33, S43, S34, S44:
!
!Created with skrf (http://scikit-rf.org).
# Hz S RI R 50.0 
!freq ReS11 ImS11 ReS21 ImS21 ReS12 ImS12 ReS22 ImS22
1000000000.0 -0.34273978647569076 -0.9252291821731725 6.45089004466933e-05 -1.4883016017487004e-05 5.719072372971632e-05 -7.666911856497784e-06 -0.35892661147715077 -0.9173565553486883
1010000000.0 -0.35958421649919586 -0.9183310375944229 9.224015917346187e-05 -2.5934635589197758e-05 0.00010741276938624301 -2.899290938237199e-05 -0.37597472212389343 -0.9111312010067599
1020000000.0 -0.37603332613105483 -0.9115362554016059 8.422813923329157e-05 -4.513416371658729e-05 5.92540967363869e-05 -2.1143785247472932e-05 -0.39361174979721075 -0.9041681330714
1030000000.0 -0.39250149631379344 -0.9044333464679885 4.3852099203994865e-05 -1.9866808565061347e-05 7.262168563485992e-05 -2.0590168787344023e-05 -0.411109936438279 -0.8961264710448973
1040000000.0 -0.4091852223292584 -0.8971964617157352 8.970129954812044e-05 -5.1841738607407095e-05 5.260172040570702e-05 -1.6107119587283415e-05 -0.42748333991815285 -0.8872356181000043
1050000000.0 -0.42570822356525445 -0.8891750626027696 0.00010840467517241589 -5.77103772700315e-05 0.00010023557457198063 -4.932253230717758e-05 -0.442770070175997 -0.878388609769505
1060000000.0 -0.4418634915276681 -0.880684189034773 0.00011017849358017605 -2.3005798572052616e-05 7.402831023285665e-05 -3.9875839258786416e-05 -0.4573592358851723 -0.8703258853873401
1070000000.0 -0.45744604809768935 -0.871904857806488 9.906905109185619e-05 -4.6947527139819706e-05 7.88128681854396e-05 -7.681523465470637e-05 -0.4725347930066097 -0.862809284246498
1080000000.0 -0.47271614904811365 -0.8633535789450254 6.946815038361575e-05 -6.767805834364162e-05 8.105530868120371e-05 -7.479138271525433e-05 -0.4885396969989693 -0.8546196899546686
1090000000.0 -0.4881917027627681 -0.8546745044722529 8.632547950727431e-05 -3.271672233424924e-05 9.4469260601493e-05 -2.5704808740786257e-05 -0.5047632810291771 -0.8455895451300537
1100000000.0 -0.5037757253143872 -0.8457540106219527 6.350217387553138e-05 -4.820957827694915e-05 8.895006638890953e-05 -3.0205753923497328e-05 -0.5205321438094755 -0.8353388371010376
1110000000.0 -0.5194318983797515 -0.836526732365856 8.258511772747119e-05 -6.124257297223981e-05 9.904736514428303e-05 -4.3556780732866765e-05 -0.5351099428254892 -0.8247575926460597
1120000000.0 -0.5350734697723991 -0.8267827948971702 5.7856760526624414e-05 -5.028012319679087e-05 7.576381011542475e-05 -4.124786586563062e-05 -0.549310630772818 -0.8146585173562565
1130000000.0 -0.550394983053631 -0.8163269156126884 8.849327017481212e-05 -8.05462240913411e-05 7.695248227187694e-05 -7.632554952378752e-05 -0.5633079493946702 -0.8050016517546457
1140000000.0 -0.565035194185424 -0.8056447722682518 8.714798692287116e-05 -3.2829348863104177e-05 5.797117084914477e-05 -4.432517188063691e-05 -0.5780871541023319 -0.7950612883763978
1150000000.0 -0.5791609600906599 -0.7949854499435468 7.271239827291042e-05 -4.778930241344052e-05 7.876250116491157e-05 -6.465957804985866e-05 -0.5929122221555212 -0.784581970998329
1160000000.0 -0.5929908498347515 -0.7843139962138743 8.304605115813181e-05 -8.47443847265248e-05 0.00010801896496409952 -2.162043104006249e-05 -0.6073665604217028 -0.7732196578669729
1170000000.0 -0.6067215766768501 -0.7737545659603708 8.529955373356432e-05 -4.597034723735513e-05 8.839819024439744e-05 -6.876410602328844e-05 -0.6208173409777484 -0.7614539181720592
1180000000.0 -0.6205835178138309 -0.7629346503720089 6.329695768842345e-05 -9.037666143161781e-05 7.929937700744886e-05 -7.078416381069807e-05 -0.6337385816577549 -0.749795076002802
1190000000.0 -0.6346013154284176 -0.7516344507175815 7.796998753595709e-05 -9.285900882306012e-05 9.07868959218802e-05 -6.991188903046077e-05 -0.6466067837744742 -0.7387857144631897
1200000000.0 -0.6482716726536091 -0.7397438357760918 8.444495344668999e-05 -0.0001045948948758338 7.787257465844125e-05 -8.061872113613686e-05 -0.6597267479228849 -0.7278146016050132
1210000000.0 -0.6616041530455011 -0.7273816094376198 8.431742331627452e-05 -0.00010559850455651225 6.0837355531638405e-05 -7.141201522696525e-05 -0.67346432030544 -0.7158242813164213
1220000000.0 -0.6744733004246174 -0.7149487618704381 6.96086852847082e-05 -0.00013339553631224995 0.00010457831399260538 -8.865274812577531e-05 -0.6867491551230264 -0.7030854265260656
1230000000.0 -0.6867752480394793 -0.7023071256336668 9.69573859200912e-05 -9.885825839393419e-05 5.704321385419294e-05 -8.368838586073913e-05 -0.6988592524470604 -0.6896833990801431
1240000000.0 -0.6990644932226888 -0.689834889586808 8.21410755563437e-05 -8.931190435128862e-05 9.873158063141875e-05 -9.951850180031921e-05 -0.7100919730620505 -0.6765426149331112
1250000000.0 -0.7111731295079551 -0.6771775900476855 0.00010628400088965932 -9.020544392119834e-05 6.869135720030573e-05 -7.539776693566981e-05 -0.7211642508583832 -0.6642020087017412
1260000000.0 -0.7231128321767903 -0.6643889386614334 5.195977720521819e-05 -8.41939542608912e-05 7.557584367284699e-05 -0.00010356355960664928 -0.7327044951173952 -0.6519279761663309
1270000000.0 -0.7349983846446564 -0.6511624749199492 6.927501613238322e-05 -0.00010346201293769561 7.644305524044316e-05 -0.00011209800992691385 -0.7448318649862515 -0.6390275189951108
1280000000.0 -0.7465478923468201 -0.6378841735390683 0.00010845959410419878 -8.828369153407119e-05 6.442165578725389e-05 -8.14909864899736e-05 -0.7568595146418658 -0.6252933817180685
1290000000.0 -0.7576809229568641 -0.6242277849157069 8.037735472900938e-05 -9.769111000647543e-05 7.117200391330032e-05 -0.0001401989412138506 -0.7679005130772508 -0.610618950920452
1300000000.0 -0.768540670724059 -0.6104832250078647 8.368751614872034e-05 -0.00012901916603643142 8.31089640251613e-05 -0.0001350979905956427 -0.7781076657687606 -0.5961840274452013
1310000000.0 -0.7791672101432334 -0.5965561168295129 9.171346892255783e-05 -0.00010617459670077229 5.562197941639976e-05 -0.00015540545639333012 -0.7876633299548194 -0.5821869090935426
1320000000.0 -0.7895762668933097 -0.5825311470583144 7.548158603073837e-05 -0.00012138961706465949 8.033381527930925e-05 -0.00014512114456657628 -0.7975172376458765 -0.5687902259232617
1330000000.0 -0.7997450839708804 -0.5681530593571018 5.401777160084204e-05 -0.00013093769389939467 6.403831270474893e-05 -0.00011310898902392123 -0.8080791687548008 -0.5549974991901651
1340000000.0 -0.8097080627515533 -0.5537103038989499 0.00011633584557544773 -0.00015258694657311448 9.750547122187572e-05 -0.0001132373949007934 -0.8185090013747236 -0.5404148715048371
1350000000.0 -0.8193864839433946 -0.5389754469994483 8.810952601114158e-05 -0.00014521519991027575 0.0001014432723866371 -0.00011874892328511886 -0.828286169338757 -0.5250603236132652
1360000000.0 -0.8288538242184466 -0.5239925952138438 8.354254571495099e-05 -0.00014876056033276847 8.576695280606921e-05 -0.00015383245144886949 -0.8371963853304526 -0.509256166331483
1370000000.0 -0.8381860694319677 -0.5089881524295733 9.62838503360123e-05 -0.0001551893956824142 0.00010106924782175653 -0.00013404604900797522 -0.8451384023816143 -0.4943627242501369
1380000000.0 -0.8472708413593961 -0.49373135795046313 9.41364155503477e-05 -0.00014263939728771 9.298326854358411e-05 -0.00016702952484637726 -0.8529169667740952 -0.4797786580250672
1390000000.0 -0.8555776971631198 -0.4780952747126143 9.369134118570253e-05 -0.00015715672544113683 5.4739127687209424e-05 -0.0001807592270775472 -0.8611857836197326 -0.4656827917495826
1400000000.0 -0.8636696897413695 -0.4623958248069483 9.670032958525586e-05 -0.00018013247954098348 6.232935064735838e-05 -0.00017199626749168348 -0.8698864945556748 -0.4508676153074892
1410000000.0 -0.8712081774015437 -0.4470866588311299 7.978004542298171e-05 -0.00016765635689308257 5.676336914728559e-05 -0.00017456704237686822 -0.8781210239813548 -0.43541013088579417
1420000000.0 -0.8787603984988559 -0.43157494211832936 5.3516931527483724e-05 -0.0001695798452711544 8.106251862519351e-05 -0.00020763766442713396 -0.8850417281433367 -0.41933590741337445
1430000000.0 -0.8861927277191824 -0.41617252912573327 9.92254184438004e-05 -0.00018845507217283465 8.643497566148106e-05 -0.00016136865123445054 -0.8912624849174757 -0.4033993171309637
1440000000.0 -0.8932592380416323 -0.4001646092693177 6.525878386817238e-05 -0.00017157858701437507 6.59475835267313e-05 -0.0002085371334570497 -0.8971766621996975 -0.38826587776829524
1450000000.0 -0.8998879296146052 -0.38391622566229794 7.63820360020327e-05 -0.00019696108507157758 8.013416493208626e-05 -0.00019566378972011873 -0.9030065938534382 -0.37340163430161355
1460000000.0 -0.9062388052967366 -0.3676713147577438 8.428797490300995e-05 -0.00019373392967211416 7.416805310671233e-05 -0.00018483220438400108 -0.9095963634919259 -0.358304487638674
1470000000.0 -0.9119535852932081 -0.3515388906425898 8.22488253266991e-05 -0.00022599654927749928 7.734729497926141e-05 -0.0002228282642895797 -0.9163441569641589 -0.34250241139235604
1480000000.0 -0.9178854513035604 -0.33540163580655025 8.378725715678988e-05 -0.00021579519489163253 5.6866336334817955e-05 -0.0001926880308267447 -0.9224434499301785 -0.32549703743455893
1490000000.0 -0.9235339052794236 -0.3193813860380718 7.496000777619093e-05 -0.0002324337072326309 5.344452421743302e-05 -0.00020633385097662443 -0.927335718738604 -0.30870231978006246
1500000000.0 -0.9289839889655773 -0.3030741129082905 6.814095958553478e-05 -0.0002290382165249486 8.940368238640167e-05 -0.0002552725034522722 -0.931470225264921 -0.2923859482971924
1510000000.0 -0.9345207493153491 -0.2864890967838955 8.911067906217083e-05 -0.00022837775409786828 5.591617073569116e-05 -0.00023178232365950733 -0.9356968714409625 -0.2770923218607621
1520000000.0 -0.9393814067688124 -0.2697730255904217 6.660787477575819e-05 -0.000257530901247791 6.644201116038816e-05 -0.00024071469184187342 -0.9404083418441768 -0.2619546618043658
1530000000.0 -0.9436979590473866 -0.25307407326025927 8.478858455249617e-05 -0.00026156997606502575 5.6436697271834936e-05 -0.0002472861931832036 -0.9454912233470889 -0.24625435079891256
1540000000.0 -0.9475139054649402 -0.23657253078462903 6.215270903235156e-05 -0.0002549442023769611 3.44738446131587e-05 -0.0002888072588288529 -0.9501555361219971 -0.22949733863376015
1550000000.0 -0.9512069730376828 -0.2203077316558374 5.189779276142458e-05 -0.0002919548888533411 3.594181874160397e-05 -0.00030362794398875153 -0.9535663329781271 -0.21249824796968572
1560000000.0 -0.9546030051481849 -0.20408459535200368 6.346170634133729e-05 -0.0003038596808208326 8.189039345762064e-05 -0.0002852418086948565 -0.9558883346477827 -0.1960091544998812
1570000000.0 -0.9581448125529785 -0.18759885244439012 5.23954792326865e-05 -0.0003082821450605626 5.4310964497800705e-05 -0.0002739533288959272 -0.9583011620763621 -0.1805130756398592
1580000000.0 -0.9613089530295773 -0.17107491568623406 5.5027252896946535e-05 -0.00032280969421810164 3.689917896208016e-05 -0.0003725426991194531 -0.9611972466228157 -0.16494300177901786
1590000000.0 -0.9643274978276032 -0.15405149087278233 4.2330153477357806e-05 -0.0003145746611749421 3.909146459158273e-05 -0.00032814028541952876 -0.9648567978154121 -0.14889528684211367
1600000000.0 -0.9666432401167989 -0.13681108875972214 3.0703722814706066e-05 -0.0003568835823521675 1.366653070763827e-05 -0.0002955303056559293 -0.9681029646418676 -0.13139096053489743
1610000000.0 -0.9684838015966769 -0.11972703209987957 4.367915303936931e-05 -0.0003228421477279548 2.733260628764518e-05 -0.00036128857143901766 -0.9701347392507602 -0.11324648791631009
1620000000.0 -0.9702919890397368 -0.10239821989706972 -6.0990207968297975e-06 -0.00037273250418911935 3.306706911124266e-05 -0.00032429900519919167 -0.9708880218420515 -0.0953887016485267
1630000000.0 -0.9716765965457931 -0.08532222366589721 4.645475197666431e-06 -0.0003694473620193829 3.4911249776340085e-05 -0.0003462663807209065 -0.9712006480569622 -0.07851441197191934
1640000000.0 -0.9726261570200755 -0.06836559639175685 1.2787552524072954e-05 -0.0003901680678756268 1.7314138688831504e-05 -0.00040242426267002616 -0.9715492826405351 -0.06258718784635883
1650000000.0 -0.9736015186623412 -0.051412455117788754 1.133158549837868e-05 -0.0004330728760951573 1.2021485355491053e-05 -0.0004073534666013916 -0.9732833527567513 -0.04700554798544555
1660000000.0 -0.9743555228717223 -0.03457027196355075 -8.114696797458502e-06 -0.0004291755120482468 1.0777318367667446e-05 -0.00039785669380425735 -0.9749453665201786 -0.03048968574989368
1670000000.0 -0.9747691187744759 -0.01759736463121218 -5.571295587749756e-05 -0.0004542105942332976 -2.6906180253826804e-05 -0.0004359253518293304 -0.9760136604584209 -0.01317948907895786
1680000000.0 -0.9749464985367013 -0.0008106436859505149 -1.8867815254965804e-05 -0.00043126639430592957 -5.679188031429332e-06 -0.00046490776380935195 -0.9757300615104367 0.00405292213156693
1690000000.0 -0.9747369913022805 0.015988638165327942 -3.156216967187837e-05 -0.0004845640399158693 -4.1653437386968714e-05 -0.00045981901428469906 -0.9743964656043239 0.020361356093924934
1700000000.0 -0.9743593967418999 0.0330584771205453 -5.074662813839235e-05 -0.0005232211343562945 -4.247315235536321e-05 -0.0004843309316439714 -0.9729093982813944 0.03555203480142446
1710000000.0 -0.9734141289720876 0.05003683099637125 -7.164979804817097e-05 -0.0005359244617170232 -7.282462477665562e-05 -0.0004779212582144406 -0.9722712584167928 0.050959852457942
1720000000.0 -0.9721501431692263 0.06690476922033668 -0.00010110702997591046 -0.0005165717844810217 -7.319052607556033e-05 -0.0005219890288500758 -0.9720364912893992 0.0668096746442463
1730000000.0 -0.9705649668998494 0.08399535392783404 -9.309340362264217e-05 -0.0005448894593403267 -9.701454893275569e-05 -0.0005706782369452201 -0.9715356764206389 0.08407765344265876
1740000000.0 -0.9687937994444538 0.10070847491481855 -8.88842513089563e-05 -0.0006139554285274823 -9.472155405512572e-05 -0.0005611139100344963 -0.9695386808007478 0.1018971468656217
1750000000.0 -0.9666823800759763 0.11754484279394338 -0.00014365670125686853 -0.0006301748893433023 -0.00012944031471131992 -0.0006399668281397679 -0.9666244306210018 0.1194298559105874
1760000000.0 -0.9645855300099416 0.1346133794307545 -0.00014052553877623797 -0.0006798657666461236 -0.0001556679030038148 -0.0006651319055444299 -0.9634559768082888 0.13576554011566214
1770000000.0 -0.96202069533138 0.15195622983303395 -0.0001511723783226155 -0.000733500577298465 -0.00021359285288607456 -0.0007083552330928985 -0.9604365126607468 0.1518424200404407
1780000000.0 -0.9589163790402898 0.16925609146890364 -0.0002066239896077731 -0.000701204420771841 -0.00022058795261183355 -0.0007454161768319102 -0.958219727957984 0.1680525832568331
1790000000.0 -0.9551652176903753 0.1860513172904952 -0.00021349388339926244 -0.0007932992732000358 -0.00021632757822486224 -0.0007386631040293854 -0.9559099429959814 0.1848065659247801
1800000000.0 -0.9512212930461407 0.20209931324722719 -0.0002617635581358946 -0.0008188761949735155 -0.0002781144273258108 -0.0008219559977779759 -0.9527746204917181 0.2021040124491368
1810000000.0 -0.9470955951194195 0.2181664461297844 -0.000322953260899094 -0.0009059257958146325 -0.0002991805436096855 -0.0008723431356517827 -0.9484773007583848 0.2187491928025502
1820000000.0 -0.9434130659066139 0.23398912845801897 -0.0003415533575934778 -0.0009378177987767676 -0.00034891966847436706 -0.0009467436635893847 -0.9436371011882118 0.23430957511340228
1830000000.0 -0.9393249745726588 0.249753014100916 -0.0004187011734659739 -0.0010195089353396618 -0.00036706148902591234 -0.0009927641875986518 -0.938628755260726 0.24927043927086795
1840000000.0 -0.9349075516394172 0.2659382917003312 -0.00047345549912382063 -0.0011355810773873523 -0.00044557295742756646 -0.001078190931968769 -0.9345135880635757 0.26366855654974974
1850000000.0 -0.9297570744425175 0.28215763419162715 -0.0005346962054812442 -0.0011863362494881236 -0.0005538916716589724 -0.0012170825791069258 -0.9305646755863497 0.2790169105187445
1860000000.0 -0.924059569792601 0.2979317358323674 -0.0006388684861858428 -0.0013483036042818946 -0.0006655693422739973 -0.0013227167258162563 -0.9259665074856716 0.29493052883324544
1870000000.0 -0.9182416097469653 0.31351140074495204 -0.0007464185011464652 -0.0014145008497816749 -0.0007423344277156685 -0.0014726903338843414 -0.9200737707928596 0.31126599944488
1880000000.0 -0.9123193784486516 0.3288639065157873 -0.000910122401123502 -0.0016124902131546145 -0.0009509586711437024 -0.001580482050066834 -0.9135734308149875 0.3270917146944432
1890000000.0 -0.9064120862109377 0.3445267366437835 -0.0011289970253426469 -0.0017634614584424195 -0.001152921403272299 -0.0018034080994902824 -0.9066590232734066 0.34201789544197986
1900000000.0 -0.9004907538417014 0.3602181884922562 -0.0014127484920928666 -0.002065550033233633 -0.001446949041102072 -0.002039815824726451 -0.9006857243630525 0.3568043821995282
1910000000.0 -0.8938108728958237 0.37650444045203857 -0.001877772876692798 -0.002363181350700817 -0.0018179196466125047 -0.0023351028980435275 -0.894879513903664 0.3718805965302634
1920000000.0 -0.8861452499732172 0.3927130933337329 -0.0024463989988351793 -0.0027058557382953173 -0.0024946405084598005 -0.0027437282611036395 -0.8889084370195194 0.3879427949520454
1930000000.0 -0.8778086317618897 0.4087963095404967 -0.0035585417842314117 -0.0031188043416689256 -0.0035981746297980917 -0.0031443429193350465 -0.8811489656041653 0.40428646370004506
1940000000.0 -0.8679534681233144 0.42392848927852456 -0.005616452750464579 -0.0032258037145072396 -0.005687989369413596 -0.0032942139623119786 -0.8713838597878049 0.41935730508793834
1950000000.0 -0.8564641150691021 0.4364552248779047 -0.009262881056937695 -0.001638162091230511 -0.009286941571796747 -0.0016336195168922486 -0.8599175372357905 0.4316214618543842
1960000000.0 -0.8477131317501148 0.4433052204863997 -0.010616871957188011 0.005438725607210924 -0.010673228262019897 0.005443148864056287 -0.8513207151864602 0.43760713754265984
1970000000.0 -0.8470469661370554 0.4537882867400453 -0.004162875385129037 0.008820951628245931 -0.004153364116132324 0.008882863222591474 -0.8511743345192047 0.4471966414726629
1980000000.0 -0.843069555924881 0.4702443632824728 -0.000573880518797303 0.006808031361782178 -0.00052002066597256 0.0068748833073711 -0.8485877171432356 0.46317547708616946
1990000000.0 -0.836490710946383 0.486773974360509 0.000575137080547752 0.0050497367728004035 0.0005971874964665466 0.005065791272333391 -0.8420343924095632 0.47978281864278954
2000000000.0 -0.8280545542495776 0.5023059956248568 0.0009550432271154721 0.003880775950030689 0.000913102992490786 0.00391105935413666 -0.8334366269668503 0.4958568682710078
2010000000.0 -0.819058348135318 0.5176145387653004 0.0009781825461577793 0.0031000048016174776 0.0010070415078660643 0.0031340786304349167 -0.8236084917995156 0.5105448759288236
2020000000.0 -0.8092869707602265 0.5318472702533982 0.0010428469804588144 0.002595101696724724 0.0010408039770605712 0.002621885393325627 -0.8134720760476061 0.5240872424216815
2030000000.0 -0.7996127627803181 0.5458830822621612 0.0009825594907820557 0.002210031191336096 0.000959473129816878 0.0022212636669959713 -0.8043801441177288 0.5369371390860891
2040000000.0 -0.789864153754741 0.5593605548141883 0.0009491722306275951 0.0019396069529052913 0.0009910255618215146 0.0019035270257541223 -0.796022354373541 0.550387476677875
2050000000.0 -0.7802304404733641 0.5730230309015232 0.0009495543236781106 0.0016943161405367185 0.0009201286180726684 0.0017534018416041743 -0.787122911336096 0.5650683295340867
