!Keysight Technologies,N5242A,MY48420869,A.10.65.01
!Date: Wednesday, September 11, 2019 19:24:35
!Correction: S33(Full 4 Port(1,2,3,4)) 
!S43(Full 4 Port(1,2,3,4)) 
!S34(Full 4 Port(1,2,3,4)) 
!S44(Full 4 Port(1,2,3,4)) 
!S2P File: Measurements: S33, S43, S34, S44:
!
!Created with skrf (http://scikit-rf.org).
# Hz S RI R 50.0 
!freq ReS11 ImS11 ReS21 ImS21 ReS12 ImS12 ReS22 ImS22
1000000000.0 -0.3600924732439544 -0.9180358965041149 0.0009899979678090261 0.00014656686939013063 0.0009349474404712426 0.0001749784774196083 -0.3060736264647725 -0.9364007844911693
1001000000.0 -0.31927780178169896 -0.9322049693314232 0.0009016558040239358 0.00019446957364275256 0.0008583363195616612 0.00013860779045749342 -0.3064641761200329 -0.9357823604575536
1002000000.0 -0.3252683750589813 -0.9302726111236065 0.0008585209375727472 0.00010580982230207703 0.0008396566423759665 9.166249054957834e-05 -0.30827295506505686 -0.9352386997681779
1003000000.0 -0.3320671908832646 -0.927982396280071 0.0008023057330075104 8.302041600050026e-05 0.0008046862265287299 7.962299093881652e-05 -0.3103336523484775 -0.9346677121330474
1004000000.0 -0.3393001925096321 -0.9253703290291321 0.0007645032363119136 6.119474528369768e-05 0.0007587008274230246 3.6379701097554786e-05 -0.3123344800039542 -0.9341292479093823
1005000000.0 -0.34671650023835754 -0.9226961593910186 0.0007265294748961726 3.402046899910804e-05 0.0007479473232225947 -9.994699513272853e-07 -0.3142922986025111 -0.9335853387847698
1006000000.0 -0.3540396482541933 -0.920017621603271 0.0006599937234595453 2.0558505826292814e-05 0.0007130609036908734 -3.0415436100973285e-05 -0.316235252684369 -0.9330245619765094
1007000000.0 -0.3610311982668036 -0.9173460871344902 0.0006979546508505993 -2.2846481768762312e-05 0.000666118013946137 -1.8063400304118154e-05 -0.3182860885821831 -0.9326030229116121
1008000000.0 -0.3674463388084466 -0.914921138578105 0.0006685093416888641 3.2775566670227693e-06 0.0006207484223054656 -6.316249282677944e-05 -0.32013365248090264 -0.9321592564254371
1009000000.0 -0.3727814420536492 -0.912815361305289 0.0005953889218677765 -1.7548157675457985e-05 0.0005901655683621219 -8.250189385719784e-06 -0.3221245566092103 -0.93162248916258
1010000000.0 -0.3770384133881302 -0.9112011212763247 0.0005836027896893206 -3.2663278190297264e-05 0.0005725294358483173 -6.650066917611181e-05 -0.32398669633304733 -0.9312578767526668
1011000000.0 -0.380829579539129 -0.9093866663804131 0.0005587720309231536 -6.262709662749585e-05 0.0005604551051541852 -3.889599145581506e-05 -0.32582537910914666 -0.9306309585549402
1012000000.0 -0.38371663396709205 -0.9080466885884442 0.0005263867364068438 -4.694872884687018e-05 0.0005712114561536301 -4.409614331380577e-05 -0.32764301118070244 -0.9299953742798169
1013000000.0 -0.38577932038262686 -0.9068485237379005 0.0005299924671746363 -5.506343225367974e-05 0.000535135587945094 -3.145835230663831e-05 -0.32958253307403884 -0.929425926874896
1014000000.0 -0.38750802208720697 -0.9061464259500314 0.000514866901390136 -9.283555760759065e-05 0.0005122718005969856 -4.787952816014231e-05 -0.33135850967805625 -0.9287921785805853
1015000000.0 -0.38860209552092073 -0.9055441419770636 0.0004968375258559588 -6.891113052687715e-05 0.0004983807914195355 -8.141859488492334e-05 -0.3331823738144214 -0.9280814494212255
1016000000.0 -0.38944852811763064 -0.9051389428676389 0.00047123831707493983 -4.130267387596144e-05 0.000485331268568483 -8.214706406197946e-05 -0.3350723248852528 -0.9277037543982848
1017000000.0 -0.390353445634446 -0.9049302918967979 0.00044265753628111446 -5.931405192583712e-05 0.0004923575625432068 -9.488492750080394e-05 -0.33683942351412816 -0.9270431937431582
1018000000.0 -0.39122496571048865 -0.9046276007606104 0.0004517216680861273 -7.520521983962858e-05 0.0004427128436860485 -9.342119247484728e-05 -0.33861071945871934 -0.9264424515245309
1019000000.0 -0.3922526401473509 -0.9043577709141125 0.00044691939035168326 -8.212078454156711e-05 0.00043317797846021674 -9.540995884034887e-05 -0.3403180275941098 -0.9258872147253167
1020000000.0 -0.3936167419905444 -0.9041735638573986 0.0004159445374501838 -0.00010471515619843365 0.0004088497577844198 -7.475528685036261e-05 -0.34207093833323426 -0.9253101236401751
1021000000.0 -0.3952860676298084 -0.9031438766642877 0.0004103645606802238 -7.678904839517186e-05 0.00041241343665451857 -9.675951777655625e-05 -0.34404875007858193 -0.9246726326284167
1022000000.0 -0.3969129566726391 -0.9021331817077618 0.00040447673375321305 -4.719885094077308e-05 0.00041556030562530494 -7.292822244930114e-05 -0.3459456736093074 -0.9239987294522882
1023000000.0 -0.3985913339317221 -0.901319293971488 0.00037398938730055835 -9.212997863243476e-05 0.0003804036188883367 -7.630038184550037e-05 -0.34778042950645816 -0.9232507490578464
1024000000.0 -0.40018505247064234 -0.9005429475027379 0.00036927265523161937 -6.159124938979988e-05 0.00039411970509387425 -9.902571010454509e-05 -0.3496234035755694 -0.9225823915885324
1025000000.0 -0.4017919361236967 -0.8997687933520061 0.0003532493189131074 -9.713393200685088e-05 0.00036870292901328844 -0.00010516122400060431 -0.3514189360226989 -0.9218782203678528
1026000000.0 -0.40340429443594467 -0.8990976215733404 0.0003532283395401817 -8.760495431260143e-05 0.0003531591959244335 -5.9751691192885124e-05 -0.353260176707293 -0.9211236878712555
1027000000.0 -0.40505889716972576 -0.8983125976714197 0.0003297547820976193 -6.796673452319367e-05 0.0003460579441648536 -0.00010481403676984862 -0.35500331959926507 -0.9204727326309408
1028000000.0 -0.40663713827149234 -0.8977319441633664 0.00036181489490285155 -7.49342622363114e-05 0.00034784936311492236 -7.384912531222155e-05 -0.3568410286800409 -0.9197230335762443
1029000000.0 -0.40838115527716246 -0.8972499817494106 0.00032557153375652767 -8.805256150367564e-05 0.00033145657792575005 -8.958599182058016e-05 -0.35871932253710553 -0.9190142377472397
1030000000.0 -0.4101937882763889 -0.8966511731456028 0.0003152158214175433 -8.270168509595182e-05 0.000338490379965163 -8.302625393999368e-05 -0.360242322166927 -0.9182995859277527
1031000000.0 -0.41157144776628984 -0.8957328967453062 0.0003286594906950147 -8.29455753721593e-05 0.0003117058221466991 -7.422434244852365e-05 -0.362095012312502 -0.9173624926912982
1032000000.0 -0.4130676061174975 -0.8948665408511672 0.00028868426477989044 -9.510732521343254e-05 0.00030870182388138904 -5.5874380841035825e-05 -0.36394344407329204 -0.9165133763531008
1033000000.0 -0.414671011011491 -0.8940410249063004 0.0003183974589044994 -6.0307824591358184e-05 0.00029547028947790317 -5.882395269813273e-05 -0.3656705478145575 -0.9157277527270098
1034000000.0 -0.416223343055338 -0.8932796139260398 0.0002994345270922844 -8.244794103476962e-05 0.00028940581637961274 -9.178510837466336e-05 -0.3674024720900585 -0.9149375047755764
1035000000.0 -0.41791257845622964 -0.8925837418913698 0.0002864341672070131 -7.581386550198815e-05 0.0002956924802326342 -7.86044737149705e-05 -0.36909042043813617 -0.9140369605902794
1036000000.0 -0.41960060086016004 -0.8918493867633861 0.00027555637952539 -5.205455551378199e-05 0.0003057795227835465 -6.545578531791534e-05 -0.37083965122529167 -0.9132939956849923
1037000000.0 -0.42130580533114914 -0.8911593553846933 0.0003064685733578277 -5.809117750593388e-05 0.00027246432856811774 -7.20088715149725e-05 -0.37241562115503146 -0.9125310951680893
1038000000.0 -0.42300791294828977 -0.8904630961011101 0.0002786775073733334 -0.00011952548465523713 0.00024312919624330513 -7.985501327670404e-05 -0.3740686497976075 -0.911821567646168
1039000000.0 -0.4248436788027682 -0.8896804696198805 0.00028504006817064846 -0.00010453869269830469 0.00026873186515989893 -8.479744840666803e-05 -0.3757167834960561 -0.9109966853845558
1040000000.0 -0.426640483980132 -0.8889634277449776 0.00026352741456489934 -9.797872199128879e-05 0.00025302798197570546 -0.00010613100268106444 -0.37726472162482566 -0.9103064006695504
1041000000.0 -0.42814269457416426 -0.8881929655950571 0.0002583950860542193 -7.636080829559072e-05 0.00023939514853103057 -8.59639567781117e-05 -0.37888686518035897 -0.9093675903934091
1042000000.0 -0.4295533998626135 -0.8873890128582244 0.0002509537286958095 -7.520083499032119e-05 0.00021907731953399288 -0.00010107919994041714 -0.3805038178341731 -0.9084636971018781
1043000000.0 -0.4311727351524063 -0.8865809548149476 0.0002685369465399751 -8.306212220748933e-05 0.0002403022201305646 -8.12633924312617e-05 -0.3820714528478557 -0.9077029249727462
1044000000.0 -0.43271392845945483 -0.8858181085176544 0.00026899443298562353 -9.73442582831705e-05 0.0002585395692172497 -9.754631360671799e-05 -0.3836421791200942 -0.9068294373055545
1045000000.0 -0.43435860353806527 -0.885007257950109 0.0002479484781871477 -7.211168381703871e-05 0.0002491701072859413 -8.3138648325349e-05 -0.3851494917675903 -0.9059974127897567
1046000000.0 -0.43601748476992785 -0.884172722898331 0.0002367963842222483 -7.398145200958069e-05 0.0002290095721990371 -7.334845908914874e-05 -0.38676105247280873 -0.9052203034790506
1047000000.0 -0.43769061389565267 -0.8833457537514101 0.0002382052538655073 -8.618130270282925e-05 0.0002356289548303443 -5.639228934234399e-05 -0.3883157073043245 -0.9044085092287906
1048000000.0 -0.4394348680185763 -0.8824674424491522 0.00025703035881885733 -6.21026881172358e-05 0.0002289049063118717 -7.096780697051039e-05 -0.3898848018804303 -0.9037827111280946
1049000000.0 -0.4411926141432234 -0.8815796447580341 0.0002341916869220366 -9.081176986187204e-05 0.00022793071033468145 -5.369077096094482e-05 -0.39145734637986407 -0.9031013983277083
1050000000.0 -0.4429248578470031 -0.8806714565676487 0.0001905304082642176 -7.255374208873795e-05 0.00020036776460502886 -7.75161404685674e-05 -0.39305395120300335 -0.9025803198808742
1051000000.0 -0.44440829144400645 -0.8798235239461452 0.00019065718877433048 -8.880076968081914e-05 0.0002156619685599562 -7.727396425845659e-05 -0.39448114525555505 -0.9016076693991868
1052000000.0 -0.44598297137264403 -0.8790743752419196 0.00019694624340425913 -9.381974104156695e-05 0.00019430464576742894 -0.00010522139505218839 -0.39582453674221885 -0.9008166729962539
1053000000.0 -0.4475555603618398 -0.8783696647621894 0.0001990854407890664 -8.278770934203268e-05 0.00024629713397204735 -7.749656567385448e-05 -0.39715036956347793 -0.8999732848212695
1054000000.0 -0.44912231221449717 -0.8775278761184909 0.0001958745240775831 -5.85254067704379e-05 0.00021647901560026422 -6.206068567688246e-05 -0.39858491788465944 -0.8992143478130538
1055000000.0 -0.4507291093513978 -0.8766871218264786 0.00020584710124160456 -9.25640529925564e-05 0.00020288995639257455 -7.271242572393353e-05 -0.4000425306093822 -0.8984756284422842
1056000000.0 -0.45238718396024147 -0.8757271909047871 0.0002239856295124917 -8.817362556490874e-05 0.00019354310805612068 -4.5120746797525595e-05 -0.4015668721765865 -0.8977455136429229
1057000000.0 -0.45398925932118067 -0.8747747747137296 0.00022560618529396436 -6.161568929998794e-05 0.00019520277191869984 -5.376513665973914e-05 -0.4031477827726045 -0.897157987381684
1058000000.0 -0.4555822349351319 -0.8738701459659605 0.00018434298880386758 -0.00010309901229913932 0.00021167176906238333 -8.85669658082636e-05 -0.40481885834641185 -0.8964688402557589
1059000000.0 -0.45734713503310037 -0.8729172907645941 0.00019318828895151127 -6.34608854087708e-05 0.00019387616288439176 -6.904880169881826e-05 -0.40656891136419954 -0.8959070797924077
1060000000.0 -0.45890651964076584 -0.8719209325737372 0.00019410317157327164 -8.426076746554077e-05 0.0002143491154745097 -8.379393224834202e-05 -0.4083854743417559 -0.895221482137414
1061000000.0 -0.46047659197899915 -0.8711436189937624 0.00020339860052056996 -0.00010118730931662127 0.00021998286073204585 -7.143363147768478e-05 -0.4095452620657279 -0.8946696488076379
1062000000.0 -0.461978345081103 -0.8702798019323336 0.0001821508510163134 -6.612167208583696e-05 0.0001753728461263633 -8.345871056137103e-05 -0.41080854141574075 -0.8940692376435063
1063000000.0 -0.46353821909069043 -0.8694245586827194 0.00018294022291586885 -9.564016675327609e-05 0.00020039461833213664 -6.429530038822235e-05 -0.4121728169977112 -0.8935312843994829
1064000000.0 -0.46502728095266654 -0.8686157298499703 0.00016471201286083953 -9.124995234691889e-05 0.00018333906711088749 -7.359421066868944e-05 -0.41366076347048075 -0.8928457864804081
1065000000.0 -0.466564384285391 -0.8676396144219616 0.0001790749704380787 -7.437080696617081e-05 0.0001955548300602636 -0.00011797522783004866 -0.4152046859215643 -0.89216249682109
1066000000.0 -0.46814506063022343 -0.8667614744029122 0.0002043712413998106 -8.543570374456377e-05 0.0001993726389391927 -8.349237978784224e-05 -0.4168028083078703 -0.891518231947104
1067000000.0 -0.46977767815001076 -0.8658721579685664 0.00017818231151464232 -9.159817542509768e-05 0.00017830989035883443 -0.00010058677951230558 -0.41842140269966593 -0.890823852212622
1068000000.0 -0.4712970100378978 -0.8649510352735491 0.00014934111545200483 -6.882452234951849e-05 0.00018552216996230533 -8.108082054024095e-05 -0.42026054271173957 -0.8901285515771595
1069000000.0 -0.4728991859326655 -0.8639434323852359 0.00015564181586053151 -7.177578404628888e-05 0.00019590110543544814 -7.947030715146931e-05 -0.4221703056418408 -0.8893453674436798
1070000000.0 -0.4745819011955145 -0.8630396864650304 0.0001780154837001991 -9.539726065133153e-05 0.00017744532130753305 -5.873420349186362e-05 -0.4240406877975323 -0.8886166300664675
1071000000.0 -0.47592167800440116 -0.8621982081507621 0.00014099242049156038 -5.96863412623817e-05 0.00018590533950704437 -7.551501223572007e-05 -0.42547935968540906 -0.8881294527352338
1072000000.0 -0.47727598096831414 -0.8611828510548359 0.00018639096375476882 -5.13841250723741e-05 0.00013958672286775144 -6.306521241203362e-05 -0.4270182739703862 -0.887609845526578
1073000000.0 -0.47881451018475996 -0.8602973397052525 0.0001786025336039619 -6.091937250880004e-05 0.00017821427412613704 -0.0001010113265332835 -0.4284328358599146 -0.8871420259861431
1074000000.0 -0.48016288955391206 -0.8594845794080964 0.00018692907455178598 -6.53330780955959e-05 0.00019111899874350074 -6.299107329115845e-05 -0.4301846676099107 -0.8864638319514642
1075000000.0 -0.48175264814922336 -0.8584959429126562 0.00015475256019828067 -4.90322544919455e-05 0.00021454006965319615 -8.502161931621907e-05 -0.4318402047835196 -0.8857767476632338
1076000000.0 -0.48326854784119183 -0.8575557128157418 0.00014643826770995767 -5.6926058891742696e-05 0.00017314673744029402 -8.186984373931611e-05 -0.4336174657932535 -0.885012333843729
1077000000.0 -0.4848833058981589 -0.8566682788176267 0.00015009062126420742 -5.461524934881455e-05 0.00014445315331729517 -9.139086369322992e-05 -0.43530967973521983 -0.8841183469525695
1078000000.0 -0.48646641410970437 -0.8557854856881421 0.0001598742303076014 -7.02377823576184e-05 0.00012974247664280586 -7.518928050624809e-05 -0.4370959914862945 -0.8833642047233319
1079000000.0 -0.4880510070062566 -0.8549387987059736 0.0001713388963829442 -7.115092604675159e-05 0.0001594197122950495 -7.012562626798213e-05 -0.4387121083381083 -0.8823212305357985
1080000000.0 -0.4896248932685536 -0.8541656614065801 0.00016499614773466984 -8.824875275886064e-05 0.0001523692573891054 -8.960655088553814e-05 -0.44047520029060033 -0.8813034263501293
1081000000.0 -0.4909808861925488 -0.8532408264248772 0.00016562135041049217 -7.30340114639532e-05 0.00014155462546065748 -7.529329971902678e-05 -0.44224652121723124 -0.880733418294555
1082000000.0 -0.4923686426402706 -0.8523316269919008 0.00015242535697170445 -7.774904893668361e-05 0.00014598906779276282 -7.264018114222874e-05 -0.44405995065223836 -0.8799714224974666
1083000000.0 -0.4937231427161495 -0.8514146707211446 0.00017205891182126912 -6.398164781156433e-05 0.00015985596747827743 -7.119837261751837e-05 -0.44589810261136414 -0.8793383903789951
1084000000.0 -0.4952533750260738 -0.8505138804125866 0.00017517457870620188 -8.559060339351586e-05 0.00016851165758178534 -5.330197469302434e-05 -0.44768911753068047 -0.8784994929223048
1085000000.0 -0.49677402136527254 -0.8496733288111855 0.00015977087983357245 -7.83376438758805e-05 0.00013576264927275355 -0.00010303052974170751 -0.44934909871828216 -0.8776880674850008
1086000000.0 -0.49833964750819615 -0.8487465730586259 0.0001623229103703198 -6.143837198511918e-05 0.0001491841872768918 -8.177319469191146e-05 -0.45101466824521613 -0.8767420031524308
1087000000.0 -0.49991988046605546 -0.8478767683461477 0.0001413362589587446 -6.772859989262272e-05 0.00013277654670630656 -7.368075744535827e-05 -0.4527005225748077 -0.8758752050949136
1088000000.0 -0.5016684195524821 -0.8469192349114469 0.00014100073468250544 -4.761132176414601e-05 0.00015147529398592513 -3.441827089219714e-05 -0.45419260634612757 -0.8748976761002224
1089000000.0 -0.5032828841550606 -0.8460789080864839 0.00015349706286366314 -5.7018757933943094e-05 0.00015774494664929284 -5.3920124980294836e-05 -0.455601865999434 -0.8739825948004623
1090000000.0 -0.5049767146378222 -0.8450510716912287 0.00015199063606847644 -5.264120629779165e-05 0.0001505771527250895 -8.56430080745937e-05 -0.45699215168363205 -0.8731199645845761
1091000000.0 -0.5062442218485788 -0.844249176097318 0.00014128137179053745 -8.086998140703985e-05 0.00017945895580658643 -4.7601859221667963e-05 -0.45894839139478166 -0.8721563414417015
1092000000.0 -0.5076402072685884 -0.8435853568982788 0.00015264738308502814 -5.809488319789601e-05 0.00012530409660966175 -8.736056475002222e-05 -0.46081432458576477 -0.8711781665478958
1093000000.0 -0.5090095550965142 -0.8426804089145092 0.0001722610451592738 -8.7913653409723e-05 0.00014210909109259534 -6.89681955419335e-05 -0.4626074472033091 -0.8701941470386433
1094000000.0 -0.5105124859290517 -0.8418188959375704 0.00017369205915472512 -5.532253960015326e-05 9.667995378802905e-05 -4.418835518259402e-05 -0.46425178585239163 -0.8692286178593073
1095000000.0 -0.5120317155264877 -0.8409204223428828 0.00014509629719749304 -8.337796752178896e-05 0.0001409888137941642 -4.4768281645193145e-05 -0.46587826907081503 -0.868286093818942
1096000000.0 -0.5136362180605748 -0.8399198014233722 0.00014304551208032398 -8.888317988141605e-05 0.00010923714536578501 -8.176104030095104e-05 -0.4674122310222411 -0.8673492790987717
1097000000.0 -0.5152112166806865 -0.8389970193763471 0.00013377939628866342 -7.226010265791945e-05 0.00012461018212666413 -6.273388884980357e-05 -0.4690077591654668 -0.8663997986453648
1098000000.0 -0.5168267623823894 -0.8379622851364619 0.00012017412831400697 -9.911553215620945e-05 0.00013120598914683943 -6.249204115615525e-05 -0.47045873614946876 -0.8655673274328052
1099000000.0 -0.5184911802403224 -0.83688400347509 0.00012052179874885737 -7.452082688844256e-05 0.00013481600245111394 -0.0001006174649525086 -0.4717482895688591 -0.8646758316576019
1100000000.0 -0.5201236295856243 -0.8358622976686612 0.00015874828605197234 -6.22792124384198e-05 0.0001146199235793806 -5.221746768643211e-05 -0.4731190475297982 -0.863876084478842
1101000000.0 -0.5217191738411937 -0.8350717928501006 0.00012852124794613125 -6.479688981711168e-05 0.00012510591248125495 -6.533424936265754e-05 -0.4747182537700182 -0.8629098645518304
1102000000.0 -0.5232706255225718 -0.8342075451088672 0.00011529271192598974 -3.278292035012945e-05 0.00012352888069151586 -5.302863837391361e-05 -0.4763028270095412 -0.8619653777971531
1103000000.0 -0.5248484688077175 -0.8333497440473493 0.00014415162386972996 -8.014140811147501e-05 0.0001221710053940768 -3.849329316456858e-05 -0.4777430260356461 -0.8610275475704696
1104000000.0 -0.526449144752919 -0.8324963881043107 0.00014399169010135827 -9.579675887389852e-05 0.00011400958671020743 -7.876539916894822e-05 -0.4793195798604978 -0.8600094433749754
1105000000.0 -0.5280725776787697 -0.8314791057001925 0.00013403597581019438 -7.110689298173284e-05 0.00015788876291182761 -6.515649146837588e-05 -0.48083714583191767 -0.8590272614004818
