!Created with mwavepy.
# GHz S RI R 50.0 
!freq	ReS11	ImS11	
500.0	-0.07213627487	0.01429097767	
! Port Impedance	50.00000000000000	0.00000000000000	
501.25	0.01354594641	0.1395280913	
! Port Impedance	50.00000000000000	0.00000000000000	
502.5	0.005775815712	0.1776253116	
! Port Impedance	50.00000000000000	0.00000000000000	
503.75	0.1005393402	0.04502811554	
! Port Impedance	50.00000000000000	0.00000000000000	
505.0	0.08354593273	-0.08204309795	
! Port Impedance	50.00000000000000	0.00000000000000	
506.25	0.01737727513	-0.1286175849	
! Port Impedance	50.00000000000000	0.00000000000000	
507.5	-0.1303193066	-0.1122923868	
! Port Impedance	50.00000000000000	0.00000000000000	
508.75	-0.1521123963	0.07643559731	
! Port Impedance	50.00000000000000	0.00000000000000	
510.0	-0.09147622003	0.1387135435	
! Port Impedance	50.00000000000000	0.00000000000000	
511.25	0.09871672652	0.02807995927	
! Port Impedance	50.00000000000000	0.00000000000000	
512.5	0.03926404199	-0.08430118318	
! Port Impedance	50.00000000000000	0.00000000000000	
513.75	-0.1485843574	-0.1040135727	
! Port Impedance	50.00000000000000	0.00000000000000	
515.0	-0.1581052268	0.1423656185	
! Port Impedance	50.00000000000000	0.00000000000000	
516.25	-0.08977148512	0.2300696492	
! Port Impedance	50.00000000000000	0.00000000000000	
517.5	-0.04903709143	0.2093774001	
! Port Impedance	50.00000000000000	0.00000000000000	
518.75	-0.02362117951	0.1809579505	
! Port Impedance	50.00000000000000	0.00000000000000	
520.0	0.1082169627	0.1222022494	
! Port Impedance	50.00000000000000	0.00000000000000	
521.25	0.1866333451	-0.0007999993008	
! Port Impedance	50.00000000000000	0.00000000000000	
522.5	0.1111101647	-0.121174763	
! Port Impedance	50.00000000000000	0.00000000000000	
523.75	0.1156271135	-0.3960560413	
! Port Impedance	50.00000000000000	0.00000000000000	
525.0	0.06614828	-0.1934768587	
! Port Impedance	50.00000000000000	0.00000000000000	
526.25	0.01102522603	-0.1745747948	
! Port Impedance	50.00000000000000	0.00000000000000	
527.5	-0.14050449	-0.0625631241	
! Port Impedance	50.00000000000000	0.00000000000000	
528.75	-0.1289585598	0.130211407	
! Port Impedance	50.00000000000000	0.00000000000000	
530.0	0.148146806	0.1386159077	
! Port Impedance	50.00000000000000	0.00000000000000	
531.25	0.2987242419	-0.07298530212	
! Port Impedance	50.00000000000000	0.00000000000000	
532.5	0.1473344362	-0.2057478807	
! Port Impedance	50.00000000000000	0.00000000000000	
533.75	0.08671237455	-0.1650839676	
! Port Impedance	50.00000000000000	0.00000000000000	
535.0	0.04399741615	-0.1577015217	
! Port Impedance	50.00000000000000	0.00000000000000	
536.25	-0.001454273184	-0.1486371889	
! Port Impedance	50.00000000000000	0.00000000000000	
537.5	-0.002619164359	-0.1856516812	
! Port Impedance	50.00000000000000	0.00000000000000	
538.75	-0.1154142467	-0.1148971497	
! Port Impedance	50.00000000000000	0.00000000000000	
540.0	-0.1668332347	-0.1308086081	
! Port Impedance	50.00000000000000	0.00000000000000	
541.25	-0.1835392123	-0.09370610741	
! Port Impedance	50.00000000000000	0.00000000000000	
542.5	-0.1929999459	-0.03237952551	
! Port Impedance	50.00000000000000	0.00000000000000	
543.75	-0.1381487508	0.1299549322	
! Port Impedance	50.00000000000000	0.00000000000000	
545.0	0.04317526634	0.169014083	
! Port Impedance	50.00000000000000	0.00000000000000	
546.25	0.1474096481	0.08862366336	
! Port Impedance	50.00000000000000	0.00000000000000	
547.5	0.1957744424	0.06201498081	
! Port Impedance	50.00000000000000	0.00000000000000	
548.75	0.1915175478	0.1042834461	
! Port Impedance	50.00000000000000	0.00000000000000	
550.0	0.1471995769	0.1371838413	
! Port Impedance	50.00000000000000	0.00000000000000	
551.25	0.08253953655	0.1318946998	
! Port Impedance	50.00000000000000	0.00000000000000	
552.5	0.06695182176	0.1021008947	
! Port Impedance	50.00000000000000	0.00000000000000	
553.75	0.03788165934	0.106510411	
! Port Impedance	50.00000000000000	0.00000000000000	
555.0	0.1010697842	0.02708084036	
! Port Impedance	50.00000000000000	0.00000000000000	
556.25	0.0924463447	0.03617682146	
! Port Impedance	50.00000000000000	0.00000000000000	
557.5	0.07403368099	0.06390859416	
! Port Impedance	50.00000000000000	0.00000000000000	
558.75	0.06676978174	0.1068936477	
! Port Impedance	50.00000000000000	0.00000000000000	
560.0	0.1074738124	0.09396396502	
! Port Impedance	50.00000000000000	0.00000000000000	
561.25	0.1388608431	-0.0177536341	
! Port Impedance	50.00000000000000	0.00000000000000	
562.5	0.1011866713	-0.07187210147	
! Port Impedance	50.00000000000000	0.00000000000000	
563.75	0.06091591054	-0.1229263099	
! Port Impedance	50.00000000000000	0.00000000000000	
565.0	0.06499369447	-0.1494940494	
! Port Impedance	50.00000000000000	0.00000000000000	
566.25	0.1025565281	-0.1066681333	
! Port Impedance	50.00000000000000	0.00000000000000	
567.5	0.1340252962	-0.03695611046	
! Port Impedance	50.00000000000000	0.00000000000000	
568.75	0.1606831529	0.02557024074	
! Port Impedance	50.00000000000000	0.00000000000000	
570.0	0.1763572753	0.04303632867	
! Port Impedance	50.00000000000000	0.00000000000000	
571.25	0.1501196168	-0.07796185721	
! Port Impedance	50.00000000000000	0.00000000000000	
572.5	0.09757395047	-0.1170176981	
! Port Impedance	50.00000000000000	0.00000000000000	
573.75	0.04973152338	-0.141364634	
! Port Impedance	50.00000000000000	0.00000000000000	
575.0	0.001591913649	-0.1496488657	
! Port Impedance	50.00000000000000	0.00000000000000	
576.25	0.001571547333	-0.1333053153	
! Port Impedance	50.00000000000000	0.00000000000000	
577.5	0.0118686788	-0.1270303485	
! Port Impedance	50.00000000000000	0.00000000000000	
578.75	0.08543644096	-0.1330955835	
! Port Impedance	50.00000000000000	0.00000000000000	
580.0	0.09033174487	-0.1493900911	
! Port Impedance	50.00000000000000	0.00000000000000	
581.25	0.06557976228	-0.1626980231	
! Port Impedance	50.00000000000000	0.00000000000000	
582.5	0.07594902872	-0.1330634087	
! Port Impedance	50.00000000000000	0.00000000000000	
583.75	0.118260254	-0.09697623224	
! Port Impedance	50.00000000000000	0.00000000000000	
585.0	0.1327940806	-0.07660384884	
! Port Impedance	50.00000000000000	0.00000000000000	
586.25	0.1278142795	-0.04847434396	
! Port Impedance	50.00000000000000	0.00000000000000	
587.5	0.1341741747	-0.02999619712	
! Port Impedance	50.00000000000000	0.00000000000000	
588.75	0.143430688	-0.08247808779	
! Port Impedance	50.00000000000000	0.00000000000000	
590.0	0.1211949572	-0.1361537867	
! Port Impedance	50.00000000000000	0.00000000000000	
591.25	0.08961050527	-0.1252508304	
! Port Impedance	50.00000000000000	0.00000000000000	
592.5	0.1206125289	-0.0716340422	
! Port Impedance	50.00000000000000	0.00000000000000	
593.75	0.1550443241	-0.01503939535	
! Port Impedance	50.00000000000000	0.00000000000000	
595.0	0.1454161119	0.05255701371	
! Port Impedance	50.00000000000000	0.00000000000000	
596.25	0.1302739631	0.08923266525	
! Port Impedance	50.00000000000000	0.00000000000000	
597.5	0.06699993169	0.1567230719	
! Port Impedance	50.00000000000000	0.00000000000000	
598.75	0.07888854121	0.1614214469	
! Port Impedance	50.00000000000000	0.00000000000000	
600.0	0.03406016326	0.1470231556	
! Port Impedance	50.00000000000000	0.00000000000000	
601.25	0.02360256392	0.1168715079	
! Port Impedance	50.00000000000000	0.00000000000000	
602.5	-0.02822387979	0.1399345032	
! Port Impedance	50.00000000000000	0.00000000000000	
603.75	-0.06198645373	0.1514920232	
! Port Impedance	50.00000000000000	0.00000000000000	
605.0	-0.1294113288	0.09706501873	
! Port Impedance	50.00000000000000	0.00000000000000	
606.25	-0.1658051917	0.01547627681	
! Port Impedance	50.00000000000000	0.00000000000000	
607.5	-0.1677018632	0.02923802537	
! Port Impedance	50.00000000000000	0.00000000000000	
608.75	-0.1499677972	-0.02122533065	
! Port Impedance	50.00000000000000	0.00000000000000	
610.0	-0.09952710245	-0.08605731852	
! Port Impedance	50.00000000000000	0.00000000000000	
611.25	-0.05874920794	-0.1306510329	
! Port Impedance	50.00000000000000	0.00000000000000	
612.5	-0.04714323292	-0.1598352627	
! Port Impedance	50.00000000000000	0.00000000000000	
613.75	0.04528203086	-0.1580426296	
! Port Impedance	50.00000000000000	0.00000000000000	
615.0	0.08961708301	-0.1311603511	
! Port Impedance	50.00000000000000	0.00000000000000	
616.25	0.1160733586	-0.1188937349	
! Port Impedance	50.00000000000000	0.00000000000000	
617.5	0.1396117328	-0.07585881839	
! Port Impedance	50.00000000000000	0.00000000000000	
618.75	0.1523291208	-0.0140853117	
! Port Impedance	50.00000000000000	0.00000000000000	
620.0	0.1779429498	0.03257387309	
! Port Impedance	50.00000000000000	0.00000000000000	
621.25	0.1674148661	0.02230847288	
! Port Impedance	50.00000000000000	0.00000000000000	
622.5	0.1267168727	0.07604423275	
! Port Impedance	50.00000000000000	0.00000000000000	
623.75	0.05252468601	0.1346346471	
! Port Impedance	50.00000000000000	0.00000000000000	
625.0	-0.04799474797	0.154591639	
! Port Impedance	50.00000000000000	0.00000000000000	
626.25	-0.08331544865	0.1620116229	
! Port Impedance	50.00000000000000	0.00000000000000	
627.5	-0.1429313389	0.1230102031	
! Port Impedance	50.00000000000000	0.00000000000000	
628.75	-0.1695663358	0.04395432896	
! Port Impedance	50.00000000000000	0.00000000000000	
630.0	-0.1390752777	-0.02912702959	
! Port Impedance	50.00000000000000	0.00000000000000	
631.25	-0.08306192397	-0.1097948813	
! Port Impedance	50.00000000000000	0.00000000000000	
632.5	-0.03563509561	-0.1655160784	
! Port Impedance	50.00000000000000	0.00000000000000	
633.75	-0.007787792942	-0.1885402875	
! Port Impedance	50.00000000000000	0.00000000000000	
635.0	0.01955887554	-0.1823330788	
! Port Impedance	50.00000000000000	0.00000000000000	
636.25	0.07545302726	-0.154158603	
! Port Impedance	50.00000000000000	0.00000000000000	
637.5	0.1266746796	-0.08858742742	
! Port Impedance	50.00000000000000	0.00000000000000	
638.75	0.1445709185	0.001659990861	
! Port Impedance	50.00000000000000	0.00000000000000	
640.0	0.1082614925	0.1236322295	
! Port Impedance	50.00000000000000	0.00000000000000	
641.25	0.02483249308	0.1769428232	
! Port Impedance	50.00000000000000	0.00000000000000	
642.5	-0.07507021048	0.1400603399	
! Port Impedance	50.00000000000000	0.00000000000000	
643.75	-0.1238447562	0.09217340497	
! Port Impedance	50.00000000000000	0.00000000000000	
645.0	-0.160331911	0.05842842843	
! Port Impedance	50.00000000000000	0.00000000000000	
646.25	-0.1718271348	0.005922663705	
! Port Impedance	50.00000000000000	0.00000000000000	
647.5	-0.1596966525	-0.05442523678	
! Port Impedance	50.00000000000000	0.00000000000000	
648.75	-0.1144728468	-0.1108490858	
! Port Impedance	50.00000000000000	0.00000000000000	
650.0	-0.01429572971	-0.1459810023	
! Port Impedance	50.00000000000000	0.00000000000000	
651.25	0.1134552348	-0.1078217718	
! Port Impedance	50.00000000000000	0.00000000000000	
652.5	0.1790131686	0.01019752252	
! Port Impedance	50.00000000000000	0.00000000000000	
653.75	0.1260433948	0.1334701139	
! Port Impedance	50.00000000000000	0.00000000000000	
655.0	0.05538103087	0.1484584678	
! Port Impedance	50.00000000000000	0.00000000000000	
656.25	-0.04173205036	0.1491851134	
! Port Impedance	50.00000000000000	0.00000000000000	
657.5	-0.07668637986	0.1486395156	
! Port Impedance	50.00000000000000	0.00000000000000	
658.75	-0.1071838673	0.1514950259	
! Port Impedance	50.00000000000000	0.00000000000000	
660.0	-0.1205586694	0.1464913498	
! Port Impedance	50.00000000000000	0.00000000000000	
661.25	-0.07359811228	0.1529028963	
! Port Impedance	50.00000000000000	0.00000000000000	
662.5	-0.1199299208	0.1009162593	
! Port Impedance	50.00000000000000	0.00000000000000	
663.75	-0.154789938	-0.08625818767	
! Port Impedance	50.00000000000000	0.00000000000000	
665.0	0.008585983962	-0.2022077881	
! Port Impedance	50.00000000000000	0.00000000000000	
666.25	0.1503613029	-0.1224381606	
! Port Impedance	50.00000000000000	0.00000000000000	
667.5	0.1742326643	-0.03997294698	
! Port Impedance	50.00000000000000	0.00000000000000	
668.75	0.137942636	0.08791444765	
! Port Impedance	50.00000000000000	0.00000000000000	
670.0	0.0650847533	0.1560559279	
! Port Impedance	50.00000000000000	0.00000000000000	
671.25	0.02203085093	0.1805988698	
! Port Impedance	50.00000000000000	0.00000000000000	
672.5	0.0148395334	0.1949179971	
! Port Impedance	50.00000000000000	0.00000000000000	
673.75	-0.06079195438	0.1693419684	
! Port Impedance	50.00000000000000	0.00000000000000	
675.0	-0.1702864923	0.03755341739	
! Port Impedance	50.00000000000000	0.00000000000000	
676.25	-0.1517127048	-0.1143426053	
! Port Impedance	50.00000000000000	0.00000000000000	
677.5	-0.1093784955	-0.1709112853	
! Port Impedance	50.00000000000000	0.00000000000000	
678.75	-0.0039471427	-0.1718372783	
! Port Impedance	50.00000000000000	0.00000000000000	
680.0	0.09978414255	-0.1215372977	
! Port Impedance	50.00000000000000	0.00000000000000	
681.25	0.1492368217	-0.1115615099	
! Port Impedance	50.00000000000000	0.00000000000000	
682.5	0.2092053433	-0.04067798999	
! Port Impedance	50.00000000000000	0.00000000000000	
683.75	0.1709742974	0.115700196	
! Port Impedance	50.00000000000000	0.00000000000000	
685.0	-0.02415756778	0.1745940772	
! Port Impedance	50.00000000000000	0.00000000000000	
686.25	-0.1650957786	0.03290645964	
! Port Impedance	50.00000000000000	0.00000000000000	
687.5	-0.1767172795	-0.1059593024	
! Port Impedance	50.00000000000000	0.00000000000000	
688.75	-0.1006827851	-0.2031361054	
! Port Impedance	50.00000000000000	0.00000000000000	
690.0	0.06395985863	-0.174253756	
! Port Impedance	50.00000000000000	0.00000000000000	
691.25	0.104017303	-0.135846813	
! Port Impedance	50.00000000000000	0.00000000000000	
692.5	0.04251752264	-0.2051826673	
! Port Impedance	50.00000000000000	0.00000000000000	
693.75	-0.02239502785	-0.2354983628	
! Port Impedance	50.00000000000000	0.00000000000000	
695.0	0.1662198398	-0.1551604413	
! Port Impedance	50.00000000000000	0.00000000000000	
696.25	0.0472440128	0.1922783122	
! Port Impedance	50.00000000000000	0.00000000000000	
697.5	-0.1902481572	0.030746683	
! Port Impedance	50.00000000000000	0.00000000000000	
698.75	-0.1751351558	-0.1139428241	
! Port Impedance	50.00000000000000	0.00000000000000	
700.0	-0.1248896956	-0.1550355816	
! Port Impedance	50.00000000000000	0.00000000000000	
701.25	-0.01521097957	-0.1837438389	
! Port Impedance	50.00000000000000	0.00000000000000	
702.5	0.06092672777	-0.1945104702	
! Port Impedance	50.00000000000000	0.00000000000000	
703.75	0.01402145105	-0.2266302809	
! Port Impedance	50.00000000000000	0.00000000000000	
705.0	0.1206056967	-0.179603347	
! Port Impedance	50.00000000000000	0.00000000000000	
706.25	0.1958323662	0.07356408268	
! Port Impedance	50.00000000000000	0.00000000000000	
707.5	-0.02396463415	0.206226799	
! Port Impedance	50.00000000000000	0.00000000000000	
708.75	-0.2017514857	0.005663406922	
! Port Impedance	50.00000000000000	0.00000000000000	
710.0	-0.08672732977	-0.1881925612	
! Port Impedance	50.00000000000000	0.00000000000000	
711.25	0.09024060926	-0.1727458578	
! Port Impedance	50.00000000000000	0.00000000000000	
712.5	0.159224407	-0.09415511321	
! Port Impedance	50.00000000000000	0.00000000000000	
713.75	0.1293435078	-0.1813798344	
! Port Impedance	50.00000000000000	0.00000000000000	
715.0	0.1161831877	-0.2176926066	
! Port Impedance	50.00000000000000	0.00000000000000	
716.25	0.2245901698	-0.07798871907	
! Port Impedance	50.00000000000000	0.00000000000000	
717.5	0.1530881245	0.1572737714	
! Port Impedance	50.00000000000000	0.00000000000000	
718.75	-0.05775790151	0.1891325077	
! Port Impedance	50.00000000000000	0.00000000000000	
720.0	-0.1880886707	-0.08640120841	
! Port Impedance	50.00000000000000	0.00000000000000	
721.25	0.1969580123	-0.1124676038	
! Port Impedance	50.00000000000000	0.00000000000000	
722.5	0.136503305	0.16964181	
! Port Impedance	50.00000000000000	0.00000000000000	
723.75	0.1532554706	0.1716374256	
! Port Impedance	50.00000000000000	0.00000000000000	
725.0	0.1878393655	0.1597781522	
! Port Impedance	50.00000000000000	0.00000000000000	
726.25	0.1241666609	0.2076223509	
! Port Impedance	50.00000000000000	0.00000000000000	
727.5	-0.1664254461	0.1807630772	
! Port Impedance	50.00000000000000	0.00000000000000	
728.75	-0.2274918816	0.02101593159	
! Port Impedance	50.00000000000000	0.00000000000000	
730.0	-0.1950125038	0.06734493118	
! Port Impedance	50.00000000000000	0.00000000000000	
731.25	-0.1613605267	-0.1513139297	
! Port Impedance	50.00000000000000	0.00000000000000	
732.5	0.1669786897	-0.1299567858	
! Port Impedance	50.00000000000000	0.00000000000000	
733.75	0.1769414061	0.08827084263	
! Port Impedance	50.00000000000000	0.00000000000000	
735.0	0.1860363145	0.1822612334	
! Port Impedance	50.00000000000000	0.00000000000000	
736.25	0.1735080791	0.1774570329	
! Port Impedance	50.00000000000000	0.00000000000000	
737.5	-0.03904155838	0.2159739965	
! Port Impedance	50.00000000000000	0.00000000000000	
738.75	-0.2291914757	0.03204528603	
! Port Impedance	50.00000000000000	0.00000000000000	
740.0	-0.2372051957	0.0002860511497	
! Port Impedance	50.00000000000000	0.00000000000000	
741.25	-0.2014881272	-0.1140957094	
! Port Impedance	50.00000000000000	0.00000000000000	
742.5	0.1739406301	-0.1201431558	
! Port Impedance	50.00000000000000	0.00000000000000	
743.75	0.08165110925	0.1586524083	
! Port Impedance	50.00000000000000	0.00000000000000	
745.0	-0.02545098022	0.2313829391	
! Port Impedance	50.00000000000000	0.00000000000000	
746.25	0.007970748256	0.2528035007	
! Port Impedance	50.00000000000000	0.00000000000000	
747.5	-0.05876441069	0.1614697633	
! Port Impedance	50.00000000000000	0.00000000000000	
748.75	-0.09798332222	0.13138479	
! Port Impedance	50.00000000000000	0.00000000000000	
750.0	0.1136606603	0.1630691194	
! Port Impedance	50.00000000000000	0.00000000000000	
