! Touchstone file exported from Circuit Design 2018.2.0
!        File:           C:/Users/JH218595/Documents/scikit-rf/doc/source/examples/circuit/examples_circuits.aedt
!        Generated:      5:28:43  avr. 28, 2019
!        Design:         capacitor_eqmodel_adv
!        Project:        examples_circuits
!        Setup:          LinearFrequency
!        Solution:       LinearFrequency
!
! Variables:
!        C = 70pF
!
!Data is not renormalized
# GHZ S MA
! Modal data exported
! Port[1] = Port1
! Port[2] = Port2
0.03             0.709160247747311 -50.8437024499598 0.704959001151775 19.6483912014775 0.704959001151774 19.6483912014775 0.709176204738793 -89.8466673301341 
! Port Impedance50               0                50               0                

0.0301           0.7085205895556  -50.9450535006943 0.705601636196135 19.5188103809949 0.705601636196135 19.5188103809949 0.708536693949544 -90.0044502050839 
! Port Impedance50               0                50               0                

0.0302           0.707884746494662 -51.0462395491984 0.70623928342961 19.3896365873462 0.70623928342961 19.3896365873462 0.707900998992462 -90.1615841014764 
! Port Impedance50               0                50               0                

0.0303           0.70725270146725 -51.1472625492838 0.706871983747709 19.2608673266872 0.706871983747709 19.2608673266872 0.707269102769429 -90.3180720531986 
! Port Impedance50               0                50               0                

0.0304           0.706624437376463 -51.2481244360262 0.707499777672544 19.1325001213763 0.707499777672544 19.1325001213763 0.706640988182666 -90.4739170804668 
! Port Impedance50               0                50               0                

0.0305           0.705999937128008 -51.3488271258928 0.708122705355976 19.0045325099019 0.708122705355976 19.0045325099019 0.706016638136989 -90.6291221898451 
! Port Impedance50               0                50               0                

0.0306           0.70537918363241 -51.44937251687  0.708740806582747 18.876962046808  0.708740806582747 18.876962046808  0.705396035542022 -90.7836903742658 
! Port Impedance50               0                50               0                

0.0307           0.704762159807158 -51.5497624885904 0.709354120773598 18.7497863026203 0.709354120773598 18.7497863026203 0.704779163314347 -90.9376246130508 
! Port Impedance50               0                50               0                

0.0308           0.704148848578803 -51.6499989024621 0.709962686988385 18.6230028637705 0.709962686988385 18.6230028637705 0.704166004379593 -91.0909278719336 
! Port Impedance50               0                50               0                

0.0309           0.703539232884993 -51.7500836017956 0.710566543929162 18.4966093325207 0.710566543929162 18.4966093325207 0.70355654167448 -91.2436031030835 
! Port Impedance50               0                50               0                

0.031            0.702933295676456 -51.8500184119329 0.711165729943268 18.3706033268865 0.711165729943268 18.3706033268865 0.702950758148797 -91.3956532451301 
! Port Impedance50               0                50               0                

0.0311           0.702331019918936 -51.9498051403754 0.711760283026392 18.2449824805605 0.711760283026392 18.2449824805605 0.702348636767339 -91.5470812231895 
! Port Impedance50               0                50               0                

0.0312           0.701732388595069 -52.0494455769127 0.712350240825619 18.1197444428337 0.712350240825619 18.1197444428337 0.701750160511784 -91.6978899488908 
! Port Impedance50               0                50               0                

0.0313           0.701137384706209 -52.1489414937508 0.712935640642471 17.9948868785182 0.712935640642471 17.9948868785182 0.701155312382522 -91.8480823204046 
! Port Impedance50               0                50               0                

0.0314           0.700545991274212 -52.2482946456407 0.713516519435922 17.870407467868  0.713516519435922 17.870407467868  0.700564075400431 -91.9976612224715 
! Port Impedance50               0                50               0                

0.0315           0.699958191343162 -52.3475067700069 0.714092913825409 17.7463039064999 0.714092913825409 17.7463039064999 0.699976432608611 -92.1466295264322 
! Port Impedance50               0                50               0                

0.0316           0.699373967981054 -52.4465795870754 0.714664860093813 17.6225739053139 0.714664860093813 17.6225739053139 0.699392367074064 -92.2949900902587 
! Port Impedance50               0                50               0                

0.0317           0.698793304281426 -52.5455148000026 0.715232394190434 17.4992151904134 0.715232394190434 17.4992151904134 0.698811861889326 -92.4427457585854 
! Port Impedance50               0                50               0                

0.0318           0.698216183364952 -52.6443140950032 0.715795551733948 17.3762255030244 0.715795551733949 17.3762255030244 0.698234900174061 -92.5898993627421 
! Port Impedance50               0                50               0                

0.0319           0.697642588380982 -52.742979141478 0.716354368015343 17.2536025994151 0.716354368015343 17.2536025994151 0.697661465076599 -92.7364537207875 
! Port Impedance50               0                50               0                

0.032            0.697072502509043 -52.8415115921421 0.716908878000841 17.1313442508148 0.716908878000841 17.1313442508148 0.69709153977544 -92.8824116375431 
! Port Impedance50               0                50               0                

0.0321           0.696505908960293 -52.9399130831525 0.7174591163348  17.0094482433325 0.7174591163348  17.0094482433325 0.696525107480709 -93.0277759046286 
! Port Impedance50               0                50               0                

0.0322           0.69594279097894 -53.0381852342356 0.718005117342604 16.8879123778753 0.718005117342604 16.8879123778753 0.695962151435567 -93.1725493004974 
! Port Impedance50               0                50               0                

0.0323           0.695383131843609 -53.1363296488144 0.718546915033529 16.7667344700664 0.718546915033529 16.7667344700664 0.69540265491759 -93.3167345904732 
! Port Impedance50               0                50               0                

0.0324           0.694826914868674 -53.2343479141355 0.719084543103595 16.6459123501633 0.719084543103595 16.6459123501633 0.694846601240092 -93.4603345267873 
! Port Impedance50               0                50               0                

0.0325           0.694274123405552 -53.3322416013958 0.719618034938395 16.5254438629754 0.719618034938395 16.5254438629754 0.694293973753424 -93.6033518486163 
! Port Impedance50               0                50               0                

0.0326           0.693724740843956 -53.4300122658692 0.720147423615915 16.4053268677813 0.720147423615915 16.4053268677813 0.693744755846223 -93.7457892821205 
! Port Impedance50               0                50               0                

0.0327           0.693178750613107 -53.5276614470321 0.720672741909325 16.2855592382467 0.720672741909325 16.2855592382467 0.693198930946629 -93.8876495404835 
! Port Impedance50               0                50               0                

0.0328           0.692636136182913 -53.6251906686896 0.721194022289759 16.1661388623412 0.721194022289759 16.1661388623412 0.692656482523462 -94.0289353239512 
! Port Impedance50               0                50               0                

0.0329           0.692096881065111 -53.722601439101 0.72171129692907 16.0470636422557 0.72171129692907 16.0470636422557 0.69211739408736 -94.1696493198729 
! Port Impedance50               0                50               0                

0.033            0.691560968814369 -53.8198952511044 0.722224597702573 15.9283314943193 0.722224597702573 15.9283314943192 0.691581649191888 -94.3097942027416 
! Port Impedance50               0                50               0                

0.0331           0.691028383029358 -53.9170735822417 0.722733956191767 15.8099403489164 0.722733956191766 15.8099403489164 0.691049231434605 -94.4493726342357 
! Port Impedance50               0                50               0                

0.0332           0.690499107353785 -54.0141378948827 0.72323940368703 15.6918881504038 0.723239403687029 15.6918881504038 0.690520124458102 -94.5883872632606 
! Port Impedance50               0                50               0                

0.0333           0.689973125477399 -54.1110896363488 0.723740971190309 15.5741728570273 0.723740971190309 15.5741728570273 0.689994311951002 -94.7268407259915 
! Port Impedance50               0                50               0                

0.0334           0.689450421136956 -54.2079302390368 0.72423868941778 15.4567924408387 0.72423868941778 15.4567924408387 0.68947177764893 -94.8647356459159 
! Port Impedance50               0                50               0                

0.0335           0.688930978117157 -54.3046611205412 0.724732588802492 15.3397448876128 0.724732588802492 15.3397448876128 0.68895250533545 -95.002074633877 
! Port Impedance50               0                50               0                

0.0336           0.688414780251558 -54.401283683777 0.725222699496992 15.2230281967641 0.725222699496992 15.2230281967641 0.68843647884297 -95.1388602881176 
! Port Impedance50               0                50               0                

0.0337           0.687901811423437 -54.4977993171019 0.725709051375932 15.106640381264  0.725709051375932 15.106640381264  0.687923682053618 -95.2750951943242 
! Port Impedance50               0                50               0                

0.0338           0.687392055566644 -54.5942093944372 0.726191674038651 14.9905794675576 0.726191674038651 14.9905794675576 0.687414098900087 -95.4107819256713 
! Port Impedance50               0                50               0                

0.0339           0.686885496666412 -54.6905152753892 0.726670596811746 14.8748434954809 0.726670596811746 14.8748434954809 0.686907713366447 -95.5459230428668 
! Port Impedance50               0                50               0                

0.034            0.686382118760152 -54.7867183053695 0.727145848751619 14.7594305181777 0.727145848751619 14.7594305181777 0.686404509488935 -95.6805210941967 
! Port Impedance50               0                50               0                

0.0341           0.685881905938197 -54.8828198157151 0.727617458646999 14.6443386020171 0.727617458646999 14.6443386020171 0.685904471356712 -95.8145786155714 
! Port Impedance50               0                50               0                

0.0342           0.685384842344547 -54.9788211238074 0.728085455021456 14.5295658265108 0.728085455021456 14.5295658265108 0.685407583112593 -95.948098130571 
! Port Impedance50               0                50               0                

0.0343           0.684890912177563 -55.0747235331913 0.728549866135887 14.4151102842303 0.728549866135887 14.4151102842303 0.684913828953751 -96.081082150492 
! Port Impedance50               0                50               0                

0.0344           0.684400099690649 -55.1705283336936 0.729010719990985 14.3009700807248 0.729010719990985 14.3009700807248 0.684423193132396 -96.2135331743938 
! Port Impedance50               0                50               0                

0.0345           0.6839123891929  -55.2662368015404 0.729468044329687 14.187143334439  0.729468044329687 14.187143334439  0.683935659956425 -96.3454536891453 
! Port Impedance50               0                50               0                

0.0346           0.683427765049733 -55.3618501994742 0.729921866639607 14.0736281766304 0.729921866639607 14.0736281766304 0.683451213790047 -96.4768461694723 
! Port Impedance50               0                50               0                

0.0347           0.682946211683484 -55.4573697768706 0.730372214155444 13.9604227512882 0.730372214155444 13.9604227512882 0.682969839054389 -96.6077130780047 
! Port Impedance50               0                50               0                

0.0348           0.68246771357399 -55.5527967698544 0.730819113861372 13.847525215051  0.730819113861372 13.847525215051  0.682491520228068 -96.738056865324 
! Port Impedance50               0                50               0                

0.0349           0.681992255259139 -55.6481324014143 0.731262592493413 13.7349337371252 0.731262592493413 13.7349337371252 0.682016241847752 -96.8678799700115 
! Port Impedance50               0                50               0                

0.035            0.681519821335402 -55.7433778815184 0.73170267654179 13.6226464992041 0.73170267654179 13.6226464992041 0.681543988508686 -96.9971848186957 
! Port Impedance50               0                50               0                

0.0351           0.681050396458346 -55.8385344072275 0.732139392253255 13.5106616953863 0.732139392253255 13.5106616953863 0.681074744865202 -97.1259738261011 
! Port Impedance50               0                50               0                

0.0352           0.680583965343115 -55.9336031628091 0.732572765633407 13.398977532095  0.732572765633407 13.3989775320949 0.680608495631208 -97.2542493950965 
! Port Impedance50               0                50               0                

0.0353           0.680120512764898 -56.0285853198501 0.733002822448982 13.2875922279971 0.733002822448982 13.2875922279971 0.680145225580648 -97.3820139167432 
! Port Impedance50               0                50               0                

0.0354           0.679660023559374 -56.1234820373688 0.733429588230129 13.1765040139233 0.733429588230129 13.1765040139233 0.679684919547956 -97.5092697703442 
! Port Impedance50               0                50               0                

0.0355           0.679202482623135 -56.2182944619266 0.733853088272667 13.0657111327871 0.733853088272667 13.0657111327871 0.679227562428467 -97.6360193234928 
! Port Impedance50               0                50               0                

0.0356           0.678747874914088 -56.3130237277388 0.734273347640317 12.9552118395053 0.734273347640317 12.9552118395053 0.678773139178834 -97.7622649321217 
! Port Impedance50               0                50               0                

0.0357           0.678296185451843 -56.407670956785 0.734690391166921 12.8450044009183 0.734690391166921 12.8450044009183 0.678321634817402 -97.8880089405523 
! Port Impedance50               0                50               0                

0.0358           0.677847399318075 -56.5022372589185 0.735104243458642 12.7350870957108 0.735104243458642 12.7350870957108 0.677873034424581 -98.0132536815439 
! Port Impedance50               0                50               0                

0.0359           0.677401501656874 -56.5967237319749 0.735514928896138 12.6254582143323 0.735514928896138 12.6254582143323 0.677427323143187 -98.1380014763426 
! Port Impedance50               0                50               0                

0.036            0.676958477675069 -56.6911314618811 0.735922471636727 12.5161160589185 0.735922471636727 12.5161160589185 0.676984486178773 -98.2622546347318 
! Port Impedance50               0                50               0                

0.0361           0.676518312642543 -56.7854615227622 0.736326895616525 12.4070589432128 0.736326895616525 12.4070589432127 0.676544508799943 -98.3860154550808 
! Port Impedance50               0                50               0                

0.0362           0.676080991892525 -56.8797149770484 0.736728224552569 12.2982851924878 0.736728224552568 12.2982851924878 0.676107376338637 -98.5092862243947 
! Port Impedance50               0                50               0                

0.0363           0.675646500821864 -56.9738928755817 0.73712648194492 12.1897931434677 0.73712648194492 12.1897931434677 0.675673074190418 -98.6320692183645 
! Port Impedance50               0                50               0                

0.0364           0.675214824891295 -57.0679962577209 0.737521691078751 12.0815811442504 0.737521691078751 12.0815811442504 0.675241587814723 -98.7543667014164 
! Port Impedance50               0                50               0                

0.0365           0.674785949625674 -57.1620261514465 0.737913875026411 11.9736475542302 0.737913875026411 11.9736475542302 0.674812902735114 -98.8761809267619 
! Port Impedance50               0                50               0                

0.0366           0.674359860614216 -57.2559835734651 0.738303056649473 11.8659907440209 0.738303056649473 11.8659907440209 0.6743870045395  -98.9975141364473 
! Port Impedance50               0                50               0                

0.0367           0.6739365435107  -57.3498695293125 0.738689258600765 11.7586090953793 0.738689258600765 11.7586090953793 0.673963878880356 -99.1183685614042 
! Port Impedance50               0                50               0                

0.0368           0.673515984033671 -57.4436850134569 0.73907250332638 11.6515010011284 0.739072503326379 11.6515010011284 0.673543511474915 -99.2387464214986 
! Port Impedance50               0                50               0                

0.0369           0.673098167966623 -57.5374310094002 0.739452813067671 11.5446648650819 0.739452813067671 11.5446648650819 0.673125888105356 -99.3586499255817 
! Port Impedance50               0                50               0                

0.037            0.672683081158165 -57.6311084897803 0.739830209863226 11.4380991019682 0.739830209863226 11.4380991019682 0.672710994618971 -99.4780812715391 
! Port Impedance50               0                50               0                

0.0371           0.672270709522181 -57.7247184164709 0.740204715550826 11.3318021373554 0.740204715550826 11.3318021373554 0.67229881692832 -99.5970426463413 
! Port Impedance50               0                50               0                

0.0372           0.671861039037967 -57.818261740682 0.740576351769383 11.2257724075761 0.740576351769382 11.2257724075761 0.671889341011375 -99.7155362260933 
! Port Impedance50               0                50               0                

0.0373           0.671454055750362 -57.9117394030589 0.740945139960861 11.120008359653  0.740945139960861 11.120008359653  0.671482552911646 -99.8335641760847 
! Port Impedance50               0                50               0                

0.0374           0.671049745769865 -58.0051523337808 0.741311101372184 11.0145084512245 0.741311101372184 11.0145084512245 0.671078438738294 -99.9511286508395 
! Port Impedance50               0                50               0                

0.0375           0.670648095272733 -58.0985014526588 0.741674257057119 10.909271150471  0.741674257057119 10.909271150471  0.670676984666244 -100.068231794166 
! Port Impedance50               0                50               0                

0.0376           0.670249090501077 -58.1917876692327 0.742034627878147 10.8042949360413 0.742034627878146 10.8042949360413 0.670278176936265 -100.184875739208 
! Port Impedance50               0                50               0                

0.0377           0.669852717762939 -58.2850118828677 0.742392234508313 10.6995782969793 0.742392234508313 10.6995782969793 0.669882001855053 -100.30106260849 
! Port Impedance50               0                50               0                

0.0378           0.669458963432358 -58.3781749828502 0.742747097433063 10.5951197326517 0.742747097433063 10.5951197326517 0.669488445795302 -100.416794513974 
! Port Impedance50               0                50               0                

