! Touchstone file exported from Circuit Design 2018.2.0
!        File:           C:/Users/JH218595/Documents/scikit-rf/doc/source/examples/circuit/examples_circuits.aedt
!        Generated:      9:41:29  avr. 28, 2019
!        Design:         bandpass filter 450 to 550 MHz
!        Project:        examples_circuits
!        Setup:          LinearFrequency
!        Solution:       LinearFrequency
!
! Variables:
!        C1 = 25.406pF
!        C2 = 2.419pF
!        C3 = 25.406pF
!        L1 = 4.154nH
!        L2 = 43.636nH
!        L3 = 4.154nH
!
# GHZ S MA R 50.000000
! Modal data exported
! Port[1] = Port1
! Port[2] = Port2
0                1                -180             0                -180             0                -180             1                -180             
! Port Impedance50               0                50               0                

0.001            1                179.940182132477 4.14165676198742E-10 -90.0598178675226 4.14165676198742E-10 -90.0598178675226 1                179.940182132477 
! Port Impedance50               0                50               0                

0.002            1                179.880362659788 3.31345484108986E-09 -90.1196373402115 3.31345484108986E-09 -90.1196373402115 1                179.880362659788 
! Port Impedance50               0                50               0                

0.003            1                179.820539976613 1.11836381924394E-08 -90.1794600233868 1.11836381924394E-08 -90.1794600233868 1                179.820539976613 
! Port Impedance50               0                50               0                

0.004            1                179.760712477324 2.65117810868688E-08 -90.2392875226757 2.65117810868688E-08 -90.2392875226757 1                179.760712477324 
! Port Impedance50               0                50               0                

0.005            0.999999999999999 179.700878555833 5.17868914711826E-08 -90.2991214441667 5.17868914711826E-08 -90.2991214441667 0.999999999999999 179.700878555833 
! Port Impedance50               0                50               0                

0.006            0.999999999999996 179.641036605437 8.9500568536342E-08 -90.358963394563 8.9500568536342E-08 -90.358963394563 0.999999999999996 179.641036605437 
! Port Impedance50               0                50               0                

0.007            0.99999999999999 179.581185018663 1.42147652335574E-07 -90.4188149813369 1.42147652335574E-07 -90.4188149813369 0.99999999999999 179.581185018663 
! Port Impedance50               0                50               0                

0.008            0.999999999999978 179.521322187116 2.1222687460863E-07 -90.4786778128838 2.1222687460863E-07 -90.4786778128838 0.999999999999978 179.521322187116 
! Port Impedance50               0                50               0                

0.009            0.999999999999954 179.461446501324 3.02241511054859E-07 -90.5385534986764 3.02241511054859E-07 -90.5385534986764 0.999999999999954 179.461446501324 
! Port Impedance50               0                50               0                

0.01             0.999999999999914 179.401556350581 4.1470003529855E-07 -90.5984436494192 4.1470003529855E-07 -90.5984436494192 0.999999999999914 179.401556350581 
! Port Impedance50               0                50               0                

0.011            0.999999999999848 179.341650122796 5.52116774790911E-07 -90.6583498772038 5.52116774790911E-07 -90.6583498772038 0.999999999999848 179.341650122796 
! Port Impedance50               0                50               0                

0.012            0.999999999999743 179.281726204336 7.17012568894111E-07 -90.7182737956636 7.17012568894111E-07 -90.7182737956636 0.999999999999743 179.281726204336 
! Port Impedance50               0                50               0                

0.013            0.999999999999584 179.221782979871 9.11915429393985E-07 -90.7782170201294 9.11915429393985E-07 -90.7782170201294 0.999999999999584 179.221782979871 
! Port Impedance50               0                50               0                

0.014            0.999999999999351 179.161818832215 1.13936120368933E-06 -90.8381811677852 1.13936120368933E-06 -90.8381811677852 0.999999999999351 179.161818832215 
! Port Impedance50               0                50               0                

0.015            0.999999999999017 179.101832142175 1.40189424090719E-06 -90.8981678578245 1.40189424090719E-06 -90.8981678578245 0.999999999999017 179.101832142175 
! Port Impedance50               0                50               0                

0.016            0.999999999998551 179.041821288393 1.70206806119505E-06 -90.958178711607 1.70206806119505E-06 -90.958178711607 0.999999999998551 179.041821288393 
! Port Impedance50               0                50               0                

0.017            0.999999999997914 178.981784647185 2.04244602844276E-06 -91.0182153528154 2.04244602844276E-06 -91.0182153528154 0.999999999997914 178.981784647185 
! Port Impedance50               0                50               0                

0.018            0.999999999997058 178.921720592387 2.42560202668862E-06 -91.0782794076134 2.42560202668862E-06 -91.0782794076134 0.999999999997058 178.921720592387 
! Port Impedance50               0                50               0                

0.019            0.999999999995927 178.861627495196 2.85412114046628E-06 -91.1383725048037 2.85412114046628E-06 -91.1383725048037 0.999999999995927 178.861627495196 
! Port Impedance50               0                50               0                

0.02             0.999999999994454 178.801503724013 3.33060033935131E-06 -91.1984962759867 3.33060033935131E-06 -91.1984962759867 0.999999999994454 178.801503724013 
! Port Impedance50               0                50               0                

0.021            0.999999999992559 178.74134764428  3.85764916696821E-06 -91.25865235572  3.85764916696821E-06 -91.25865235572  0.999999999992559 178.74134764428  
! Port Impedance50               0                50               0                

0.022            0.999999999990153 178.681157618322 4.4378904347216E-06 -91.318842381678 4.4378904347216E-06 -91.318842381678 0.999999999990153 178.681157618322 
! Port Impedance50               0                50               0                

0.023            0.999999999987127 178.620932005187 5.07396092051761E-06 -91.3790679948128 5.0739609205176E-06 -91.3790679948128 0.999999999987127 178.620932005187 
! Port Impedance50               0                50               0                

0.024            0.999999999983362 178.560669160484 5.76851207274406E-06 -91.4393308395158 5.76851207274406E-06 -91.4393308395158 0.999999999983362 178.560669160484 
! Port Impedance50               0                50               0                

0.025            0.999999999978717 178.500367436221 6.52421071978155E-06 -91.4996325637792 6.52421071978155E-06 -91.4996325637792 0.999999999978717 178.500367436221 
! Port Impedance50               0                50               0                

0.026            0.999999999973035 178.440025180641 7.3437397853198E-06 -91.5599748193594 7.3437397853198E-06 -91.5599748193594 0.999999999973035 178.440025180641 
! Port Impedance50               0                50               0                

0.027            0.999999999966135 178.37964073806  8.22979900975749E-06 -91.6203592619402 8.22979900975749E-06 -91.6203592619402 0.999999999966135 178.37964073806  
! Port Impedance50               0                50               0                

0.028            0.999999999957817 178.319212448702 9.18510567796675E-06 -91.6807875512978 9.18510567796675E-06 -91.6807875512978 0.999999999957817 178.319212448702 
! Port Impedance50               0                50               0                

0.029            0.999999999947853 178.258738648534 1.02123953537073E-05 -91.7412613514663 1.02123953537073E-05 -91.7412613514663 0.999999999947853 178.258738648534 
! Port Impedance50               0                50               0                

0.03             0.999999999935992 178.198217669096 1.13144226209784E-05 -91.8017823309035 1.13144226209785E-05 -91.8017823309035 0.999999999935992 178.198217669096 
! Port Impedance50               0                50               0                

0.031            0.99999999992195 178.137647837341 1.24939618326021E-05 -91.8623521626588 1.24939618326021E-05 -91.8623521626588 0.99999999992195 178.137647837341 
! Port Impedance50               0                50               0                

0.032            0.999999999905416 178.077027475459 1.37538078663318E-05 -91.922972524541 1.37538078663318E-05 -91.922972524541 0.999999999905416 178.077027475459 
! Port Impedance50               0                50               0                

0.033            0.999999999886044 178.016354900712 1.50967768887904E-05 -91.9836450992884 1.50967768887904E-05 -91.9836450992884 0.999999999886044 178.016354900712 
! Port Impedance50               0                50               0                

0.034            0.99999999986345 177.955628425261 1.65257071275391E-05 -92.0443715747387 1.65257071275391E-05 -92.0443715747387 0.99999999986345 177.955628425261 
! Port Impedance50               0                50               0                

0.035            0.999999999837217 177.894846355999 1.80434596515893E-05 -92.1051536440008 1.80434596515893E-05 -92.1051536440008 0.999999999837217 177.894846355999 
! Port Impedance50               0                50               0                

0.036            0.999999999806881 177.834006994373 1.96529191606707E-05 -92.1659930056272 1.96529191606707E-05 -92.1659930056272 0.999999999806881 177.834006994373 
! Port Impedance50               0                50               0                

0.037            0.999999999771939 177.773108636211 2.13569947835744E-05 -92.2268913637889 2.13569947835745E-05 -92.2268913637889 0.999999999771939 177.773108636211 
! Port Impedance50               0                50               0                

0.038            0.999999999731839 177.712149571551 2.31586208858968E-05 -92.2878504284494 2.31586208858968E-05 -92.2878504284494 0.999999999731839 177.712149571551 
! Port Impedance50               0                50               0                

0.039            0.999999999685979 177.651128084458 2.50607578875117E-05 -92.348871915542 2.50607578875117E-05 -92.348871915542 0.999999999685979 177.651128084458 
! Port Impedance50               0                50               0                

0.04             0.999999999633705 177.590042452853 2.70663930901089E-05 -92.4099575471473 2.70663930901089E-05 -92.4099575471473 0.999999999633705 177.590042452853 
! Port Impedance50               0                50               0                

0.041            0.999999999574306 177.528890948328 2.91785415151364E-05 -92.4711090516725 2.91785415151364E-05 -92.4711090516725 0.999999999574306 177.528890948328 
! Port Impedance50               0                50               0                

0.042            0.999999999507012 177.467671835968 3.14002467524963E-05 -92.5323281640318 3.14002467524963E-05 -92.5323281640318 0.999999999507012 177.467671835968 
! Port Impedance50               0                50               0                

0.043            0.999999999430989 177.406383374171 3.37345818203455E-05 -92.5936166258286 3.37345818203455E-05 -92.5936166258286 0.999999999430989 177.406383374171 
! Port Impedance50               0                50               0                

0.044            0.999999999345336 177.345023814461 3.61846500363609E-05 -92.6549761855392 3.61846500363609E-05 -92.6549761855392 0.999999999345336 177.345023814461 
! Port Impedance50               0                50               0                

0.045            0.99999999924908 177.283591401303 3.87535859008355E-05 -92.7164085986973 3.87535859008355E-05 -92.7164085986973 0.99999999924908 177.283591401303 
! Port Impedance50               0                50               0                

0.046            0.999999999141174 177.222084371918 4.14445559919769E-05 -92.7779156280816 4.14445559919769E-05 -92.7779156280816 0.999999999141174 177.222084371918 
! Port Impedance50               0                50               0                

0.047            0.999999999020493 177.160500956097 4.42607598737895E-05 -92.8394990439032 4.42607598737895E-05 -92.8394990439032 0.999999999020493 177.160500956097 
! Port Impedance50               0                50               0                

0.048            0.999999998885824 177.098839376004 4.72054310169261E-05 -92.9011606239961 4.72054310169261E-05 -92.9011606239961 0.999999998885824 177.098839376004 
! Port Impedance50               0                50               0                

0.049            0.999999998735868 177.037097845991 5.02818377329041E-05 -92.9629021540089 5.02818377329041E-05 -92.9629021540089 0.999999998735868 177.037097845991 
! Port Impedance50               0                50               0                

0.05             0.999999998569234 176.975274572402 5.34932841220887E-05 -93.0247254275981 5.34932841220887E-05 -93.0247254275981 0.999999998569234 176.975274572402 
! Port Impedance50               0                50               0                

0.051            0.99999999838443 176.913367753376 5.68431110358526E-05 -93.0866322466235 5.68431110358526E-05 -93.0866322466235 0.99999999838443 176.913367753376 
! Port Impedance50               0                50               0                

0.052            0.999999998179862 176.851375578654 6.03346970533322E-05 -93.1486244213458 6.03346970533322E-05 -93.1486244213458 0.999999998179862 176.851375578654 
! Port Impedance50               0                50               0                

0.053            0.999999997953826 176.789296229375 6.39714594732071E-05 -93.210703770625 6.3971459473207E-05 -93.210703770625 0.999999997953826 176.789296229375 
! Port Impedance50               0                50               0                

0.054            0.999999997704504 176.727127877878 6.77568553209375E-05 -93.2728721221221 6.77568553209375E-05 -93.2728721221221 0.999999997704504 176.727127877878 
! Port Impedance50               0                50               0                

0.055            0.999999997429958 176.664868687498 7.1694382371908E-05 -93.335131312502 7.1694382371908E-05 -93.335131312502 0.999999997429958 176.664868687498 
! Port Impedance50               0                50               0                

0.056            0.999999997128121 176.602516812361 7.5787580190929E-05 -93.3974831876389 7.5787580190929E-05 -93.3974831876389 0.999999997128121 176.602516812361 
! Port Impedance50               0                50               0                

0.057            0.999999996796797 176.540070397177 8.00400311885624E-05 -93.4599296028234 8.00400311885624E-05 -93.4599296028234 0.999999996796797 176.540070397177 
! Port Impedance50               0                50               0                

0.058            0.999999996433646 176.477527577028 8.4455361694746E-05 -93.5224724229723 8.44553616947459E-05 -93.5224724229723 0.999999996433646 176.477527577028 
! Port Impedance50               0                50               0                

0.059            0.999999996036185 176.41488647716  8.90372430501993E-05 -93.5851135228402 8.90372430501993E-05 -93.5851135228402 0.999999996036185 176.41488647716  
! Port Impedance50               0                50               0                

0.06             0.999999995601775 176.352145212766 9.37893927161102E-05 -93.6478547872337 9.37893927161102E-05 -93.6478547872337 0.999999995601775 176.352145212766 
! Port Impedance50               0                50               0                

0.061            0.999999995127618 176.289301888772 9.8715575402605E-05 -93.7106981112281 9.8715575402605E-05 -93.7106981112281 0.999999995127618 176.289301888772 
! Port Impedance50               0                50               0                

0.062            0.999999994610745 176.226354599614 0.000103819604216523 -93.7736454003859 0.000103819604216523 -93.7736454003859 0.999999994610745 176.226354599614 
! Port Impedance50               0                50               0                

0.063            0.999999994048012 176.163301429022 0.000109105341829022 -93.8366985709784 0.000109105341829022 -93.8366985709784 0.999999994048012 176.163301429022 
! Port Impedance50               0                50               0                

0.064            0.99999999343609 176.100140449791 0.000114576701663562 -93.8998595502094 0.000114576701663562 -93.8998595502094 0.99999999343609 176.100140449791 
! Port Impedance50               0                50               0                

0.065            0.999999992771454 176.036869723558 0.000120237649104817 -93.9631302764421 0.000120237649104817 -93.9631302764421 0.999999992771454 176.036869723558 
! Port Impedance50               0                50               0                

0.066            0.999999992050378 175.973487300572 0.00012609220272908 -94.0265126994281 0.00012609220272908 -94.0265126994281 0.999999992050378 175.973487300572 
! Port Impedance50               0                50               0                

0.067            0.999999991268924 175.909991219461 0.000132144435556749 -94.0900087805389 0.000132144435556749 -94.0900087805389 0.999999991268924 175.909991219461 
! Port Impedance50               0                50               0                

0.068            0.999999990422931 175.846379506999 0.000138398476327482 -94.1536204930015 0.000138398476327482 -94.1536204930015 0.999999990422931 175.846379506999 
! Port Impedance50               0                50               0                

0.069            0.999999989508006 175.782650177865 0.000144858510798635 -94.2173498221349 0.000144858510798635 -94.2173498221349 0.999999989508006 175.782650177865 
! Port Impedance50               0                50               0                

0.07             0.999999988519514 175.718801234408 0.000151528783067595 -94.2811987655918 0.000151528783067595 -94.2811987655918 0.999999988519514 175.718801234408 
! Port Impedance50               0                50               0                

0.071            0.999999987452566 175.654830666399 0.000158413596918661 -94.3451693336008 0.000158413596918661 -94.3451693336008 0.999999987452566 175.654830666399 
! Port Impedance50               0                50               0                

0.072            0.999999986302009 175.590736450786 0.000165517317195117 -94.4092635492142 0.000165517317195117 -94.4092635492142 0.999999986302009 175.590736450786 
! Port Impedance50               0                50               0                

0.073            0.999999985062412 175.526516551443 0.000172844371197158 -94.4734834485568 0.000172844371197158 -94.4734834485568 0.999999985062412 175.526516551443 
! Port Impedance50               0                50               0                

0.074            0.999999983728055 175.462168918921 0.000180399250106383 -94.5378310810794 0.000180399250106383 -94.5378310810794 0.999999983728055 175.462168918921 
! Port Impedance50               0                50               0                

0.075            0.999999982292919 175.397691490185 0.000188186510437519 -94.6023085098147 0.000188186510437519 -94.6023085098147 0.999999982292919 175.397691490185 
! Port Impedance50               0                50               0                

0.076            0.999999980750666 175.333082188363 0.000196210775518134 -94.6669178116372 0.000196210775518134 -94.6669178116372 0.999999980750666 175.333082188363 
! Port Impedance50               0                50               0                

