! Touchstone file exported from Circuit Design 2018.2.0
!        File:           C:/Users/JH218595/Documents/scikit-rf/doc/source/examples/circuit/examples_circuits.aedt
!        Generated:      9:45:07  avr. 28, 2019
!        Design:         capacitor_eqmodel_simple
!        Project:        examples_circuits
!        Setup:          LinearFrequency
!        Solution:       LinearFrequency
!
! Variables:
!        C = 70pF
!
# GHZ S MA R 50.000000
! Modal data exported
! Port[1] = Port1
! Port[2] = Port2
0.03             0.580351351895578 -54.5247413454334 0.814366200399412 35.4752586545666 0.814366200399412 35.4752586545666 0.580351351895578 -54.5247413454334 
! Port Impedance50               0                50               0                

0.0301           0.578907322418318 -54.6262738358757 0.815393348053842 35.3737261641243 0.815393348053842 35.3737261641243 0.578907322418318 -54.6262738358757 
! Port Impedance50               0                50               0                

0.0302           0.577466899339442 -54.7274256499253 0.81641409846186 35.2725743500747 0.81641409846186 35.2725743500747 0.577466899339442 -54.7274256499253 
! Port Impedance50               0                50               0                

0.0303           0.576030080873097 -54.8281986535298 0.817428495912232 35.1718013464702 0.817428495912231 35.1718013464702 0.576030080873097 -54.8281986535298 
! Port Impedance50               0                50               0                

0.0304           0.574596865037493 -54.9285947051221 0.8184365844029  35.0714052948779 0.8184365844029  35.0714052948779 0.574596865037493 -54.9285947051221 
! Port Impedance50               0                50               0                

0.0305           0.573167249658729 -55.0286156555932 0.819438407641873 34.9713843444069 0.819438407641873 34.9713843444069 0.573167249658729 -55.0286156555931 
! Port Impedance50               0                50               0                

0.0306           0.571741232374579 -55.1282633482652 0.820434009048137 34.8717366517348 0.820434009048137 34.8717366517348 0.571741232374579 -55.1282633482652 
! Port Impedance50               0                50               0                

0.0307           0.570318810638211 -55.2275396188674 0.821423431752599 34.7724603811326 0.821423431752599 34.7724603811326 0.570318810638211 -55.2275396188674 
! Port Impedance50               0                50               0                

0.0308           0.568899981721868 -55.3264462955127 0.822406718599051 34.6735537044873 0.822406718599051 34.6735537044873 0.568899981721868 -55.3264462955127 
! Port Impedance50               0                50               0                

0.0309           0.567484742720484 -55.424985198676 0.823383912145159 34.575014801324  0.823383912145159 34.575014801324  0.567484742720483 -55.424985198676 
! Port Impedance50               0                50               0                

0.031            0.566073090555251 -55.5231581411739 0.824355054663478 34.4768418588261 0.824355054663478 34.4768418588261 0.566073090555251 -55.5231581411739 
! Port Impedance50               0                50               0                

0.0311           0.564665021977146 -55.6209669281462 0.825320188142486 34.3790330718538 0.825320188142487 34.3790330718538 0.564665021977146 -55.6209669281462 
! Port Impedance50               0                50               0                

0.0312           0.563260533570388 -55.7184133570383 0.826279354287642 34.2815866429617 0.826279354287642 34.2815866429617 0.563260533570388 -55.7184133570383 
! Port Impedance50               0                50               0                

0.0313           0.561859621755863 -55.8154992175848 0.827232594522459 34.1845007824152 0.827232594522459 34.1845007824152 0.561859621755863 -55.8154992175848 
! Port Impedance50               0                50               0                

0.0314           0.560462282794489 -55.9122262917953 0.828179949989609 34.0877737082047 0.828179949989609 34.0877737082047 0.560462282794489 -55.9122262917953 
! Port Impedance50               0                50               0                

0.0315           0.559068512790532 -56.0085963539408 0.829121461552035 33.9914036460591 0.829121461552035 33.9914036460591 0.559068512790532 -56.0085963539409 
! Port Impedance50               0                50               0                

0.0316           0.55767830769488 -56.1046111705415 0.83005716979409 33.8953888294586 0.83005716979409 33.8953888294586 0.55767830769488 -56.1046111705415 
! Port Impedance50               0                50               0                

0.0317           0.556291663308265 -56.2002725003554 0.830987115022684 33.7997274996446 0.830987115022684 33.7997274996446 0.556291663308265 -56.2002725003554 
! Port Impedance50               0                50               0                

0.0318           0.554908575284432 -56.2955820943695 0.831911337268462 33.7044179056305 0.831911337268462 33.7044179056305 0.554908575284432 -56.2955820943696 
! Port Impedance50               0                50               0                

0.0319           0.553529039133273 -56.3905416957907 0.832829876286985 33.6094583042093 0.832829876286985 33.6094583042093 0.553529039133273 -56.3905416957907 
! Port Impedance50               0                50               0                

0.032            0.552153050223902 -56.4851530400383 0.833742771559934 33.5148469599617 0.833742771559934 33.5148469599617 0.552153050223902 -56.4851530400383 
! Port Impedance50               0                50               0                

0.0321           0.550780603787695 -56.5794178547382 0.834650062296327 33.4205821452618 0.834650062296327 33.4205821452618 0.550780603787694 -56.5794178547382 
! Port Impedance50               0                50               0                

0.0322           0.549411694921273 -56.6733378597174 0.83555178743375 33.3266621402826 0.83555178743375 33.3266621402826 0.549411694921273 -56.6733378597174 
! Port Impedance50               0                50               0                

0.0323           0.548046318589454 -56.7669147670002 0.836447985639601 33.2330852329998 0.836447985639601 33.2330852329998 0.548046318589454 -56.7669147670002 
! Port Impedance50               0                50               0                

0.0324           0.546684469628145 -56.8601502808049 0.837338695312353 33.1398497191951 0.837338695312353 33.1398497191951 0.546684469628146 -56.8601502808049 
! Port Impedance50               0                50               0                

0.0325           0.545326142747205 -56.9530460975423 0.838223954582816 33.0469539024577 0.838223954582816 33.0469539024577 0.545326142747205 -56.9530460975423 
! Port Impedance50               0                50               0                

0.0326           0.543971332533249 -57.0456039058141 0.839103801315428 32.9543960941858 0.839103801315428 32.9543960941858 0.543971332533249 -57.0456039058142 
! Port Impedance50               0                50               0                

0.0327           0.542620033452427 -57.1378253864138 0.839978273109541 32.8621746135863 0.839978273109542 32.8621746135863 0.542620033452427 -57.1378253864138 
! Port Impedance50               0                50               0                

0.0328           0.541272239853142 -57.2297122123264 0.840847407300732 32.7702877876736 0.840847407300732 32.7702877876736 0.541272239853142 -57.2297122123264 
! Port Impedance50               0                50               0                

0.0329           0.539927945968741 -57.3212660487318 0.841711240962111 32.6787339512682 0.841711240962111 32.6787339512682 0.539927945968741 -57.3212660487318 
! Port Impedance50               0                50               0                

0.033            0.538587145920156 -57.4124885530065 0.842569810905648 32.5875114469935 0.842569810905649 32.5875114469935 0.538587145920156 -57.4124885530065 
! Port Impedance50               0                50               0                

0.0331           0.537249833718507 -57.5033813747277 0.843423153683509 32.4966186252723 0.843423153683509 32.4966186252723 0.537249833718507 -57.5033813747277 
! Port Impedance50               0                50               0                

0.0332           0.535916003267665 -57.5939461556781 0.844271305589389 32.4060538443219 0.844271305589389 32.4060538443219 0.535916003267665 -57.5939461556782 
! Port Impedance50               0                50               0                

0.0333           0.534585648366771 -57.6841845298511 0.845114302659871 32.3158154701489 0.845114302659871 32.3158154701489 0.534585648366771 -57.6841845298511 
! Port Impedance50               0                50               0                

0.0334           0.533258762712722 -57.7740981234568 0.845952180675774 32.2259018765432 0.845952180675774 32.2259018765432 0.533258762712722 -57.7740981234568 
! Port Impedance50               0                50               0                

0.0335           0.531935339902613 -57.8636885549297 0.846784975163525 32.1363114450703 0.846784975163525 32.1363114450703 0.531935339902613 -57.8636885549297 
! Port Impedance50               0                50               0                

0.0336           0.530615373436143 -57.9529574349361 0.847612721396525 32.0470425650639 0.847612721396525 32.0470425650639 0.530615373436143 -57.9529574349361 
! Port Impedance50               0                50               0                

0.0337           0.529298856717981 -58.0419063663828 0.848435454396526 31.9580936336172 0.848435454396526 31.9580936336172 0.52929885671798 -58.0419063663828 
! Port Impedance50               0                50               0                

0.0338           0.527985783060094 -58.1305369444264 0.849253208935014 31.8694630555736 0.849253208935014 31.8694630555736 0.527985783060094 -58.1305369444264 
! Port Impedance50               0                50               0                

0.0339           0.526676145684045 -58.2188507564836 0.8500660195346  31.7811492435164 0.8500660195346  31.7811492435164 0.526676145684045 -58.2188507564836 
! Port Impedance50               0                50               0                

0.034            0.52536993772324 -58.3068493822419 0.850873920470406 31.6931506177582 0.850873920470406 31.6931506177582 0.52536993772324 -58.3068493822419 
! Port Impedance50               0                50               0                

0.0341           0.524067152225157 -58.3945343936708 0.851676945771467 31.6054656063292 0.851676945771467 31.6054656063292 0.524067152225156 -58.3945343936708 
! Port Impedance50               0                50               0                

0.0342           0.522767782153521 -58.4819073550344 0.852475129222131 31.5180926449655 0.852475129222131 31.5180926449655 0.52276778215352 -58.4819073550344 
! Port Impedance50               0                50               0                

0.0343           0.521471820390458 -58.5689698229041 0.853268504363463 31.4310301770959 0.853268504363463 31.4310301770959 0.521471820390458 -58.5689698229041 
! Port Impedance50               0                50               0                

0.0344           0.52017925973861 -58.6557233461717 0.854057104494654 31.3442766538282 0.854057104494654 31.3442766538282 0.52017925973861 -58.6557233461718 
! Port Impedance50               0                50               0                

0.0345           0.518890092923207 -58.742169466064 0.85484096267443 31.257830533936  0.85484096267443 31.257830533936  0.518890092923207 -58.7421694660639 
! Port Impedance50               0                50               0                

0.0346           0.517604312594122 -58.8283097161567 0.855620111722467 31.1716902838433 0.855620111722467 31.1716902838433 0.517604312594122 -58.8283097161567 
! Port Impedance50               0                50               0                

0.0347           0.516321911327874 -58.9141456223905 0.856394584220808 31.0858543776095 0.856394584220808 31.0858543776095 0.516321911327874 -58.9141456223905 
! Port Impedance50               0                50               0                

0.0348           0.515042881629615 -58.9996787030864 0.857164412515278 31.0003212969136 0.857164412515278 31.0003212969136 0.515042881629615 -58.9996787030864 
! Port Impedance50               0                50               0                

0.0349           0.513767215935072 -59.0849104689622 0.857929628716904 30.9150895310378 0.857929628716904 30.9150895310378 0.513767215935072 -59.0849104689622 
! Port Impedance50               0                50               0                

0.035            0.51249490661246 -59.1698424231494 0.858690264703336 30.8301575768507 0.858690264703336 30.8301575768507 0.51249490661246 -59.1698424231494 
! Port Impedance50               0                50               0                

0.0351           0.51122594596437 -59.2544760612103 0.859446352120268 30.7455239387897 0.859446352120268 30.7455239387897 0.51122594596437 -59.2544760612103 
! Port Impedance50               0                50               0                

0.0352           0.509960326229615 -59.3388128711567 0.860197922382857 30.6611871288433 0.860197922382858 30.6611871288433 0.509960326229615 -59.3388128711567 
! Port Impedance50               0                50               0                

0.0353           0.508698039585053 -59.4228543334675 0.860945006677153 30.5771456665325 0.860945006677153 30.5771456665325 0.508698039585053 -59.4228543334675 
! Port Impedance50               0                50               0                

0.0354           0.507439078147378 -59.5066019211081 0.861687635961512 30.4933980788919 0.861687635961512 30.4933980788919 0.507439078147378 -59.5066019211081 
! Port Impedance50               0                50               0                

0.0355           0.506183433974875 -59.5900570995494 0.862425840968024 30.4099429004506 0.862425840968024 30.4099429004506 0.506183433974875 -59.5900570995494 
! Port Impedance50               0                50               0                

0.0356           0.504931099069159 -59.6732213267879 0.863159652203931 30.3267786732121 0.863159652203931 30.3267786732121 0.504931099069158 -59.673221326788 
! Port Impedance50               0                50               0                

0.0357           0.503682065376865 -59.7560960533659 0.863889099953052 30.2439039466341 0.863889099953053 30.2439039466341 0.503682065376866 -59.7560960533659 
! Port Impedance50               0                50               0                

0.0358           0.502436324791332 -59.8386827223919 0.864614214277199 30.1613172776081 0.864614214277199 30.1613172776081 0.502436324791332 -59.8386827223919 
! Port Impedance50               0                50               0                

0.0359           0.501193869154237 -59.920982769562 0.865335025017597 30.079017230438  0.865335025017597 30.079017230438  0.501193869154237 -59.920982769562 
! Port Impedance50               0                50               0                

0.036            0.499954690257217 -60.002997623181 0.866051561796299 29.997002376819  0.8660515617963  29.997002376819  0.499954690257218 -60.002997623181 
! Port Impedance50               0                50               0                

0.0361           0.498718779843455 -60.0847287041848 0.866763854017607 29.9152712958152 0.866763854017607 29.9152712958152 0.498718779843455 -60.0847287041848 
! Port Impedance50               0                50               0                

0.0362           0.497486129609238 -60.166177426162 0.867471930869478 29.833822573838  0.867471930869478 29.833822573838  0.497486129609238 -60.1661774261619 
! Port Impedance50               0                50               0                

0.0363           0.496256731205499 -60.2473451953767 0.868175821324939 29.7526548046233 0.86817582132494 29.7526548046233 0.496256731205499 -60.2473451953767 
! Port Impedance50               0                50               0                

0.0364           0.495030576239316 -60.3282334107917 0.868875554143498 29.6717665892083 0.868875554143498 29.6717665892083 0.495030576239315 -60.3282334107917 
! Port Impedance50               0                50               0                

0.0365           0.493807656275397 -60.4088434640914 0.869571157872545 29.5911565359087 0.869571157872545 29.5911565359087 0.493807656275397 -60.4088434640913 
! Port Impedance50               0                50               0                

0.0366           0.492587962837538 -60.4891767397052 0.87026266084876 29.5108232602947 0.87026266084876 29.5108232602948 0.492587962837538 -60.4891767397053 
! Port Impedance50               0                50               0                

0.0367           0.49137148741005 -60.5692346148324 0.87095009119951 29.4307653851676 0.870950091199511 29.4307653851676 0.49137148741005 -60.5692346148324 
! Port Impedance50               0                50               0                

0.0368           0.490158221439163 -60.6490184594649 0.87163347684425 29.3509815405351 0.87163347684425 29.3509815405351 0.490158221439163 -60.6490184594649 
! Port Impedance50               0                50               0                

0.0369           0.488948156334413 -60.7285296364129 0.872312845495914 29.2714703635872 0.872312845495914 29.2714703635872 0.488948156334413 -60.7285296364129 
! Port Impedance50               0                50               0                

0.037            0.48774128346999 -60.807769501329 0.872988224662307 29.192230498671  0.872988224662307 29.192230498671  0.48774128346999 -60.807769501329 
! Port Impedance50               0                50               0                

0.0371           0.486537594186077 -60.8867394027337 0.873659641647492 29.1132605972663 0.873659641647492 29.1132605972663 0.486537594186077 -60.8867394027337 
! Port Impedance50               0                50               0                

0.0372           0.485337079790155 -60.9654406820401 0.874327123553172 29.0345593179599 0.874327123553173 29.0345593179599 0.485337079790155 -60.9654406820401 
! Port Impedance50               0                50               0                

0.0373           0.48413973155829 -61.0438746735801 0.874990697280073 28.9561253264199 0.874990697280072 28.9561253264199 0.48413973155829 -61.0438746735801 
! Port Impedance50               0                50               0                

0.0374           0.482945540736394 -61.1220427046296 0.87565038952931 28.8779572953704 0.87565038952931 28.8779572953704 0.482945540736394 -61.1220427046296 
! Port Impedance50               0                50               0                

0.0375           0.481754498541466 -61.199946095435 0.87630622680377 28.800053904565  0.87630622680377 28.800053904565  0.481754498541466 -61.199946095435 
! Port Impedance50               0                50               0                

0.0376           0.480566596162812 -61.2775861592389 0.876958235409468 28.7224138407611 0.876958235409468 28.7224138407611 0.480566596162812 -61.277586159239 
! Port Impedance50               0                50               0                

0.0377           0.479381824763234 -61.3549642023072 0.877606441456916 28.6450357976928 0.877606441456917 28.6450357976928 0.479381824763234 -61.3549642023072 
! Port Impedance50               0                50               0                

0.0378           0.478200175480211 -61.4320815239551 0.878250870862475 28.5679184760449 0.878250870862475 28.5679184760449 0.478200175480211 -61.4320815239551 
! Port Impedance50               0                50               0                

