!Created with mwavepy.
# GHz S RI R 50.0 
!freq	ReS11	ImS11	
500.0	0.136095071533	0.990695781511	
! Port Impedance	50.00000000000000	0.00000000000000	
501.25	0.147166721989	0.989111700436	
! Port Impedance	50.00000000000000	0.00000000000000	
502.5	0.15817585974	0.987410956692	
! Port Impedance	50.00000000000000	0.00000000000000	
503.75	0.169122191638	0.985595091453	
! Port Impedance	50.00000000000000	0.00000000000000	
505.0	0.180005427449	0.983665617011	
! Port Impedance	50.00000000000000	0.00000000000000	
506.25	0.190825279857	0.981624017925	
! Port Impedance	50.00000000000000	0.00000000000000	
507.5	0.201581464479	0.979471752109	
! Port Impedance	50.00000000000000	0.00000000000000	
508.75	0.212273699873	0.977210251861	
! Port Impedance	50.00000000000000	0.00000000000000	
510.0	0.222901707548	0.974840924855	
! Port Impedance	50.00000000000000	0.00000000000000	
511.25	0.233465211975	0.972365155072	
! Port Impedance	50.00000000000000	0.00000000000000	
512.5	0.243963940594	0.969784303693	
! Port Impedance	50.00000000000000	0.00000000000000	
513.75	0.254397623828	0.967099709953	
! Port Impedance	50.00000000000000	0.00000000000000	
515.0	0.264765995085	0.964312691945	
! Port Impedance	50.00000000000000	0.00000000000000	
516.25	0.275068790778	0.961424547398	
! Port Impedance	50.00000000000000	0.00000000000000	
517.5	0.285305750323	0.958436554412	
! Port Impedance	50.00000000000000	0.00000000000000	
518.75	0.295476616156	0.955349972159	
! Port Impedance	50.00000000000000	0.00000000000000	
520.0	0.305581133738	0.952166041562	
! Port Impedance	50.00000000000000	0.00000000000000	
521.25	0.315619051563	0.948885985928	
! Port Impedance	50.00000000000000	0.00000000000000	
522.5	0.325590121173	0.945511011567	
! Port Impedance	50.00000000000000	0.00000000000000	
523.75	0.335494097156	0.942042308378	
! Port Impedance	50.00000000000000	0.00000000000000	
525.0	0.345330737164	0.938481050405	
! Port Impedance	50.00000000000000	0.00000000000000	
526.25	0.355099801915	0.934828396381	
! Port Impedance	50.00000000000000	0.00000000000000	
527.5	0.364801055205	0.931085490232	
! Port Impedance	50.00000000000000	0.00000000000000	
528.75	0.374434263913	0.927253461578	
! Port Impedance	50.00000000000000	0.00000000000000	
530.0	0.383999198009	0.923333426194	
! Port Impedance	50.00000000000000	0.00000000000000	
531.25	0.393495630565	0.91932648647	
! Port Impedance	50.00000000000000	0.00000000000000	
532.5	0.402923337758	0.915233731836	
! Port Impedance	50.00000000000000	0.00000000000000	
533.75	0.41228209888	0.911056239177	
! Port Impedance	50.00000000000000	0.00000000000000	
535.0	0.421571696343	0.906795073234	
! Port Impedance	50.00000000000000	0.00000000000000	
536.25	0.430791915691	0.902451286982	
! Port Impedance	50.00000000000000	0.00000000000000	
537.5	0.4399425456	0.898025921993	
! Port Impedance	50.00000000000000	0.00000000000000	
538.75	0.449023377889	0.89352000879	
! Port Impedance	50.00000000000000	0.00000000000000	
540.0	0.458034207529	0.888934567183	
! Port Impedance	50.00000000000000	0.00000000000000	
541.25	0.466974832642	0.88427060659	
! Port Impedance	50.00000000000000	0.00000000000000	
542.5	0.475845054514	0.879529126348	
! Port Impedance	50.00000000000000	0.00000000000000	
543.75	0.484644677598	0.874711116012	
! Port Impedance	50.00000000000000	0.00000000000000	
545.0	0.493373509523	0.869817555641	
! Port Impedance	50.00000000000000	0.00000000000000	
546.25	0.502031361095	0.86484941607	
! Port Impedance	50.00000000000000	0.00000000000000	
547.5	0.510618046309	0.859807659179	
! Port Impedance	50.00000000000000	0.00000000000000	
548.75	0.519133382348	0.854693238146	
! Port Impedance	50.00000000000000	0.00000000000000	
550.0	0.527577189594	0.849507097687	
! Port Impedance	50.00000000000000	0.00000000000000	
551.25	0.53594929163	0.844250174298	
! Port Impedance	50.00000000000000	0.00000000000000	
552.5	0.544249515247	0.838923396475	
! Port Impedance	50.00000000000000	0.00000000000000	
553.75	0.55247769045	0.833527684936	
! Port Impedance	50.00000000000000	0.00000000000000	
555.0	0.560633650458	0.828063952828	
! Port Impedance	50.00000000000000	0.00000000000000	
556.25	0.568717231715	0.82253310593	
! Port Impedance	50.00000000000000	0.00000000000000	
557.5	0.576728273891	0.816936042842	
! Port Impedance	50.00000000000000	0.00000000000000	
558.75	0.584666619886	0.811273655182	
! Port Impedance	50.00000000000000	0.00000000000000	
560.0	0.592532115837	0.805546827752	
! Port Impedance	50.00000000000000	0.00000000000000	
561.25	0.600324611121	0.799756438726	
! Port Impedance	50.00000000000000	0.00000000000000	
562.5	0.608043958357	0.793903359802	
! Port Impedance	50.00000000000000	0.00000000000000	
563.75	0.615690013415	0.787988456375	
! Port Impedance	50.00000000000000	0.00000000000000	
565.0	0.623262635414	0.782012587684	
! Port Impedance	50.00000000000000	0.00000000000000	
566.25	0.630761686729	0.775976606964	
! Port Impedance	50.00000000000000	0.00000000000000	
567.5	0.638187032992	0.769881361588	
! Port Impedance	50.00000000000000	0.00000000000000	
568.75	0.645538543101	0.763727693207	
! Port Impedance	50.00000000000000	0.00000000000000	
570.0	0.652816089214	0.757516437883	
! Port Impedance	50.00000000000000	0.00000000000000	
571.25	0.660019546761	0.751248426217	
! Port Impedance	50.00000000000000	0.00000000000000	
572.5	0.667148794442	0.744924483471	
! Port Impedance	50.00000000000000	0.00000000000000	
573.75	0.674203714231	0.738545429691	
! Port Impedance	50.00000000000000	0.00000000000000	
575.0	0.681184191376	0.732112079821	
! Port Impedance	50.00000000000000	0.00000000000000	
576.25	0.688090114408	0.72562524381	
! Port Impedance	50.00000000000000	0.00000000000000	
577.5	0.694921375136	0.719085726724	
! Port Impedance	50.00000000000000	0.00000000000000	
578.75	0.701677868654	0.712494328848	
! Port Impedance	50.00000000000000	0.00000000000000	
580.0	0.708359493341	0.705851845782	
! Port Impedance	50.00000000000000	0.00000000000000	
581.25	0.714966150861	0.699159068541	
! Port Impedance	50.00000000000000	0.00000000000000	
582.5	0.721497746171	0.692416783642	
! Port Impedance	50.00000000000000	0.00000000000000	
583.75	0.727954187516	0.685625773201	
! Port Impedance	50.00000000000000	0.00000000000000	
585.0	0.734335386433	0.67878681501	
! Port Impedance	50.00000000000000	0.00000000000000	
586.25	0.740641257753	0.671900682627	
! Port Impedance	50.00000000000000	0.00000000000000	
587.5	0.7468717196	0.664968145449	
! Port Impedance	50.00000000000000	0.00000000000000	
588.75	0.753026693395	0.657989968794	
! Port Impedance	50.00000000000000	0.00000000000000	
590.0	0.759106103855	0.650966913975	
! Port Impedance	50.00000000000000	0.00000000000000	
591.25	0.765109878992	0.643899738366	
! Port Impedance	50.00000000000000	0.00000000000000	
592.5	0.771037950119	0.636789195477	
! Port Impedance	50.00000000000000	0.00000000000000	
593.75	0.776890251842	0.629636035017	
! Port Impedance	50.00000000000000	0.00000000000000	
595.0	0.78266672207	0.622441002958	
! Port Impedance	50.00000000000000	0.00000000000000	
596.25	0.788367302008	0.615204841598	
! Port Impedance	50.00000000000000	0.00000000000000	
597.5	0.793991936157	0.607928289617	
! Port Impedance	50.00000000000000	0.00000000000000	
598.75	0.799540572321	0.600612082139	
! Port Impedance	50.00000000000000	0.00000000000000	
600.0	0.805013161599	0.593256950784	
! Port Impedance	50.00000000000000	0.00000000000000	
601.25	0.810409658385	0.585863623719	
! Port Impedance	50.00000000000000	0.00000000000000	
602.5	0.815730020373	0.578432825712	
! Port Impedance	50.00000000000000	0.00000000000000	
603.75	0.820974208553	0.570965278183	
! Port Impedance	50.00000000000000	0.00000000000000	
605.0	0.826142187207	0.563461699246	
! Port Impedance	50.00000000000000	0.00000000000000	
606.25	0.831233923913	0.555922803756	
! Port Impedance	50.00000000000000	0.00000000000000	
607.5	0.836249389542	0.548349303355	
! Port Impedance	50.00000000000000	0.00000000000000	
608.75	0.841188558256	0.540741906513	
! Port Impedance	50.00000000000000	0.00000000000000	
610.0	0.846051407505	0.533101318568	
! Port Impedance	50.00000000000000	0.00000000000000	
611.25	0.85083791803	0.525428241763	
! Port Impedance	50.00000000000000	0.00000000000000	
612.5	0.855548073857	0.517723375288	
! Port Impedance	50.00000000000000	0.00000000000000	
613.75	0.860181862297	0.509987415311	
! Port Impedance	50.00000000000000	0.00000000000000	
615.0	0.864739273943	0.502221055016	
! Port Impedance	50.00000000000000	0.00000000000000	
616.25	0.869220302668	0.494424984633	
! Port Impedance	50.00000000000000	0.00000000000000	
617.5	0.873624945625	0.486599891472	
! Port Impedance	50.00000000000000	0.00000000000000	
618.75	0.877953203241	0.478746459955	
! Port Impedance	50.00000000000000	0.00000000000000	
620.0	0.882205079214	0.47086537164	
! Port Impedance	50.00000000000000	0.00000000000000	
621.25	0.886380580515	0.462957305252	
! Port Impedance	50.00000000000000	0.00000000000000	
622.5	0.89047971738	0.455022936713	
! Port Impedance	50.00000000000000	0.00000000000000	
623.75	0.89450250331	0.447062939162	
! Port Impedance	50.00000000000000	0.00000000000000	
625.0	0.898448955067	0.439077982982	
! Port Impedance	50.00000000000000	0.00000000000000	
626.25	0.902319092669	0.431068735824	
! Port Impedance	50.00000000000000	0.00000000000000	
627.5	0.90611293939	0.423035862629	
! Port Impedance	50.00000000000000	0.00000000000000	
628.75	0.909830521752	0.414980025651	
! Port Impedance	50.00000000000000	0.00000000000000	
630.0	0.913471869524	0.406901884473	
! Port Impedance	50.00000000000000	0.00000000000000	
631.25	0.91703701572	0.398802096033	
! Port Impedance	50.00000000000000	0.00000000000000	
632.5	0.920525996589	0.390681314635	
! Port Impedance	50.00000000000000	0.00000000000000	
633.75	0.923938851615	0.382540191974	
! Port Impedance	50.00000000000000	0.00000000000000	
635.0	0.927275623515	0.374379377149	
! Port Impedance	50.00000000000000	0.00000000000000	
636.25	0.930536358227	0.36619951668	
! Port Impedance	50.00000000000000	0.00000000000000	
637.5	0.933721104913	0.358001254523	
! Port Impedance	50.00000000000000	0.00000000000000	
638.75	0.936829915949	0.349785232082	
! Port Impedance	50.00000000000000	0.00000000000000	
640.0	0.939862846923	0.341552088229	
! Port Impedance	50.00000000000000	0.00000000000000	
641.25	0.942819956629	0.33330245931	
! Port Impedance	50.00000000000000	0.00000000000000	
642.5	0.945701307061	0.325036979163	
! Port Impedance	50.00000000000000	0.00000000000000	
643.75	0.948506963409	0.316756279123	
! Port Impedance	50.00000000000000	0.00000000000000	
645.0	0.951236994054	0.30846098804	
! Port Impedance	50.00000000000000	0.00000000000000	
646.25	0.95389147056	0.300151732285	
! Port Impedance	50.00000000000000	0.00000000000000	
647.5	0.956470467669	0.291829135759	
! Port Impedance	50.00000000000000	0.00000000000000	
648.75	0.958974063297	0.283493819904	
! Port Impedance	50.00000000000000	0.00000000000000	
650.0	0.961402338527	0.275146403711	
! Port Impedance	50.00000000000000	0.00000000000000	
651.25	0.963755377601	0.266787503727	
! Port Impedance	50.00000000000000	0.00000000000000	
652.5	0.966033267917	0.258417734063	
! Port Impedance	50.00000000000000	0.00000000000000	
653.75	0.968236100018	0.250037706399	
! Port Impedance	50.00000000000000	0.00000000000000	
655.0	0.970363967592	0.241648029992	
! Port Impedance	50.00000000000000	0.00000000000000	
656.25	0.972416967458	0.233249311681	
! Port Impedance	50.00000000000000	0.00000000000000	
657.5	0.974395199564	0.224842155891	
! Port Impedance	50.00000000000000	0.00000000000000	
658.75	0.976298766979	0.216427164641	
! Port Impedance	50.00000000000000	0.00000000000000	
660.0	0.978127775885	0.208004937542	
! Port Impedance	50.00000000000000	0.00000000000000	
661.25	0.97988233557	0.199576071808	
! Port Impedance	50.00000000000000	0.00000000000000	
662.5	0.98156255842	0.191141162253	
! Port Impedance	50.00000000000000	0.00000000000000	
663.75	0.983168559915	0.182700801297	
! Port Impedance	50.00000000000000	0.00000000000000	
665.0	0.984700458616	0.174255578968	
! Port Impedance	50.00000000000000	0.00000000000000	
666.25	0.986158376161	0.165806082905	
! Port Impedance	50.00000000000000	0.00000000000000	
667.5	0.987542437255	0.157352898356	
! Port Impedance	50.00000000000000	0.00000000000000	
668.75	0.988852769664	0.148896608183	
! Port Impedance	50.00000000000000	0.00000000000000	
670.0	0.990089504205	0.140437792862	
! Port Impedance	50.00000000000000	0.00000000000000	
671.25	0.991252774738	0.131977030482	
! Port Impedance	50.00000000000000	0.00000000000000	
672.5	0.992342718158	0.123514896745	
! Port Impedance	50.00000000000000	0.00000000000000	
673.75	0.993359474388	0.11505196497	
! Port Impedance	50.00000000000000	0.00000000000000	
675.0	0.994303186366	0.106588806086	
! Port Impedance	50.00000000000000	0.00000000000000	
676.25	0.995174000039	0.0981259886369	
! Port Impedance	50.00000000000000	0.00000000000000	
677.5	0.995972064356	0.0896640787767	
! Port Impedance	50.00000000000000	0.00000000000000	
678.75	0.996697531254	0.08120364027	
! Port Impedance	50.00000000000000	0.00000000000000	
680.0	0.997350555652	0.0727452344895	
! Port Impedance	50.00000000000000	0.00000000000000	
681.25	0.997931295442	0.0642894204142	
! Port Impedance	50.00000000000000	0.00000000000000	
682.5	0.998439911478	0.055836754627	
! Port Impedance	50.00000000000000	0.00000000000000	
683.75	0.998876567567	0.0473877913125	
! Port Impedance	50.00000000000000	0.00000000000000	
685.0	0.999241430458	0.038943082254	
! Port Impedance	50.00000000000000	0.00000000000000	
686.25	0.999534669836	0.0305031768305	
! Port Impedance	50.00000000000000	0.00000000000000	
687.5	0.999756458305	0.0220686220134	
! Port Impedance	50.00000000000000	0.00000000000000	
688.75	0.999906971386	0.0136399623633	
! Port Impedance	50.00000000000000	0.00000000000000	
690.0	0.999986387502	0.00521774002599	
! Port Impedance	50.00000000000000	0.00000000000000	
691.25	0.999994887967	-0.00319750527118	
! Port Impedance	50.00000000000000	0.00000000000000	
692.5	0.999932656979	-0.0116052362236	
! Port Impedance	50.00000000000000	0.00000000000000	
693.75	0.999799881605	-0.0200049179535	
! Port Impedance	50.00000000000000	0.00000000000000	
695.0	0.999596751776	-0.0283960180148	
! Port Impedance	50.00000000000000	0.00000000000000	
696.25	0.99932346027	-0.0367780063973	
! Port Impedance	50.00000000000000	0.00000000000000	
697.5	0.998980202704	-0.0451503555318	
! Port Impedance	50.00000000000000	0.00000000000000	
698.75	0.998567177525	-0.0535125402952	
! Port Impedance	50.00000000000000	0.00000000000000	
700.0	0.998084585995	-0.0618640380156	
! Port Impedance	50.00000000000000	0.00000000000000	
701.25	0.99753263218	-0.0702043284773	
! Port Impedance	50.00000000000000	0.00000000000000	
702.5	0.99691152294	-0.0785328939269	
! Port Impedance	50.00000000000000	0.00000000000000	
703.75	0.99622146792	-0.0868492190785	
! Port Impedance	50.00000000000000	0.00000000000000	
705.0	0.995462679533	-0.0951527911198	
! Port Impedance	50.00000000000000	0.00000000000000	
706.25	0.994635372949	-0.103443099717	
! Port Impedance	50.00000000000000	0.00000000000000	
707.5	0.993739766087	-0.111719637024	
! Port Impedance	50.00000000000000	0.00000000000000	
708.75	0.992776079601	-0.119981897682	
! Port Impedance	50.00000000000000	0.00000000000000	
710.0	0.991744536866	-0.128229378835	
! Port Impedance	50.00000000000000	0.00000000000000	
711.25	0.990645363967	-0.136461580127	
! Port Impedance	50.00000000000000	0.00000000000000	
712.5	0.989478789687	-0.144678003716	
! Port Impedance	50.00000000000000	0.00000000000000	
713.75	0.988245045495	-0.152878154274	
! Port Impedance	50.00000000000000	0.00000000000000	
715.0	0.986944365532	-0.161061539	
! Port Impedance	50.00000000000000	0.00000000000000	
716.25	0.985576986598	-0.169227667623	
! Port Impedance	50.00000000000000	0.00000000000000	
717.5	0.984143148141	-0.177376052407	
! Port Impedance	50.00000000000000	0.00000000000000	
718.75	0.982643092243	-0.185506208165	
! Port Impedance	50.00000000000000	0.00000000000000	
720.0	0.981077063606	-0.19361765226	
! Port Impedance	50.00000000000000	0.00000000000000	
721.25	0.979445309541	-0.201709904612	
! Port Impedance	50.00000000000000	0.00000000000000	
722.5	0.977748079952	-0.209782487709	
! Port Impedance	50.00000000000000	0.00000000000000	
723.75	0.975985627326	-0.217834926612	
! Port Impedance	50.00000000000000	0.00000000000000	
725.0	0.974158206716	-0.225866748963	
! Port Impedance	50.00000000000000	0.00000000000000	
726.25	0.972266075729	-0.233877484991	
! Port Impedance	50.00000000000000	0.00000000000000	
727.5	0.970309494513	-0.241866667522	
! Port Impedance	50.00000000000000	0.00000000000000	
728.75	0.968288725741	-0.249833831983	
! Port Impedance	50.00000000000000	0.00000000000000	
730.0	0.966204034599	-0.257778516413	
! Port Impedance	50.00000000000000	0.00000000000000	
731.25	0.964055688773	-0.265700261469	
! Port Impedance	50.00000000000000	0.00000000000000	
732.5	0.96184395843	-0.273598610434	
! Port Impedance	50.00000000000000	0.00000000000000	
733.75	0.95956911621	-0.281473109223	
! Port Impedance	50.00000000000000	0.00000000000000	
735.0	0.957231437207	-0.289323306394	
! Port Impedance	50.00000000000000	0.00000000000000	
736.25	0.954831198956	-0.297148753152	
! Port Impedance	50.00000000000000	0.00000000000000	
737.5	0.95236868142	-0.304949003361	
! Port Impedance	50.00000000000000	0.00000000000000	
738.75	0.949844166972	-0.312723613547	
! Port Impedance	50.00000000000000	0.00000000000000	
740.0	0.947257940383	-0.320472142911	
! Port Impedance	50.00000000000000	0.00000000000000	
741.25	0.944610288807	-0.328194153331	
! Port Impedance	50.00000000000000	0.00000000000000	
742.5	0.941901501764	-0.335889209375	
! Port Impedance	50.00000000000000	0.00000000000000	
743.75	0.939131871128	-0.343556878306	
! Port Impedance	50.00000000000000	0.00000000000000	
745.0	0.936301691109	-0.351196730092	
! Port Impedance	50.00000000000000	0.00000000000000	
746.25	0.933411258238	-0.35880833741	
! Port Impedance	50.00000000000000	0.00000000000000	
747.5	0.930460871354	-0.36639127566	
! Port Impedance	50.00000000000000	0.00000000000000	
748.75	0.927450831587	-0.373945122965	
! Port Impedance	50.00000000000000	0.00000000000000	
750.0	0.924381442341	-0.381469460187	
! Port Impedance	50.00000000000000	0.00000000000000	
