! Touchstone file from project test_multiport
! Exported from HFSS 2019.2.0
!Data is not renormalized
# GHZ S MA
! Modal data exported
! Port[1] = 1:1
! Port[2] = 2:1
! Port[3] = 3:1
! Port[4] = 4:1
! Port[5] = 5:1
! Port[6] = 6:1
! Port[7] = 7:1
! Port[8] = 8:1
! Port[9] = 9:1
! Port[10] = 10:1
! Port[11] = 11:1
! Port[12] = 12:1
! Port[13] = 13:1
! Port[14] = 14:1
! Port[15] = 15:1
! Port[16] = 16:1
0.9                            0.00233013746794786 180              2.59497418564602E-06 -180             1.25396666205484E-08 -180             6.40134397825095E-07 -180             
                3.33271138975504E-08 180              1.88385691261484E-06 -7.47100957863703E-20 6.80535829080965E-08 -1.67363512894708E-14 2.78703549504331E-10 -180             
                5.75301451907622E-07 -180             4.41901370367E-08 180              1.48147026198469E-06 180              4.77289099265748E-07 -180             
                6.6776837992535E-09 -180             5.87952818112211E-07 3.34722792172905E-19 1.00382743055685E-06 -6.38035572150236E-14 1.06063300385516E-07 3.37782882379274E-20 
                2.59497418564602E-06 -180             0.00110637812677283 -180             2.52635492100731E-08 -180             4.62608729108531E-08 -180             
                1.06270987208856E-07 180              5.62025791016703E-07 -1.32077303963988E-19 3.83641467285841E-08 -1.55365001417892E-14 1.17946133797703E-10 -180             
                2.33663850495317E-07 -180             1.34395069535575E-07 180              5.12141883404623E-07 180              5.85983428504646E-08 -180             
                6.41647633896378E-09 -180             4.58654554133602E-07 2.48741642887529E-19 5.99832360442134E-07 -5.98879935021904E-14 2.06606557495094E-07 1.27647977963821E-20 
                1.25396666205484E-08 -180             2.52635492100731E-08 -180             0.000723983325310318 179.999999999984 6.37815523412452E-09 1.22685175951005E-14 
                3.93668753762109E-09 -180             2.83049680539304E-09 1.2514727351132E-14 3.86168508618205E-10 -5.36864248660303E-15 1.05246169997206E-12 -180             
                1.07352672004997E-09 -180             2.74993423975869E-09 180              3.00757579926822E-09 -180             3.5728255372419E-09 1.22410883794318E-14 
                1.04083246992951E-10 -180             6.20735714842765E-09 1.22681375894998E-14 6.52568125103203E-09 -5.11880640833229E-14 2.84134208235706E-09 1.1842865766266E-14 
                6.40134397825094E-07 -180             4.62608729108529E-08 -180             6.37815523412452E-09 1.14508961774023E-14 0.00287522518678229 -180             
                2.54114673952864E-07 180              2.37022105777339E-06 -180             1.29692826689751E-07 -2.32876736572947E-14 2.19189678149217E-10 -180             
                7.82601724911439E-08 180              3.28873903984974E-08 -1.48491600948028E-14 2.86348006209057E-07 180              3.02998965776778E-06 -3.28476993974937E-19 
                9.01829659434487E-08 6.3329883157874E-15 2.47820962710965E-06 3.81615616635556E-19 4.40076959403741E-06 -6.83102213308685E-14 8.67897738645334E-08 180              
                3.33271138975504E-08 180              1.06270987208856E-07 180              3.93668753762109E-09 -180             2.54114673952864E-07 180              
                0.00354466534358267 -180             4.28891917509593E-08 7.91130512581179E-20 1.26258334503128E-09 -180             4.3806388847039E-13 180              
                1.97442275507878E-09 180              5.72782984906574E-09 -1.36325834191472E-14 2.57683888262782E-08 -1.03177082128549E-19 2.56859607332289E-08 2.12599494598525E-19 
                1.12758250212226E-09 1.47532322496549E-14 4.72216860367405E-08 -180             2.88535976272554E-08 180              1.01190802736238E-08 -1.22169902952047E-20 
                1.88385691261484E-06 -7.04015039876786E-20 5.62025791016702E-07 -1.38705085804019E-19 2.83049680539304E-09 1.14509176028703E-14 2.3702210577734E-06 -180             
                4.28891917509594E-08 9.09992561245514E-20 0.000540159632983706 -180             5.2186449356017E-08 -2.83385276112229E-14 8.14717018471199E-10 -180             
                1.01716081756144E-07 -7.57234144835656E-14 2.89730820314156E-08 180              3.51760516830727E-07 180              2.3716408294967E-07 -1.75373924876523E-18 
                3.49152572116346E-09 -180             5.82953713649202E-07 6.77405828161265E-19 1.91124737717936E-06 -6.56807839792657E-14 1.89226638441828E-08 180              
                6.80535829080964E-08 -4.41957158082228E-15 3.83641467285842E-08 -6.14160819779091E-15 3.86168508618205E-10 6.08841262143093E-15 1.29692826689751E-07 -5.04290124071056E-15 
                1.26258334503129E-09 180              5.2186449356017E-08 -4.70991357633638E-15 0.00371572430058742 -179.999999999998 2.00913145677846E-11 180              
                1.20452463067569E-08 -4.71997606309268E-14 1.90893227081659E-09 180              2.90774503381315E-07 180              2.25553973777679E-07 -5.42955284338735E-15 
                7.08696951791432E-10 3.89902237268798E-15 9.34404975942279E-08 180              5.88921502859627E-08 -8.14122838426373E-14 4.5021772354455E-09 180              
                2.78703549504331E-10 -180             1.17946133797703E-10 -180             1.05246169997206E-12 -180             2.19189678149217E-10 -180             
                4.38063888470398E-13 180              8.14717018471199E-10 -180             2.00913145677846E-11 180              0.0036310875958494 -180             
                1.25727891180989E-11 180              3.51078157125259E-12 -1.94662477781418E-14 7.12188610537469E-11 2.86085063166294E-19 1.74602877571086E-10 -180             
                1.0989872631495E-12 180              9.32278644341758E-11 4.47185487681103E-19 1.97378673496684E-10 -6.69316732742192E-14 9.23820691190891E-12 1.06765245355331E-19 
                5.75301451907617E-07 -180             2.33663850495316E-07 -180             1.07352672004997E-09 -180             7.8260172491144E-08 180              
                1.97442275507879E-09 180              1.01716081756144E-07 -2.38272489353545E-14 1.20452463067569E-08 -3.88816619009493E-14 1.2572789118099E-11 180              
                0.0060393190094703 180              2.87644779330187E-09 180              3.32071156843533E-07 180              8.25183172457416E-08 180              
                6.9899518681208E-10 180              6.76549168214476E-08 -3.88713064494754E-14 1.19425681185743E-07 -1.01234851841973E-13 1.14334933160877E-08 3.2546542275218E-15 
                4.41901370367E-08 180              1.34395069535575E-07 -180             2.7499342397587E-09 -180             3.28873903984975E-08 -1.4588246407418E-15 
                5.72782984906574E-09 -1.24451960160362E-15 2.89730820314156E-08 180              1.90893227081659E-09 180              3.51078157125259E-12 -2.16235317308175E-15 
                2.87644779330187E-09 -180             0.00450934747909115 -179.999999999999 5.3908770501562E-08 180              2.23719000405469E-07 180              
                1.18920405439246E-09 1.90783392454681E-14 5.75407786776268E-08 180              3.159655871473E-08 180              4.5917780302916E-08 -7.93537640208637E-16 
                1.48147026198469E-06 180              5.12141883404624E-07 180              3.00757579926823E-09 -180             2.86348006209057E-07 180              
                2.57683888262782E-08 -1.23871616207395E-19 3.51760516830729E-07 180              2.90774503381315E-07 180              7.12188610537471E-11 2.96281161830038E-19 
                3.32071156843532E-07 180              5.39087705015618E-08 -180             0.0010574209892471 -180             1.94492296579438E-06 1.72900976440705E-19 
                2.7169364316036E-09 8.9860178258673E-15 5.73416702834317E-07 -180             1.49039421823351E-06 180              2.20778062908016E-08 -3.36349977485248E-19 
                4.77289099265748E-07 -180             5.85983428504646E-08 -180             3.5728255372419E-09 1.14508532609935E-14 3.02998965776778E-06 -2.96783934712177E-19 
                2.56859607332289E-08 2.28000606274239E-19 2.37164082949671E-07 -1.63675268416971E-18 2.25553973777679E-07 -9.91075401388334E-15 1.74602877571086E-10 -180             
                8.25183172457415E-08 180              2.23719000405469E-07 180              1.94492296579439E-06 1.55136098938191E-19 0.00737574741448776 -180             
                5.99453997364567E-08 8.32421112456895E-15 2.10038176961932E-06 2.84119093263019E-19 3.12388974215027E-06 -6.02497545691487E-14 9.5441513606174E-08 180              
                6.6776837992535E-09 -180             6.4164763389638E-09 -180             1.04083246992951E-10 -180             9.01829659434488E-08 4.86825974872845E-15 
                1.12758250212227E-09 1.4775980126586E-15 3.49152572116346E-09 -180             7.08696951791431E-10 -2.47346894163307E-14 1.0989872631495E-12 -180             
                6.98995186812079E-10 180              1.18920405439245E-09 2.10634391645696E-15 2.7169364316036E-09 1.56287537767287E-15 5.99453997364566E-08 9.64069404472924E-16 
                0.00235597618732941 179.999999999999 3.83244256247003E-08 5.41293878198717E-15 1.51385086253468E-08 -6.36516714203007E-14 1.21697606331155E-09 3.91078727996756E-15 
                5.87952818112209E-07 3.19090451443828E-19 4.586545541336E-07 2.42340862840096E-19 6.20735714842766E-09 1.14514212939672E-14 2.47820962710964E-06 3.34449471543414E-19 
                4.72216860367406E-08 -180             5.82953713649204E-07 6.12863115620309E-19 9.34404975942279E-08 180              9.3227864434176E-11 3.980089889247E-19 
                6.76549168214471E-08 -4.53872129755179E-14 5.75407786776269E-08 180              5.73416702834315E-07 -180             2.10038176961932E-06 2.7528664800047E-19 
                3.83244256247002E-08 1.28790823535104E-14 0.00408838577357251 -180             2.95159577137727E-06 180              7.15700956706083E-08 -180             
                1.00382743055685E-06 -6.14934163705258E-14 5.99832360442133E-07 -6.06804316322529E-14 6.52568125103202E-09 -5.00412280519557E-14 4.40076959403741E-06 -6.20803502022597E-14 
                2.88535976272554E-08 180              1.91124737717936E-06 -6.17174739524401E-14 5.88921502859628E-08 -1.88281071390489E-13 1.97378673496684E-10 -6.19427593152684E-14 
                1.19425681185742E-07 -1.31644386777005E-13 3.15965587147299E-08 180              1.49039421823351E-06 180              3.12388974215027E-06 -6.09526731519219E-14 
                1.51385086253468E-08 -5.77102370737497E-14 2.95159577137727E-06 180              0.00223530532997418 -179.999999999975 6.83627536036991E-08 180              
                1.06063300385516E-07 4.41258342831886E-20 2.06606557495094E-07 1.43557790716916E-20 2.84134208235706E-09 1.14512365802474E-14 8.67897738645335E-08 180              
                1.01190802736238E-08 -1.44924513069439E-20 1.89226638441827E-08 180              4.50217723544552E-09 180              9.23820691190889E-12 1.06806351884946E-19 
                1.14334933160877E-08 1.30441147675664E-14 4.59177803029162E-08 -1.55677039304708E-14 2.20778062908015E-08 -3.33669931006864E-19 9.54415136061741E-08 180              
                1.21697606331155E-09 1.13296032766631E-15 7.15700956706082E-08 -180             6.83627536036991E-08 180              0.00495960269831064 -180             
! Gamma         !               59.9338501060309 0                76.2417860318037 0                59.9339265007374 0                103.007192572301 0                
!               76.241113742477  0                76.2413490434892 0                76.2410279502001 0                103.007353068765 0                
!               103.008955090442 0                76.2413025410243 0                76.2412452843263 0                103.007331482811 0                
!               59.933776137428  0                76.2416822409108 0                59.9341042582546 0                103.008033045922 0                
! Port Impedance0                29.2358462765428 0                57.3477158797528 0                58.4268729290759 0                28.3559358062931 
!               0                57.4819153933399 0                28.7411576916256 0                57.4106389440034 0                56.6841482335169 
!               0                56.6345305155647 0                57.4649899458736 0                28.7385513875112 0                28.3441763838796 
!               0                58.4870725840649 0                57.3770443043396 0                29.2240659819425 0                56.6651571449654 

0.95                           0.0023280508889344 180              2.70257729983016E-06 180              1.39848095119815E-08 180              7.09924115188036E-07 180              
                3.72615485948972E-08 -180             2.03978858084605E-06 6.4127802508947E-20 7.41826175327713E-08 2.54892150203468E-20 2.99736505514727E-10 -180             
                5.7674422371915E-07 180              4.92470108488973E-08 -180             1.60707283153483E-06 -180             5.29271353596429E-07 -180             
                7.78423489658015E-09 180              6.50919595744979E-07 2.80829956171041E-15 1.10792904382499E-06 4.7171683366657E-14 1.14801309166314E-07 -3.79357896678565E-20 
                2.70257729983016E-06 180              0.00109996845395932 180              2.69686836161531E-08 180              5.01992199102004E-08 180              
                1.14902221048463E-07 -180             6.09736751840903E-07 1.27498436252569E-19 4.20446455646734E-08 -1.85219330087486E-20 1.2762966950793E-10 -180             
                2.43117874181356E-07 180              1.44535164614043E-07 -180             5.57589563086367E-07 -180             6.33825115998521E-08 -180             
                7.30853605154666E-09 180              5.01740557108288E-07 1.39261142072445E-14 6.63281477492604E-07 4.47108772591935E-14 2.14091642389586E-07 -1.16749263714465E-20 
                1.39848095119815E-08 180              2.69686836161531E-08 180              0.000723783876208195 180              7.19508825561665E-09 1.97420053630273E-19 
                4.38753044001534E-09 -180             3.25981710729882E-09 2.30419314123183E-19 4.47993547123323E-10 -1.13207397774943E-20 1.20767112907859E-12 -180             
                1.19550807994153E-09 180              3.07830678025623E-09 -180             3.45924312529289E-09 -180             4.08507734651844E-09 -1.90391710311286E-14 
                1.22570187308266E-10 180              7.07961687929999E-09 7.33766518290798E-16 7.60827128360714E-09 3.85638912753937E-14 2.87667534057793E-09 -6.98494453571214E-21 
                7.09924115188036E-07 180              5.01992199102002E-08 180              7.19508825561664E-09 2.70372441408845E-19 0.00285332091499268 180              
                2.70479572379204E-07 -180             2.50902675691833E-06 180              1.40849778763122E-07 -1.3009020569303E-20 2.36843916510439E-10 180              
                8.52585101872619E-08 180              3.63905589932035E-08 1.23907700179056E-14 3.14332246191873E-07 -180             3.21566284040034E-06 -1.23479501593515E-14 
                9.84870466221233E-08 2.56309683334352E-20 2.57808077275945E-06 1.17059987258307E-14 4.71485205341538E-06 4.38939921677305E-14 9.40535171732138E-08 -180             
                3.72615485948971E-08 -180             1.14902221048463E-07 -180             4.38753044001536E-09 -180             2.70479572379203E-07 -180             
                0.00352666005781466 180              4.58101942217099E-08 -9.1597463324954E-20 1.41710349457308E-09 180              4.44266689641826E-13 -180             
                2.16978214475092E-09 -180             6.33038508829783E-09 8.41532886185918E-15 2.88173659569905E-08 1.81652835974249E-19 2.84407587403601E-08 3.61311662416144E-14 
                1.28281247953444E-09 -1.98536681224549E-21 5.20134830513455E-08 -180             3.25212748417457E-08 -180             1.09940382858399E-08 1.05503915067475E-20 
                2.03978858084606E-06 5.45372040380838E-20 6.09736751840904E-07 1.08374585696208E-19 3.25981710729883E-09 2.42698766007967E-19 2.50902675691833E-06 180              
                4.58101942217099E-08 -7.9332409769593E-20 0.000534917069812013 180              5.67884429940524E-08 1.04556036776149E-19 8.6453130632675E-10 -180             
                1.09079796910911E-07 1.18046244790105E-19 3.24330361107807E-08 180              3.81476761625521E-07 -180             2.59627806494681E-07 4.80297025052286E-15 
                3.99785104583417E-09 180              6.32327610790347E-07 8.03295331356989E-15 2.06642145902245E-06 3.76936151879925E-14 2.09175837823468E-08 -180             
                7.41826175327714E-08 7.6920272392235E-20 4.20446455646735E-08 7.83043415646695E-20 4.47993547123325E-10 6.46116487076886E-20 1.40849778763122E-07 1.33108120903227E-19 
                1.41710349457308E-09 -180             5.67884429940525E-08 1.84914191645394E-19 0.003692648984569 180              2.19580642326864E-11 -180             
                1.27559770045403E-08 5.76357315389567E-20 2.11395899252533E-09 180              3.10093831685052E-07 -180             2.42052059898362E-07 2.64720553584291E-15 
                7.99457736671875E-10 4.8244324919286E-20 9.80604130029418E-08 180              7.46414452379498E-08 6.24063074302876E-14 4.98548247391441E-09 -180             
                2.99736505514726E-10 -180             1.27629669507931E-10 -180             1.20767112907859E-12 -180             2.36843916510439E-10 -180             
                4.44266689641819E-13 -180             8.64531306326748E-10 -180             2.19580642326863E-11 -180             0.0036191379759809 -179.999999999999 
                1.31164921500563E-11 -180             3.93389096893095E-12 -5.29199683895633E-16 7.73168725270264E-11 1.84796366270837E-15 1.90906693436213E-10 -180             
                1.24116508705635E-12 -180             9.79431610569408E-11 5.92310731746405E-15 2.00524152549658E-10 9.44748250626285E-15 1.02065615261002E-11 5.46915726162836E-16 
                5.76744223719155E-07 180              2.43117874181357E-07 180              1.19550807994153E-09 180              8.5258510187262E-08 180              
                2.16978214475092E-09 -180             1.0907979691091E-07 5.29412350440148E-20 1.27559770045402E-08 -1.62482873596126E-20 1.31164921500563E-11 -180             
                0.00602006762012652 180              3.16416692362494E-09 180              3.50114256735732E-07 -180             8.94136463008488E-08 -180             
                8.00388673067687E-10 -180             7.31849948162444E-08 8.45487880774473E-15 1.28384385536765E-07 1.11004111894334E-14 1.22664657540797E-08 -1.26346090303251E-20 
                4.92470108488972E-08 180              1.44535164614043E-07 180              3.07830678025623E-09 180              3.63905589932035E-08 2.48192290850448E-16 
                6.33038508829784E-09 -3.49493471364854E-15 3.24330361107806E-08 180              2.11395899252534E-09 180              3.93389096893096E-12 1.69065011603803E-14 
                3.16416692362495E-09 180              0.00448165372963782 -180             5.7627850625933E-08 180              2.38228938033367E-07 180              
                1.35251525309983E-09 -1.90651518463911E-15 6.31404860179921E-08 -180             3.54826860457044E-08 -180             4.86074436035093E-08 -2.41125681250258E-15 
