! Touchstone file from project test_multiport
! Exported from HFSS 2019.2.0
!Data is not renormalized
# GHZ S MA
! Modal data exported
! Port[1] = 1:1
! Port[2] = 2:1
! Port[3] = 3:1
! Port[4] = 4:1
! Port[5] = 5:1
! Port[6] = 6:1
! Port[7] = 7:1
! Port[8] = 8:1
! Port[9] = 9:1
! Port[10] = 10:1
! Port[11] = 11:1
! Port[12] = 12:1
! Port[13] = 13:1
! Port[14] = 14:1
0.9                            0.000763878118487105 -180             3.06000227181867E-06 -180             1.35879629920082E-08 180              6.79601606383315E-07 180              
                3.75228761884699E-08 -180             2.02454228873782E-06 -1.48793614075656E-20 7.15557935935599E-08 4.60724113857544E-15 2.10385236097176E-10 180              
                1.854012656561E-07 -180             4.44744444996929E-08 -180             1.61401891614704E-06 180              5.17739075542767E-07 -180             
                6.9563508945199E-09 180              6.24633720344503E-07 3.56883350272708E-20 
                3.06000227181867E-06 -180             0.00105116530689209 -180             2.52883549596932E-08 180              4.01523547730355E-08 180              
                1.07878875328354E-07 -180             5.69008684446653E-07 -1.07161189895447E-20 3.78891234847161E-08 9.34314820826625E-15 8.11257671740344E-11 180              
                1.90851057305684E-07 -180             1.26512076898428E-07 -180             5.17660494760213E-07 180              5.74151825950002E-08 -180             
                6.2494453727824E-09 180              4.56763812075982E-07 8.38677806033519E-21 
                1.35879629920082E-08 180              2.52883549596932E-08 180              0.000580038480257894 -180             6.50636331942892E-09 -9.89879127024113E-15 
                3.96315486734811E-09 180              2.80358015864587E-09 4.86411420472342E-20 3.82247376216023E-10 1.09423825310462E-14 6.80726626416721E-13 180              
                9.71938441201999E-10 180              2.61424946509604E-09 -180             3.01348430194226E-09 -180             3.46324424047255E-09 -7.15649575339474E-15 
                1.00495985059902E-10 -180             6.12557891534506E-09 -4.21286419722264E-20 
                6.79601606383315E-07 180              4.01523547730354E-08 180              6.50636331942891E-09 -1.19103730010759E-14 0.00146915296219874 -179.999999999992 
                2.60688882006346E-07 180              2.41489168913426E-06 180              1.27143068269659E-07 -2.61223541265804E-15 1.03139919136063E-10 -180             
                6.3805906715142E-08 180              3.18604849060809E-08 3.06298838057306E-14 2.78664232140907E-07 180              3.00399466045706E-06 -8.91841548423871E-15 
                8.64523176444451E-08 -1.16101025870196E-14 2.49835351798147E-06 -1.14358501854491E-14 
                3.752287618847E-08 -180             1.07878875328355E-07 -180             3.96315486734812E-09 180              2.60688882006345E-07 180              
                0.00402694849657137 -180             4.3789102367655E-08 -1.90255771586923E-19 1.23950045459217E-09 -180             1.01176965986884E-12 180              
                1.97538979830457E-09 -180             5.59431548087386E-09 3.82916781649236E-14 2.59423471384155E-08 -5.22239710863919E-15 2.66572351460999E-08 -9.95053037240518E-16 
                1.11780481998288E-09 2.63966602380175E-19 4.78911115464476E-08 180              
                2.02454228873782E-06 -1.04066008044631E-20 5.69008684446653E-07 -4.04543854198531E-21 2.80358015864588E-09 5.93681526647357E-20 2.41489168913426E-06 180              
                4.3789102367655E-08 -1.68634758245425E-19 0.00033648146538956 -180             5.14383657857266E-08 4.70174762814567E-15 5.029077945109E-10 180              
                8.84944020796854E-08 -2.57117456217799E-20 2.78411527862575E-08 -180             3.51199556887832E-07 180              2.34130801738988E-07 -1.29690558106377E-14 
                3.41441072695097E-09 180              5.76066933833237E-07 1.00500946419224E-19 
                7.155579359356E-08 2.43094927974793E-15 3.78891234847162E-08 2.10560815479751E-15 3.82247376216023E-10 1.93508248512089E-15 1.27143068269659E-07 -1.01618093002278E-14 
                1.23950045459218E-09 -180             5.14383657857266E-08 1.97144083881363E-15 0.00263026760640217 -180             1.51140085702562E-11 180              
                9.89901800444805E-09 1.75994884995875E-15 1.86368633397998E-09 -180             2.86814378748159E-07 -180             2.45969347166585E-07 8.66776822841768E-15 
                6.99460848632173E-10 2.09376094608534E-15 9.38839082142949E-08 -180             
                2.10385236097176E-10 -180             8.11257671740343E-11 -180             6.80726626416721E-13 -180             1.03139919136063E-10 180              
                1.01176965986884E-12 -180             5.029077945109E-10 -180             1.51140085702562E-11 -180             0.00474413950860231 180              
                9.48439599867045E-12 -180             2.71909854710741E-12 4.67747009190565E-14 5.45142438314408E-11 -1.84131629314608E-15 1.15794367683128E-10 -180             
                6.15963161791222E-13 -180             4.46537250646557E-11 5.38367474765195E-15 
                1.85401265656099E-07 -180             1.90851057305684E-07 180              9.71938441201996E-10 180              6.38059067151419E-08 180              
                1.97538979830456E-09 -180             8.84944020796853E-08 -1.14128883091454E-20 9.89901800444801E-09 3.64931522912576E-15 9.48439599867044E-12 180              
                0.00476225508531969 -180             2.65409990416301E-09 -180             2.7235654123546E-07 -180             7.3337519423918E-08 -180             
                5.9751384346202E-10 180              5.84255047519495E-08 3.94876882891232E-20 
                4.44744444996928E-08 -180             1.26512076898428E-07 180              2.61424946509603E-09 180              3.18604849060808E-08 4.39930160059714E-15 
                5.59431548087387E-09 1.13580480256544E-15 2.78411527862575E-08 -180             1.86368633397998E-09 180              2.7190985471074E-12 -2.58203453035167E-14 
                2.65409990416302E-09 -180             0.00735620100404388 179.999999999999 5.25598475225087E-08 180              2.12542330640697E-07 -180             
                1.11417474625192E-09 -7.95423678255865E-15 5.47829851060413E-08 -180             
                1.61401891614704E-06 180              5.17660494760211E-07 180              3.01348430194226E-09 180              2.78664232140908E-07 180              
                2.59423471384155E-08 -6.38585747792167E-15 3.51199556887832E-07 180              2.86814378748159E-07 180              5.45142438314409E-11 -1.2304416870825E-14 
                2.7235654123546E-07 180              5.25598475225089E-08 -180             0.00103962578178973 -179.999999999997 1.96719064471458E-06 -5.18433424278843E-15 
                2.64472819123722E-09 -5.88524231965084E-15 5.77497544409574E-07 180              
                5.17739075542767E-07 180              5.74151825950004E-08 -180             3.46324424047255E-09 -1.04500928481137E-14 3.00399466045705E-06 -2.4373322871126E-14 
                2.66572351460999E-08 -1.11453559341598E-15 2.34130801738989E-07 -7.32219148394287E-15 2.45969347166585E-07 1.78086964474982E-14 1.15794367683127E-10 180              
                7.3337519423918E-08 -180             2.12542330640697E-07 -180             1.96719064471458E-06 -3.43749060721849E-15 0.00969220066192977 -180             
                5.83680896922089E-08 -3.05960961249224E-15 2.05856974053334E-06 -1.00834250514835E-14 
                6.95635089451991E-09 180              6.24944537278241E-09 -180             1.00495985059902E-10 -180             8.64523176444451E-08 -1.14307711072681E-14 
                1.11780481998288E-09 2.16466388450157E-19 3.41441072695096E-09 180              6.99460848632172E-10 2.56825561396177E-14 6.15963161791221E-13 180              
                5.9751384346202E-10 180              1.11417474625193E-09 3.9645398319316E-14 2.64472819123722E-09 -7.66977106380513E-15 5.83680896922089E-08 -2.45958713991521E-15 
                0.00192974162388704 -180             3.78000163670193E-08 -9.43322493415263E-20 
                6.24633720344506E-07 1.38593205561641E-20 4.56763812075982E-07 -6.58705530164954E-21 6.12557891534507E-09 -2.93627162382705E-20 2.49835351798147E-06 -5.07252928945107E-15 
                4.78911115464475E-08 180              5.76066933833238E-07 3.68370768588331E-20 9.3883908214295E-08 -180             4.46537250646557E-11 -1.50848412679897E-16 
                5.84255047519495E-08 8.93321943274963E-21 5.47829851060413E-08 -180             5.77497544409573E-07 180              2.05856974053333E-06 -5.37377081910906E-15 
                3.78000163670194E-08 -4.59986263128304E-20 0.00240265467791323 -180             
! Gamma         !               59.9338536558492 0                76.2417860318037 0                59.9338829653998 0                103.00717986101  0                
!               76.2411137424771 0                76.2413237878676 0                76.2410000548162 0                103.007326710585 0                
!               103.007662713645 0                76.2412963331395 0                76.2412486999188 0                103.007328200992 0                
!               59.9337748344755 0                76.2416480405989 0                
! Port Impedance0                29.2358795501985 0                57.3477158797528 0                58.4256753563281 0                28.3560737639545 
!               0                57.481915393341  0                28.740738611609  0                57.4187041292578 0                56.7024628044158 
!               0                56.6800952748525 0                57.465198127053  0                28.7388983851008 0                28.3436728740332 
!               0                58.4869471141811 0                57.3819060393444 

0.95                           0.000759631207368328 -179.999999999987 3.18666582672474E-06 180              1.51561394883882E-08 180              7.53577694118714E-07 180              
                4.18894055546015E-08 180              2.1917687899252E-06 7.13929865558562E-15 7.79980144830913E-08 -1.72031555331727E-14 2.27554090056002E-10 180              
                1.73459721293745E-07 180              4.96120890277716E-08 180              1.75092541236774E-06 180              5.74563891199699E-07 180              
                8.1136301173424E-09 180              6.91355579865502E-07 -1.36005313812694E-14 
                3.18666582672474E-06 180              0.00104480282509334 -180             2.69930011895285E-08 -180             4.3330120914642E-08 -180             
                1.16566871391467E-07 -180             6.17272790526368E-07 1.6471872401591E-14 4.15468095020092E-08 -2.65679533241644E-15 8.82830626509959E-11 -180             
                1.98366179609084E-07 -180             1.36318126356137E-07 -180             5.63473643165586E-07 -180             6.19586976048925E-08 180              
                7.12077512318868E-09 180              4.99555070923629E-07 1.75875518229258E-19 
                1.51561394883882E-08 180              2.69930011895285E-08 -180             0.000579846631056924 -180             7.33877714859449E-09 -6.27197743963383E-20 
                4.4181796932415E-09 -180             3.22895264117971E-09 2.08212412684885E-14 4.43447419622318E-10 -4.39314675788786E-15 7.85645137207E-13 -180             
                1.08147879931871E-09 -180             2.92806229027581E-09 -180             3.46399487639299E-09 -180             3.96359110536408E-09 6.02858001904905E-15 
                1.18398790756915E-10 180              6.98445784809924E-09 4.38970128306889E-20 
                7.53577694118714E-07 180              4.33301209146418E-08 -180             7.3387771485945E-09 -5.60448341516247E-20 0.00145532663173398 180              
                2.77253900870614E-07 -180             2.55509809334726E-06 -180             1.38133333612618E-07 -1.91770925439725E-15 1.12955285292304E-10 180              
                6.96171802703864E-08 -180             3.52218956236166E-08 -6.42700100008516E-20 3.06231048963788E-07 -180             3.18882156306501E-06 1.10644115423733E-14 
                9.44709979257717E-08 -1.56998622862793E-14 2.60013629853554E-06 9.12658160728342E-21 
                4.18894055546015E-08 180              1.16566871391467E-07 -180             4.41817969324151E-09 -180             2.77253900870613E-07 -180             
                0.00400131424909922 180              4.67135052593687E-08 2.19073347355271E-14 1.39057830160063E-09 180              1.06493007806731E-12 -180             
                2.16664240735265E-09 -180             6.18274927958508E-09 -1.76273319792153E-20 2.90038099733692E-08 1.19922564070393E-15 2.95161082764652E-08 1.06115741998277E-14 
                1.27198020775908E-09 -6.40464980024273E-15 5.27283972543274E-08 180              
                2.1917687899252E-06 4.0987756174219E-15 6.17272790526368E-07 2.16584578703573E-14 3.2289526411797E-09 2.22664460036329E-14 2.55509809334726E-06 -180             
                4.67135052593688E-08 2.20621982784339E-14 0.00033383597615666 179.999999999939 5.59781873775336E-08 1.0681003298452E-14 5.39116368087159E-10 -180             
                9.48056883727284E-08 2.22244429632539E-14 3.11829188065902E-08 -180             3.80825671681264E-07 -180             2.56613620919234E-07 2.9008088889713E-14 
                3.91052671424608E-09 -180             6.24647872215141E-07 2.2033461173363E-14 
                7.79980144830912E-08 -2.34817050802026E-14 4.15468095020092E-08 -5.31450655755235E-17 4.43447419622318E-10 -3.36034301774432E-16 1.38133333612618E-07 -7.93182376194384E-16 
                1.39057830160063E-09 180              5.59781873775336E-08 1.19986968883139E-14 0.00261211013679286 -180             1.65053272399131E-11 180              
                1.04827307599503E-08 1.81460313582705E-16 2.06491769423959E-09 180              3.05814425691349E-07 -180             2.63594365255754E-07 1.04087728534961E-14 
                7.88881438425882E-10 -1.68364107611104E-14 9.84741837400309E-08 180              
                2.27554090056001E-10 180              8.82830626509959E-11 -180             7.85645137207003E-13 -180             1.12955285292304E-10 180              
                1.06493007806731E-12 -180             5.3911636808716E-10 -180             1.65053272399132E-11 -180             0.0047219775827656 180              
                9.96595077184333E-12 -180             3.0524195274548E-12 -3.29719090170236E-20 5.91863426277917E-11 1.14036498938296E-14 1.27184223473813E-10 -180             
                6.99084364526829E-13 180              4.69604232704667E-11 -2.75175148275982E-20 
                1.73459721293745E-07 180              1.98366179609084E-07 -180             1.08147879931871E-09 -180             6.96171802703863E-08 -180             
                2.16664240735265E-09 -180             9.48056883727287E-08 1.27368882340184E-14 1.04827307599504E-08 -1.23581930121632E-15 9.9659507718433E-12 -180             
                0.00474919701494614 180              2.91452253080977E-09 180              2.87358560491214E-07 -180             7.94833191143466E-08 -180             
                6.84539270731596E-10 180              6.3187459155757E-08 5.53707254940546E-20 
                4.96120890277717E-08 180              1.36318126356136E-07 -180             2.92806229027581E-09 180              3.52218956236167E-08 5.34537903717884E-19 
                6.18274927958509E-09 1.06565110093807E-20 3.11829188065902E-08 -180             2.06491769423958E-09 180              3.0524195274548E-12 -1.04091901891372E-19 
                2.91452253080978E-09 -180             0.00730091195248539 -180             5.61788964740992E-08 -180             2.26215710039688E-07 180              
                1.26816834778424E-09 -3.12205733979846E-14 6.01186139199915E-08 180              
                1.75092541236774E-06 180              5.63473643165586E-07 -180             3.463994876393E-09 -180             3.06231048963788E-07 -180             
                2.90038099733693E-08 8.30940102035155E-15 3.80825671681264E-07 -180             3.05814425691348E-07 -180             5.91863426277918E-11 8.44624466918961E-15 
                2.87358560491214E-07 -180             5.61788964740989E-08 -180             0.0010340311812056 179.999999999994 2.08419394109849E-06 8.18006690200657E-15 
                3.04405218520535E-09 -5.712756515815E-15 6.25756771115561E-07 -180             
                5.74563891199699E-07 180              6.19586976048926E-08 -180             3.9635911053641E-09 9.44288450854513E-15 3.18882156306502E-06 6.85730366581196E-15 
                2.95161082764654E-08 9.6179766282018E-15 2.56613620919233E-07 1.5894387095536E-14 2.63594365255754E-07 5.5157384207268E-15 1.27184223473813E-10 -180             
                7.94833191143466E-08 -180             2.26215710039687E-07 -180             2.0841939410985E-06 1.57484010817056E-14 0.0096473625957727 179.999999999999 
                6.39080670747375E-08 -2.78247982022228E-14 2.14286784156915E-06 7.50874945315111E-15 
                8.1136301173424E-09 180              7.1207751231887E-09 180              1.18398790756915E-10 180              9.44709979257718E-08 -1.47613357500003E-14 
                1.27198020775908E-09 -1.50759774983189E-14 3.91052671424608E-09 -180             7.88881438425883E-10 -1.35117456779393E-14 6.99084364526829E-13 180              
                6.84539270731597E-10 180              1.26816834778424E-09 -1.07839467541948E-14 3.04405218520535E-09 -2.63431576905534E-16 6.39080670747375E-08 3.77418799257151E-15 
                0.00191027285902601 -179.999999999995 4.04296958489667E-08 -1.36393666505664E-14 
                6.91355579865501E-07 -2.31286134359931E-14 4.99555070923631E-07 1.3515575636674E-19 6.98445784809926E-09 5.40560028338374E-20 2.60013629853554E-06 1.49097982655742E-21 
                5.27283972543274E-08 180              6.24647872215141E-07 1.70054497978695E-14 9.8474183740031E-08 -180             4.69604232704666E-11 -8.32835054799382E-20 
                6.31874591557571E-08 8.778874398821E-20 6.01186139199913E-08 -180             6.2575677111556E-07 -180             2.14286784156915E-06 1.02280486115014E-14 
                4.04296958489667E-08 -1.08589274709023E-14 0.00239726574505961 180              
! Gamma         !               59.5939223012498 0                75.9748556992771 0                59.5939517779855 0                102.809765412266 0                
!               75.9741810479056 0                75.9743918312816 0                75.9740669608066 0                102.80991254382  0                
!               102.810249192065 0                75.9743642800927 0                75.9743164795152 0                102.809914037089 0                
!               59.5938430302682 0                75.9747172232526 0                
! Port Impedance0                31.0361233995244 0                60.7463387626177 0                62.0233204198622 0                29.9888843795872 
!               0                60.8885312988073 0                30.4440352015372 0                60.8215535985957 0                59.9675257068808 
!               0                59.9438698675537 0                60.8708232993785 0                30.4420818288006 0                29.9757674839474 
