! Touchstone file from project test_multiport
! Exported from HFSS 2019.2.0
!Data is not renormalized
# GHZ S MA
! Modal data exported
! Port[1] = 1:1
! Port[2] = 2:1
! Port[3] = 3:1
! Port[4] = 4:1
! Port[5] = 5:1
! Port[6] = 6:1
! Port[7] = 7:1
! Port[8] = 8:1
! Port[9] = 9:1
! Port[10] = 10:1
! Port[11] = 11:1
! Port[12] = 12:1
! Port[13] = 13:1
! Port[14] = 14:1
! Port[15] = 15:1
! Port[16] = 16:1
! Port[17] = 17:1
! Port[18] = 18:1
! Port[19] = 19:1
0.9                            0.000357652365959416 180              2.39308412803477E-06 180              1.21177345450383E-08 180              6.71496772754739E-07 -180             
                3.47558344013221E-08 180              1.94399164011519E-06 3.09773703872541E-14 6.99763857490151E-08 3.96278003486263E-20 2.62478445285324E-10 -180             
                2.68398282842575E-07 180              4.34249667004043E-08 180              1.56469160183031E-06 180              5.25397360573704E-07 -180             
                6.7061964753342E-09 -180             5.97382416393703E-07 1.59357763231366E-19 1.06343163131146E-06 -1.78754305096871E-14 1.03576242877116E-07 1.3898894917061E-21 
                4.1702516610144E-08 -1.25476260838178E-14 5.49879336870381E-11 2.22061220286651E-19 6.97992778764203E-08 -180             
                2.39308412803476E-06 180              0.000522454163206953 180              2.35827739364449E-08 -180             4.09152607398769E-08 -180             
                1.04876237333878E-07 180              5.61869309721495E-07 2.80923574976019E-14 3.8311238557834E-08 1.44767087149213E-20 9.72420263394091E-11 -180             
                1.63502528481181E-07 180              1.25828182462488E-07 180              5.19426940274002E-07 180              6.83964047493621E-08 -180             
                6.23189458274929E-09 -180             4.50864868360298E-07 8.67895602245077E-20 6.17035754214605E-07 -1.59279199745151E-14 1.98594062558724E-07 2.08696348846526E-21 
                4.27127476230354E-08 -1.96064503791627E-14 3.88430279570568E-12 1.07807812353074E-18 1.16639949969995E-07 -180             
                1.21177345450383E-08 180              2.35827739364449E-08 -180             0.000404224060963298 -180             6.24886007924439E-09 -1.24731664519538E-19 
                3.76112804207307E-09 180              2.6797917083312E-09 3.06724074971682E-14 3.68024744898271E-10 8.65335434287732E-22 6.99295230013997E-13 -180             
                7.72541157853613E-10 -180             2.45406040022692E-09 180              2.92620268295742E-09 180              3.52601634224875E-09 -1.06086247455658E-19 
                9.62469051661531E-11 -180             5.80737923446898E-09 6.83741910790955E-20 6.38315850780111E-09 -1.8339242588981E-14 2.87635283773993E-09 2.53869867676423E-21 
                6.69930365270647E-10 -1.71938271064179E-14 5.02516558951102E-13 180              1.23811498208039E-09 -7.82803976557051E-22 
                6.7149677275474E-07 -180             4.09152607398766E-08 -180             6.24886007924439E-09 -6.36074834401443E-20 1.63511971884578E-05 -3.39853365749233E-21 
                2.6209812728263E-07 -180             2.42645579813027E-06 -180             1.31005865283043E-07 -3.41103714913234E-20 7.54592739152133E-11 2.16952484211175E-14 
                5.29629469402688E-08 -180             3.36371683150346E-08 -6.2280651151529E-15 2.995927202871E-07 180              3.30159825269631E-06 -4.80102440549525E-20 
                8.89630548174501E-08 8.37411247760834E-17 2.47845328615402E-06 3.24754179736752E-20 4.73742754562298E-06 -8.63622398182084E-15 8.76488823279043E-08 180              
                2.38773998358608E-07 180              3.41713737342225E-09 180              4.02811559794066E-08 3.30497023686146E-21 
                3.47558344013221E-08 180              1.04876237333877E-07 180              3.76112804207306E-09 180              2.6209812728263E-07 -180             
                0.0015252465151715 180              4.34419272307067E-08 2.67901082929807E-14 1.23052139333571E-09 180              3.678532822268E-12 180              
                1.72399508082785E-09 180              5.54196335837877E-09 -1.0350191755028E-14 2.63008378685694E-08 -4.21299781071222E-20 2.79066606196848E-08 5.81288943018903E-20 
                1.11725284131629E-09 4.428386417975E-15 4.75558286294418E-08 -180             3.02027110791371E-08 180              9.79387425414194E-09 -5.70163422612028E-21 
                5.51335199265599E-09 180              6.37654359068695E-11 180              7.67614946312397E-10 -180             
                1.94399164011519E-06 3.1988745645706E-14 5.61869309721494E-07 3.25722862234821E-14 2.67979170833119E-09 3.15724742415534E-14 2.42645579813027E-06 -180             
                4.34419272307068E-08 3.25482466972134E-14 0.00021860713553179 179.999999999871 5.21270817161444E-08 3.16443403406193E-14 3.43910883632175E-10 -180             
                7.65845182714714E-08 3.28183068312894E-14 2.75903730187249E-08 -180             3.5831263001415E-07 -180             2.50599799202136E-07 3.18807670777229E-14 
                3.43225951333992E-09 -180             5.8048748646784E-07 3.21700602030218E-14 1.97436066148847E-06 1.79003631683109E-14 1.7479270754868E-08 -180             
                1.06355427884997E-08 1.43699312715909E-14 1.23844411930967E-10 3.25332547484645E-14 8.14706135507708E-09 -180             
                6.9976385749015E-08 3.7731602725817E-20 3.83112385578339E-08 1.41662791446831E-20 3.68024744898271E-10 -7.55928382084227E-22 1.31005865283043E-07 -6.06416533167634E-20 
                1.2305213933357E-09 180              5.21270817161445E-08 3.0012109314135E-14 0.00133998142853542 180              2.23875963969835E-11 180              
                8.63738949195535E-09 8.09520858743752E-21 1.85434246869161E-09 180              3.03047801327027E-07 180              2.53047884349275E-07 -8.68312995042589E-21 
                7.1036397517025E-10 4.88884301403424E-15 9.5345043510566E-08 180              3.96411704210034E-08 -1.93861629202143E-14 4.37491037436833E-09 180              
                4.52593806859555E-09 -180             8.52312910217534E-12 180              7.59279694867399E-10 -2.514254939794E-20 
                2.62478445285324E-10 180              9.72420263394092E-11 180              6.99295230013999E-13 180              7.54592739152135E-11 -1.16161214602729E-15 
                3.67853282226801E-12 180              3.43910883632174E-10 -180             2.23875963969835E-11 180              0.00120530643958094 -179.999999999997 
                1.42434776974727E-11 180              4.67649307551981E-12 -6.66238827537442E-15 8.60496346782788E-11 -2.84915480665648E-16 1.4092574993788E-10 180              
                3.7463443026195E-13 -180             3.27899493872124E-12 180              2.12942544209411E-10 180              6.0229917681882E-12 -8.62516382652617E-16 
                1.88229878368408E-12 5.91729967317565E-15 5.21937881145615E-15 180              4.88654388696897E-13 -4.9610315158331E-16 
                2.68398282842575E-07 180              1.63502528481181E-07 180              7.72541157853614E-10 -180             5.29629469402688E-08 -180             
                1.72399508082784E-09 180              7.65845182714714E-08 3.41518647577276E-14 8.63738949195535E-09 8.55590047063254E-21 1.42434776974728E-11 180              
                0.00580980052460944 180              2.05131827734763E-09 180              2.31956715812866E-07 180              6.98978531281148E-08 -180             
                5.13180058872125E-10 180              4.97121297473783E-08 1.52872594291184E-19 9.1039464915671E-08 -2.19548799630095E-14 8.22369201064549E-09 1.07125879367633E-20 
                3.4554734572954E-09 -1.87657303844748E-14 3.08641459626905E-12 2.4433626216652E-19 5.06344192119687E-09 -180             
                4.34249667004044E-08 -180             1.25828182462488E-07 -180             2.45406040022692E-09 -180             3.36371683150346E-08 3.37248912844212E-15 
                5.54196335837874E-09 2.76880099299327E-15 2.75903730187248E-08 -180             1.85434246869159E-09 -180             4.6764930755198E-12 1.85968416767271E-14 
                2.05131827734763E-09 -180             0.000990283281474436 179.999999999997 5.2977580976448E-08 -180             2.32998635203235E-07 -180             
                1.12163989718448E-09 3.84424895695831E-16 5.36426316029047E-08 -180             3.00799355525968E-08 180              4.02093193794505E-08 4.32168252768735E-15 
                1.61100885209195E-08 180              8.97645244777051E-12 2.86555596291961E-15 3.30736426956127E-08 2.98984184816236E-15 
                1.56469160183031E-06 180              5.19426940274002E-07 180              2.92620268295743E-09 180              2.995927202871E-07 180              
                2.63008378685694E-08 -3.13259489045704E-20 3.5831263001415E-07 -180             3.03047801327027E-07 180              8.60496346782789E-11 -2.42458100339403E-15 
                2.31956715812866E-07 180              5.2977580976448E-08 180              0.0004060179815909 -180             2.13511607141634E-06 2.592809640674E-20 
                2.70613198601235E-09 6.44202711057152E-15 5.83675659213807E-07 -180             1.57355271370336E-06 180              2.25454212727866E-08 -4.42659102326259E-20 
                1.42017549017922E-08 180              7.63330393069131E-11 -5.54891852371177E-20 4.30310035676853E-08 180              
                5.25397360573706E-07 180              6.83964047493619E-08 180              3.52601634224875E-09 -1.25270704332215E-20 3.3015982526963E-06 -3.2842768262996E-20 
                2.79066606196849E-08 3.32028160261392E-20 2.50599799202135E-07 5.05877394486734E-14 2.53047884349275E-07 6.66566276096405E-22 1.40925749937879E-10 -180             
                6.98978531281147E-08 -180             2.32998635203234E-07 -180             2.13511607141634E-06 7.41764232161362E-21 0.00147772098989418 -180             
                6.27712967893957E-08 9.5887886354693E-16 2.2321690174974E-06 2.06921682898831E-20 3.42536909584422E-06 -4.44346012815309E-15 9.50902015434245E-08 180              
                1.0746078280837E-06 180              4.09599041253308E-11 180              6.54251507650555E-08 -180             
                6.70619647533422E-09 180              6.2318945827493E-09 180              9.62469051661535E-11 180              8.89630548174504E-08 -5.05789206327538E-15 
                1.11725284131629E-09 -5.96256588659461E-15 3.43225951333992E-09 -180             7.10363975170252E-10 -5.87722149911022E-15 3.74634430261951E-13 180              
                5.13180058872124E-10 180              1.12163989718448E-09 -1.75405352850923E-14 2.70613198601235E-09 -5.69510364200202E-15 6.27712967893959E-08 -5.84511956574076E-15 
                0.000658840997473931 -179.999999999992 3.93396662865963E-08 -5.58753935195221E-15 1.54236737189841E-08 -1.59290705446672E-14 1.14280134156692E-09 -5.742079470117E-15 
                4.18144363123782E-11 -2.27325850552101E-13 1.0419083597765E-11 -5.55120107117134E-15 1.28636049297062E-10 -6.33287387669499E-15 
                5.97382416393706E-07 1.35631742851877E-19 4.50864868360297E-07 7.63028494586996E-20 5.80737923446899E-09 4.92140926334667E-20 2.47845328615402E-06 4.91120221358987E-20 
                4.75558286294418E-08 -180             5.80487486467841E-07 3.49684936744634E-14 9.53450435105662E-08 180              3.27899493872129E-12 -180             
                4.97121297473784E-08 1.00922638206811E-19 5.36426316029047E-08 180              5.83675659213809E-07 -180             2.2321690174974E-06 5.92774468510519E-20 
                3.93396662865962E-08 6.50193446023154E-18 0.000532445782218893 -180             3.04731372530674E-06 180              6.7870111029567E-08 -180             
                1.09446303790211E-07 180              3.18438392852095E-10 -180             9.27300495370322E-10 180              
                1.06343163131145E-06 -1.00124885195697E-14 6.17035754214604E-07 -1.0021132376856E-14 6.38315850780111E-09 -1.02174004689929E-14 4.73742754562298E-06 -1.07688085323546E-14 
                3.02027110791371E-08 180              1.97436066148847E-06 2.68753558613176E-14 3.96411704210034E-08 -9.95745139214426E-15 2.1294254420941E-10 180              
                9.10394649156711E-08 -1.02569605920054E-14 3.00799355525968E-08 180              1.57355271370336E-06 180              3.42536909584421E-06 -1.07594493253152E-14 
                1.54236737189841E-08 2.23331808179419E-15 3.04731372530674E-06 180              0.000392060375505432 -179.999999999973 6.77863219738745E-08 180              
                7.0902829830648E-08 180              1.94149043682994E-10 180              8.7591940746151E-09 -1.01663662467954E-14 
                1.03576242877116E-07 -4.93899182839813E-21 1.98594062558725E-07 4.17139523489942E-22 2.87635283773994E-09 1.15499954521292E-21 8.76488823279045E-08 180              
                9.7938742541419E-09 -5.07781010866819E-21 1.7479270754868E-08 -180             4.37491037436834E-09 -180             6.0229917681882E-12 1.90715376284198E-14 
                8.22369201064551E-09 1.55950666981597E-21 4.02093193794505E-08 -6.33397640628634E-15 2.25454212727866E-08 -3.55813212497146E-20 9.50902015434244E-08 180              
                1.14280134156692E-09 7.79263713176209E-16 6.7870111029567E-08 -180             6.77863219738747E-08 180              0.000904127833358248 -180             
                1.24399912379249E-08 180              4.80099052125971E-11 -4.57748871381601E-21 3.76935624624634E-08 180              
                4.17025166101441E-08 -5.35664274803197E-15 4.27127476230354E-08 -5.6247507098822E-15 6.69930365270647E-10 -5.2468322100955E-15 2.38773998358609E-07 180              
                5.51335199265598E-09 180              1.06355427884997E-08 1.67243433755153E-14 4.52593806859555E-09 180              1.88229878368407E-12 -2.63589664400461E-14 
                3.4554734572954E-09 -5.96228579496416E-15 1.61100885209195E-08 180              1.42017549017922E-08 180              1.0746078280837E-06 180              
                4.18144363123784E-11 1.35743296288121E-13 1.09446303790211E-07 180              7.09028298306481E-08 180              1.24399912379248E-08 180              
                0.00234849870102072 -179.999999999997 1.97719674707346E-11 180              1.37811692315856E-09 180              
                5.49879336870382E-11 1.9105626616645E-19 3.88430279570572E-12 9.82442190314449E-19 5.02516558951103E-13 180              3.41713737342225E-09 180              
                6.37654359068697E-11 180              1.23844411930967E-10 2.94284883957714E-14 8.52312910217537E-12 180              5.21937881145615E-15 -180             
                3.08641459626905E-12 1.75281548766202E-19 8.97645244777049E-12 -1.11002341041928E-14 7.63330393069131E-11 -6.79138836602501E-20 4.0959904125331E-11 180              
                1.0419083597765E-11 -2.95393980606094E-15 3.18438392852095E-10 -180             1.94149043682994E-10 180              4.80099052125971E-11 -5.14113323122857E-21 
                1.97719674707346E-11 180              0.00144840704553251 180              7.40998245554794E-12 -180             
                6.97992778764205E-08 -180             1.16639949969995E-07 -180             1.2381149820804E-09 -2.98329405720955E-22 4.02811559794066E-08 1.56487982282779E-20 
                7.67614946312396E-10 -180             8.14706135507712E-09 -180             7.59279694867398E-10 -2.24200943095159E-20 4.88654388696896E-13 9.52750342581556E-15 
                5.06344192119688E-09 -180             3.30736426956127E-08 -7.58414677547815E-15 4.30310035676855E-08 180              6.54251507650558E-08 -180             
                1.28636049297062E-10 7.54631468494924E-15 9.27300495370327E-10 -180             8.75919407461507E-09 -3.1246741947042E-15 3.76935624624634E-08 -180             
                1.37811692315856E-09 180              7.40998245554795E-12 -180             0.000509620220250695 -180             
! Gamma         !               59.9338044008045 0                76.2416901472846 0                59.9340234529371 0                103.00715964322  0                
!               76.2411069697726 0                76.2412590623642 0                76.2412537747606 0                103.007321137332 0                
!               103.007709377602 0                76.241332164886  0                76.241244638476  0                103.007127087114 0                
!               59.9337779134316 0                76.2416450840784 0                59.9342869777306 0                103.007801430024 0                
!               76.2416878846294 0                103.00740762739  0                76.2411832860774 0                
! Port Impedance0                29.2420414318358 0                57.3675211498517 0                58.4290766789585 0                28.3550007883739 
!               0                57.4821400141196 0                28.7417756673993 0                57.4652255641797 0                56.6877508926049 
!               0                56.676643855011  0                57.4720234699911 0                28.7386496661562 0                28.3544827253479 
!               0                58.4917823662443 0                57.3816443125329 0                29.2080279406293 0                56.6797366406704 
!               0                57.3476685706399 0                56.6803733238733 0                28.7389459756062 

0.95                           0.000356728415480734 -179.99999999998 2.48921615072817E-06 180              1.35059295920076E-08 180              7.44573953521586E-07 180              
                3.88283479987169E-08 180              2.10435234576091E-06 -8.28434974834788E-15 7.62136835896083E-08 -7.9058185104945E-15 2.83947910994919E-10 180              
                2.62842503526924E-07 180              4.85074674751471E-08 180              1.69570910195973E-06 180              5.82183858279179E-07 180              
                7.82004267309606E-09 180              6.6114850062249E-07 1.69586792026123E-14 1.17312213160424E-06 9.28145439635498E-15 1.12115432803609E-07 -7.84803175179816E-15 
                4.70915999346076E-08 -1.31637584065676E-14 6.21696071658406E-11 -1.98261375098165E-14 7.67909639909776E-08 180              
                2.48921615072816E-06 180              0.000520830688729768 -179.999999999991 2.51772545712101E-08 180              4.44214981581482E-08 -180             
                1.1340909402109E-07 180              6.09557342370031E-07 -2.99414498347946E-15 4.19812977429131E-08 -2.93962297948633E-15 1.05740261784495E-10 -180             
                1.70138870432752E-07 180              1.35556297931917E-07 180              5.65748617793017E-07 180              7.40175063584238E-08 180              
                7.10074521961175E-09 180              4.93169121195269E-07 3.04963750251355E-14 6.82256550495256E-07 1.3563382822108E-14 2.0582783389371E-07 -2.62242212588767E-15 
                4.68481895614507E-08 -2.32418688617039E-15 4.41747594428478E-12 -3.04270566393644E-13 1.23977742353665E-07 180              
                1.35059295920077E-08 180              2.51772545712101E-08 180              0.000406519675806072 -180             7.04892045622914E-09 -2.14568215995427E-15 
                4.19445371953411E-09 -180             3.08737632552316E-09 3.7313104126133E-19 4.26905322427312E-10 1.83881538823364E-20 8.08078316385326E-13 -180             
