! Touchstone file from project test_multiport
! Exported from HFSS 2019.2.0
!Data is not renormalized
# GHZ S MA
! Modal data exported
! Port[1] = 1:1
! Port[2] = 2:1
! Port[3] = 3:1
! Port[4] = 4:1
! Port[5] = 5:1
0.9                            0.000214820393130699 -179.999999999949 3.16875439357991E-06 180              1.29450306912173E-08 180              7.15808143676785E-07 180              
                3.65330237684196E-08 180              
                3.16875439357991E-06 180              0.000691095831902744 179.999999999996 2.36758438481191E-08 180              4.2760667842566E-08 -180             
                1.06048415702068E-07 180              
                1.29450306912173E-08 180              2.36758438481191E-08 -180             0.000434723291635297 -179.99999999999 6.55307330381724E-09 -8.80684557231788E-15 
                3.70302823697173E-09 180              
                7.15808143676784E-07 180              4.27606678425656E-08 -180             6.55307330381724E-09 -1.53573174893665E-14 0.000707377717476421 -180             
                2.66302249409015E-07 180              
                3.65330237684196E-08 180              1.06048415702068E-07 180              3.70302823697173E-09 180              2.66302249409016E-07 180              
                0.00179760713746735 -179.999999999992 
! Gamma         !               59.9338391480277 0                76.2420044438404 0                59.9338384614246 0                103.007087614725 0                
!               76.241111535989  0                
! Port Impedance0                29.2348906154537 0                57.3419432653346 0                58.4564190574498 0                28.3576503705026 
!               0                57.4819233489689 

0.95                           0.000210368581390674 180              3.3037184052673E-06 180              1.44443134596235E-08 180              7.94301432546966E-07 180              
                4.07794426276288E-08 180              
                3.3037184052673E-06 180              0.000686985740722901 180              2.52770468123513E-08 180              4.60380748681594E-08 180              
                1.14585004102914E-07 180              
                1.44443134596235E-08 180              2.52770468123513E-08 180              0.000434424180809856 180              7.39175323455029E-09 0                
                4.12865002625763E-09 180              
                7.94301432546965E-07 180              4.60380748681598E-08 180              7.39175323455028E-09 0                0.000693230289374847 180              
                2.83578413704401E-07 180              
                4.07794426276287E-08 180              1.14585004102914E-07 180              4.12865002625762E-09 180              2.83578413704401E-07 180              
                0.00178567593997747 180              
! Gamma         !               59.5939077106739 0                75.9750748786812 0                59.5939070201541 0                102.80967298885  0                
!               75.9741788336652 0                
! Port Impedance0                31.035073583049  0                60.7402383396853 0                62.0559565835243 0                29.9905518070503 
!               0                60.8885396897187 

1                              0.000205366711883981 179.999999999987 3.45018283925619E-06 -180             1.62229836861323E-08 180              8.87547369309232E-07 -180             
                4.58793805882746E-08 -180             
                3.45018283925618E-06 -180             0.000682617679215181 180              2.70544926392849E-08 180              4.98554528347596E-08 180              
                1.24472764496517E-07 -180             
                1.62229836861324E-08 180              2.70544926392849E-08 180              0.000434202250997551 -179.999999999987 8.40614140265338E-09 -7.87324398168593E-15 
                4.63521895730043E-09 180              
                8.87547369309231E-07 -180             4.98554528347591E-08 180              8.40614140265338E-09 -1.40130783848374E-14 0.000678097793376353 180              
                3.03226827554804E-07 -180             
                4.58793805882747E-08 -180             1.24472764496518E-07 -180             4.63521895730043E-09 180              3.03226827554804E-07 -180             
                0.00177311908150724 179.999999999998 
! Gamma         !               59.2334898031249 0                75.6926976719011 0                59.2334891084038 0                102.601176104871 0                
!               75.6917982840832 0                
! Port Impedance0                32.86727453858   0                64.1755866514222 0                65.7195143181617 0                31.633152549784  
!               0                64.3323044803527 

1.05                           0.000199734912610721 -179.999999999984 3.60838012402457E-06 180              1.83419506033721E-08 180              9.98959237971111E-07 -180             
                5.20466746457983E-08 -180             
                3.60838012402455E-06 -180             0.000677982833227692 179.999999999998 2.90192126781021E-08 180              5.43279871384594E-08 -180             
                1.35973471612773E-07 -180             
                1.83419506033722E-08 180              2.9019212678102E-08 180              0.000434076696619342 -179.999999999973 9.64161303188514E-09 -1.81267977512269E-14 
                5.2413754742598E-09 180              
                9.98959237971113E-07 -180             5.43279871384578E-08 -180             9.64161303188516E-09 -3.21241048150733E-14 0.000661935062130498 180              
                3.25631094866865E-07 -180             
                5.20466746457987E-08 -180             1.35973471612774E-07 180              5.24137547425981E-09 180              3.25631094866865E-07 180              
                0.00175993977200559 179.999999999999 
! Gamma         !               58.8522090418658 0                75.3946992546585 0                58.8522083426441 0                102.381529256763 0                
!               75.3937963119574 0                
! Port Impedance0                34.7342171880488 0                67.6506715164281 0                69.4525382981291 0                33.2860672656014 
!               0                67.8159080212163 

1.1                            0.000193376706552617 -179.999999999925 3.77830077858201E-06 180              2.0876069611181E-08 180              1.13288863418108E-06 180              
                5.95585691804352E-08 180              
                3.77830077858201E-06 180              0.000673070888409955 -180             3.11789532878383E-08 -180             5.96043414501857E-08 -180             
                1.49413279086523E-07 -180             
                2.0876069611181E-08 180              3.11789532878384E-08 -180             0.000434069355142674 -180             1.11569149450441E-08 -2.64372747406598E-20 
                5.97065289222501E-09 -180             
                1.13288863418109E-06 180              5.96043414501866E-08 -180             1.11569149450441E-08 -1.9533782911874E-20 0.000644691351042281 -180             
                3.512552113352E-07 -180             
                5.95585691804352E-08 -180             1.49413279086523E-07 -180             5.97065289222501E-09 -180             3.51255211335201E-07 -180             
                0.0017461414270985 179.999999999994 
! Gamma         !               58.4496571485248 0                75.0808936239641 0                58.4496564444869 0                102.150660519773 0                
!               75.0799869073078 0                
! Port Impedance0                36.6388364321616 0                71.1683110663006 0                73.2608968369929 0                34.9499283410471 
!               0                71.342175793937  

