! Touchstone file from project test_multiport
! Exported from HFSS 2019.2.0
!Data is not renormalized
# GHZ S MA
! Modal data exported
! Port[1] = 1:1
! Port[2] = 2:1
! Port[3] = 3:1
! Port[4] = 4:1
! Port[5] = 5:1
! Port[6] = 6:1
! Port[7] = 7:1
! Port[8] = 8:1
0.9                            0.000542811908156526 -179.999999999998 3.0288239363107E-06 -180             1.37043189581556E-08 180              6.76212457048587E-07 180              
                4.17891037039089E-08 180              2.01450258359799E-06 -1.60397550059242E-15 7.02620676657312E-08 -1.05870765390053E-16 3.30746846662184E-10 -180             
                3.0288239363107E-06 180              0.000667222593709771 180              2.51906964903374E-08 -180             3.09902455285842E-08 -180             
                1.22139431102169E-07 180              5.58174725313867E-07 3.98323230801311E-20 3.7123677855975E-08 -1.6833155410884E-20 1.29313585792515E-10 180              
                1.37043189581556E-08 180              2.51906964903374E-08 180              0.000560478516979157 -180             6.61592448068874E-09 -2.32064702545705E-14 
                4.60975909830699E-09 180              2.81052012445583E-09 1.29690065610385E-19 3.82114190721034E-10 -4.50358440260553E-20 1.14542933284044E-12 -180             
                6.76212457048585E-07 -180             3.09902455285847E-08 180              6.61592448068874E-09 -9.55878227707424E-15 0.00125122307032943 -179.99999999999 
                2.90303106617234E-07 180              2.41488463316219E-06 180              1.26197488940018E-07 -1.04581691699715E-14 2.14312354304438E-10 180              
                4.17891037039089E-08 -180             1.22139431102169E-07 180              4.60975909830698E-09 180              2.90303106617233E-07 -180             
                0.00788865921237869 180              4.95411668336914E-08 6.32498559575713E-20 1.41068656803175E-09 -180             8.51505162106171E-13 -180             
                2.014502583598E-06 -1.0642643089287E-15 5.58174725313868E-07 -3.06526154464543E-21 2.81052012445582E-09 -2.78427676511273E-21 2.4148846331622E-06 180              
                4.95411668336914E-08 1.87535621605915E-20 0.000475764496006836 180              5.08153368613719E-08 -4.94478729492487E-21 8.67321206490609E-10 180              
                7.02620676657314E-08 -2.73414836218915E-15 3.71236778559749E-08 8.58673880554884E-21 3.82114190721035E-10 -2.50221876820339E-21 1.26197488940018E-07 -7.25690068777833E-15 
                1.41068656803175E-09 180              5.08153368613719E-08 1.5294298507847E-20 0.00195501619303873 -180             2.27692115337443E-11 180              
                3.30746846662184E-10 180              1.29313585792516E-10 180              1.14542933284043E-12 180              2.14312354304438E-10 180              
                8.51505162106172E-13 180              8.67321206490608E-10 180              2.27692115337443E-11 180              0.00383277733864973 -179.999999999998 
! Gamma         !               59.9340336347179 0                76.2418868107813 0                59.933985516908  0                103.007218925029 0                
!               76.241113742477  0                76.2413394858011 0                76.2411164596032 0                103.007346520121 0                
! Port Impedance0                29.2202035051276 0                57.3504057575577 0                58.4290951547642 0                28.3561136162135 
!               0                57.4819153933399 0                28.7441967392739 0                57.4299379044134 0                56.6865874547542 

0.95                           0.000539406507158113 180              3.1541231262223E-06 -180             1.52864886573492E-08 180              7.50044705244966E-07 180              
                4.66045022431229E-08 180              2.18099464240801E-06 -7.20024340775396E-21 7.65752563372471E-08 -1.41390364446865E-20 3.55421923907811E-10 180              
                3.1541231262223E-06 -180             0.000663818983768438 -179.999999999996 2.68969977119713E-08 -180             3.36448445484335E-08 180              
                1.31766094743709E-07 -180             6.05585719985007E-07 -1.09406536346594E-16 4.06991309168339E-08 1.03260147129296E-16 1.39873199207829E-10 -180             
                1.52864886573492E-08 -180             2.68969977119714E-08 -180             0.00056048032956757 179.999999999999 7.4624567139338E-09 1.88484140520309E-15 
                5.12916799302395E-09 -180             3.23609624654797E-09 1.75079947626073E-15 4.43180962298668E-10 1.72929351155761E-15 1.313427346512E-12 -180             
                7.50044705244966E-07 180              3.36448445484336E-08 -180             7.46245671393381E-09 9.00879633924683E-15 0.00123780146505537 180              
                3.08612914901325E-07 180              2.55549716913574E-06 -180             1.37187750178229E-07 -3.00272853291078E-22 2.31975578334855E-10 180              
                4.66045022431229E-08 -180             1.31766094743709E-07 180              5.12916799302396E-09 180              3.08612914901325E-07 -180             
                0.00783011373741438 -180             5.2773473342373E-08 2.05781539993326E-20 1.5790047253148E-09 180              8.73594385801034E-13 -180             
                2.18099464240802E-06 -8.52773522982407E-21 6.05585719985008E-07 6.5414254097715E-15 3.23609624654798E-09 -2.27190665921929E-15 2.55549716913574E-06 -180             
                5.27734733423731E-08 -1.37930171796518E-20 0.0004712042992846 180              5.53118564925164E-08 4.07730260068488E-21 9.20681332738566E-10 -180             
                7.6575256337247E-08 -1.31137892949902E-20 4.06991309168339E-08 4.62842258776103E-15 4.43180962298669E-10 -7.27826116547028E-15 1.37187750178229E-07 -6.82056837398677E-23 
                1.5790047253148E-09 -180             5.53118564925166E-08 3.12935155494867E-21 0.00194231375423837 180              2.48092914153257E-11 -180             
                3.55421923907811E-10 180              1.39873199207828E-10 -180             1.31342734651199E-12 -180             2.31975578334855E-10 180              
                8.73594385801035E-13 180              9.20681332738568E-10 -180             2.48092914153256E-11 -180             0.0038222484588899 180              
! Gamma         !               59.5941033067375 0                75.9749568323313 0                59.5940549144591 0                102.809804551295 0                
!               75.9741810479056 0                75.9744075843689 0                75.9741837745783 0                102.809932391393 0                
! Port Impedance0                31.0194816583909 0                60.7491926214782 0                62.0269512893216 0                29.9889265287324 
!               0                60.8885312988044 0                30.4476983803632 0                60.8334540280943 0                59.9507366369666 

1                              0.000535555617136696 -180             3.28967915175024E-06 180              1.71627519210432E-08 -180             8.37749817253982E-07 -180             
                5.2382959110754E-08 180              2.37381344918237E-06 2.40821321494678E-20 8.39049979188088E-08 -1.3578780935964E-14 3.83578015234421E-10 -180             
                3.28967915175024E-06 180              0.000660211748286454 -179.999999999994 2.8791356397038E-08 -180             3.67593356046254E-08 180              
                1.42904473075029E-07 180              6.60682537393538E-07 -6.74514348911567E-15 4.48907126320771E-08 -1.83626355567069E-14 1.5206317511771E-10 180              
                1.71627519210432E-08 -180             2.87913563970379E-08 -180             0.000560625041048701 179.999999999993 8.48655159992481E-09 6.83514130733353E-15 
                5.74626745140129E-09 180              3.76101101968819E-09 6.80156341894423E-15 5.19036459054308E-10 -7.41823396453945E-15 1.5195369794647E-12 -180             
                8.37749817253979E-07 180              3.67593356046248E-08 -180             8.4865515999248E-09 2.6520509800698E-14 0.00122345561762538 -180             
                3.29407570690625E-07 180              2.71475908129915E-06 -180             1.49966303363502E-07 -1.63108533472168E-14 2.52341653822948E-10 180              
                5.23829591107542E-08 -180             1.4290447307503E-07 180              5.7462674514013E-09 -180             3.29407570690626E-07 -180             
                0.00776835450646507 179.999999999999 5.64071966745196E-08 1.49093987603556E-14 1.78206259786805E-09 180              8.89877102425614E-13 -180             
                2.37381344918237E-06 7.12988105863764E-21 6.60682537393538E-07 -5.37919666793893E-15 3.7610110196882E-09 1.32851024480887E-14 2.71475908129916E-06 180              
                5.64071966745193E-08 -3.16963389073212E-14 0.000466361538337234 -180             6.05483199312429E-08 -9.44930056434608E-15 9.80873696570895E-10 180              
                8.39049979188088E-08 -5.99441365624041E-15 4.4890712632077E-08 -3.10446175065161E-14 5.19036459054307E-10 1.63680651225057E-14 1.49966303363501E-07 -5.33522177231122E-15 
                1.78206259786805E-09 180              6.05483199312429E-08 -5.44253692326343E-15 0.00192898591494328 -179.999999999998 2.71852630919964E-11 180              
                3.83578015234421E-10 -180             1.5206317511771E-10 180              1.5195369794647E-12 -180             2.52341653822948E-10 -180             
                8.89877102425614E-13 180              9.80873696570895E-10 180              2.71852630919964E-11 180              0.00381118665461921 -180             
! Gamma         !               59.2336865893278 0                75.69257918517   0                59.2336379025987 0                102.601307934666 0                
!               75.6918005065842 0                75.692027888176  0                75.6918032434294 0                102.601436034548 0                
! Port Impedance0                32.8507616268537 0                64.1850363771659 0                65.6887979333482 0                31.6314382158462 
!               0                64.3322956557595 0                32.1697766628989 0                64.2740813985521 0                63.2342745560674 

1.05                           0.000531189725277001 -179.999999999999 3.43554806654061E-06 180              1.93970130265925E-08 -180             9.42538956170676E-07 180              
                5.93645315698436E-08 180              2.59800319015712E-06 -6.65318785897144E-16 9.24444445953438E-08 -2.41381633272773E-14 4.15772074793562E-10 -180             
                3.43554806654061E-06 180              0.00065639486366808 -179.999999999994 3.08856118028402E-08 180              4.04360817692581E-08 -180             
                1.55845336138002E-07 180              7.24991959734663E-07 -1.18617083473687E-14 4.98280068024367E-08 -3.29196560069328E-14 1.66185757534024E-10 180              
                1.93970130265925E-08 -180             3.088561180284E-08 -180             0.000560942182225548 179.99999999999  9.73414929005506E-09 -4.87231322571403E-16 
                6.48331585988727E-09 180              4.41381973144742E-09 9.83680282580566E-15 6.14079437735898E-10 -1.61336424485632E-14 1.77435201309819E-12 -180             
                9.42538956170669E-07 -180             4.04360817692569E-08 -180             9.73414929005504E-09 3.08185954893848E-14 0.0012081449323671 -179.999999999996 
                3.53083945166275E-07 180              2.89560991452585E-06 180              1.64885140481894E-07 -3.34154411275058E-14 2.75904441041005E-10 180              
                5.9364531569844E-08 -180             1.55845336138003E-07 180              6.48331585988726E-09 -180             3.53083945166275E-07 -180             
                0.00770337436957087 179.999999999999 6.04907381921661E-08 2.61559197195771E-14 2.02879592901177E-09 180              8.96318467975794E-13 -180             
                2.59800319015711E-06 -4.41460502470952E-16 7.24991959734661E-07 -1.8795237166889E-14 4.41381973144741E-09 2.75879371330423E-14 2.89560991452587E-06 180              
                6.04907381921656E-08 -5.56056353577866E-14 0.000461226328150455 -180             6.66726328626917E-08 -1.68414970318442E-14 1.04889108929478E-09 180              
                9.24444445953439E-08 -1.17648027212178E-14 4.98280068024364E-08 -6.19487904091543E-14 6.14079437735896E-10 4.07185742880914E-14 1.64885140481893E-07 -1.25300398565936E-14 
                2.02879592901178E-09 180              6.66726328626913E-08 -9.70023205536803E-15 0.0019150429874045 -179.999999999997 2.996401980268E-11 180              
                4.15772074793562E-10 180              1.66185757534025E-10 180              1.7743520130982E-12 -180             2.75904441041006E-10 180              
                8.96318467975793E-13 180              1.04889108929478E-09 180              2.99640198026801E-11 180              0.00379959803780272 -179.999999999999 
! Gamma         !               58.8524071029666 0                75.3945802996066 0                58.8523581008167 0                102.381661369382 0                
!               75.3937985432432 0                75.3940268235821 0                75.3938012909061 0                102.381789744086 0                
! Port Impedance0                34.7167657381254 0                67.6606205710703 0                69.4200786039409 0                33.284263310701  
!               0                67.8158987647924 0                33.9117769181785 0                67.7545075541518 0                66.5384299194366 

1.1                            0.000526224012607712 180              3.59151779071983E-06 180              2.20677453727567E-08 180              1.06850747463516E-06 180              
                6.7860198825668E-08 180              2.85981352973448E-06 0                1.02429597672887E-07 0                4.52665430174017E-10 180              
                3.59151779071983E-06 180              0.000652360976013622 180              3.31881193989849E-08 180              4.48075449111223E-08 180              
                1.70950806982243E-07 180              8.00422205639779E-07 0                5.56736383455244E-08 0                1.82612928329907E-10 180              
                2.20677453727567E-08 180              3.31881193989849E-08 180              0.000561465399062766 180              1.12647668917354E-08 0                
                7.36838558558868E-09 180              5.23210943979644E-09 0                7.34121190965356E-10 0                2.09169676427366E-12 180              
                1.06850747463516E-06 180              4.48075449111209E-08 180              1.12647668917354E-08 0                0.00119182383502081 180              
                3.8012170156083E-07 180              3.10161574455915E-06 180              1.82381004148069E-07 0                3.03269680247947E-10 180              
                6.78601988256678E-08 180              1.70950806982244E-07 180              7.36838558558867E-09 180              3.8012170156083E-07 180              
                0.00763516596789704 180              6.50769206494771E-08 0                2.33082627847883E-09 180              8.87812600162548E-13 180              
                2.85981352973449E-06 0                8.00422205639778E-07 0                5.23210943979643E-09 0                3.10161574455914E-06 180              
                6.50769206494772E-08 0                0.000455786894362431 180              7.3868964952553E-08 0                1.12591184403962E-09 180              
                1.02429597672887E-07 0                5.56736383455243E-08 0                7.34121190965356E-10 0                1.82381004148069E-07 0                
                2.33082627847885E-09 180              7.3868964952553E-08 0                0.0019004959431902 180              3.3228660321734E-11 180              
                4.52665430174016E-10 180              1.82612928329907E-10 180              2.09169676427366E-12 180              3.03269680247947E-10 180              
                8.87812600162548E-13 180              1.12591184403962E-09 180              3.32286603217341E-11 180              0.00378748910808802 180              
! Gamma         !               58.449856573698  0                75.0807741717304 0                58.4498072340648 0                102.150792930977 0                
!               75.0799891479197 0                75.0802183823915 0                75.0799919070666 0                102.150921595816 0                
! Port Impedance0                36.6204274071799 0                71.1787635713548 0                73.2266589008139 0                34.948034165107  
!               0                71.3421661078053 0                35.6751120782451 0                71.2775550646559 0                69.8644668555989 

