! Touchstone file from project test_multiport
! Exported from HFSS 2019.2.0
!Data is not renormalized
# GHZ S MA
! Modal data exported
! Port[1] = 1:1
! Port[2] = 2:1
! Port[3] = 3:1
! Port[4] = 4:1
! Port[5] = 5:1
! Port[6] = 6:1
! Port[7] = 7:1
! Port[8] = 8:1
! Port[9] = 9:1
! Port[10] = 10:1
0.9                            0.00054477919622431 180              3.11709411770551E-06 -180             1.3475913389243E-08 180              6.9004566756661E-07 -180             
                3.6646660298822E-08 180              2.01618443770868E-06 -3.88460118491793E-21 6.73530252114953E-08 5.09079933041985E-15 1.93254719901915E-10 -180             
                1.87818391060486E-07 -180             4.37907781711153E-08 180              
                3.11709411770551E-06 -180             0.000783049294853289 179.999999999994 2.50450639537107E-08 180              4.04994773405285E-08 180              
                1.09803787506091E-07 -180             5.83092074319301E-07 7.69344734536979E-15 3.69133814230126E-08 -1.07533705030069E-14 7.95787806964701E-11 -180             
                1.95781319412855E-07 -180             1.33262100058328E-07 -180             
                1.3475913389243E-08 180              2.50450639537106E-08 -180             0.000567857002545247 -179.999999999993 6.78506156199681E-09 -9.02116525438798E-15 
                3.91672866380089E-09 180              2.78614866555325E-09 -5.87875738857027E-15 3.63308786750713E-10 -1.18703408659777E-14 6.88950015467622E-13 -180             
                9.67950647130288E-10 180              2.62740501292266E-09 180              
                6.90045667566607E-07 -180             4.04994773405282E-08 180              6.78506156199682E-09 3.58273344311683E-15 0.00121683040037102 179.999999999997 
                2.66346066082991E-07 -180             2.45529162921579E-06 -180             1.28132013207593E-07 -1.02405509137098E-14 1.69996819147586E-10 -180             
                6.53059883333439E-08 -180             3.20562684945449E-08 3.40999939977928E-16 
                3.6646660298822E-08 180              1.09803787506091E-07 -180             3.9167286638009E-09 180              2.66346066082992E-07 -180             
                0.00372404280631 -180             4.30287921145851E-08 -5.22996733397129E-20 1.1409914597968E-09 180              8.07860502797516E-14 1.01044950183463E-13 
                1.90886339591484E-09 -180             5.49888406487656E-09 3.43609452629198E-20 
                2.01618443770868E-06 -2.33616999107897E-20 5.830920743193E-07 1.47704912885444E-14 2.78614866555326E-09 -7.7369698123438E-15 2.45529162921578E-06 180              
                4.3028792114585E-08 -1.34289818486871E-19 0.000276489106309286 -180             4.8251780627934E-08 -6.36222422008873E-15 5.76943750908931E-10 -180             
                8.79302725875275E-08 -2.64376376973794E-15 2.76599208286447E-08 -180             
                6.73530252114954E-08 -4.45696966392826E-15 3.69133814230126E-08 2.67257485070728E-15 3.63308786750712E-10 -1.25533218409367E-14 1.28132013207593E-07 -3.86309668343908E-15 
                1.1409914597968E-09 180              4.82517806279341E-08 -3.91223620967116E-15 0.00190810465208424 -179.999999999999 1.22390206781408E-11 -180             
                9.33794260182381E-09 -1.10689530827197E-14 1.90050312432382E-09 180              
                1.93254719901915E-10 -180             7.95787806964702E-11 -180             6.88950015467625E-13 -180             1.69996819147587E-10 -180             
                8.07860502797507E-14 1.45599532561915E-14 5.76943750908932E-10 -180             1.22390206781408E-11 -180             0.00684757068015196 179.999999999998 
                6.84811326764112E-12 -180             1.9986861515946E-12 1.73656100548173E-14 
                1.87818391060486E-07 -180             1.95781319412854E-07 -180             9.67950647130289E-10 -180             6.53059883333438E-08 -180             
                1.90886339591483E-09 -180             8.79302725875275E-08 9.62641804187674E-15 9.3379426018238E-09 1.26273446821698E-14 6.84811326764112E-12 -180             
                0.00667858545925415 180              2.61213140645876E-09 -180             
                4.37907781711153E-08 180              1.33262100058327E-07 -180             2.62740501292266E-09 180              3.2056268494545E-08 9.72026279673112E-15 
                5.49888406487653E-09 4.56943318004124E-20 2.76599208286448E-08 -180             1.90050312432382E-09 180              1.9986861515946E-12 1.78932137130493E-14 
                2.61213140645876E-09 180              0.0042308064453318 180              
! Gamma         !               59.9338213760117 0                76.242136652721  0                59.933927723647  0                103.0071802956   0                
!               76.241113742477  0                76.2413139542226 0                76.2410903797276 0                103.007350637467 0                
!               103.007670857961 0                76.2413025410243 0                
! Port Impedance0                29.2390908616934 0                57.29552956879   0                58.4265851367819 0                28.3560526551081 
!               0                57.4819153933399 0                28.7409672942137 0                57.4137639816689 0                56.6865748394075 
!               0                56.6797408898988 0                57.4649899458734 

0.95                           0.000540195143383659 -179.999999999991 3.24533658298297E-06 -180             1.5033136278482E-08 180              7.65559416052568E-07 180              
                4.0923329385072E-08 180              2.18281352401865E-06 -9.34783491922239E-16 7.34471819547379E-08 -1.1052626788609E-15 2.08588976053656E-10 180              
                1.75957464025515E-07 180              4.88701798701632E-08 180              
                3.24533658298297E-06 180              0.00078057546761745 179.999999999998 2.67306738798977E-08 180              4.37246246489026E-08 -180             
                1.18626147688924E-07 -180             6.32450576426019E-07 3.35699550185677E-15 4.04820366798167E-08 3.05790418526312E-15 8.64289462483747E-11 -180             
                2.03430079696817E-07 -180             1.43434236714233E-07 -180             
                1.50331362784819E-08 180              2.67306738798978E-08 180              0.000567531914769326 -179.999999999984 7.65343436022494E-09 -2.82707955819046E-14 
                4.36676674148597E-09 180              3.20871147769389E-09 -1.09024590392343E-14 4.21637892843821E-10 -1.15134236255702E-14 7.93082210910221E-13 180              
                1.07708043743669E-09 180              2.94230003561249E-09 180              
                7.65559416052568E-07 180              4.37246246489024E-08 180              7.65343436022494E-09 -1.58801843459362E-14 0.00120171694741911 -179.999999999998 
                2.83507001922622E-07 180              2.59878453595499E-06 180              1.39059561076667E-07 -2.80204643839788E-15 1.83921523632011E-10 180              
                7.12749992469062E-08 180              3.54554050195295E-08 -5.11741242640049E-15 
                4.0923329385072E-08 -180             1.18626147688924E-07 -180             4.36676674148597E-09 180              2.83507001922623E-07 180              
                0.00370667105650324 -180             4.59152950133274E-08 -3.60321354764388E-19 1.28062831666516E-09 180              1.13188706593234E-13 -6.26786646479138E-18 
                2.09464793882386E-09 -180             6.08059101604471E-09 6.70426894814617E-20 
                2.18281352401865E-06 5.79813413751305E-16 6.32450576426019E-07 5.32250452540612E-15 3.2087114776939E-09 -2.29091343407773E-14 2.59878453595499E-06 180              
                4.59152950133275E-08 -4.68711124517327E-19 0.000274043702470861 -180             5.25678100631362E-08 2.0301568165983E-19 6.13959298532198E-10 -180             
                9.42175331156898E-08 -7.96697180530389E-20 3.09808162897752E-08 180              
                7.34471819547382E-08 -1.20692044311153E-16 4.04820366798168E-08 1.68401805146094E-14 4.2163789284382E-10 -2.16410093488526E-14 1.39059561076668E-07 -1.14258804835015E-14 
                1.28062831666516E-09 180              5.2567810063136E-08 1.17872290990998E-19 0.001893066570827 -180             1.34458085018924E-11 180              
                9.89166972618232E-09 -6.40517230611341E-21 2.10511733723391E-09 -180             
                2.08588976053656E-10 -180             8.64289462483745E-11 -180             7.93082210910218E-13 180              1.8392152363201E-10 180              
                1.13188706593234E-13 -6.86463150053804E-18 6.13959298532197E-10 -180             1.34458085018924E-11 180              0.00681665528033581 -180             
                7.16765438051844E-12 -180             2.25419356813231E-12 8.6967544651421E-20 
                1.75957464025515E-07 -180             2.03430079696817E-07 -180             1.0770804374367E-09 180              7.1274999246906E-08 180              
                2.09464793882385E-09 180              9.42175331156898E-08 -1.36438075534308E-19 9.89166972618233E-09 -4.6742827365427E-20 7.16765438051843E-12 180              
                0.00665214207779485 180              2.86989748391863E-09 180              
                4.88701798701632E-08 -180             1.43434236714233E-07 180              2.94230003561248E-09 180              3.54554050195294E-08 1.00226114199802E-14 
                6.0805910160447E-09 -2.38214074440154E-20 3.09808162897752E-08 -180             2.1051173372339E-09 180              2.25419356813231E-12 -2.22909139707353E-20 
                2.86989748391862E-09 -180             0.0042033642923015 -180             
! Gamma         !               59.5938898372837 0                75.9752075520616 0                59.5939967915391 0                102.80976584769  0                
!               75.9741810479056 0                75.9743819630868 0                75.974157603072  0                102.809936516646 0                
!               102.81025735202  0                75.9743705097886 0                
! Port Impedance0                31.0395330195029 0                60.6910547669915 0                62.0242869282188 0                29.9888620525496 
!               0                60.8885312988044 0                30.4442775505276 0                60.8163217735093 0                59.9507232732917 
!               0                59.9434947986722 0                60.870602680607  

1                              0.000535066460759293 -179.999999999981 3.38402828388333E-06 180              1.68799811771378E-08 180              8.55269583105375E-07 180              
                4.60610148722216E-08 180              2.37579836863368E-06 -1.15756683679765E-14 8.05262873390146E-08 -1.16753807675962E-14 2.26147460913166E-10 180              
                1.6093764493354E-07 -180             5.49609484259192E-08 180              
                3.38402828388334E-06 180              0.000777959581170995 -180             2.85993093604687E-08 -180             4.74918061751018E-08 -180             
                1.28844638062671E-07 180              6.89800492610169E-07 1.11698359283199E-19 4.46667824000674E-08 5.87650548639702E-20 9.43633890077644E-11 -180             
                2.11716958441568E-07 -180             1.55170050872223E-07 -180             
                1.68799811771379E-08 180              2.85993093604686E-08 -180             0.000567302788181734 179.999999999994 8.70380458500407E-09 3.35772486158876E-15 
                4.90238378070002E-09 180              3.73003813868648E-09 3.33989396495826E-15 4.94134954293189E-10 3.80938303723177E-15 9.21309897077163E-13 -180             
                1.20629630260279E-09 -180             3.31914477492611E-09 -180             
                8.55269583105375E-07 180              4.74918061751021E-08 -180             8.70380458500407E-09 1.12905571936863E-14 0.00118556978577988 -180             
                3.03016255226945E-07 180              2.7613617432314E-06 180              1.51755817844429E-07 8.65706415227332E-21 1.99978880887789E-10 -180             
                7.8247845927416E-08 -180             3.94882434697285E-08 -2.15699416970854E-20 
                4.60610148722217E-08 180              1.28844638062671E-07 180              4.90238378070003E-09 -180             3.03016255226945E-07 180              
                0.00368833657737333 -179.999999999998 4.91652302571867E-08 -9.66057712489218E-15 1.44949532632334E-09 180              1.55896625616773E-13 -8.93863237577866E-15 
                2.31625036842479E-09 180              6.76790508390112E-09 -9.22990926898376E-15 
                2.37579836863367E-06 -1.28174397425483E-14 6.89800492610169E-07 1.68884679439635E-19 3.73003813868647E-09 4.68673419749664E-15 2.76136174323139E-06 180              
                4.91652302571867E-08 -2.81070276679516E-14 0.000271419783586802 -180             5.75984390307791E-08 -4.72830141022753E-20 6.55787555385214E-10 180              
                1.01436818155022E-07 1.33347563180707E-14 3.49687585365555E-08 180              
                8.05262873390143E-08 -1.28349855981742E-14 4.46667824000675E-08 8.83439748985435E-20 4.94134954293189E-10 6.680808894569E-15 1.51755817844429E-07 6.62719750898887E-21 
                1.44949532632334E-09 180              5.75984390307791E-08 -4.71787259615552E-20 0.00187729957230698 -180             1.48597058888075E-11 180              
                1.05131123141078E-08 4.36724060370119E-15 2.34869625365366E-09 180              
                2.26147460913167E-10 180              9.43633890077643E-11 -180             9.21309897077165E-13 -180             1.99978880887789E-10 -180             
                1.55896625616773E-13 -1.12827899442878E-14 6.55787555385213E-10 180              1.48597058888075E-11 180              0.00678409200022534 -180             
                7.51524010843608E-12 180              2.56219885989133E-12 -4.89176321258382E-20 
                1.60937644933539E-07 -180             2.11716958441569E-07 180              1.20629630260279E-09 -180             7.8247845927416E-08 180              
                2.3162503684248E-09 180              1.01436818155022E-07 -9.61263410330182E-15 1.05131123141078E-08 -9.82583387538668E-15 7.51524010843609E-12 180              
                0.00662432049291672 -180             3.17431672396576E-09 180              
                5.49609484259191E-08 180              1.55170050872223E-07 -180             3.31914477492611E-09 -180             3.94882434697284E-08 -1.27472919790157E-20 
                6.76790508390112E-09 -3.20660748654511E-14 3.49687585365554E-08 180              2.34869625365366E-09 180              2.56219885989134E-12 -5.61997120073407E-20 
                3.17431672396577E-09 -180             0.00417452337321333 -180             
! Gamma         !               59.233471820981  0                75.6928308402284 0                59.2335794260197 0                102.601269152411 0                
!               75.6918005065842 0                75.6920021713101 0                75.6917769742859 0                102.601440168184 0                
!               102.601761655525 0                75.6919906752839 0                
! Port Impedance0                32.8719978771118 0                64.1235996257183 0                65.6859765235728 0                31.6313702028842 
!               0                64.3322956557595 0                32.1661623622385 0                64.2559803971125 0                63.2342604358998 
!               0                63.2266349215981 0                64.3133529101192 

1.05                           0.00052931697078648 -179.999999999978 3.53320999979246E-06 180              1.90794126035959E-08 -180             9.62464107380972E-07 180              
                5.2275694989165E-08 180              2.60019155741449E-06 -2.3989662026251E-14 8.87782449622034E-08 -1.64053455965103E-14 2.46295993258612E-10 180              
                1.41955531238489E-07 -180             6.23138050049738E-08 180              
                3.53320999979247E-06 180              0.000775197726152241 -179.999999999997 3.06613355385641E-08 -180             5.19187048486051E-08 180              
                1.40729785754842E-07 180              7.56727960855394E-07 -6.79648870889429E-15 4.95974371621791E-08 -9.64200530585893E-15 1.0358799399591E-10 -180             
                2.20659170603811E-07 -180             1.68763399111881E-07 180              
                1.90794126035961E-08 180              3.06613355385638E-08 -180             0.000567193297307533 179.999999999968 9.98320253018674E-09 4.4333277656392E-14 
                5.54328674357563E-09 180              4.37856036847657E-09 1.73802689520992E-14 5.850260301275E-10 2.28909492185657E-14 1.08045799047326E-12 -180             
                1.35996891465674E-09 -180             3.77278089256264E-09 -180             
                9.6246410738097E-07 180              5.19187048486058E-08 -180             9.98320253018674E-09 4.79183988623953E-14 0.00116834472286627 179.999999999996 
                3.25251970929706E-07 180              2.94604311188049E-06 -180             1.66567660627402E-07 2.95387673627832E-16 2.18559216334585E-10 -180             
                8.64319383005916E-08 -180             4.43004910320078E-08 7.23126952905945E-15 
                5.22756949891651E-08 180              1.40729785754843E-07 180              5.54328674357566E-09 -180             3.25251970929706E-07 -180             
                0.00366903471560657 -179.999999999996 5.28233461459422E-08 -1.9770726961648E-14 1.65521181971186E-09 180              2.12545237641478E-13 1.99581365998896E-14 
                2.58239449431565E-09 180              7.58413000497808E-09 -1.65206165643639E-14 
                2.60019155741448E-06 -2.69422827303236E-14 7.56727960855394E-07 -7.68638606536749E-15 4.37856036847655E-09 3.81463891264401E-14 2.94604311188048E-06 -180             
                5.28233461459421E-08 -5.26119044516205E-14 0.0002686057039037 -179.999999999988 6.34874234977124E-08 -5.1237276865662E-15 7.03136635533574E-10 180              
                1.09755982414253E-07 1.88972836791606E-14 3.97890551521253E-08 180              
                8.87782449622025E-08 -2.34245000793854E-14 4.9597437162179E-08 -2.54005801623317E-14 5.85026030127503E-10 4.25123869614173E-14 1.665676606274E-07 1.57376405639966E-14 
                1.65521181971185E-09 180              6.34874234977127E-08 -4.20295901588953E-15 0.00186081776953959 180              1.65235822661924E-11 -180             
                1.12110473946248E-08 4.39245884000851E-15 2.64048518709746E-09 180              
                2.46295993258613E-10 180              1.0358799399591E-10 -180             1.08045799047327E-12 -180             2.18559216334586E-10 -180             
                2.12545237641477E-13 -1.50861162905171E-14 7.03136635533574E-10 -180             1.65235822661923E-11 -180             0.00674988489006795 180              
                7.891653356917E-12 180              2.93591968041448E-12 6.81911553536862E-15 
                1.41955531238489E-07 -180             2.20659170603812E-07 180              1.35996891465672E-09 -180             8.64319383005917E-08 -180             
                2.58239449431566E-09 180              1.09755982414253E-07 -1.67864672062673E-14 1.12110473946248E-08 -8.9206213610721E-15 7.89165335691701E-12 180              
