! Touchstone file from project test_multiport
! Exported from HFSS 2019.2.0
!Data is not renormalized
# GHZ S MA
! Modal data exported
! Port[1] = 1:1
! Port[2] = 2:1
! Port[3] = 3:1
! Port[4] = 4:1
0.9                            0.000442567157300289 -179.999999999986 2.34780413985099E-06 -180             1.2104397413149E-08 180              6.75410863740395E-07 180              
                2.34780413985099E-06 -180             0.000611281535317421 179.999999999992 2.35974064838953E-08 180              3.48980102774359E-08 -180             
                1.2104397413149E-08 180              2.35974064838953E-08 -180             0.000513022092723525 -179.999999999985 6.54638911028627E-09 -1.22925526387186E-14 
                6.75410863740395E-07 180              3.48980102774361E-08 -180             6.54638911028627E-09 -2.58544751148196E-14 0.00311855027901409 -180             
! Gamma         !               59.933747457436  0                76.2418741364368 0                59.933945810585  0                103.007198047277 0                
! Port Impedance0                29.2471870723113 0                57.3567688899191 0                58.4564731077692 0                28.3561907729961 

0.95                           0.000439654840082904 180              2.44197198625707E-06 -180             1.34967387312068E-08 -180             7.48862419442704E-07 -180             
                2.44197198625707E-06 180              0.000609025837248534 180              2.52037121662321E-08 180              3.79191741545116E-08 -180             
                1.34967387312068E-08 180              2.52037121662321E-08 180              0.00051208799181246 179.999999999997 7.38193023561128E-09 7.68461631547936E-16 
                7.48862419442704E-07 -180             3.79191741545115E-08 -180             7.38193023561129E-09 1.13170058993773E-14 0.00309490063161955 179.999999999992 
! Gamma         !               59.593815497066  0                75.9749441134569 0                59.5940149816471 0                102.809783633454 0                
! Port Impedance0                31.0481283067841 0                60.7559405372339 0                62.05601566726   0                29.9890080985397 

1                              0.000436399167065726 -180             2.54309496844531E-06 -180             1.51472919503986E-08 -180             8.36066757641121E-07 -180             
                2.54309496844532E-06 -180             0.000606624947154244 -180             2.69886411840299E-08 -180             4.1472392045589E-08 -180             
                1.51472919503986E-08 -180             2.69886411840299E-08 -180             0.000511202649408404 -180             8.39221421680357E-09 0                
                8.3606675764112E-07 -180             4.14723920455887E-08 -180             8.39221421680355E-09 0                0.0030697535617914 -180             
! Gamma         !               59.2333970284245 0                75.6925664188467 0                59.2335977268086 0                102.601286974318 0                
! Port Impedance0                32.8811012170483 0                64.1921746200715 0                65.7195788387356 0                31.6315242198315 

1.05                           0.000432750417641838 -179.999999999996 2.65090113287346E-06 -180             1.71120223215309E-08 180              9.40194183808918E-07 180              
                2.65090113287347E-06 -180             0.000604072456705505 179.999999999996 2.89640985814821E-08 -180             4.56780042622312E-08 180              
                1.7112022321531E-08 180              2.89640985814822E-08 -180             0.000510386039650708 -179.999999999991 9.62228578984987E-09 -6.48509959456499E-15 
                9.40194183808916E-07 180              4.5678004262231E-08 -180             9.62228578984982E-09 -2.77611302432535E-14 0.00304306448790223 -179.999999999989 
! Gamma         !               58.8521156661133 0                75.3945674828241 0                58.8523176647442 0                102.381640364066 0                
! Port Impedance0                34.7488306801222 0                67.6681551132547 0                69.4526087035951 0                33.2843537713066 

1.1                            0.0004286477897808 179.999999999987 2.76482638753245E-06 -180             1.94596279910062E-08 -180             1.06528462606493E-06 -180             
                2.76482638753245E-06 -180             0.000601360604325807 179.999999999996 3.11389746296392E-08 180              5.0691994746543E-08 180              
                1.94596279910062E-08 -180             3.11389746296392E-08 180              0.000509660801727096 -180             1.11304466336892E-08 1.48128522093805E-20 
                1.06528462606493E-06 -180             5.06919947465431E-08 180              1.11304466336892E-08 2.69202664182706E-20 0.00301478350718887 180              
! Gamma         !               58.4495631296773 0                75.0807613013792 0                58.4497665195041 0                102.150771878187 0                
! Port Impedance0                36.6542528596933 0                71.1867008392524 0                73.2609736253128 0                34.9481291060929 

