! Touchstone file from project test_multiport
! Exported from HFSS 2019.2.0
!Data is not renormalized
# GHZ S MA
! Modal data exported
! Port[1] = 1:1
! Port[2] = 2:1
! Port[3] = 3:1
! Port[4] = 4:1
! Port[5] = 5:1
! Port[6] = 6:1
! Port[7] = 7:1
0.9                            0.000667055234032321 -180             3.05176036802358E-06 -180             1.36020914607077E-08 180              6.99017429551561E-07 -180             
                3.67477817221638E-08 -180             2.02158961233063E-06 -8.84251583739811E-24 7.86209095669447E-08 -5.82143376471931E-15 
                3.05176036802358E-06 -180             0.000602417153154233 -180             2.53056432127528E-08 180              3.83423295649216E-08 -180             
                1.07266250043858E-07 -180             5.66623949222925E-07 -2.73938827175151E-23 4.19821925819988E-08 -8.47175050549929E-15 
                1.36020914607078E-08 180              2.53056432127528E-08 180              0.000721322343234854 -179.999999999998 6.91184211991578E-09 -4.70680696145477E-15 
                3.94199153285788E-09 180              2.79332162362664E-09 -4.50631338674356E-15 4.25996486644285E-10 -1.03364714276193E-14 
                6.99017429551562E-07 -180             3.83423295649213E-08 -180             6.91184211991579E-09 -1.87358414069734E-16 0.000943632718798604 -180             
                2.6875965789785E-07 180              2.47234029052038E-06 -180             1.50175672279621E-07 -1.16887231499314E-14 
                3.67477817221641E-08 -180             1.07266250043858E-07 -180             3.9419915328579E-09 180              2.68759657897852E-07 -180             
                0.00428280148082205 -180             4.32029075140001E-08 -4.59947000368545E-23 1.31776514842359E-09 -180             
                2.02158961233063E-06 -7.97438857079593E-24 5.66623949222926E-07 -1.48205217268432E-23 2.79332162362664E-09 -6.30712790690069E-15 2.47234029052038E-06 -180             
                4.3202907514E-08 8.76160334209529E-24 0.000588989357263814 -180             5.55737895018545E-08 -6.12181922203833E-15 
                7.86209095669447E-08 -3.46413511855733E-15 4.19821925819987E-08 -3.57769051171216E-15 4.25996486644284E-10 -2.2232731206983E-15 1.50175672279621E-07 -4.36903108159854E-15 
                1.31776514842359E-09 180              5.55737895018545E-08 -4.20354469695096E-15 0.00180499435769232 -179.999999999997 
! Gamma         !               59.9338965091968 0                76.2419278942732 0                59.9339258517022 0                103.007211784067 0                
!               76.2411930389424 0                76.2412806290303 0                76.2409814489091 0                
! Port Impedance0                29.2317216295647 0                57.3648829148645 0                58.466285285821  0                28.3509620390101 
!               0                57.4721001857655 0                28.7418587417119 0                57.4206759305377 

0.95                           0.000662902690430789 179.999999999992 3.1781038375962E-06 -180             1.5173200948948E-08 -180             7.75373455563875E-07 -180             
                4.10317907296306E-08 -180             2.18848511378974E-06 1.86471769623205E-15 8.5563154165148E-08 2.40755030792255E-15 
                3.1781038375962E-06 180              0.000599022723860809 -180             2.70156814882909E-08 -180             4.12955702005188E-08 -180             
                1.15885651592799E-07 -180             6.1463175490025E-07 7.17984202025484E-20 4.59602322537732E-08 3.43258479453547E-20 
                1.5173200948948E-08 180              2.70156814882909E-08 -180             0.000720298705515487 -180             7.79497267660271E-09 -8.08074047865543E-21 
                4.3942166911279E-09 -180             3.21651993780381E-09 5.87405356193668E-20 4.93437070206589E-10 1.35412970809422E-20 
                7.75373455563874E-07 180              4.12955702005185E-08 -180             7.79497267660271E-09 -7.52420609118184E-21 0.000927256405646282 -180             
                2.86089699681675E-07 -180             2.61688318341458E-06 180              1.62693961396725E-07 1.8128927607259E-21 
                4.1031790729631E-08 -180             1.15885651592798E-07 180              4.39421669112792E-09 180              2.86089699681677E-07 180              
                0.00425352575986448 180              4.60949864078625E-08 -2.92520216626958E-20 1.47621030494922E-09 -180             
                2.18848511378975E-06 5.0908114499607E-15 6.1463175490025E-07 -3.03300363476716E-20 3.2165199378038E-09 -1.93017124727793E-20 2.61688318341458E-06 -180             
                4.60949864078623E-08 -3.60609335375712E-21 0.000585746703948953 180              6.04561503966241E-08 7.4619687955513E-21 
                8.5563154165148E-08 7.49728706005396E-15 4.59602322537733E-08 -3.01056306966265E-20 4.93437070206589E-10 -1.12549921274629E-20 1.62693961396725E-07 -1.87983468076946E-21 
                1.47621030494921E-09 -180             6.04561503966238E-08 1.32381472943352E-20 0.00179242279177283 180              
! Gamma         !               59.5939653990379 0                75.9749980601657 0                59.5939949089164 0                102.809797396622 0                
!               75.9742606229761 0                75.974348520808  0                75.974048289528  0                
! Port Impedance0                31.0317095184899 0                60.764557432424  0                62.0664325597115 0                29.9834782885572 
!               0                60.8781356392912 0                30.4452218121777 0                60.8236421526015 

1                              0.000658231688577038 179.999999999978 3.31482288298946E-06 -180             1.70364467923143E-08 -180             8.66064958644255E-07 180              
                4.61776347021995E-08 -180             2.3817621246703E-06 1.7510404370392E-14 9.36139522152196E-08 1.22208466209143E-14 
                3.31482288298946E-06 -180             0.00059541946968622 -179.999999999981 2.89137024544343E-08 -180             4.47394800172002E-08 180              
                1.25868792065931E-07 180              6.70413931893502E-07 -1.27660091235133E-14 5.06185961278002E-08 -1.91244388612232E-14 
                1.70364467923144E-08 -180             2.89137024544343E-08 180              0.00071932760210125 -179.999999999997 8.86300629905813E-09 -3.26233769819914E-14 
                4.9323729152239E-09 180              3.73854563225839E-09 -4.30464178627142E-16 5.77114915689247E-10 -9.95197075154926E-15 
                8.66064958644251E-07 -180             4.47394800172E-08 180              8.8630062990581E-09 -2.80689522579724E-15 0.000909781146740896 -179.999999999985 
                3.0579375685735E-07 180              2.78065221788339E-06 180              1.77219514913084E-07 -2.31946124243194E-14 
                4.61776347021995E-08 -180             1.25868792065931E-07 180              4.93237291522391E-09 -180             3.05793756857352E-07 180              
                0.00422272867783657 -180             4.93514544340696E-08 -7.87028410799575E-19 1.66756598033472E-09 -180             
                2.3817621246703E-06 1.99666281383312E-14 6.70413931893501E-07 -7.10629321296487E-15 3.73854563225838E-09 5.08400115421552E-15 2.78065221788338E-06 180              
                4.93514544340698E-08 -7.19480798184603E-19 0.000582277083805094 -180             6.61406544631932E-08 1.61720652532818E-15 
                9.36139522152195E-08 3.62308818007626E-14 5.06185961278003E-08 9.97426130940482E-15 5.77114915689248E-10 1.64458819875717E-14 1.77219514913084E-07 -2.26244249835935E-14 
                1.66756598033472E-09 -180             6.61406544631933E-08 -2.81932183178432E-16 0.00177921578859763 179.999999999999 
! Gamma         !               59.2335478425052 0                75.6926205668082 0                59.2335775319419 0                102.601300765453 0                
!               75.6918803785223 0                75.6919686042701 0                75.691667252929  0                
! Port Impedance0                32.863711936077  0                64.2013037311126 0                65.7306112957366 0                31.6256915466755 
!               0                64.3213134318938 0                32.1671600110398 0                64.2637134495461 

1.05                           0.000652965984447354 179.999999999973 3.4619871872245E-06 -180             1.92553296964566E-08 -180             9.74406824870998E-07 180              
                5.24013060637262E-08 -180             2.6064743018407E-06 2.61604167024108E-14 1.02982158613284E-07 1.49104315468942E-14 
                3.46198718722451E-06 -180             0.000591600315736793 -179.999999999967 3.10113801072541E-08 -180             4.87798186991087E-08 180              
                1.37479823743144E-07 180              7.35513471618968E-07 -2.27411589474705E-14 5.60993790536273E-08 -3.62822809766835E-14 
                1.92553296964567E-08 -180             3.1011380107254E-08 180              0.00071843131313348 -179.999999999994 1.01636780597929E-08 -6.04575419923E-14 
                5.57623442507559E-09 180              4.38782132820067E-09 -1.98990900521109E-15 6.81834120102208E-10 -2.17389029271135E-14 
                9.74406824870993E-07 -180             4.87798186991086E-08 179.999999999999 1.01636780597929E-08 -3.67295723429305E-15 0.000891163136623434 -179.999999999974 
                3.28254670816368E-07 180              2.96668951382254E-06 180              1.94142480062201E-07 -4.50046212617401E-14 
                5.24013060637255E-08 -180             1.37479823743145E-07 180              5.57623442507558E-09 180              3.28254670816369E-07 180              
                0.00419042105927646 180              5.3017347995892E-08 2.39568990690631E-15 1.90035203524601E-09 -180             
                2.60647430184069E-06 2.68092130970568E-14 7.35513471618966E-07 -1.26589262597373E-14 4.38782132820068E-09 8.80116478985009E-15 2.96668951382254E-06 180              
                5.30173479958925E-08 -9.77021626557112E-17 0.000578567875752671 -180             7.27875026890991E-08 1.70235576805663E-15 
                1.02982158613284E-07 5.14656513904283E-14 5.60993790536273E-08 1.71146956472249E-14 6.81834120102208E-10 3.31647687932208E-14 1.94142480062201E-07 -4.13176123896382E-14 
                1.90035203524601E-09 -180             7.27875026890997E-08 -1.1633809115664E-15 0.00176538101938418 179.999999999999 
! Gamma         !               58.8522674572608 0                75.3946218448067 0                58.8522973390434 0                102.381654184788 0                
!               75.3938787308834 0                75.3939673053513 0                75.3936647628878 0                
! Port Impedance0                34.7304522944003 0                67.6778065395687 0                69.4642685014117 0                33.2782163345558 
!               0                67.8043234258334 0                33.909018559977  0                67.7435769092733 

1.1                            0.000647013317808254 -179.999999999987 3.61939965833604E-06 180              2.19078298113798E-08 180              1.1046258790798E-06 180              
                5.99827782964152E-08 180              2.86888333225261E-06 -1.11621024695121E-14 1.13922774498652E-07 -4.76657374679023E-15 
                3.61939965833604E-06 180              0.000587556762205121 -180             3.33168457942023E-08 -180             5.35533736146081E-08 -180             
                1.51047879256958E-07 -180             8.1185881828555E-07 1.4526137088855E-19 6.25808227962735E-08 6.66688735790357E-15 
                2.19078298113798E-08 180              3.33168457942022E-08 -180             0.000717635213859369 179.999999999997 1.17587991070449E-08 3.76779907552288E-15 
                6.35076613053385E-09 -180             5.20176405713605E-09 3.87162175189896E-15 8.13938127591848E-10 5.26774804595058E-15 
                1.1046258790798E-06 180              5.35533736146072E-08 -180             1.1758799107045E-08 7.29413916621673E-15 0.000871353209245695 -180             
                3.53935379831084E-07 -180             3.17868760592948E-06 180              2.13946747669268E-07 5.97314844201481E-15 
                5.99827782964151E-08 -180             1.51047879256959E-07 -180             6.35076613053384E-09 180              3.53935379831086E-07 -180             
                0.00415661456540639 179.999999999999 5.71420442544398E-08 1.12050456308383E-14 2.1856592823262E-09 -180             
                2.86888333225262E-06 -7.32502876836589E-15 8.1185881828555E-07 1.22429520216163E-19 5.20176405713608E-09 1.13370233141862E-14 3.17868760592948E-06 180              
                5.714204425444E-08 -4.50836548310174E-16 0.000574604219755748 -180             8.05962185534392E-08 6.56992496520355E-15 
                1.13922774498652E-07 -4.31389770117338E-15 6.25808227962736E-08 3.87708801814908E-15 8.13938127591846E-10 1.9973274643772E-14 2.13946747669268E-07 4.09433920057112E-15 
                2.18565928232619E-09 -180             8.05962185534391E-08 5.22757528969638E-15 0.00175092670736388 179.999999999996 
! Gamma         !               58.4497159662346 0                75.0808158905721 0                58.4497460538174 0                102.150785730146 0                
!               75.080069670717  0                75.0801586153955 0                75.079854808406  0                
! Port Impedance0                36.634865177508  0                71.196885484578  0                73.2732735386867 0                34.9416848888192 
!               0                71.3299906433711 0                35.6722102758986 0                71.2660546278752 

