! Touchstone file from project test_multiport
! Exported from HFSS 2019.2.0
!Data is not renormalized
# GHZ S MA
! Modal data exported
! Port[1] = 1:1
! Port[2] = 2:1
! Port[3] = 3:1
! Port[4] = 4:1
! Port[5] = 5:1
! Port[6] = 6:1
! Port[7] = 7:1
! Port[8] = 8:1
! Port[9] = 9:1
0.9                            0.000647837394772588 179.999999999979 3.21715348707426E-06 -180             1.36084880287088E-08 -180             7.11732862244262E-07 -180             
                3.81378073640694E-08 -180             2.03592436169728E-06 1.57490806514824E-14 6.58501145134718E-08 1.38383149353309E-14 2.31647452892219E-10 -180             
                3.48112718442486E-07 -180             
                3.21715348707426E-06 -180             0.000876237602799868 180              2.52252164608188E-08 -180             4.69154827834828E-08 -180             
                1.15647516036516E-07 180              5.73039889800038E-07 -1.69463523874624E-19 3.48860636026288E-08 -9.15085621145303E-20 8.26699608611319E-11 180              
                2.10056089702553E-07 180              
                1.36084880287088E-08 -180             2.52252164608188E-08 180              0.000475323965303365 179.999999999993 6.77813512971049E-09 -3.66518839884647E-15 
                4.30896210296585E-09 -180             2.77697639622169E-09 6.4135422688694E-16 3.48253712418652E-10 4.97154772935325E-16 5.929519048081E-13 180              
                1.07559030624333E-09 180              
                7.11732862244263E-07 -180             4.69154827834822E-08 180              6.77813512971049E-09 -8.06128335175377E-15 0.0012164661007944 -179.999999999992 
                2.89084139061446E-07 180              2.50251242894495E-06 180              1.26357319974536E-07 -1.27105354518269E-14 5.21554615800906E-11 -2.36934119199951E-14 
                7.66998755165881E-08 180              
                3.81378073640695E-08 -180             1.15647516036516E-07 180              4.30896210296585E-09 180              2.89084139061446E-07 180              
                0.00331201516404944 -180             4.57332942691915E-08 -2.60837111410413E-19 1.32515724994916E-09 180              3.59405080092406E-12 180              
                2.13663118688071E-09 -180             
                2.03592436169729E-06 1.28522984347618E-14 5.73039889800041E-07 -1.68331305866551E-19 2.77697639622169E-09 -4.90763420898452E-15 2.50251242894496E-06 180              
                4.57332942691916E-08 -3.44372129432261E-19 0.000275608074903122 -180             4.77745404636538E-08 1.87282791275396E-19 2.47704685406368E-10 180              
                1.05930591221066E-07 -1.81326151963105E-14 
                6.58501145134718E-08 1.3757618767307E-14 3.48860636026289E-08 -9.06255718114875E-20 3.48253712418653E-10 -1.54941375153202E-15 1.26357319974536E-07 -8.67545617470248E-15 
                1.32515724994916E-09 180              4.77745404636539E-08 1.17130474152168E-19 0.0030290397933268 -180             1.79390843455504E-11 180              
                1.02118124091918E-08 -1.17798991610858E-14 
                2.3164745289222E-10 -180             8.26699608611319E-11 180              5.92951904808098E-13 180              5.21554615800906E-11 -4.34633131541615E-15 
                3.59405080092405E-12 180              2.47704685406367E-10 180              1.79390843455505E-11 180              0.00221166612349066 -179.999999999995 
                1.761248416593E-11 180              
                3.48112718442486E-07 -180             2.10056089702553E-07 180              1.07559030624333E-09 180              7.66998755165879E-08 180              
                2.13663118688071E-09 180              1.05930591221066E-07 -9.58835539490328E-15 1.02118124091918E-08 -8.2870370010661E-15 1.761248416593E-11 180              
                0.00513501098070746 -179.999999999999 
! Gamma         !               59.9338371699886 0                76.2420612504892 0                59.933912706741  0                103.007164628922 0                
!               76.2411909637435 0                76.2412711925216 0                76.2413097146931 0                103.007344549252 0                
!               103.007728101789 0                
! Port Impedance0                29.2386896469478 0                57.3096033500206 0                58.4284644336965 0                28.3562816894397 
!               0                57.4830043310543 0                28.7419361461068 0                57.4118472673239 0                56.6863232513701 
!               0                56.6755517271123 

0.95                           0.000644104584077265 -180             3.35380988683809E-06 180              1.51836542787701E-08 -180             7.89670464621258E-07 180              
                4.25761662360721E-08 -180             2.20493542352378E-06 -2.0931190972908E-20 7.18252504973355E-08 5.52570006647078E-20 2.51205251243244E-10 -180             
                3.4055741137724E-07 -180             
                3.35380988683809E-06 180              0.000872916824935954 -179.999999999992 2.69390665020113E-08 -180             5.05690129257642E-08 -180             
                1.24757182031021E-07 180              6.21544244843309E-07 -6.29971970018908E-15 3.82665493407424E-08 -6.33806174333944E-15 9.00899264596091E-11 180              
                2.17891853467016E-07 180              
                1.51836542787702E-08 -180             2.69390665020113E-08 -180             0.000474442474898584 179.999999999969 7.64595914111267E-09 -9.66685166871038E-15 
                4.79565985087539E-09 -180             3.19794043778243E-09 1.58228250860984E-14 4.04199018728589E-10 1.55079356062744E-14 6.87104138242843E-13 -180             
                1.19723385151515E-09 -180             
                7.89670464621259E-07 180              5.05690129257639E-08 180              7.64595914111268E-09 5.63073355687016E-15 0.0012006405879682 -179.999999999992 
                3.07166003220646E-07 180              2.64889346206242E-06 180              1.37210518799336E-07 -1.22695592416251E-14 5.26886368880188E-11 -1.24653628997224E-14 
                8.36905955521058E-08 180              
                4.2576166236072E-08 -180             1.24757182031021E-07 180              4.7956598508754E-09 -180             3.07166003220647E-07 180              
                0.0032863070185335 -180             4.87076774662264E-08 -4.30747278641706E-19 1.481164065801E-09 180              3.85924961876788E-12 180              
                2.34536260462515E-09 -180             
                2.20493542352378E-06 -1.14977145479082E-20 6.21544244843307E-07 -6.6739374520814E-15 3.19794043778243E-09 1.55611017976089E-14 2.64889346206241E-06 180              
                4.87076774662264E-08 -3.15613775838114E-19 0.000273190945102364 -180             5.19854089591516E-08 1.29613073522332E-19 2.74570433965898E-10 180              
                1.13445630285706E-07 -3.20735765664797E-20 
                7.18252504973354E-08 6.12036070277204E-20 3.82665493407423E-08 -9.55148099140627E-15 4.0419901872859E-10 1.4227255479048E-14 1.37210518799336E-07 -2.93578938938032E-14 
                1.481164065801E-09 180              5.19854089591516E-08 2.15633644908984E-19 0.00301581856936917 -180             1.94124947053514E-11 -180             
                1.08295926626269E-08 4.15034640616217E-20 
                2.51205251243244E-10 -180             9.0089926459609E-11 180              6.87104138242845E-13 -180             5.26886368880189E-11 -4.60175229684812E-16 
                3.85924961876788E-12 -180             2.74570433965898E-10 180              1.94124947053514E-11 180              0.00220608951620738 -180             
                1.8591047224201E-11 -180             
                3.4055741137724E-07 -180             2.17891853467017E-07 180              1.19723385151515E-09 -180             8.36905955521058E-08 180              
                2.34536260462515E-09 -180             1.13445630285706E-07 -3.47416691674881E-20 1.08295926626269E-08 2.61587448573325E-20 1.8591047224201E-11 -180             
                0.00511558592148731 -180             
! Gamma         !               59.5939057213515 0                75.9751318849133 0                59.593981688975  0                102.809750150929 0                
!               75.9742585404864 0                75.9743390511448 0                75.9743777086618 0                102.809930416741 0                
!               102.810314705766 0                
! Port Impedance0                31.0391064996541 0                60.7059658654824 0                62.0262807649204 0                29.9891042733106 
!               0                60.88968625611   0                30.4453038703888 0                60.8143030005255 0                59.9504567846375 
!               0                59.9390646271077 

1                              0.000639888239111652 -180             3.50206609341429E-06 -180             1.70520890870926E-08 180              8.82276529100913E-07 180              
                4.79082676157311E-08 180              2.40073767522455E-06 -7.9298597647385E-22 7.87684517818005E-08 4.41863004781097E-21 2.73760427954497E-10 180              
                3.30019251640227E-07 -180             
                3.5020660934143E-06 180              0.000869388387671921 -180             2.88425090959528E-08 180              5.48223144338685E-08 -180             
                1.35301224669509E-07 180              6.77899482537239E-07 4.58981002152746E-22 4.22313691279231E-08 -4.23519853255238E-23 9.87134333811489E-11 -180             
                2.26352088239769E-07 180              
                1.70520890870926E-08 180              2.88425090959528E-08 180              0.000473618559510225 -179.999999999998 8.69578116662852E-09 2.56498461005121E-15 
                5.37405511255388E-09 180              3.7172475316635E-09 -3.12680969586895E-15 4.7374062843048E-10 -2.39979292128504E-15 8.03654334851516E-13 180              
                1.34127921578592E-09 180              
                8.82276529100911E-07 -180             5.48223144338682E-08 -180             8.69578116662853E-09 2.10901152507921E-15 0.00118373598478827 179.999999999996 
                3.27699445150805E-07 180              2.81475440729669E-06 -180             1.49822531894971E-07 1.7367316181541E-15 5.30805043653398E-11 1.79810097319565E-14 
                9.18565896961598E-08 -180             
                4.79082676157311E-08 180              1.35301224669509E-07 180              5.37405511255387E-09 180              3.27699445150806E-07 -180             
                0.00325925627398138 -179.999999999998 5.20494113408612E-08 -4.67913292073483E-15 1.6691635730696E-09 180              4.15940465417312E-12 180              
                2.59508042486399E-09 180              
                2.40073767522455E-06 6.81450592333233E-22 6.77899482537238E-07 -3.50911667248867E-22 3.7172475316635E-09 -9.33931733296368E-16 2.81475440729668E-06 -180             
                5.20494113408614E-08 -9.26236712360735E-15 0.000270593757593973 180              5.68891849935502E-08 7.69352923410056E-21 3.05499568702731E-10 180              
                1.22071629264091E-07 1.00108778697861E-21 
                7.87684517818005E-08 -7.91930962177062E-21 4.22313691279232E-08 -5.15438132032991E-22 4.7374062843048E-10 -9.33918258893628E-16 1.49822531894971E-07 5.50158546116327E-15 
                1.6691635730696E-09 180              5.68891849935502E-08 -3.61823872414919E-20 0.00300191686490425 180              2.11203193156903E-11 -180             
                1.15240236301942E-08 -5.41068720248167E-21 
                2.73760427954497E-10 -180             9.87134333811492E-11 -180             8.03654334851516E-13 -180             5.30805043653399E-11 4.45674180583532E-14 
                4.15940465417313E-12 180              3.05499568702731E-10 -180             2.11203193156904E-11 -180             0.00220021600294396 179.999999999997 
                1.9685609032017E-11 -180             
                3.30019251640227E-07 180              2.26352088239769E-07 180              1.34127921578592E-09 180              9.18565896961597E-08 -180             
                2.595080424864E-09 180              1.22071629264091E-07 1.15991996796724E-20 1.15240236301942E-08 -4.31152624517537E-21 1.9685609032017E-11 -180             
                0.00509516226313556 180              
! Gamma         !               59.2334878016983 0                75.6927548907992 0                59.2335642315612 0                102.601253423752 0                
!               75.6918782882633 0                75.6919590992786 0                75.6919979010133 0                102.601434055883 0                
!               102.601819125819 0                
! Port Impedance0                32.8715454916913 0                64.1393577421959 0                65.6880867198971 0                31.6316256880866 
!               0                64.3335176132085 0                32.1672467854925 0                64.2538604772498 0                63.2339788880431 
!               0                63.2219623458209 

1.05                           0.000635114209588028 179.999999999988 3.66214065596516E-06 -180             1.92776376492859E-08 180              9.92952586562255E-07 -180             
                5.43584229841405E-08 180              2.62847890571345E-06 8.00107932877381E-15 8.68650108188364E-08 7.11600986609474E-15 2.99850893810482E-10 -180             
                3.15642288891701E-07 -180             
                3.66214065596517E-06 -180             0.000865644656023564 179.999999999988 3.0947731013873E-08 180              5.98020399670739E-08 180              
                1.47556463251189E-07 -180             7.43663165473632E-07 8.87133004345885E-15 4.69037919323419E-08 9.33199150028167E-15 1.08775755018796E-10 -180             
                2.35443903958457E-07 -180             
                1.92776376492857E-08 180              3.09477310138731E-08 180              0.000472874292123067 -179.999999999957 9.97467480203474E-09 1.71320242514396E-14 
                6.06507874223241E-09 180              4.36319158310722E-09 -2.87066646872113E-14 5.6093636632732E-10 -2.73073486250673E-14 9.49106616884477E-13 180              
                1.5125980625482E-09 180              
                9.92952586562251E-07 -180             5.98020399670736E-08 -180             9.97467480203473E-09 -7.89693178703557E-15 0.00116570676285836 179.999999999985 
                3.51075776343214E-07 180              3.00317983910699E-06 -180             1.64538518383637E-07 1.43103130754386E-14 5.32665184955439E-11 4.17424373401601E-14 
                1.01440712908049E-07 -180             
                5.43584229841409E-08 -180             1.47556463251189E-07 180              6.06507874223238E-09 180              3.51075776343213E-07 -180             
                0.00323087159670786 -179.999999999997 5.58019929071441E-08 -8.20864346647233E-15 1.8973447918807E-09 180              4.49902197541197E-12 180              
                2.89594837839583E-09 180              
                2.62847890571345E-06 7.58374578256133E-15 7.43663165473635E-07 9.39831982795647E-15 4.36319158310721E-09 -2.67752209867886E-14 3.00317983910699E-06 -180             
                5.58019929071445E-08 -1.62497027448057E-14 0.000267804340045348 180              6.26244607168903E-08 -9.23989072168547E-16 3.41196767819098E-10 180              
                1.32008154397622E-07 -7.4884235766284E-15 
                8.68650108188366E-08 9.54154814358559E-15 4.69037919323423E-08 1.29616444994421E-14 5.60936366327317E-10 -2.39708240306162E-14 1.64538518383636E-07 4.72088005314174E-14 
                1.8973447918807E-09 180              6.26244607168904E-08 -6.43253673726664E-16 0.00298734078775841 180              2.31077974370708E-11 -180             
                1.23053006688106E-08 -4.86967272504227E-15 
                2.99850893810484E-10 -180             1.08775755018797E-10 -180             9.49106616884473E-13 180              5.32665184955439E-11 8.23560691511818E-14 
                4.49902197541199E-12 180              3.41196767819098E-10 -180             2.31077974370709E-11 -180             0.00219404636307922 179.999999999997 
                2.09109127800759E-11 -180             
                3.156422888917E-07 -180             2.35443903958455E-07 -180             1.5125980625482E-09 180              1.01440712908049E-07 -180             
                2.89594837839583E-09 180              1.32008154397621E-07 -3.95978681856351E-15 1.23053006688106E-08 -2.09370531813931E-15 2.09109127800759E-11 180              
                0.005073748612756 -180             
! Gamma         !               58.8522070274729 0                75.394756699715  0                58.8522839524947 0                102.381606741522 0                
!               75.3938766323622 0                75.3939577627904 0                75.3939967178925 0                102.381787761174 0                
!               102.382173657224 0                
! Port Impedance0                34.7387306819321 0                67.6124605110554 0                69.4193257345389 0                33.2844605704703 
!               0                67.8171887791477 0                33.9091101178501 0                67.7332065887203 0                66.5381182576168 
!               0                66.5254733408452 

1.1                            0.000629692334342735 179.999999999988 3.83400269613665E-06 -180             2.19387278244863E-08 -180             1.12603829371158E-06 -180             
                6.22174991214652E-08 -180             2.89453990107757E-06 6.96271578605375E-15 9.63415894863563E-08 6.64395465742131E-15 3.30129124940851E-10 -180             
                2.96374681805859E-07 -180             
                3.83400269613665E-06 -180             0.000861676454917526 180              3.32635075286555E-08 180              6.56710200453549E-08 180              
                1.61867825440921E-07 180              8.20781974634625E-07 -1.57111738070546E-19 5.24385655753354E-08 1.78908086869381E-15 1.20568301528461E-10 180              
                2.45161757939132E-07 180              
                2.19387278244863E-08 -180             3.32635075286555E-08 180              0.000472235023640022 180              1.15436200082319E-08 3.75714766804834E-20 
                6.89513537255501E-09 180              5.17302233773638E-09 -2.37362279657215E-19 6.71149649395333E-10 -9.55331153915404E-16 1.1319884359054E-12 180              
                1.71721293045488E-09 180              
                1.12603829371158E-06 -180             6.56710200453557E-08 180              1.15436200082319E-08 4.23648912652654E-20 0.00114650187249832 180              
                3.77767965599556E-07 180              3.21791436411907E-06 -180             1.81786814303417E-07 -3.6675494290392E-15 5.31671231424775E-11 1.32110145574347E-19 
                1.12748235645508E-07 180              
                6.22174991214653E-08 -180             1.61867825440921E-07 180              6.89513537255501E-09 180              3.77767965599557E-07 180              
                0.00320116239717383 180              6.00125564592435E-08 -4.85714079417451E-20 2.17635933770255E-09 180              4.88300611418504E-12 180              
                3.26114664483765E-09 180              
