! Touchstone file from project test_multiport
! Exported from HFSS 2019.2.0
!Data is not renormalized
# GHZ S MA
! Modal data exported
! Port[1] = 1:1
! Port[2] = 2:1
! Port[3] = 3:1
! Port[4] = 4:1
! Port[5] = 5:1
! Port[6] = 6:1
! Port[7] = 7:1
! Port[8] = 8:1
! Port[9] = 9:1
! Port[10] = 10:1
! Port[11] = 11:1
! Port[12] = 12:1
0.9                            0.000732622615749579 -179.999999999978 3.0518873904958E-06 180              1.36808171814453E-08 180              6.96749250155364E-07 180              
                3.67896539340554E-08 180              2.02640138686848E-06 -3.70293877872938E-14 7.19441999629139E-08 -1.48968940289002E-14 2.54689272229786E-10 180              
                1.91552723026345E-07 180              4.20055523805357E-08 180              1.65047908138921E-06 180              5.25168093838672E-07 180              
                3.0518873904958E-06 180              0.000831696710693719 -180             2.54265207667709E-08 -180             3.82689707209524E-08 -180             
                1.06795634518585E-07 -180             5.67753978272372E-07 -1.80877582970282E-14 3.82816167555433E-08 6.70499911983236E-20 9.13367469738126E-11 180              
                2.05925565474265E-07 -180             1.27171615076659E-07 -180             5.27091307189473E-07 -180             5.57918414247692E-08 -180             
                1.36808171814453E-08 180              2.54265207667709E-08 -180             0.000590994600283223 -180             6.926810473652E-09 -6.04660408634158E-15 
                3.96068957685636E-09 180              2.81736698263314E-09 -2.26887185233985E-14 3.9209404824995E-10 1.50050378768517E-20 6.82357217258949E-13 -180             
                1.06099419787799E-09 -180             2.5900724576721E-09 -180             3.09510816277741E-09 -180             3.60202500596912E-09 -7.74541263382192E-20 
                6.96749250155365E-07 180              3.82689707209526E-08 180              6.92681047365201E-09 -2.99982234391671E-15 0.00101705538346308 179.999999999999 
                2.69684402322455E-07 180              2.45472066237584E-06 180              1.37057094893974E-07 1.42432358240438E-15 6.0589028456422E-11 -3.34882666712386E-14 
                7.11723360794777E-08 180              3.01126422211811E-08 -2.6066841462075E-15 2.98160812452477E-07 180              3.12992090766302E-06 -1.97833791315885E-16 
                3.67896539340555E-08 180              1.06795634518586E-07 -180             3.96068957685635E-09 -180             2.69684402322456E-07 -180             
                0.00372404288815975 180              4.29795747467704E-08 -9.5944545730841E-15 1.21723533939298E-09 -180             3.44292716894416E-12 -180             
                2.09182808061082E-09 -180             5.36851766892543E-09 -8.76465904473088E-21 2.60693002572092E-08 -1.75533953341809E-20 2.59837133205834E-08 -2.25048794287374E-19 
                2.02640138686848E-06 -2.68830115613445E-14 5.67753978272371E-07 -1.00570928742636E-14 2.81736698263314E-09 -1.07549518159487E-14 2.45472066237586E-06 180              
                4.29795747467704E-08 -1.0214077923055E-14 0.000266806223254923 -179.999999999971 5.18567374887409E-08 -9.87776040881027E-15 3.03589960136817E-10 -180             
                9.60580462563061E-08 -9.72394559248513E-15 2.70117629350314E-08 180              3.58517720198427E-07 180              2.34922531337648E-07 -1.0534689807571E-14 
                7.19441999629135E-08 -1.74869992919382E-14 3.82816167555432E-08 7.91404684263363E-20 3.9209404824995E-10 -1.41928536304627E-20 1.37057094893974E-07 -1.58485089931935E-14 
                1.21723533939297E-09 180              5.1856737488741E-08 -1.61681402532816E-14 0.00217967341071024 -180             2.14049764156822E-11 -180             
                1.08641794944339E-08 2.72935211419567E-20 2.0252065188238E-09 -180             3.00426062829536E-07 180              2.46538462426621E-07 -2.77765724774797E-20 
                2.54689272229786E-10 180              9.13367469738125E-11 -180             6.82357217258949E-13 -180             6.05890284564218E-11 8.02761062014962E-14 
                3.44292716894415E-12 -180             3.03589960136817E-10 180              2.14049764156822E-11 -180             0.00218425804181133 180              
                1.69554427864115E-11 -180             4.38206894946936E-12 3.54728441349296E-15 8.12610329318098E-11 4.8065112612706E-15 1.24292734837349E-10 -180             
                1.91552723026345E-07 180              2.05925565474265E-07 -180             1.06099419787799E-09 -180             7.1172336079478E-08 180              
                2.09182808061081E-09 -180             9.60580462563061E-08 -1.85185265538191E-14 1.08641794944339E-08 3.6382022327176E-20 1.69554427864115E-11 180              
                0.0100978000427209 -180             2.58243370161355E-09 -180             3.03488969405003E-07 -180             8.12990374669928E-08 -180             
                4.20055523805357E-08 180              1.27171615076659E-07 -180             2.5900724576721E-09 -180             3.01126422211811E-08 1.24879734891013E-14 
                5.36851766892543E-09 -1.62234910979985E-20 2.70117629350314E-08 180              2.0252065188238E-09 180              4.38206894946935E-12 5.72933137916124E-15 
                2.58243370161354E-09 -180             0.00366948099075437 -180             5.16530107148269E-08 -180             2.09555187416929E-07 180              
                1.65047908138921E-06 180              5.27091307189473E-07 -180             3.09510816277742E-09 -180             2.98160812452476E-07 -180             
                2.60693002572092E-08 -5.81592785246919E-22 3.58517720198427E-07 180              3.00426062829536E-07 180              8.12610329318096E-11 1.25675021252405E-14 
                3.03488969405003E-07 -180             5.1653010714827E-08 -180             0.0011289813082781 -180             2.03946429170667E-06 -1.08145885901321E-20 
                5.25168093838672E-07 180              5.57918414247693E-08 -180             3.60202500596913E-09 -6.37861056947875E-20 3.12992090766303E-06 -3.47291136344929E-15 
                2.59837133205833E-08 2.00083280120623E-19 2.34922531337648E-07 -1.95715553286536E-15 2.46538462426621E-07 -3.72103879373302E-21 1.24292734837349E-10 -180             
                8.1299037466993E-08 180              2.09555187416929E-07 -180             2.03946429170667E-06 -1.75798810446333E-21 0.00699730663445897 -180             
! Gamma         !               59.9338536558494 0                76.2418713048806 0                59.933927723647  0                103.00723601074  0                
!               76.241113742477  0                76.2412967911362 0                76.2410410461996 0                103.007331344976 0                
!               103.007366328817 0                76.2413025410243 0                76.2412319667894 0                103.007312370645 0                
! Port Impedance0                29.2358795501991 0                57.3613351251904 0                58.4265851367818 0                28.351144427555  
!               0                57.4819153933399 0                28.7436975435489 0                57.4587305052697 0                56.6874508534744 
!               0                56.6804957711463 0                57.4649899458727 0                28.7382255547704 0                28.3451127797424 

0.95                           0.000728274812298202 -179.999999999998 3.17803268610555E-06 180              1.52589092099004E-08 180              7.72896668472648E-07 180              
                4.10964224483428E-08 180              2.19383217346361E-06 -3.0722347571773E-15 7.84122398174874E-08 -3.27993567250016E-15 2.75871883399239E-10 180              
                1.77756726664032E-07 180              4.69192991937329E-08 -180             1.78993399714126E-06 180              5.82832177281853E-07 180              
                3.17803268610555E-06 180              0.000827177191803474 -180             2.71392260216458E-08 -180             4.11817649678993E-08 -180             
                1.15398457627298E-07 -180             6.15936352462655E-07 1.29847803785615E-19 4.19732196314273E-08 5.72852483961206E-21 9.94787167822529E-11 -180             
                2.13983502224706E-07 -180             1.36908281281466E-07 -180             5.735484281603E-07 180              6.0286011801105E-08 -180             
                1.52589092099004E-08 180              2.7139226021646E-08 180              0.000591383246273836 179.999999999996 7.81195141883585E-09 -4.96580956001005E-16 
                4.41540620980847E-09 180              3.24460208353736E-09 -1.54090235017038E-16 4.5481065721366E-10 -9.86882191075708E-18 7.89582779387955E-13 180              
                1.18034533624708E-09 180              2.90218659233904E-09 -180             3.55659849359341E-09 -180             4.11753431631628E-09 -7.7186974547124E-16 
                7.72896668472648E-07 180              4.11817649678992E-08 -180             7.81195141883584E-09 -3.83728350846731E-15 0.00100135601170537 179.999999999997 
                2.87025949366785E-07 -180             2.59841066771985E-06 -180             1.4872944445895E-07 8.96364559874737E-15 6.09281182597195E-11 8.20643772905354E-15 
                7.76597107195006E-08 -180             3.33597466748053E-08 9.38230247749023E-15 3.27393515099873E-07 -180             3.32138349906212E-06 6.95699917353612E-15 
                4.10964224483428E-08 180              1.15398457627298E-07 -180             4.41540620980846E-09 180              2.87025949366785E-07 -180             
                0.00370667113963696 180              4.58552301244929E-08 2.52258177602835E-19 1.36539912538026E-09 -180             3.70183486172518E-12 -180             
                2.29526289175121E-09 180              5.93974791069406E-09 1.01643386786182E-14 2.91379433291488E-08 -3.96102537139362E-15 2.87772031623346E-08 -4.64253570400428E-19 
                2.19383217346362E-06 -7.81458250143037E-15 6.15936352462656E-07 1.1250116593258E-19 3.24460208353736E-09 -7.88256845868919E-15 2.59841066771986E-06 180              
                4.58552301244929E-08 9.00880665301353E-20 0.000264433608468728 -180             5.64529338397561E-08 -9.97426398569966E-20 3.339961526699E-10 180              
                1.02916429715076E-07 3.06124713580817E-20 3.0271577266171E-08 -180             3.88596681384941E-07 180              2.57109854464577E-07 -4.37580321010625E-20 
                7.84122398174873E-08 -1.19610154645769E-14 4.19732196314272E-08 3.37142893197248E-20 4.54810657213661E-10 -7.5837664162027E-15 1.48729444458951E-07 -4.44243950424862E-15 
                1.36539912538026E-09 180              5.64529338397561E-08 -7.31647827075573E-20 0.00216631446638082 -180             2.31762223222948E-11 180              
                1.15042161024972E-08 -8.48807967091628E-20 2.24102164131887E-09 -180             3.20165606654184E-07 180              2.64343585530992E-07 3.26796377923806E-20 
                2.75871883399239E-10 180              9.94787167822528E-11 -180             7.89582779387953E-13 180              6.09281182597196E-11 1.5780199710825E-14 
                3.70183486172518E-12 -180             3.339961526699E-10 180              2.31762223222948E-11 180              0.00217590377011567 -180             
                1.78804896778368E-11 -180             4.89572112977301E-12 9.77991945700892E-15 8.74085859156411E-11 -1.41320702765375E-17 1.36524822989355E-10 180              
                1.77756726664032E-07 -180             2.13983502224706E-07 -180             1.18034533624708E-09 180              7.76597107195008E-08 -180             
                2.29526289175121E-09 180              1.02916429715077E-07 1.03241699962645E-20 1.15042161024972E-08 -1.22546679428338E-19 1.78804896778368E-11 180              
                0.0100815445966116 -180             2.84240531213787E-09 -180             3.20129909350288E-07 180              8.81117518232237E-08 180              
                4.69192991937327E-08 -180             1.36908281281466E-07 -180             2.90218659233904E-09 -180             3.33597466748055E-08 6.31441426071982E-15 
                5.93974791069406E-09 9.34358071020988E-15 3.02715772661709E-08 -180             2.24102164131887E-09 -180             4.89572112977301E-12 7.78184295781429E-15 
                2.84240531213786E-09 -180             0.00364087349818165 179.999999999998 5.52605927755386E-08 180              2.23415787619306E-07 -180             
                1.78993399714126E-06 180              5.73548428160301E-07 -180             3.55659849359342E-09 180              3.27393515099873E-07 -180             
                2.91379433291489E-08 2.8294049348592E-15 3.88596681384941E-07 -180             3.20165606654183E-07 -180             8.74085859156411E-11 1.88690618393848E-15 
                3.20129909350287E-07 -180             5.52605927755386E-08 -180             0.00112137895208908 179.999999999995 2.15991406935414E-06 1.24313608600045E-15 
                5.82832177281853E-07 180              6.0286011801105E-08 -180             4.11753431631628E-09 2.44281792308553E-15 3.32138349906211E-06 -1.54001401496875E-14 
                2.87772031623346E-08 3.36573786499426E-19 2.57109854464577E-07 4.47481524614351E-19 2.64343585530992E-07 1.26287005500857E-20 1.36524822989355E-10 -180             
                8.81117518232237E-08 180              2.23415787619305E-07 -180             2.15991406935414E-06 -6.56051444334605E-15 0.00696661098841567 -180             
! Gamma         !               59.5939223012498 0                75.9749412719524 0                59.593996791539  0                102.809821669814 0                
!               75.9741810479056 0                75.9743647396989 0                75.9741080962122 0                102.809917187109 0                
!               102.809952238126 0                75.9743705097887 0                75.9742996875946 0                102.809898176344 0                
! Port Impedance0                31.0361233995255 0                60.7607883114256 0                62.0242869282177 0                29.9836711752877 
!               0                60.8885312988044 0                30.4471696088853 0                60.8639607770636 0                59.9516496918903 
!               0                59.9442937203008 0                60.8706026806064 0                30.4413685252677 0                29.9772921467323 

1                              0.000723427695753842 180              3.31450345610322E-06 180              1.71300955220016E-08 -180             8.63348959930247E-07 -180             
                4.62713705262679E-08 180              2.38774791351692E-06 8.45527773226365E-15 8.5922506567324E-08 3.02814464402993E-15 3.00273866237116E-10 -180             
                1.60409873594647E-07 180              5.28161793200029E-08 -180             1.95177554202358E-06 180              6.51435583878537E-07 -180             
                3.31450345610321E-06 180              0.000822393148180889 180              2.90392404984497E-08 -180             4.45784020582661E-08 -180             
                1.25364815385097E-07 180              6.71931028248668E-07 6.95278723138158E-15 4.63017889725764E-08 3.45395758020548E-15 1.08938239926032E-10 -180             
                2.22712682937227E-07 180              1.48145652699294E-07 -180             6.27603461656029E-07 -180             6.55096204006405E-08 -180             
                1.71300955220017E-08 180              2.90392404984497E-08 180              0.000591932802746498 -179.999999999997 8.88243206254595E-09 4.80343201838677E-15 
                4.95655307368745E-09 180              3.77169953790415E-09 8.50000399153278E-15 5.32728129549751E-10 6.74460238628509E-15 9.22176705998455E-13 180              
                1.32162186203873E-09 -180             3.27586919816021E-09 180              4.12519476142369E-09 -180             4.74767718254054E-09 2.4506973402618E-17 
                8.6334895993025E-07 -180             4.45784020582657E-08 -180             8.88243206254598E-09 1.78702762403399E-14 0.000984597960209332 179.999999999994 
                3.0673810535667E-07 180              2.76122666575763E-06 -180             1.62290039245244E-07 1.65626161552567E-14 6.10468353503213E-11 1.1543326054661E-14 
                8.52357386361521E-08 -180             3.72170132728246E-08 1.24089588601982E-14 3.61822196628617E-07 -180             3.53826062082868E-06 1.18791098293999E-14 
                4.6271370526268E-08 180              1.25364815385097E-07 -180             4.95655307368744E-09 -180             3.0673810535667E-07 -180             
                0.00368833666164392 -179.999999999999 4.90918285011804E-08 1.90242790445163E-14 1.54453665924382E-09 180              3.99486820253169E-12 180              
                2.53803935515211E-09 180              6.61496970618325E-09 -5.8453554296749E-16 3.28228722160447E-08 -3.34005205827332E-15 3.20927737872893E-08 -2.37179493602247E-15 
                2.38774791351693E-06 6.63847242343496E-15 6.71931028248665E-07 6.38495254183507E-15 3.77169953790415E-09 9.51737188305656E-15 2.76122666575763E-06 -180             
                4.90918285011804E-08 -6.10772589802588E-15 0.000261886486772833 179.999999999968 6.18070254148616E-08 1.21491462583879E-14 3.68925516954901E-10 -180             
                1.10790754127747E-07 6.28082962834843E-15 3.41880069078569E-08 -180             4.23443026772276E-07 -180             2.8317285512671E-07 6.03593858484601E-15 
                8.5922506567324E-08 5.25463574611798E-15 4.63017889725764E-08 4.86108861539805E-15 5.32728129549751E-10 7.58199462836854E-15 1.62290039245243E-07 1.8662238376094E-14 
                1.54453665924383E-09 180              6.18070254148616E-08 1.3771900310577E-14 0.00215227721504541 179.999999999999 2.52294432154334E-11 -180             
                1.22224413959637E-08 5.49866706189431E-15 2.49776835311478E-09 -180             3.42560875806932E-07 -180             2.84722031871379E-07 5.82267199144866E-15 
                3.00273866237117E-10 -180             1.08938239926032E-10 -180             9.22176705998453E-13 -180             6.10468353503211E-11 -4.33796128702136E-14 
                3.99486820253168E-12 180              3.68925516954901E-10 -180             2.52294432154335E-11 -180             0.00216712030632815 180              
                1.89134306838282E-11 -180             5.51077483395093E-12 1.45036073302241E-20 9.44720432262586E-11 -3.0945491590484E-15 1.50877201555115E-10 -180             
                1.60409873594648E-07 180              2.22712682937227E-07 -180             1.32162186203873E-09 -180             8.52357386361523E-08 -180             
                2.53803935515211E-09 180              1.10790754127747E-07 2.3556650567105E-15 1.22224413959636E-08 5.30806550004555E-16 1.89134306838282E-11 -180             
                0.0100644968596468 -180             3.1499703889451E-09 -180             3.3887812556256E-07 180              9.60305522938355E-08 -180             
                5.28161793200029E-08 -180             1.48145652699294E-07 -180             3.27586919816022E-09 -180             3.72170132728245E-08 2.77059236275062E-14 
                6.61496970618326E-09 -1.08825867891952E-14 3.41880069078568E-08 -180             2.49776835311478E-09 180              5.51077483395093E-12 4.43237721558385E-20 
