! Touchstone file from project test_multiport
! Exported from HFSS 2019.2.0
!Data is not renormalized
# GHZ S MA
! Modal data exported
! Port[1] = 1:1
! Port[2] = 2:1
! Port[3] = 3:1
! Port[4] = 4:1
! Port[5] = 5:1
! Port[6] = 6:1
0.9                            0.000805525005156071 -180             3.04602659728199E-06 -180             1.28768722849563E-08 180              6.91922641157695E-07 180              
                3.79008431194966E-08 -180             1.99043060981854E-06 -1.36313000142666E-20 
                3.046026597282E-06 180              0.000748204414716236 180              2.42292435791534E-08 180              3.77240490811614E-08 -180             
                1.11347810321834E-07 180              5.67284748666886E-07 2.83040840921469E-20 
                1.28768722849563E-08 180              2.42292435791535E-08 180              0.000431351830576188 -179.99999999999 6.53431750059555E-09 -1.22377033554114E-14 
                3.81196372691978E-09 180              2.64447981822088E-09 -6.94703737657904E-15 
                6.91922641157695E-07 180              3.77240490811613E-08 180              6.53431750059554E-09 -2.57816167638326E-14 0.00156001974793618 -180             
                2.7249995545684E-07 180              2.43570508274E-06 180              
                3.79008431194968E-08 -180             1.11347810321834E-07 -180             3.81196372691978E-09 180              2.7249995545684E-07 180              
                0.00224688818067809 -180             4.41877137644638E-08 -6.63597158550253E-20 
                1.99043060981854E-06 -2.03506021295459E-20 5.67284748666886E-07 -3.55563711840418E-21 2.64447981822088E-09 -1.72621157373145E-14 2.43570508274E-06 180              
                4.41877137644638E-08 -3.68270941390405E-19 0.000623759766480769 -180             
! Gamma         !               59.9340347697749 0                76.2416876305572 0                59.933945810585  0                103.007209691768 0                
!               76.241113742477  0                76.241312670302  0                
! Port Impedance0                29.2201288596031 0                57.3968914639702 0                58.4564731077692 0                28.3550030195497 
!               0                57.4819153933399 0                28.7408562913182 

0.95                           0.000803216995147182 -180             3.17254197724762E-06 180              1.43711170646701E-08 180              7.67562513618432E-07 -180             
                4.22677066414329E-08 -180             2.15549593892886E-06 -1.90785634323567E-14 
                3.17254197724761E-06 -180             0.000744774417918759 180              2.58674066797762E-08 180              4.06976345873835E-08 -180             
                1.20206019620838E-07 -180             6.15305812345533E-07 -1.29941581953587E-14 
                1.43711170646701E-08 180              2.58674066797762E-08 180              0.000431127028451717 -179.999999999987 7.36981330991268E-09 -2.77785467241131E-14 
                4.24875988367159E-09 180              3.04433897396232E-09 -1.90164942161132E-14 
                7.67562513618431E-07 180              4.06976345873834E-08 180              7.3698133099127E-09 -2.09883989632164E-15 0.00154382966175426 -179.999999999995 
                2.89953334226849E-07 180              2.57860710498927E-06 180              
                4.22677066414329E-08 -180             1.20206019620838E-07 180              4.24875988367159E-09 180              2.89953334226849E-07 180              
                0.00223083315874584 -180             4.71433802277201E-08 -1.83379182000902E-14 
                2.15549593892885E-06 -1.42791468767905E-14 6.15305812345532E-07 -1.84683221422286E-14 3.04433897396231E-09 -1.93323532439152E-14 2.57860710498927E-06 180              
                4.71433802277201E-08 -1.54363016771977E-14 0.000617913455580599 -179.999999999979 
! Gamma         !               59.5941044482692 0                75.9747569523068 0                59.5940149816471 0                102.809795300305 0                
!               75.9741810479056 0                75.974380674655  0                
! Port Impedance0                31.019402072557  0                60.7984557232338 0                62.05601566726   0                29.987751950136  
!               0                60.8885312988044 0                30.4441597795467 

1                              0.000800541464404669 -179.999999999995 3.30946790189505E-06 180              1.61441735494012E-08 180              8.57407683061593E-07 180              
                4.75084981799029E-08 -180             2.34670408582359E-06 -2.08970888161506E-15 
                3.30946790189505E-06 180              0.000741131621062707 -180             2.76858715521087E-08 -180             4.41735755990377E-08 -180             
                1.30459548622539E-07 -180             6.71097315840342E-07 2.3984384509596E-20 
                1.61441735494012E-08 180              2.76858715521086E-08 -180             0.000430999860793313 -180             8.38022384794515E-09 -5.13764739151696E-21 
                4.76848807461055E-09 -180             3.53747804341227E-09 4.79323156569545E-20 
                8.57407683061595E-07 180              4.41735755990378E-08 -180             8.38022384794515E-09 -1.81496586861234E-21 0.0015265484574577 -180             
                3.0979058400372E-07 -180             2.74055387642443E-06 180              
                4.75084981799028E-08 180              1.30459548622539E-07 180              4.76848807461057E-09 180              3.0979058400372E-07 180              
                0.00221396979192001 -179.999999999997 5.04720416841137E-08 -4.92217125342523E-15 
                2.34670408582359E-06 -3.64092345842669E-15 6.71097315840342E-07 3.05219517745401E-20 3.53747804341227E-09 2.34216140052462E-20 2.74055387642444E-06 180              
                5.04720416841136E-08 2.15210607427261E-14 0.000611735951977832 -180             
! Gamma         !               59.2336877378055 0                75.6923785594739 0                59.2335977268086 0                102.601298664876 0                
!               75.6918005065842 0                75.6920008780717 0                
! Port Impedance0                32.85067694954   0                64.2371111039203 0                65.7195788387356 0                31.6301992700022 
!               0                64.3322956557595 0                32.1660377160921 

1.05                           0.000797432081995501 -179.999999999992 3.45688120095702E-06 -180             1.82569118505955E-08 -180             9.64743294923364E-07 180              
                5.38412722041495E-08 -180             2.56907221074698E-06 2.30489034351284E-14 
                3.45688120095703E-06 180              0.000737268644490143 -179.999999999998 2.96959294011019E-08 -180             4.82620035794107E-08 180              
                1.42377480316566E-07 -180             7.36199936872892E-07 1.63891283675597E-14 
                1.82569118505956E-08 180              2.96959294011018E-08 -180             0.000430992314999538 179.999999999986 9.61068450172706E-09 3.50961606122992E-14 
                5.39021556258961E-09 -180             4.15069911907254E-09 2.49083311343658E-14 
                9.64743294923369E-07 180              4.82620035794111E-08 -180             9.610684501727E-09 -8.20047341553492E-15 0.00150813210225304 179.999999999994 
                3.32394864145702E-07 -180             2.92456651596765E-06 -180             
                5.38412722041495E-08 180              1.42377480316566E-07 -180             5.39021556258965E-09 180              3.32394864145702E-07 -180             
                0.00219630785654986 -179.999999999995 5.4220138432723E-08 1.6471030577931E-14 
                2.569072210747E-06 1.35586945064106E-14 7.36199936872894E-07 2.54159014038489E-14 4.15069911907254E-09 2.08075460642396E-14 2.92456651596766E-06 -180             
                5.42201384327227E-08 5.88882131243512E-14 0.000605220902416894 179.999999999971 
! Gamma         !               58.8524082588848 0                75.3943788809305 0                58.8523176647442 0                102.381652079705 0                
!               75.3937985432432 0                75.393999706718  0                
! Port Impedance0                34.7166758032188 0                67.7155437100364 0                69.4526087035951 0                33.2829595878153 
!               0                67.8158987647924 0                33.9078352727751 

1.1                            0.000793807209081288 -180             3.61459335752597E-06 180              2.07841543011428E-08 -180             1.0937578749595E-06 -180             
                6.15485899244109E-08 -180             2.82881755904855E-06 8.95939313849518E-21 
                3.61459335752598E-06 180              0.000733176662014889 -179.999999999992 3.19055158856128E-08 180              5.31056964607712E-08 180              
                1.56294952512874E-07 180              8.12538853799965E-07 -9.08082937839325E-15 
                2.07841543011428E-08 -180             3.19055158856128E-08 180              0.00043112925076727 -180             1.11196233383934E-08 -1.3703445186632E-21 
                6.1380112103729E-09 -180             4.91928229165104E-09 5.49787987023196E-20 
                1.0937578749595E-06 -180             5.3105696460771E-08 -180             1.11196233383934E-08 -3.67951933286319E-22 0.00148853121058101 -180             
                3.58229357587985E-07 -180             3.13431340955706E-06 180              
                6.15485899244108E-08 -180             1.56294952512874E-07 -180             6.13801121037291E-09 -180             3.58229357587986E-07 -180             
                0.00217785771463241 -180             5.84387586253255E-08 4.51437760298333E-21 
                2.82881755904855E-06 5.33239842946825E-21 8.12538853799966E-07 -2.8053746310398E-15 4.91928229165102E-09 2.87473032605693E-20 3.13431340955706E-06 180              
                5.84387586253257E-08 1.3460273980946E-20 0.000598360394896247 -180             
! Gamma         !               58.4498577375772 0                75.0805719112067 0                58.4497665195041 0                102.150783620305 0                
!               75.0799891479197 0                75.0801911521884 0                
! Port Impedance0                36.6203320320996 0                71.2365746087034 0                73.2609736253128 0                34.9466652301915 
!               0                71.3421661078053 0                35.6709652140419 

