! AWR Design Environment (17603) Tue Mar 11 10:19:48 2025
! Document = 'tmp'
! nPorts: 5, nXvals: 6

VAR L1 = 30
VAR R1 = 20
BEGIN ACDATA
# GHz S RI R 50
% F N11X N11Y N12X N12Y N13X N13Y N14X N14Y 
	N15X N15Y N21X N21Y N22X N22Y N23X N23Y 
	N24X N24Y N25X N25Y N31X N31Y N32X N32Y 
	N33X N33Y N34X N34Y N35X N35Y N41X N41Y 
	N42X N42Y N43X N43Y N44X N44Y N45X N45Y 
	N51X N51Y N52X N52Y N53X N53Y N54X N54Y 
	N55X N55Y 
0.1 0.7038933 -0.44985274 -0.0024647304 -0.016283172 0.40074965 0.3416051 -0.051853827 0.11399665 
	-0.050324393 0.010534158 -0.0024647304 -0.016283172 0.7038933 -0.44985274 -0.050324393 0.010534158 
	-0.051853827 0.11399665 0.40074965 0.3416051 0.40074965 0.3416051 -0.050324393 0.010534158 
	0.2435092 -0.64883034 0.36441727 0.14167043 0.041648278 0.15502064 -0.051853827 0.11399665 
	-0.051853827 0.11399665 0.36441727 0.14167043 0.37487312 -0.51133416 0.36441727 0.14167043 
	-0.050324393 0.010534158 0.40074965 0.3416051 0.041648278 0.15502064 0.36441727 0.14167043 
	0.2435092 -0.64883034 
1.1 -0.051599487 -0.36865547 0.41651244 0.50625596 0.031591428 -0.19535794 0.48465119 0.16486503 
	0.11884443 -0.10710757 0.41651244 0.50625596 -0.051599487 -0.36865547 0.11884443 -0.10710757 
	0.48465119 0.16486503 0.031591428 -0.19535794 0.031591428 -0.19535794 0.11884443 -0.10710757 
	0.8421162 0.45022908 0.034866372 -0.1199672 -0.027418422 -0.027796375 0.48465119 0.16486503 
	0.48465119 0.16486503 0.034866372 -0.1199672 -0.039035128 -0.089795658 0.034866372 -0.1199672 
	0.11884443 -0.10710757 0.031591428 -0.19535794 -0.027418422 -0.027796375 0.034866372 -0.1199672 
	0.8421162 0.45022908 
2.1 -0.1935436 -0.23544739 0.63458638 0.32386545 0.0053242626 -0.096685861 0.51458908 0.089693592 
	0.039043876 -0.081425788 0.63458638 0.32386545 -0.1935436 -0.23544739 0.039043876 -0.081425788 
	0.51458908 0.089693592 0.0053242626 -0.096685861 0.0053242626 -0.096685861 0.039043876 -0.081425788 
	0.95632315 0.24828855 0.0097488168 -0.065485397 -0.01044011 -0.0046915062 0.51458908 0.089693592 
	0.51458908 0.089693592 0.0097488168 -0.065485397 -0.048675802 -0.04841639 0.0097488168 -0.065485397 
	0.039043876 -0.081425788 0.0053242626 -0.096685861 -0.01044011 -0.0046915062 0.0097488168 -0.065485397 
	0.95632315 0.24828855 
3.1 -0.22990943 -0.16664558 0.68833541 0.22898965 0.002044851 -0.064255339 0.52090732 0.061228682 
	0.018621845 -0.05931742 0.68833541 0.22898965 -0.22990943 -0.16664558 0.018621845 -0.05931742 
	0.52090732 0.061228682 0.002044851 -0.064255339 0.002044851 -0.064255339 0.018621845 -0.05931742 
	0.97995384 0.16980864 0.0044895361 -0.044726371 -0.0051100731 -0.001509505 0.52090732 0.061228682 
	0.52090732 0.061228682 0.0044895361 -0.044726371 -0.050793721 -0.033004621 0.0044895361 -0.044726371 
	0.018621845 -0.05931742 0.002044851 -0.064255339 -0.0051100731 -0.001509505 0.0044895361 -0.044726371 
	0.97995384 0.16980864 
4.1 -0.24386729 -0.1280618 0.70876982 0.1758846 0.0010813602 -0.048206419 0.52321826 0.046423852 
	0.010797846 -0.046040229 0.70876982 0.1758846 -0.24386729 -0.1280618 0.010797846 -0.046040229 
	0.52321826 0.046423852 0.0010813602 -0.048206419 0.0010813602 -0.048206419 0.010797846 -0.046040229 
	0.98854114 0.12882508 0.0025698108 -0.033917642 -0.0029901556 -0.00066079043 0.52321826 0.046423852 
	0.52321826 0.046423852 0.0025698108 -0.033917642 -0.051576149 -0.025012421 0.0025698108 -0.033917642 
	0.010797846 -0.046040229 0.0010813602 -0.048206419 -0.0029901556 -0.00066079043 0.0025698108 -0.033917642 
	0.98854114 0.12882508 
5.1 -0.25060266 -0.10374938 0.71859332 0.14245683 0.00067151228 -0.038605499 0.52431219 0.037370139 
	0.0070256429 -0.037472092 0.71859332 0.14245683 -0.25060266 -0.10374938 0.0070256429 -0.037472092 
	0.52431219 0.037370139 0.00067151228 -0.038605499 0.00067151228 -0.038605499 0.0070256429 -0.037472092 
	0.99259485 0.10372808 0.0016618155 -0.0273051 -0.0019538192 -0.00034539171 0.52431219 0.037370139 
	0.52431219 0.037370139 0.0016618155 -0.0273051 -0.051948005 -0.020130079 0.0016618155 -0.0273051 
	0.0070256429 -0.037472092 0.00067151228 -0.038605499 -0.0019538192 -0.00034539171 0.0016618155 -0.0273051 
	0.99259485 0.10372808 
END

VAR L1 = 35
VAR R1 = 20
BEGIN ACDATA
# GHz S RI R 50
% F N11X N11Y N12X N12Y N13X N13Y N14X N14Y 
	N15X N15Y N21X N21Y N22X N22Y N23X N23Y 
	N24X N24Y N25X N25Y N31X N31Y N32X N32Y 
	N33X N33Y N34X N34Y N35X N35Y N41X N41Y 
	N42X N42Y N43X N43Y N44X N44Y N45X N45Y 
	N51X N51Y N52X N52Y N53X N53Y N54X N54Y 
	N55X N55Y 
0.1 0.69518608 -0.44814689 -0.001629827 -0.017847871 0.41755149 0.33845721 -0.057473474 0.11660794 
	-0.05363427 0.010929613 -0.001629827 -0.017847871 0.69518608 -0.44814689 -0.05363427 0.010929613 
	-0.057473474 0.11660794 0.41755149 0.33845721 0.41755149 0.33845721 -0.05363427 0.010929613 
	0.21167948 -0.64392898 0.37324813 0.13538858 0.051155169 0.15915358 -0.057473474 0.11660794 
	-0.057473474 0.11660794 0.37324813 0.13538858 0.36845069 -0.50399304 0.37324813 0.13538858 
	-0.05363427 0.010929613 0.41755149 0.33845721 0.051155169 0.15915358 0.37324813 0.13538858 
	0.21167948 -0.64392898 
1.1 -0.040780611 -0.37970683 0.43189392 0.49507997 0.019232128 -0.17157947 0.49272533 0.15505339 
	0.096929235 -0.098847057 0.43189392 0.49507997 -0.040780611 -0.37970683 0.096929235 -0.098847057 
	0.49272533 0.15505339 0.019232128 -0.17157947 0.019232128 -0.17157947 0.096929235 -0.098847057 
	0.88169448 0.39522363 0.024498733 -0.10605399 -0.022354575 -0.018743115 0.49272533 0.15505339 
	0.49272533 0.15505339 0.024498733 -0.10605399 -0.034448127 -0.097998797 0.024498733 -0.10605399 
	0.096929235 -0.098847057 0.019232128 -0.17157947 -0.022354575 -0.018743115 0.024498733 -0.10605399 
	0.88169448 0.39522363 
2.1 -0.18960204 -0.24377274 0.63909997 0.31501818 0.0021705384 -0.083505165 0.51702879 0.083234871 
	0.031302747 -0.070975142 0.63909997 0.31501818 -0.18960204 -0.24377274 0.031302747 -0.070975142 
	0.51702879 0.083234871 0.0021705384 -0.083505165 0.0021705384 -0.083505165 0.031302747 -0.070975142 
	0.96773447 0.21417939 0.0066573157 -0.056623203 -0.0078650706 -0.0030758783 0.51702879 0.083234871 
	0.51702879 0.083234871 0.0066573157 -0.056623203 -0.047372211 -0.053223337 0.0066573157 -0.056623203 
	0.031302747 -0.070975142 0.0021705384 -0.083505165 -0.0078650706 -0.0030758783 0.0066573157 -0.056623203 
	0.96773447 0.21417939 
3.1 -0.22797112 -0.17279241 0.69040773 0.22263214 0.00062870975 -0.055275739 0.52204876 0.056657627 
	0.014885922 -0.051221621 0.69040773 0.22263214 -0.22797112 -0.17279241 0.014885922 -0.051221621 
	0.52204876 0.056657627 0.00062870975 -0.055275739 0.00062870975 -0.055275739 0.014885922 -0.051221621 
	0.98523496 0.14597383 0.0030470705 -0.038491977 -0.003796661 -0.00098449548 0.52204876 0.056657627 
	0.52204876 0.056657627 0.0030470705 -0.038491977 -0.050191669 -0.036331298 0.0030470705 -0.038491977 
	0.014885922 -0.051221621 0.00062870975 -0.055275739 -0.003796661 -0.00098449548 0.0030470705 -0.038491977 
	0.98523496 0.14597383 
4.1 -0.2427298 -0.13286257 0.70995286 0.17098437 0.00027868225 -0.04140671 0.52387538 0.042913088 
	0.0086228841 -0.039628173 0.70995286 0.17098437 -0.2427298 -0.13286257 0.0086228841 -0.039628173 
	0.52387538 0.042913088 0.00027868225 -0.04140671 0.00027868225 -0.04140671 0.0086228841 -0.039628173 
	0.99156906 0.11060465 0.0017402124 -0.029139595 -0.0022108371 -0.00043016899 0.52387538 0.042913088 
	0.52387538 0.042913088 0.0017402124 -0.029139595 -0.05123119 -0.027546985 0.0017402124 -0.029139595 
	0.0086228841 -0.039628173 0.00027868225 -0.04140671 -0.0022108371 -0.00043016899 0.0017402124 -0.029139595 
	0.99156906 0.11060465 
5.1 -0.24985822 -0.10766921 0.71935713 0.13848317 0.00015491115 -0.03313574 0.52473828 0.034526914 
	0.0056078965 -0.032205136 0.71935713 0.13848317 -0.24985822 -0.10766921 0.0056078965 -0.032205136 
	0.52473828 0.034526914 0.00015491115 -0.03313574 0.00015491115 -0.03313574 0.0056078965 -0.032205136 
	0.99455439 0.089004954 0.0011241368 -0.023439426 -0.0014413327 -0.00022465311 0.52473828 0.034526914 
	0.52473828 0.034526914 0.0011241368 -0.023439426 -0.051724828 -0.022174976 0.0011241368 -0.023439426 
	0.0056078965 -0.032205136 0.00015491115 -0.03313574 -0.0014413327 -0.00022465311 0.0011241368 -0.023439426 
	0.99455439 0.089004954 
END

VAR L1 = 40
VAR R1 = 20
BEGIN ACDATA
# GHz S RI R 50
% F N11X N11Y N12X N12Y N13X N13Y N14X N14Y 
	N15X N15Y N21X N21Y N22X N22Y N23X N23Y 
	N24X N24Y N25X N25Y N31X N31Y N32X N32Y 
	N33X N33Y N34X N34Y N35X N35Y N41X N41Y 
	N42X N42Y N43X N43Y N44X N44Y N45X N45Y 
	N51X N51Y N52X N52Y N53X N53Y N54X N54Y 
	N55X N55Y 
0.1 0.6862158 -0.44590419 -0.00075977868 -0.019569426 0.43489589 0.33429941 -0.06313598 0.11956532 
	-0.057215932 0.011608889 -0.00075977868 -0.019569426 0.6862158 -0.44590419 -0.057215932 0.011608889 
	-0.06313598 0.11956532 0.43489589 0.33429941 0.43489589 0.33429941 -0.057215932 0.011608889 
	0.17871513 -0.63719439 0.38204236 0.12849795 0.061562554 0.16278814 -0.06313598 0.11956532 
	-0.06313598 0.11956532 0.38204236 0.12849795 0.36218724 -0.49612653 0.38204236 0.12849795 
	-0.057215932 0.011608889 0.43489589 0.33429941 0.061562554 0.16278814 0.38204236 0.12849795 
	0.17871513 -0.63719439 
1.1 -0.033287738 -0.38905833 0.44279432 0.48540384 0.01128235 -0.15243555 0.49816852 0.14691946 
	0.08104255 -0.090829427 0.44279432 0.48540384 -0.033287738 -0.38905833 0.08104255 -0.090829427 
	0.49816852 0.14691946 0.01128235 -0.15243555 0.01128235 -0.15243555 0.08104255 -0.090829427 
	0.90834539 0.35107658 0.017609253 -0.094602013 -0.018279547 -0.013209597 0.49816852 0.14691946 
	0.49816852 0.14691946 0.017609253 -0.094602013 -0.031555552 -0.10463489 0.017609253 -0.094602013 
	0.08104255 -0.090829427 0.01128235 -0.15243555 -0.018279547 -0.013209597 0.017609253 -0.094602013 
	0.90834539 0.35107658 
2.1 -0.18696997 -0.25022151 0.6421476 0.30816444 0.00029333934 -0.073401604 0.51860634 0.078261908 
	0.025922685 -0.062803231 0.6421476 0.30816444 -0.18696997 -0.25022151 0.025922685 -0.062803231 
	0.51860634 0.078261908 0.00029333934 -0.073401604 0.00029333934 -0.073401604 0.025922685 -0.062803231 
	0.9752178 0.18814865 0.0046859443 -0.049810101 -0.0061197704 -0.0021337168 0.51860634 0.078261908 
	0.51860634 0.078261908 0.0046859443 -0.049810101 -0.046584575 -0.056903615 0.0046859443 -0.049810101 
	0.025922685 -0.062803231 0.00029333934 -0.073401604 -0.0061197704 -0.0021337168 0.0046859443 -0.049810101 
	0.9752178 0.18814865 
3.1 -0.22668496 -0.17747025 0.69179089 0.21779422 -0.00019526196 -0.048470866 0.52278037 0.053188079 
	0.012308959 -0.045041181 0.69179089 0.21779422 -0.22668496 -0.17747025 0.012308959 -0.045041181 
	0.52278037 0.053188079 -0.00019526196 -0.048470866 -0.00019526196 -0.048470866 0.012308959 -0.045041181 
	0.98867901 0.12795617 0.0021352278 -0.033763086 -0.0029279401 -0.00068103194 0.52278037 0.053188079 
	0.52278037 0.053188079 0.0021352278 -0.033763086 -0.049831197 -0.038849986 0.0021352278 -0.033763086 
	0.012308959 -0.045041181 -0.00019526196 -0.048470866 -0.0029279401 -0.00068103194 0.0021352278 -0.033763086 
	0.98867901 0.12795617 
4.1 -0.24197664 -0.13649308 0.71073894 0.16727872 -0.00018410036 -0.036276196 0.52429521 0.040261994 
	0.0071265915 -0.034771439 0.71073894 0.16727872 -0.24197664 -0.13649308 0.0071265915 -0.034771439 
	0.52429521 0.040261994 -0.00018410036 -0.036276196 -0.00018410036 -0.036276196 0.0071265915 -0.034771439 
	0.99353968 0.096877815 0.0012174584 -0.025532895 -0.0016996311 -0.00029728434 0.52429521 0.040261994 
	0.52429521 0.040261994 0.0012174584 -0.025532895 -0.051025336 -0.029458197 0.0012174584 -0.025532895 
	0.0071265915 -0.034771439 -0.00018410036 -0.036276196 -0.0016996311 -0.00029728434 0.0012174584 -0.025532895 
	0.99353968 0.096877815 
5.1 -0.24936579 -0.11062481 0.71986356 0.13548703 -0.00014159764 -0.029017352 0.52501009 0.032385086 
	0.0046337351 -0.028229955 0.71986356 0.13548703 -0.24936579 -0.11062481 0.0046337351 -0.028229955 
	0.52501009 0.032385086 -0.00014159764 -0.029017352 -0.00014159764 -0.029017352 0.0046337351 -0.028229955 
	0.99582846 0.077930574 0.00078584095 -0.020528082 -0.0011064381 -0.00015518532 0.52501009 0.032385086 
	0.52501009 0.032385086 0.00078584095 -0.020528082 -0.051591857 -0.023714007 0.00078584095 -0.020528082 
	0.0046337351 -0.028229955 -0.00014159764 -0.029017352 -0.0011064381 -0.00015518532 0.00078584095 -0.020528082 
	0.99582846 0.077930574 
END

VAR L1 = 30
VAR R1 = 30
BEGIN ACDATA
# GHz S RI R 50
% F N11X N11Y N12X N12Y N13X N13Y N14X N14Y 
	N15X N15Y N21X N21Y N22X N22Y N23X N23Y 
	N24X N24Y N25X N25Y N31X N31Y N32X N32Y 
	N33X N33Y N34X N34Y N35X N35Y N41X N41Y 
	N42X N42Y N43X N43Y N44X N44Y N45X N45Y 
	N51X N51Y N52X N52Y N53X N53Y N54X N54Y 
	N55X N55Y 
0.1 0.70287211 -0.45091627 -0.0034859169 -0.017346704 0.39761336 0.34497447 -0.043538867 0.10938499 
	-0.053460686 0.013903519 -0.0034859169 -0.017346704 0.70287211 -0.45091627 -0.053460686 0.013903519 
	-0.043538867 0.10938499 0.39761336 0.34497447 0.39761336 0.34497447 -0.053460686 0.013903519 
	0.25456098 -0.63964427 0.34858629 0.11655957 0.05270006 0.16420671 -0.043538867 0.10938499 
	-0.043538867 0.10938499 0.34858629 0.11655957 0.38990515 -0.45188912 0.34858629 0.11655957 
	-0.053460686 0.013903519 0.39761336 0.34497447 0.05270006 0.16420671 0.34858629 0.11655957 
	0.25456098 -0.63964427 
1.1 -0.032667364 -0.3543332 0.43544456 0.52057823 0.034875033 -0.2001309 0.44021973 0.1457664 
	0.12212803 -0.11188053 0.43544456 0.52057823 -0.032667364 -0.3543332 0.12212803 -0.11188053 
	0.44021973 0.1457664 0.034875033 -0.2001309 0.034875033 -0.2001309 0.12212803 -0.11188053 
	0.84091649 0.44948101 0.030698581 -0.10892515 -0.028618132 -0.02854444 0.44021973 0.1457664 
	0.44021973 0.1457664 0.030698581 -0.10892515 0.058163369 -0.073682503 0.030698581 -0.10892515 
	0.12212803 -0.11188053 0.034875033 -0.2001309 -0.028618132 -0.02854444 0.030698581 -0.10892515 
	0.84091649 0.44948101 
2.1 -0.17026872 -0.22719448 0.65786125 0.33211837 0.0062968871 -0.099660947 0.46609408 0.07913793 
	0.040016501 -0.084400873 0.65786125 0.33211837 -0.17026872 -0.22719448 0.040016501 -0.084400873 
	0.46609408 0.07913793 0.0062968871 -0.099660947 0.0062968871 -0.099660947 0.040016501 -0.084400873 
	0.95594313 0.24817466 0.008563625 -0.059307432 -0.010820138 -0.0048054032 0.46609408 0.07913793 
	0.46609408 0.07913793 0.008563625 -0.059307432 0.050684584 -0.039660995 0.008563625 -0.059307432 
	0.040016501 -0.084400873 0.0062968871 -0.099660947 -0.010820138 -0.0048054032 0.008563625 -0.059307432 
	0.95594313 0.24817466 
3.1 -0.20567736 -0.16094561 0.71256748 0.23468962 0.0024980639 -0.066340109 0.47153676 0.053998286 
	0.019075058 -0.061402191 0.71256748 0.23468962 -0.20567736 -0.16094561 0.019075058 -0.061402191 
	0.47153676 0.053998286 0.0024980639 -0.066340109 0.0024980639 -0.066340109 0.019075058 -0.061402191 
	0.97977454 0.16977283 0.0039417224 -0.040485219 -0.0052893792 -0.0015453109 0.47153676 0.053998286 
	0.47153676 0.053998286 0.0039417224 -0.040485219 0.04904304 -0.027026134 0.0039417224 -0.040485219 
	0.019075058 -0.061402191 0.0024980639 -0.066340109 -0.0052893792 -0.0015453109 0.0039417224 -0.040485219 
	0.97977454 0.16977283 
4.1 -0.2192816 -0.12372173 0.73335552 0.18022467 0.0013418887 -0.049801988 0.47352581 0.04093484 
	0.011058375 -0.047635797 0.73335552 0.18022467 -0.2192816 -0.12372173 0.011058375 -0.047635797 
	0.47352581 0.04093484 0.0013418887 -0.049801988 0.0013418887 -0.049801988 0.011058375 -0.047635797 
	0.98843761 0.12880954 0.0022558177 -0.030695426 -0.0030936875 -0.00067632978 0.47352581 0.04093484 
	0.47352581 0.04093484 0.0022558177 -0.030695426 0.04843675 -0.020478826 0.0022558177 -0.030695426 
	0.011058375 -0.047635797 0.0013418887 -0.049801988 -0.0030936875 -0.00067632978 0.0022558177 -0.030695426 
	0.98843761 0.12880954 
5.1 -0.2258489 -0.10024874 0.74334707 0.14595748 0.00084032745 -0.039895561 0.47446705 0.032948973 
	0.007194458 -0.038762153 0.74334707 0.14595748 -0.2258489 -0.10024874 0.007194458 -0.038762153 
	0.47446705 0.032948973 0.00084032745 -0.039895561 0.00084032745 -0.039895561 0.007194458 -0.038762153 
	0.99252762 0.10371999 0.0014586356 -0.024708799 -0.0020210444 -0.00035348068 0.47446705 0.032948973 
	0.47446705 0.032948973 0.0014586356 -0.024708799 0.048148634 -0.016480348 0.0014586356 -0.024708799 
	0.007194458 -0.038762153 0.00084032745 -0.039895561 -0.0020210444 -0.00035348068 0.0014586356 -0.024708799 
	0.99252762 0.10371999 
END

VAR L1 = 35
VAR R1 = 30
BEGIN ACDATA
# GHz S RI R 50
% F N11X N11Y N12X N12Y N13X N13Y N14X N14Y 
	N15X N15Y N21X N21Y N22X N22Y N23X N23Y 
	N24X N24Y N25X N25Y N31X N31Y N32X N32Y 
	N33X N33Y N34X N34Y N35X N35Y N41X N41Y 
	N42X N42Y N43X N43Y N44X N44Y N45X N45Y 
	N51X N51Y N52X N52Y N53X N53Y N54X N54Y 
	N55X N55Y 
0.1 0.69416035 -0.44935901 -0.0026555583 -0.019059996 0.41421565 0.34197727 -0.048750328 0.11199207 
	-0.056970111 0.014449672 -0.0026555583 -0.019059996 0.69416035 -0.44935901 -0.056970111 0.014449672 
	-0.048750328 0.11199207 0.41421565 0.34197727 0.41421565 0.34197727 -0.056970111 0.014449672 
	0.22348333 -0.63498222 0.35631211 0.11045493 0.062959019 0.16810035 -0.048750328 0.11199207 
	-0.048750328 0.11199207 0.35631211 0.11045493 0.38487643 -0.44489399 0.35631211 0.11045493 
	-0.056970111 0.014449672 0.41421565 0.34197727 0.062959019 0.16810035 0.35631211 0.11045493 
	0.22348333 -0.63498222 
1.1 -0.020836129 -0.36603665 0.4518384 0.50875015 0.021777122 -0.17599349 0.44774638 0.13654107 
	0.09947423 -0.10326108 0.4518384 0.50875015 -0.020836129 -0.36603665 0.09947423 -0.10326108 
	0.44774638 0.13654107 0.021777122 -0.17599349 0.021777122 -0.17599349 0.09947423 -0.10326108 
	0.88072546 0.39476131 0.021346778 -0.096301317 -0.023323592 -0.019205432 0.44774638 0.13654107 
	0.44774638 0.13654107 0.021346778 -0.096301317 0.06181369 -0.080479497 0.021346778 -0.096301317 
	0.09947423 -0.10326108 0.021777122 -0.17599349 -0.023323592 -0.019205432 0.021346778 -0.096301317 
	0.88072546 0.39476131 
2.1 -0.16599468 -0.23609551 0.66270733 0.3226954 0.0028961851 -0.086108529 0.46836277 0.073087144 
	0.032028394 -0.073578506 0.66270733 0.3226954 -0.16599468 -0.23609551 0.032028394 -0.073578506 
	0.46836277 0.073087144 0.0028961851 -0.086108529 0.0028961851 -0.086108529 0.032028394 -0.073578506 
	0.96744794 0.21411253 0.0057790864 -0.051282749 -0.0081516027 -0.0031427418 0.46836277 0.073087144 
	0.46836277 0.073087144 0.0057790864 -0.051282749 0.051716289 -0.043608791 0.0057790864 -0.051282749 
	0.032028394 -0.073578506 0.0028961851 -0.086108529 -0.0081516027 -0.0031427418 0.0057790864 -0.051282749 
	0.96744794 0.21411253 
3.1 -0.20358092 -0.1675192 0.71479793 0.22790535 0.00096409242 -0.057079711 0.47259759 0.049719154 
	0.015221304 -0.053025593 0.71479793 0.22790535 -0.20358092 -0.1675192 0.015221304 -0.053025593 
	0.47259759 0.049719154 0.00096409242 -0.057079711 0.00096409242 -0.057079711 0.015221304 -0.053025593 
	0.98510165 0.14595304 0.0026429255 -0.034842454 -0.0039299712 -0.0010052854 0.47259759 0.049719154 
	0.47259759 0.049719154 0.0026429255 -0.034842454 0.04951896 -0.0297534 0.0026429255 -0.034842454 
	0.015221304 -0.053025593 0.00096409242 -0.057079711 -0.0039299712 -0.0010052854 0.0026429255 -0.034842454 
	0.98510165 0.14595304 
4.1 -0.21805253 -0.12885556 0.73463013 0.17499138 0.00047090025 -0.042781773 0.4741364 0.037649185 
	0.0088151021 -0.041003235 0.73463013 0.17499138 -0.21805253 -0.12885556 0.0088151021 -0.041003235 
	0.4741364 0.037649185 0.00047090025 -0.042781773 0.00047090025 -0.042781773 0.0088151021 -0.041003235 
	0.99149248 0.11059566 0.0015089422 -0.026371498 -0.00228742 -0.00043915518 0.4741364 0.037649185 
	0.4741364 0.037649185 0.0015089422 -0.026371498 0.04870932 -0.022555375 0.0015089422 -0.026371498 
	0.0088151021 -0.041003235 0.00047090025 -0.042781773 -0.00228742 -0.00043915518 0.0015089422 -0.026371498 
	0.99149248 0.11059566 
5.1 -0.22504492 -0.10444031 0.74417043 0.14171208 0.00027928651 -0.034245386 0.47486293 0.0302884 
