CITIFILE A.01.01
#Momentum: B.12.070 (*) built: Jul  1 2022 
#Momentum Date and Time: Thu Feb  9 09:31:22 2023

NAME Momentum.SP

#  mode: RF    project: proj


CONSTANT NBR_OF_PORTS 2

CONSTANT NORMALIZATION 1

VAR freq MAG 249

DATA S[1,1] RI
DATA S[1,2] RI
DATA S[2,1] RI
DATA S[2,2] RI
DATA PORTZ[1] RI
DATA PORTZ[2] RI

VAR_LIST_BEGIN
	 10000
	 12589.25412
	 15848.93192
	 19952.62315
	 25118.86432
	 31622.7766
	 39810.71706
	 50118.72336
	 63095.73445
	 79432.82347
	 100000
	 125892.5412
	 158489.3192
	 199526.2315
	 251188.6432
	 316227.766
	 398107.1706
	 501187.2336
	 630957.3445
	 794328.2347
	 1000000
	 1258925.412
	 1584893.192
	 1995262.315
	 2511886.432
	 3162277.66
	 3981071.706
	 5011872.336
	 6309573.445
	 7943282.347
	 10000000
	 12589254.12
	 15848931.92
	 19952623.15
	 25118864.32
	 31622776.6
	 39810717.06
	 50118723.36
	 63095734.45
	 79432823.47
	 100000000
	 125892541.2
	 158489319.2
	 199526231.5
	 251188643.2
	 316227766
	 398107170.6
	 501187233.6
	 630957344.5
	 794328234.7
	 1000000000
	 1500000000
	 2000000000
	 2500000000
	 3000000000
	 3500000000
	 4000000000
	 4500000000
	 5000000000
	 5500000000
	 6000000000
	 6500000000
	 7000000000
	 7500000000
	 8000000000
	 8500000000
	 9000000000
	 9500000000
	 1e+10
	 1.05e+10
	 1.1e+10
	 1.15e+10
	 1.2e+10
	 1.25e+10
	 1.3e+10
	 1.35e+10
	 1.4e+10
	 1.45e+10
	 1.5e+10
	 1.55e+10
	 1.6e+10
	 1.65e+10
	 1.7e+10
	 1.75e+10
	 1.8e+10
	 1.85e+10
	 1.9e+10
	 1.95e+10
	 2e+10
	 2.05e+10
	 2.1e+10
	 2.15e+10
	 2.2e+10
	 2.25e+10
	 2.3e+10
	 2.35e+10
	 2.4e+10
	 2.45e+10
	 2.5e+10
	 2.55e+10
	 2.6e+10
	 2.65e+10
	 2.7e+10
	 2.75e+10
	 2.8e+10
	 2.85e+10
	 2.9e+10
	 2.95e+10
	 3e+10
	 3.05e+10
	 3.1e+10
	 3.15e+10
	 3.2e+10
	 3.25e+10
	 3.3e+10
	 3.35e+10
	 3.4e+10
	 3.45e+10
	 3.5e+10
	 3.55e+10
	 3.6e+10
	 3.65e+10
	 3.7e+10
	 3.75e+10
	 3.8e+10
	 3.85e+10
	 3.9e+10
	 3.95e+10
	 4e+10
	 4.05e+10
	 4.1e+10
	 4.15e+10
	 4.2e+10
	 4.25e+10
	 4.3e+10
	 4.35e+10
	 4.4e+10
	 4.45e+10
	 4.5e+10
	 4.55e+10
	 4.6e+10
	 4.65e+10
	 4.7e+10
	 4.75e+10
	 4.8e+10
	 4.85e+10
	 4.9e+10
	 4.95e+10
	 5e+10
	 5.05e+10
	 5.1e+10
	 5.15e+10
	 5.2e+10
	 5.25e+10
	 5.3e+10
	 5.35e+10
	 5.4e+10
	 5.45e+10
	 5.5e+10
	 5.55e+10
	 5.6e+10
	 5.65e+10
	 5.7e+10
	 5.75e+10
	 5.8e+10
	 5.85e+10
	 5.9e+10
	 5.95e+10
	 6e+10
	 6.05e+10
	 6.1e+10
	 6.15e+10
	 6.2e+10
	 6.25e+10
	 6.3e+10
	 6.35e+10
	 6.4e+10
	 6.45e+10
	 6.5e+10
	 6.55e+10
	 6.6e+10
	 6.65e+10
	 6.7e+10
	 6.75e+10
	 6.8e+10
	 6.85e+10
	 6.9e+10
	 6.95e+10
	 7e+10
	 7.05e+10
	 7.1e+10
	 7.15e+10
	 7.2e+10
	 7.25e+10
	 7.3e+10
	 7.35e+10
	 7.4e+10
	 7.45e+10
	 7.5e+10
	 7.55e+10
	 7.6e+10
	 7.65e+10
	 7.7e+10
	 7.75e+10
	 7.8e+10
	 7.85e+10
	 7.9e+10
	 7.95e+10
	 8e+10
	 8.05e+10
	 8.1e+10
	 8.15e+10
	 8.2e+10
	 8.25e+10
	 8.3e+10
	 8.35e+10
	 8.4e+10
	 8.45e+10
	 8.5e+10
	 8.55e+10
	 8.6e+10
	 8.65e+10
	 8.7e+10
	 8.75e+10
	 8.8e+10
	 8.85e+10
	 8.9e+10
	 8.95e+10
	 9e+10
	 9.05e+10
	 9.1e+10
	 9.15e+10
	 9.2e+10
	 9.25e+10
	 9.3e+10
	 9.35e+10
	 9.4e+10
	 9.45e+10
	 9.5e+10
	 9.55e+10
	 9.6e+10
	 9.65e+10
	 9.7e+10
	 9.75e+10
	 9.8e+10
	 9.85e+10
	 9.9e+10
	 9.95e+10
	 1e+11
VAR_LIST_END

BEGIN
	 0.000136593593 ,	 -3.33171537e-07 
	 0.000136593591 ,	 -4.19438115e-07 
	 0.000136593589 ,	 -5.28041301e-07 
	 0.000136593585 ,	 -6.64764613e-07 
	 0.000136593579 ,	 -8.36889064e-07 
	 0.00013659357 ,	 -1.05358091e-06 
	 0.000136593556 ,	 -1.32637978e-06 
	 0.000136593533 ,	 -1.66981321e-06 
	 0.000136593497 ,	 -2.10217028e-06 
	 0.000136593439 ,	 -2.64647559e-06 
	 0.000136593348 ,	 -3.33171536e-06 
	 0.000136593204 ,	 -4.19438112e-06 
	 0.000136592975 ,	 -5.28041296e-06 
	 0.000136592613 ,	 -6.64764602e-06 
	 0.000136592038 ,	 -8.36889043e-06 
	 0.000136591127 ,	 -1.05358087e-05 
	 0.000136589684 ,	 -1.3263797e-05 
	 0.000136587396 ,	 -1.66981304e-05 
	 0.000136583771 ,	 -2.10216995e-05 
	 0.000136578025 ,	 -2.64647492e-05 
	 0.000136568918 ,	 -3.33171404e-05 
	 0.000136554485 ,	 -4.19437848e-05 
	 0.000136531609 ,	 -5.28040768e-05 
	 0.000136495354 ,	 -6.64763549e-05 
	 0.000136437893 ,	 -8.36886942e-05 
	 0.000136346823 ,	 -0.000105357667 
	 0.000136202484 ,	 -0.000132637133 
	 0.000135973718 ,	 -0.000166979634 
	 0.000135611138 ,	 -0.000210213661 
	 0.000135036457 ,	 -0.000264640836 
	 0.00013412558 ,	 -0.000333158109 
	 0.000132681764 ,	 -0.000419411278 
	 0.000130393042 ,	 -0.000527987622 
	 0.000126764627 ,	 -0.000664657109 
	 0.000121011492 ,	 -0.000836673375 
	 0.000111887541 ,	 -0.00105314702 
	 9.74137314e-05 ,	 -0.00132550367 
	 7.44454822e-05 ,	 -0.00166803526 
	 3.79862133e-05 ,	 -0.00209853956 
	 -1.98937051e-05 ,	 -0.00263901004 
	 -0.000111733992 ,	 -0.00331626897 
	 -0.000257223955 ,	 -0.00416230464 
	 -0.000486917538 ,	 -0.00521383838 
	 -0.000847396793 ,	 -0.00651023448 
	 -0.00140782636 ,	 -0.00808819134 
	-0.00226676767,	-0.0099707783
	-0.00355560342,	-0.0121479073
	-0.00543049999,	-0.0145470753
	-0.00804021285,	-0.017000706
	-0.0114599317,	-0.0192321762
	-0.0156051868,	-0.0208974498
	-0.0236842598,	-0.0216672736
	-0.0289135614,	-0.0205749666
	-0.0322234629,	-0.0191936558
	-0.0343838874,	-0.0179817241
	-0.0358553395,	-0.0170268214
	-0.0369001005,	-0.0163122306
	-0.0376700423,	-0.0157989734
	-0.0382562305,	-0.0154490884
	-0.0387154209,	-0.0152309958
	-0.0390843267,	-0.0151196757
	-0.0393875184,	-0.0150955774
	-0.0396419481,	-0.0151434196
	-0.0398596306,	-0.015251182
	-0.0400492859,	-0.0154093246
	-0.0402173767,	-0.0156102001
	-0.0403687816,	-0.0158476167
	-0.0405072439,	-0.0161165116
	-0.0406356776,	-0.0164127067
	-0.0407563799,	-0.0167327235
	-0.0408711831,	-0.0170736422
	-0.0409815626,	-0.0174329934
	-0.0410887181,	-0.0178086735
	-0.0411936324,	-0.0181988793
	-0.0412971165,	-0.0186020554
	-0.0413998443,	-0.0190168529
	-0.0415023788,	-0.0194420955
	-0.0416051927,	-0.0198767529
	-0.0417086853,	-0.0203199185
	-0.0418131949,	-0.0207707912
	-0.0419190096,	-0.0212286603
	-0.0420263754,	-0.0216928933
	-0.0421355033,	-0.0221629251
	-0.0422465747,	-0.0226382493
	-0.0423597463,	-0.0231184108
	-0.0424751535,	-0.0236029992
	-0.0425929139,	-0.0240916438
	-0.0427131298,	-0.0245840085
	-0.0428358904,	-0.025079788
	-0.0429612738,	-0.0255787045
	-0.0430893484,	-0.0260805042
	-0.0432201745,	-0.0265849552
	-0.0433538049,	-0.0270918449
	-0.0434902867,	-0.0276009778
	-0.0436296614,	-0.0281121744
	-0.0437719658,	-0.0286252688
	-0.0439172329,	-0.0291401081
	-0.044065492,	-0.0296565505
	-0.0442167696,	-0.0301744648
	-0.0443710893,	-0.030693729
	-0.0445284725,	-0.0312142295
	-0.0446889386,	-0.0317358606
	-0.0448525052,	-0.0322585237
	-0.0450191884,	-0.0327821264
	-0.0451890029,	-0.0333065822
	-0.0453619621,	-0.0338318102
	-0.0455380787,	-0.0343577342
	-0.0457173641,	-0.0348842824
	-0.0458998293,	-0.0354113874
	-0.0460854843,	-0.0359389854
	-0.0462743386,	-0.0364670163
	-0.0464664012,	-0.0369954231
	-0.0466616806,	-0.0375241517
	-0.046860185,	-0.0380531509
	-0.0470619221,	-0.0385823719
	-0.0472668993,	-0.0391117685
	-0.0474751239,	-0.0396412963
	-0.047686603,	-0.0401709133
	-0.0479013432,	-0.0407005791
	-0.0481193512,	-0.0412302553
	-0.0483406336,	-0.0417599049
	-0.0485651967,	-0.0422894925
	-0.0487930469,	-0.042818984
	-0.0490241904,	-0.043348347
	-0.0492586333,	-0.0438775498
	-0.0494963819,	-0.0444065622
	-0.0497374422,	-0.0449353549
	-0.0499818204,	-0.0454638998
	-0.0502295225,	-0.0459921695
	-0.0504805547,	-0.0465201377
	-0.0507349232,	-0.0470477788
	-0.050992634,	-0.0475750679
	-0.0512536934,	-0.0481019811
	-0.0515181077,	-0.0486284949
	-0.0517858831,	-0.0491545866
	-0.0520570259,	-0.0496802341
	-0.0523315427,	-0.0502054159
	-0.0526094398,	-0.0507301109
	-0.0528907238,	-0.0512542986
	-0.0531754014,	-0.0517779591
	-0.0534634793,	-0.0523010727
	-0.0537549641,	-0.0528236203
	-0.054049863,	-0.0533455832
	-0.0543481827,	-0.0538669431
	-0.0546499304,	-0.0543876819
	-0.0549551132,	-0.0549077821
	-0.0552637386,	-0.0554272263
	-0.0555758137,	-0.0559459975
	-0.0558913462,	-0.056464079
	-0.0562103437,	-0.0569814543
	-0.0565328138,	-0.0574981074
	-0.0568587645,	-0.0580140222
	-0.0571882037,	-0.058529183
	-0.0575211396,	-0.0590435745
	-0.0578575804,	-0.0595571813
	-0.0581975344,	-0.0600699884
	-0.0585410102,	-0.0605819808
	-0.0588880165,	-0.061093144
	-0.0592385619,	-0.0616034633
	-0.0595926555,	-0.0621129245
	-0.0599503063,	-0.0626215133
	-0.0603115236,	-0.0631292156
	-0.0606763168,	-0.0636360175
	-0.0610446953,	-0.0641419051
	-0.061416669,	-0.0646468649
	-0.0617922477,	-0.0651508832
	-0.0621714414,	-0.0656539465
	-0.0625542602,	-0.0661560415
	-0.0629407147,	-0.0666571549
	-0.0633308153,	-0.0671572735
	-0.0637245728,	-0.0676563841
	-0.0641219979,	-0.0681544738
	-0.064523102,	-0.0686515295
	-0.0649278961,	-0.0691475383
	-0.0653363917,	-0.0696424874
	-0.0657486006,	-0.0701363639
	-0.0661645345,	-0.0706291552
	-0.0665842054,	-0.0711208484
	-0.0670076257,	-0.0716114309
	-0.0674348077,	-0.0721008901
	-0.0678657641,	-0.0725892132
	-0.0683005077,	-0.0730763878
	-0.0687390517,	-0.0735624012
	-0.0691814092,	-0.0740472408
	-0.0696275938,	-0.0745308941
	-0.0700776192,	-0.0750133484
	-0.0705314994,	-0.0754945913
	-0.0709892485,	-0.0759746101
	-0.0714508808,	-0.0764533923
	-0.0719164111,	-0.0769309252
	-0.0723858543,	-0.0774071963
	-0.0728592253,	-0.0778821928
	-0.0733365396,	-0.078355902
	-0.0738178128,	-0.0788283114
	-0.0743030606,	-0.0792994081
	-0.0747922993,	-0.0797691792
	-0.0752855452,	-0.0802376121
	-0.0757828148,	-0.0807046938
	-0.0762841251,	-0.0811704113
	-0.0767894932,	-0.0816347516
	-0.0772989366,	-0.0820977017
	-0.0778124728,	-0.0825592484
	-0.0783301199,	-0.0830193785
	-0.0788518961,	-0.0834780787
	-0.0793778199,	-0.0839353356
	-0.0799079101,	-0.0843911358
	-0.0804421859,	-0.0848454656
	-0.0809806667,	-0.0852983114
	-0.081523372,	-0.0857496595
	-0.082070322,	-0.0861994959
	-0.0826215369,	-0.0866478067
	-0.0831770373,	-0.0870945778
	-0.0837368442,	-0.0875397949
	-0.0843009787,	-0.0879834438
	-0.0848694624,	-0.0884255098
	-0.0854423172,	-0.0888659784
	-0.0860195653,	-0.0893048348
	-0.0866012292,	-0.0897420641
	-0.0871873318,	-0.0901776511
	-0.0877778963,	-0.0906115807
	-0.0883729462,	-0.0910438374
	-0.0889725053,	-0.0914744057
	-0.0895765981,	-0.0919032697
	-0.0901852489,	-0.0923304136
	-0.0907984828,	-0.0927558212
	-0.0914163251,	-0.0931794761
	-0.0920388014,	-0.0936013619
	-0.0926659378,	-0.0940214617
	-0.0932977606,	-0.0944397586
	-0.0939342968,	-0.0948562355
	-0.0945755734,	-0.0952708748
	-0.0952216179,	-0.095683659
	-0.0958724584,	-0.0960945701
	-0.0965281231,	-0.09650359
	-0.0971886408,	-0.0969107003
	-0.0978540406,	-0.0973158822
	-0.0985243521,	-0.0977191169
	-0.0991996051,	-0.0981203851
	-0.09987983,	-0.0985196673
	-0.100565057,	-0.0989169436
	-0.101255319,	-0.099312194
	-0.101950645,	-0.099705398
	-0.10265107,	-0.100096534
	-0.103356624,	-0.100485583
	-0.104067342,	-0.100872522
	-0.104783255,	-0.101257329
	-0.105504399,	-0.101639983
	-0.106230807,	-0.102020461
	-0.106962514,	-0.10239874
END
BEGIN
	 0.999863406402197396616315927531 ,	 -3.76931393308370389606202360833e-07 
	 0.999863406400591236966590713564 ,	 -4.74528509595504335715377298294e-07 
	 0.999863406398047271927964629867 ,	 -5.97395999037288594908352932361e-07 
	 0.999863406394015052924828523828 ,	 -7.52077004239304257566611864455e-07 
	 0.999863406387623498972061497625 ,	 -9.4680885226645148235267296366e-07 
	 0.999863406377494490229196344444 ,	 -1.19196172360159407724701854936e-06 
	 0.999863406361428452839845704148 ,	 -1.50059090345600189339428983532e-06 
	 0.999863406335978921468665703287 ,	 -1.88913201881781681292968820551e-06 
	 0.999863406295642409560286978376 ,	 -2.37827630286300625923521200045e-06 
	 0.999863406231714879623950764653 ,	 -2.99407246838505432378891961409e-06 
	 0.999863406130395371285146666196 ,	 -3.76931390503166632537763135191e-06 
	 0.999863405969815155494018199533 ,	 -4.74528503975204980238049995434e-06 
	 0.999863405715312736354860589927 ,	 -5.97395987818866921754534099476e-06 
	 0.999863405311954056564616166725 ,	 -7.52076981845196370425913820479e-06 
	 0.999863404672672206885408741073 ,	 -9.46808807595722777745474163513e-06 
	 0.999863403659480121099534244422 ,	 -1.19196163448407015643002934691e-05 
	 0.999863402053678185232854502829 ,	 -1.50059072551761281492108471292e-05 
	 0.999863399508654770997395644372 ,	 -1.88913166448496762177787500203e-05 
	 0.999863395475068417184161262412 ,	 -2.37827559498017867135443575988e-05 
	 0.999863389082270126451135183743 ,	 -2.99407105610884547960189733251e-05 
	 0.999863378950381465060104346776 ,	 -3.76931108691824597240783989438e-05 
	 0.999863362892459139885659169522 ,	 -4.74527941716278869421601072087e-05 
	 0.999863337442460031745383730595 ,	 -5.9739486598599926580385049979e-05 
	 0.999863297107162929400203665864 ,	 -7.52074743557891591634254058185e-05 
	 0.999863233180615096351573356515 ,	 -9.46804341782112143972860440755e-05 
	 0.999863131865342702475629721448 ,	 -0.000119195272453127455052936112256 
	 0.999862971295166658158848349558 ,	 -0.000150057294947588911772362596508 
	 0.999862716817881191921912886755 ,	 -0.000188909620182150497693512880559 
	 0.999862313521839185526118853886 ,	 -0.000237820485386305418293653723971 
	 0.999861674398884403558440681081 ,	 -0.000299392995915586540046915420277 
	 0.999860661602520961466211701918 ,	 -0.000376902971560548352789737913682 
	 0.999859056790173950091116239491 ,	 -0.000474471847794063648559581558573 
	 0.99985651423210464283641840666 ,	 -0.000597283086517900476362930017871 
	 0.999852486770169468499602771772 ,	 -0.000751852144410591460149673181945 
	 0.999846109135115179711306154786 ,	 -0.000946361489832562587619368965619 
	 0.999836014584117749315339551686 ,	 -0.00119107297376102824228161214393 
	 0.999820047874855344360867093201 ,	 -0.00149882900241612797807844170705 
	 0.999794818204762680835528954049 ,	 -0.00188564961485592885032103183107 
	 0.999755006864986084380575448449 ,	 -0.00237142128217830098352303380693 
	 0.999692301326629340074703122809 ,	 -0.00298064783884328249330408766582 
	 0.999593764589952749055612457596 ,	 -0.003743178446074807083632229876 
	 0.999439366617263291736605879123 ,	 -0.00469470713360993930490794312504 
	 0.999198333604320088063843741111 ,	 -0.00587659352268362147886371360528 
	 0.998824007810786840266814579081 ,	 -0.00733411170405398604721369792969 
	 0.99824726813198361163870231394 ,	 -0.00911154479282002757734026943126 
	 0.997369656199284304598506878392 ,	 -0.0112416837724388946756493012913 
	 0.996059875042252351740046378836 ,	 -0.0137268242729296392756754841002 
	 0.994161775004336001337890138529 ,	 -0.016510114948369868093092094341 
	 0.99152657547196887399820752762 ,	 -0.0194436700811428837820660220359 
	 0.988079104,	-0.0222756801
	 0.983903896,	-0.0246935564
	 0.975765996,	-0.0272863533
	 0.970486736,	-0.0280147414
	 0.967128385,	-0.0284540574
	 0.964917588,	-0.029062592
	 0.963392227,	-0.0299274916
	 0.962289267,	-0.0310315458
	 0.961456522,	-0.0323353739
	 0.960802844,	-0.0338007058
	 0.960271529,	-0.0353957357
	 0.959825989,	-0.0370952875
	 0.959441821,	-0.0388797128
	 0.959102259,	-0.0407336819
	 0.95879548,	-0.0426451669
	 0.958512954,	-0.0446046534
	 0.958248396,	-0.0466045472
	 0.957997096,	-0.0486387309
	 0.957755462,	-0.050702233
	 0.957520715,	-0.0527909786
	 0.957290676,	-0.0549016011
	 0.957063616,	-0.0570312983
	 0.956838146,	-0.059177721
	 0.956613138,	-0.0613388868
	 0.956387669,	-0.0635131126
	 0.956160974,	-0.0656989606
	 0.955932413,	-0.0678951961
	 0.955701451,	-0.0701007531
	 0.955467631,	-0.0723147065
	 0.955230562,	-0.07453625
	 0.95498991,	-0.0767646773
	 0.954745383,	-0.0789993674
	 0.954496728,	-0.0812397718
	 0.954243723,	-0.0834854043
	 0.953986171,	-0.0857358321
	 0.953723899,	-0.087990669
	 0.953456752,	-0.0902495687
	 0.95318459,	-0.0925122199
	 0.95290729,	-0.0947783422
	 0.952624738,	-0.0970476816
	 0.952336833,	-0.099320008
	 0.952043482,	-0.101595112
	 0.9517446,	-0.103872802
	 0.951440109,	-0.106152906
	 0.951129939,	-0.108435262
	 0.950814023,	-0.110719724
	 0.9504923,	-0.113006157
	 0.950164715,	-0.115294437
	 0.949831215,	-0.117584448
	 0.94949175,	-0.119876085
	 0.949146275,	-0.122169248
	 0.948794748,	-0.124463847
	 0.948437127,	-0.126759795
	 0.948073375,	-0.129057014
	 0.947703457,	-0.13135543
	 0.947327337,	-0.133654973
	 0.946944985,	-0.135955579
	 0.946556368,	-0.138257188
	 0.946161458,	-0.140559741
	 0.945760227,	-0.142863187
	 0.945352648,	-0.145167474
	 0.944938696,	-0.147472556
	 0.944518344,	-0.149778388
	 0.94409157,	-0.152084928
	 0.94365835,	-0.154392137
	 0.943218661,	-0.156699977
	 0.942772483,	-0.159008412
	 0.942319793,	-0.16131741
	 0.941860571,	-0.163626939
	 0.941394796,	-0.165936968
	 0.940922449,	-0.168247469
	 0.94044351,	-0.170558414
	 0.93995796,	-0.172869779
	 0.939465781,	-0.175181538
	 0.938966953,	-0.177493668
	 0.938461458,	-0.179806147
	 0.937949278,	-0.182118954
	 0.937430395,	-0.184432069
	 0.936904791,	-0.186745471
	 0.936372449,	-0.189059144
	 0.93583335,	-0.191373068
	 0.935287477,	-0.193687228
	 0.934734812,	-0.196001607
	 0.934175339,	-0.19831619
	 0.933609039,	-0.200630962
	 0.933035894,	-0.202945909
	 0.932455888,	-0.205261016
	 0.931869003,	-0.207576272
	 0.931275221,	-0.209891664
	 0.930674524,	-0.212207178
	 0.930066894,	-0.214522805
	 0.929452315,	-0.216838532
	 0.928830767,	-0.219154349
	 0.928202232,	-0.221470246
	 0.927566693,	-0.223786212
	 0.926924132,	-0.226102238
	 0.926274529,	-0.228418315
	 0.925617866,	-0.230734432
	 0.924954124,	-0.233050583
	 0.924283284,	-0.235366757
	 0.923605328,	-0.237682948
	 0.922920236,	-0.239999147
	 0.922227988,	-0.242315346
	 0.921528565,	-0.244631538
	 0.920821947,	-0.246947716
	 0.920108114,	-0.249263872
	 0.919387046,	-0.25158
	 0.918658721,	-0.253896093
	 0.91792312,	-0.256212144
	 0.917180221,	-0.258528147
	 0.916430004,	-0.260844096
	 0.915672446,	-0.263159984
	 0.914907526,	-0.265475806
	 0.914135223,	-0.267791556
	 0.913355513,	-0.270107228
	 0.912568375,	-0.272422816
	 0.911773786,	-0.274738315
	 0.910971723,	-0.277053719
	 0.910162162,	-0.279369023
	 0.909345081,	-0.281684222
	 0.908520454,	-0.28399931
	 0.907688259,	-0.286314282
	 0.906848471,	-0.288629133
	 0.906001064,	-0.290943858
	 0.905146014,	-0.293258452
	 0.904283296,	-0.29557291
	 0.903412885,	-0.297887227
	 0.902534753,	-0.300201398
	 0.901648875,	-0.302515418
	 0.900755224,	-0.304829281
	 0.899853774,	-0.307142984
	 0.898944496,	-0.309456521
	 0.898027365,	-0.311769888
	 0.89710235,	-0.314083079
	 0.896169426,	-0.316396089
	 0.895228561,	-0.318708914
	 0.894279729,	-0.321021548
	 0.893322899,	-0.323333986
	 0.892358041,	-0.325646224
	 0.891385127,	-0.327958257
	 0.890404124,	-0.330270078
	 0.889415003,	-0.332581684
	 0.888417732,	-0.334893068
	 0.887412279,	-0.337204225
	 0.886398613,	-0.339515151
	 0.885376702,	-0.341825839
	 0.884346512,	-0.344136285
	 0.883308011,	-0.346446482
	 0.882261164,	-0.348756424
	 0.881205938,	-0.351066107
	 0.880142299,	-0.353375524
	 0.879070211,	-0.35568467
	 0.87798964,	-0.357993537
	 0.87690055,	-0.360302121
	 0.875802905,	-0.362610414
	 0.874696668,	-0.364918411
	 0.873581802,	-0.367226104
	 0.87245827,	-0.369533488
	 0.871326034,	-0.371840555
	 0.870185055,	-0.374147299
	 0.869035296,	-0.376453711
	 0.867876717,	-0.378759786
	 0.866709277,	-0.381065516
	 0.865532938,	-0.383370892
	 0.864347657,	-0.385675908
	 0.863153395,	-0.387980555
	 0.861950109,	-0.390284826
	 0.860737757,	-0.392588712
	 0.859516298,	-0.394892204
	 0.858285687,	-0.397195294
	 0.85704588,	-0.399497974
	 0.855796835,	-0.401800233
	 0.854538506,	-0.404102063
	 0.853270848,	-0.406403453
	 0.851993815,	-0.408704396
	 0.850707362,	-0.411004879
	 0.849411441,	-0.413304893
	 0.848106005,	-0.415604428
	 0.846791006,	-0.417903472
	 0.845466396,	-0.420202016
	 0.844132125,	-0.422500046
	 0.842788145,	-0.424797552
	 0.841434405,	-0.427094522
	 0.840070855,	-0.429390943
	 0.838697443,	-0.431686804
	 0.837314118,	-0.433982091
	 0.835920826,	-0.43627679
	 0.834517516,	-0.43857089
	 0.833104133,	-0.440864375
	 0.831680623,	-0.443157232
	 0.830246931,	-0.445449446
	 0.828803002,	-0.447741002
	 0.827348781,	-0.450031885
