! AWR Design Environment (17603) Fri Mar  7 16:50:01 2025
! Document = 'a_base_EM'
! nPorts: 3, nXvals: 6

VAR x1 = 20
VAR x2 = 30
BEGIN ACDATA
# GHz S DB R 50
% F N11X N11Y N12X N12Y N13X N13Y N21X N21Y 
	N22X N22Y N23X N23Y N31X N31Y N32X N32Y 
	N33X N33Y 
0.1 -9.5574863 179.87028 -3.5265759 -0.08911217 -3.524635 -0.042428161 -3.5265759 -0.08911217 
	-9.5573313 179.84258 -3.5245584 -0.05627355 -3.524635 -0.042428161 -3.5245584 -0.05627355 
	-9.5534535 179.93604 
1.1 -9.5640098 178.64805 -3.5296304 -0.95062039 -3.5257785 -0.45939033 -3.5296304 -0.95062039 
	-9.5651793 178.36214 -3.5264164 -0.60217335 -3.5257785 -0.45939033 -3.5264164 -0.60217335 
	-9.5582923 179.34614 
2.1 -9.5689254 177.45568 -3.5320908 -1.8007848 -3.5267782 -0.87172728 -3.5320908 -1.8007848 
	-9.5705455 176.91594 -3.5277627 -1.14117 -3.5267782 -0.87172728 -3.5277627 -1.14117 
	-9.5627602 178.77766 
3.1 -9.5730569 176.28011 -3.5347768 -2.6454479 -3.5278218 -1.2814322 -3.5347768 -2.6454479 
	-9.5750027 175.48743 -3.5291476 -1.6770107 -3.5278218 -1.2814322 -3.5291476 -1.6770107 
	-9.5671101 178.22159 
4.1 -9.5757761 175.11593 -3.5374949 -3.4861468 -3.5288108 -1.6893733 -3.5374949 -3.4861468 
	-9.5779299 174.0712 -3.5304701 -2.2106021 -3.5288108 -1.6893733 -3.5304701 -2.2106021 
	-9.5708708 177.67352 
5.1 -9.5772655 173.95816 -3.5401256 -4.3247667 -3.5296723 -2.0963463 -3.5401256 -4.3247667 
	-9.5794838 172.66183 -3.5316446 -2.7429773 -3.5296723 -2.0963463 -3.5316446 -2.7429773 
	-9.5742719 177.13003 
END

VAR x1 = 100
VAR x2 = 30
BEGIN ACDATA
# GHz S DB R 50
% F N11X N11Y N12X N12Y N13X N13Y N21X N21Y 
	N22X N22Y N23X N23Y N31X N31Y N32X N32Y 
	N33X N33Y 
0.1 -9.5602319 179.86109 -3.5275793 -0.25326742 -3.5251523 -0.23499872 -3.5275793 -0.25326742 
	-9.559572 179.96834 -3.5248936 -0.18128209 -3.5251523 -0.23499872 -3.5248936 -0.18128209 
	-9.5547448 -179.99495 
1.1 -9.5781374 178.75569 -3.5336975 -2.7167221 -3.5303889 -2.5152072 -3.5336975 -2.7167221 
	-9.5639717 179.83787 -3.5295107 -1.9734534 -3.5303889 -2.5152072 -3.5295107 -1.9734534 
	-9.5591366 -179.758 
2.1 -9.5927681 177.70978 -3.5373877 -5.1633717 -3.5312261 -4.783658 -3.5373877 -5.1633717 
	-9.5458649 179.73695 -3.5378715 -3.7551904 -3.5312261 -4.783658 -3.5378715 -3.7551904 
	-9.5463909 -179.49221 
3.1 -9.6090122 176.69078 -3.5415426 -7.6028567 -3.5318845 -7.0484935 -3.5415426 -7.6028567 
	-9.5130601 179.63968 -3.5498349 -5.5312577 -3.5318845 -7.0484935 -3.5498349 -5.5312577 
	-9.5219434 -179.22331 
4.1 -9.6257363 175.68846 -3.545985 -10.036955 -3.5323397 -9.3092597 -3.545985 -10.036955 
	-9.4654037 179.53263 -3.5652443 -7.3029698 -3.5323397 -9.3092597 -3.5652443 -7.3029698 
	-9.4854433 -178.96339 
5.1 -9.6435301 174.69356 -3.5501411 -12.468343 -3.5315189 -11.569445 -3.5501411 -12.468343 
	-9.4020819 179.39092 -3.5843529 -9.0682527 -3.5315189 -11.569445 -3.5843529 -9.0682527 
	-9.4368952 -178.72998 
END

VAR x1 = 20
VAR x2 = 90
BEGIN ACDATA
# GHz S DB R 50
% F N11X N11Y N12X N12Y N13X N13Y N21X N21Y 
	N22X N22Y N23X N23Y N31X N31Y N32X N32Y 
	N33X N33Y 
0.1 -9.5568148 179.89766 -3.5248947 -0.084128158 -3.526003 -0.068636448 -3.5248947 -0.084128158 
	-9.5511757 179.91817 -3.523177 -0.058440471 -3.526003 -0.068636448 -3.523177 -0.058440471 
	-9.5533799 179.94912 
1.1 -9.5631989 178.96171 -3.5271585 -0.89643441 -3.5281259 -0.74116166 -3.5271585 -0.89643441 
	-9.5581786 179.19822 -3.5246482 -0.6237578 -3.5281259 -0.74116166 -3.5246482 -0.6237578 
	-9.5586016 179.50806 
2.1 -9.5676364 178.05135 -3.5285141 -1.7019463 -3.5303258 -1.4069709 -3.5285141 -1.7019463 
	-9.5647008 178.49941 -3.5251583 -1.1851565 -3.5303258 -1.4069709 -3.5251583 -1.1851565 
	-9.5626082 179.08744 
3.1 -9.5711227 177.1586 -3.5298493 -2.5036891 -3.532898 -2.0679514 -3.5298493 -2.5036891 
	-9.5723668 177.81285 -3.5255177 -1.7448787 -3.532898 -2.0679514 -3.5255177 -1.7448787 
	-9.5660515 178.68072 
4.1 -9.5729153 176.27741 -3.5310051 -3.3027591 -3.5356692 -2.7258421 -3.5310051 -3.3027591 
	-9.5806076 177.13466 -3.5256735 -2.3033464 -3.5356692 -2.7258421 -3.5256735 -2.3033464 
	-9.5683642 178.28291 
5.1 -9.5733113 175.40179 -3.5318694 -4.1007044 -3.5385801 -3.3822091 -3.5318694 -4.1007044 
	-9.5897466 176.46068 -3.5255076 -2.8613771 -3.5385801 -3.3822091 -3.5255076 -2.8613771 
	-9.5698847 177.88964 
END

VAR x1 = 100
VAR x2 = 90
BEGIN ACDATA
# GHz S DB R 50
% F N11X N11Y N12X N12Y N13X N13Y N21X N21Y 
	N22X N22Y N23X N23Y N31X N31Y N32X N32Y 
	N33X N33Y 
0.1 -9.5582615 179.8987 -3.5257154 -0.24647363 -3.5260747 -0.25245618 -3.5257154 -0.24647363 
	-9.5522772 -179.94583 -3.5231427 -0.17470937 -3.5260747 -0.25245618 -3.5231427 -0.17470937 
	-9.5529999 -179.95779 
1.1 -9.5721144 179.16365 -3.5312833 -2.6460527 -3.5319778 -2.7066452 -3.5312833 -2.6460527 
	-9.5509357 -179.22946 -3.5273705 -1.9029067 -3.5319778 -2.7066452 -3.5273705 -1.9029067 
	-9.5529377 -179.3498 
2.1 -9.5745041 178.47727 -3.5348793 -5.0319184 -3.5356483 -5.1458626 -3.5348793 -5.0319184 
	-9.525658 -178.49914 -3.5357635 -3.6222483 -3.5356483 -5.1458626 -3.5357635 -3.6222483 
	-9.5286902 -178.7257 
3.1 -9.572584 177.80664 -3.5393024 -7.4119882 -3.5400221 -7.5788695 -3.5393024 -7.4119882 
	-9.4821334 -177.78364 -3.5481484 -5.3376262 -3.5400221 -7.5788695 -3.5481484 -5.3376262 
	-9.4867089 -178.11455 
4.1 -9.5660066 177.14012 -3.5445187 -9.7869331 -3.5450658 -10.006616 -3.5445187 -9.7869331 
	-9.4208145 -177.09975 -3.5644958 -7.0492073 -3.5450658 -10.006616 -3.5644958 -7.0492073 
	-9.4274097 -177.53275 
5.1 -9.5541519 176.46301 -3.5498464 -12.158006 -3.5500864 -12.430476 -3.5498464 -12.158006 
	-9.3421677 -176.46924 -3.5849749 -8.7529808 -3.5500864 -12.430476 -3.5849749 -8.7529808 
	-9.3510038 -177.00322 
END
