!Created with skrf (http://scikit-rf.org).
# GHz S RI R 50.0 
!freq ReS11 ImS11
500.0 0.02551785 -0.0522651
500.625 -0.01053428 -0.04785715
501.25 -0.02940082 -0.05614293
501.875 0.002787527 -0.0484427
502.5 0.05745934 -0.09977334
503.125 -0.03978357 -0.09388237
503.75 -0.04901423 -0.04672589
504.375 -0.09799764 -0.03985623
505.0 -0.09104858 0.05173394
505.625 -0.09746395 0.04719987
506.25 -0.09217552 0.0896816
506.875 -0.06255318 0.1229927
507.5 -0.0089371 0.03163555
508.125 -0.07399872 -0.000568365
508.75 -0.07916291 0.04410985
509.375 -0.09678233 0.1144446
510.0 -0.05326527 0.1771776
510.625 0.07332568 0.03673253
511.25 0.07718708 0.04340804
511.875 0.09642918 -0.05021613
512.5 0.006198893 -0.07357178
513.125 -0.0715267 -0.03000064
513.75 -0.06665375 0.05365362
514.375 0.06289741 0.02931732
515.0 0.008662999 -0.1063212
515.625 -0.03650832 -0.1160782
516.25 -0.08380055 -0.05095951
516.875 -0.0753632 -0.1063448
517.5 -0.09172807 -0.001542254
518.125 -0.09175108 -0.1410227
518.75 -0.1340127 -0.009534221
519.375 -0.07604718 0.07186481
520.0 0.01688899 0.0243241
520.625 -0.007956976 -0.001310106
521.25 -0.03770905 -0.02457865
521.875 -0.08251955 -0.000140206
522.5 -0.01677339 0.09026148
523.125 -0.00374348 0.1139021
523.75 0.02104213 0.2063656
524.375 0.07535854 0.2304828
525.0 0.03877378 0.09883989
525.625 0.08505101 0.09186478
526.25 0.1186753 0.01925393
526.875 0.03279128 -0.03841009
527.5 0.004764351 0.005304348
528.125 0.03528205 -0.002535454
528.75 0.06282615 -0.01860743
529.375 0.00710093 -0.126211
530.0 -0.1049493 -0.02420138
530.625 -0.05330756 0.04188801
531.25 -0.1182792 0.03923241
531.875 -0.07646954 0.1277176
532.5 0.04720285 0.1098241
533.125 0.07284462 0.0608912
533.75 0.07935196 -0.01979072
534.375 -0.008532435 -0.04787647
535.0 -0.03928567 0.04359128
535.625 0.001628692 0.0640536
536.25 0.04737207 0.03130762
536.875 0.08890653 0.01101766
537.5 0.09204285 -0.03183241
538.125 0.008611876 -0.03873966
538.75 0.0284142 -0.01573682
539.375 0.02631755 -0.06224209
540.0 -0.0572153 -0.03948693
540.625 -0.04255941 0.03349966
541.25 -0.019782 0.06225749
541.875 0.05449164 0.1040267
542.5 0.1358477 0.04287333
543.125 0.08292624 -0.0844624
543.75 -0.007346785 -0.09145387
544.375 -0.05773335 -0.08105844
545.0 -0.08270884 0.02171795
545.625 -0.03647269 0.0427407
546.25 -0.01610442 0.0610599
546.875 0.03281329 0.04400719
547.5 0.001273564 -0.01889037
548.125 -0.08257444 0.01372735
548.75 -0.07382514 0.06081557
549.375 -0.07618339 0.08051392
550.0 -0.09912503 0.1120183
550.625 -0.0224842 0.1323713
551.25 -0.03495276 0.08453691
551.875 -0.01038931 0.09380153
552.5 0.06317037 0.08441811
553.125 0.06866462 0.0001505006
553.75 0.03634014 0.003509696
554.375 0.02897018 -0.02280251
555.0 -0.01804245 0.001246074
555.625 0.033331 0.05864939
556.25 0.09982987 0.02245194
556.875 0.08776292 -0.04001772
557.5 0.06557689 -0.06590862
558.125 0.03031472 -0.1075895
558.75 -0.00681924 -0.08817687
559.375 -0.03094356 -0.04472239
560.0 -0.03929946 -0.02617705
560.625 -0.04281275 0.01554972
561.25 0.0090453 0.04270324
561.875 0.04019086 -0.0111497
562.5 0.007984507 -0.03738882
563.125 -0.04054653 -0.0571011
563.75 -0.09859364 0.02772277
564.375 -0.01953759 0.09676287
565.0 0.03161601 0.07459595
565.625 0.05202217 0.03538407
566.25 0.06058443 0.008465356
566.875 0.03917243 -0.04279203
567.5 -0.001051197 -0.03856382
568.125 -0.002862411 -0.02211627
568.75 -0.01589045 -0.04414058
569.375 -0.05708872 -0.03013424
570.0 -0.07013028 0.01707648
570.625 -0.04134125 0.05933195
571.25 0.002920368 0.08460423
571.875 0.07393259 0.04552311
572.5 0.0402958 -0.04278932
573.125 -0.003105253 -0.007579878
573.75 0.02387739 -0.00990726
574.375 0.009223299 -0.0184821
575.0 0.02295733 -0.03171533
575.625 -0.01877165 -0.05810783
576.25 -0.04034654 -0.009471473
576.875 -0.005690155 -0.01455247
577.5 -0.04558654 -0.03905142
578.125 -0.07883009 0.000722663
578.75 -0.05703177 0.04894951
579.375 -0.01953414 0.07302335
580.0 0.03191457 0.07298312
580.625 0.05881558 0.004263035
581.25 0.001318933 -0.01479494
581.875 0.007365854 0.02220427
582.5 0.02864946 0.003563657
583.125 0.002979026 -0.007972904
583.75 0.001258248 0.01740697
584.375 0.01432017 0.01548939
585.0 0.01372511 0.03134819
585.625 0.06420086 0.03741788
586.25 0.08197694 -0.03684992
586.875 0.01648044 -0.07226602
587.5 -0.02462312 -0.05016615
588.125 -0.04497788 -0.01998603
588.75 -0.02684935 0.02231025
589.375 0.0146098 0.0008675101
590.0 -0.02022696 -0.02317956
590.625 -0.02251264 0.01771977
591.25 0.009069366 -0.002781807
591.875 -0.02343015 -0.02676678
592.5 -0.04505486 0.007068316
593.125 -0.03598469 0.02249227
593.75 -0.04595965 0.05080538
594.375 0.00978276 0.08163078
595.0 0.06368142 0.03201246
595.625 0.05059583 -0.0277671
596.25 0.007912647 -0.05243097
596.875 -0.03678049 -0.03805757
597.5 -0.0642349 -0.01584489
598.125 -0.0581377 0.05299503
598.75 0.001150365 0.0533818
599.375 -0.01028919 0.03450386
600.0 0.005018978 0.0762952
600.625 0.06599087 0.05769139
601.25 0.07544034 0.006007384
601.875 0.06155932 -0.03048604
602.5 0.03350969 -0.06002006
603.125 -0.02755326 -0.05233552
603.75 -0.02934784 0.01851915
604.375 0.02918475 0.01535094
605.0 0.02322841 -0.02076916
605.625 0.004791178 -0.01331281
606.25 0.009896508 -0.006893736
606.875 0.003143664 -0.008242135
607.5 0.01339443 0.01216943
608.125 0.04791873 -0.0218248
608.75 0.007564184 -0.06441212
609.375 -0.0325747 -0.03148843
610.0 -0.01527176 -0.01924265
610.625 -0.01595653 -0.02132505
611.25 -0.01229475 -0.01560174
611.875 -0.005493925 -0.04078938
612.5 -0.06101201 -0.05609316
613.125 -0.09816463 0.009531518
613.75 -0.04680301 0.0564613
614.375 -0.02034721 0.03749119
615.0 -0.01332319 0.04035387
615.625 -0.003534278 0.03713522
616.25 -0.007019187 0.0482501
616.875 0.03447409 0.07811538
617.5 0.100618 0.01889466
618.125 0.05051084 -0.06740484
618.75 -0.02338935 -0.04290342
619.375 -0.02760501 -0.002450568
620.0 -0.02089128 0.02240362
620.625 0.01759093 0.04005591
621.25 0.04880391 0.007065885
621.875 0.01737973 -0.02660188
622.5 0.003971646 0.01060648
623.125 0.05250396 -0.001817895
623.75 0.03876502 -0.05166281
624.375 -0.0004100089 -0.05950577
625.0 -0.03477831 -0.05518838
625.625 -0.0633314 -0.00291947
626.25 -0.01428515 0.04260089
626.875 0.03494264 0.006566799
627.5 0.01441634 -0.05053151
628.125 -0.04677584 -0.0337743
628.75 -0.045975 -0.01010047
629.375 -0.05643744 0.007053153
630.0 -0.03654091 0.04266267
630.625 0.01074081 0.01996239
631.25 -0.01554018 -0.02060997
631.875 -0.05247724 0.01273486
632.5 -0.02221382 0.05666864
633.125 0.006291993 0.04756198
633.75 0.01794543 0.03247974
634.375 0.03046234 0.0140168
635.0 0.001501408 0.0009174597
635.625 0.0196571 0.0461006
636.25 0.08156402 0.008109281
636.875 0.0616542 -0.05297861
637.5 0.01144062 -0.05804003
638.125 -0.01310489 -0.03267647
638.75 -0.009748495 -0.01167436
639.375 0.01548491 0.009146884
640.0 0.06412462 -0.009015101
640.625 0.05177104 -0.07972189
641.25 -0.01544472 -0.08528309
641.875 -0.03477484 -0.04193029
642.5 -0.0255653 -0.02016195
643.125 -0.0146861 -0.01858473
643.75 -0.008168642 -0.02128751
644.375 -0.0188552 -0.03872162
645.0 -0.06611379 -0.02542677
645.625 -0.04685105 0.04725969
646.25 0.01493565 0.01931628
646.875 -0.01942332 -0.00750022
647.5 -0.03429564 0.0126996
648.125 -0.0418467 0.0314921
648.75 -0.02150271 0.07434706
649.375 0.03479271 0.07700347
650.0 0.07024502 0.02662839
650.625 0.04700989 -0.03265111
651.25 -0.007367115 -0.03590981
651.875 -0.0203558 -0.004015003
652.5 -0.01672858 0.0005495881
653.125 -0.02521407 0.01406375
653.75 -0.003853982 0.02544296
654.375 0.003776103 0.001401899
655.0 -0.02459059 0.0004539504
655.625 -0.02201678 0.04293671
656.25 0.03955617 0.04312425
656.875 0.04839303 -0.01717504
657.5 -0.0008577656 -0.03313091
658.125 -0.02361829 -0.01107831
658.75 -0.02168015 0.03126613
659.375 0.04707123 0.04335535
660.0 0.06874923 -0.04910974
660.625 -0.03360301 -0.07221606
661.25 -0.05137158 -0.002772758
661.875 -0.03504695 0.01800408
662.5 -0.009440234 0.03587954
663.125 0.0004512052 0.008104494
663.75 -0.03575717 0.0009349459
664.375 -0.06228101 0.02566311
665.0 -0.05249983 0.06361499
665.625 -0.007184071 0.06806305
666.25 0.01518351 0.02519138
666.875 -0.005070811 0.007036479
667.5 -0.01470103 0.003707272
668.125 -0.04933423 0.02210142
668.75 -0.02359653 0.09343218
669.375 0.07420959 0.07892731
670.0 0.08523437 -0.007433792
670.625 0.03548395 -0.03522489
671.25 0.01260291 -0.02449797
671.875 0.002649882 -0.02323492
672.5 0.004867149 -0.01676088
673.125 -0.01784153 -0.04912966
673.75 -0.07292913 -0.01786307
674.375 -0.05673389 0.0415022
675.0 -0.004496695 0.04826166
675.625 0.02685532 0.01036752
676.25 0.0184017 -0.02165477
676.875 -0.003089227 -0.04231543
677.5 -0.05153198 -0.0381293
678.125 -0.06473333 0.03212791
678.75 0.009092359 0.05855615
679.375 0.03941062 -0.003698667
680.0 -0.01032435 -0.02950348
680.625 -0.02878333 0.009033259
681.25 0.002708682 0.02501969
681.875 0.0214107 0.006510295
682.5 0.01401717 -0.0291009
683.125 -0.04849175 -0.03489024
683.75 -0.07953961 0.04775315
684.375 -0.04046536 0.1011551
685.0 0.005634816 0.09432695
685.625 0.0216078 0.06472898
686.25 0.02603764 0.04506145
686.875 0.03072327 0.01143939
687.5 -0.007573922 -0.0159171
688.125 -0.04631145 0.03405876
688.75 0.007259217 0.08954611
689.375 0.07634584 0.04999436
690.0 0.05823998 -0.01689474
690.625 0.02084075 -0.01969159
691.25 0.00964002 -0.02280736
691.875 -0.006166836 -0.006809167
692.5 0.005432352 -0.03343159
693.125 -0.07872418 0.004504002
693.75 0.006783297 0.106948
694.375 0.09620567 0.02767951
695.0 0.05892444 -0.02132988
695.625 0.02892665 -0.003937297
696.25 0.01496217 0.002687061
696.875 -0.008287316 -0.02223147
697.5 -0.05701437 -0.02942595
698.125 -0.08315396 0.02882871
698.75 -0.0190884 0.08051682
699.375 0.04159093 0.03156474
700.0 0.007428775 -0.0165305
700.625 -0.02940548 0.002078996
701.25 -0.03393433 0.03261207
701.875 0.004104818 0.07970763
702.5 0.1144316 0.01463864
703.125 -0.0002817439 -0.1206765
703.75 -0.08527042 0.01760565
704.375 0.02023584 0.0350605
705.0 0.008606313 -0.04265345
705.625 -0.04705198 -0.05327647
706.25 -0.06176386 -0.04473113
706.875 -0.06291229 -0.05936246
707.5 -0.09197397 -0.0412496
708.125 -0.08349045 0.02554401
708.75 -0.01158213 0.05530617
709.375 0.03508804 0.01996937
710.0 0.03646993 -0.01112244
710.625 0.02917548 -0.03274186
711.25 -0.001396002 -0.04669698
711.875 -0.0389305 -0.01455037
712.5 -0.002608379 0.03758091
713.125 0.03756984 -0.03628554
713.75 -0.07310641 -0.01220806
714.375 0.005946754 0.07616457
715.0 0.05688689 0.006095343
715.625 0.03595198 -0.02580218
716.25 0.01407611 -0.04410896
716.875 -0.03377229 -0.04499115
717.5 -0.07675515 0.003072804
718.125 -0.03420325 0.08704073
718.75 0.06019554 0.06539868
719.375 0.05933453 -0.003365294
720.0 0.02242449 -0.01570537
720.625 0.008812529 -0.01037758
721.25 0.007091291 -0.02100533
721.875 -0.002001545 -0.0483777
722.5 -0.06412632 -0.05292486
723.125 -0.07239575 0.08722321
723.75 0.1117507 0.03769323
724.375 -0.01575827 -0.09008468
725.0 -0.04772874 0.02478029
725.625 0.01319771 0.03483033
726.25 0.04100585 -0.001756153
726.875 0.03293474 -0.04743257
727.5 -0.02072364 -0.07038137
728.125 -0.06229809 -0.02961646
728.75 -0.02510634 0.01962933
729.375 -0.006226494 -0.0201572
730.0 -0.05788784 0.0004464824
730.625 -0.05678376 0.04454148
731.25 -0.0578936 0.06603864
731.875 -0.07221556 0.08362532
732.5 -0.07472749 0.1090517
733.125 -0.02285252 0.1355749
733.75 0.08617351 0.06982645
734.375 0.04280903 -0.04345834
735.0 -0.02983124 0.008031701
735.625 0.0199938 0.03588513
736.25 0.05976741 -0.003617559
736.875 0.0399302 -0.06198571
737.5 -0.007908982 -0.06946495
738.125 -0.03579465 -0.0368083
738.75 -0.01341318 0.002374904
739.375 0.03275117 -0.02389048
740.0 -0.03381073 -0.07528527
740.625 -0.09554771 0.01345624
741.25 -0.06190816 0.08016694
741.875 -0.05809439 0.09789944
742.5 -0.07568486 0.1042684
743.125 -0.07924726 0.1169224
743.75 -0.008113718 0.1411861
744.375 0.109497 0.07259998
745.0 0.08838549 -0.05770956
745.625 -0.02204195 -0.06598811
746.25 -0.03952855 -0.004245705
746.875 -0.005574325 0.01712831
747.5 -0.003317578 -0.0099211
748.125 -0.03417422 0.01735732
748.75 0.03913381 0.05030534
749.375 0.03125895 -0.07688036
750.0 -0.08148196 0.03195639
