! Touchstone file from project mwavepy standards
! Exported from HFSS 12.1.0
! Variables:
!  a = 100mil
!  b = a/2
!Data is not renormalized
# GHZ S MA
! Modal data exported
! Port[1] = 1:1
! Port[2] = 2:1
75               0.000271519962488054 170.199770934216 0.99999996313843 -97.4896674142861 0.999999963138428 -97.4896674142859 0.000271519960861983 174.820894586183 
! Gamma  !      -0               1571.88376646376 -0               1571.88376646376 
! Port Impedance  376.730313474969 0                376.730313474969 0                

76               0.000281545680077591 164.43600551107  0.999991573800383 -103.587638488413 0.999991573800378 -103.587638488413 0.000281412078897878 168.327529079635 
! Gamma  !      0                1592.84221668328 0                1592.84221668328 
! Port Impedance  376.730313474969 0                376.730313474968 0                

77               0.000289050987177298 158.675979316905 0.999991162851167 -109.685931744844 0.999991162851162 -109.685931744844 0.000288912355109661 161.899165499908 
! Gamma  !      0                1613.8006669028  0                1613.80066690279 
! Port Impedance  376.730313474966 0                376.730313474968 0                

78               0.000293416193038252 152.886984159831 0.999994439986177 -115.784321088749 0.999994439986172 -115.784321088749 0.000293334229248056 155.52069800697  
! Gamma  !      0                1634.75911712231 0                1634.75911712231 
! Port Impedance  376.730313474969 0                376.730313474972 0                

79               0.000294020466215527 147.043149641624 0.999998565335124 -121.882654237488 0.99999856533512 -121.882654237488 0.000294002442470574 149.18882462367  
! Gamma  !      0                1655.71756734183 0                1655.71756734183 
! Port Impedance  376.730313474969 0                376.730313474969 0                

80               0.000290266727164751 141.123269627155 1.00000185847716 -127.980838332197 1.00000185847716 -127.980838332197 0.000290285237445578 142.912792834342 
! Gamma  !      0                1676.67601756135 0                1676.67601756134 
! Port Impedance  376.730313474969 0                376.730313474969 0                

81               0.000281610142228599 135.107402076753 1.00000352796551 -134.078826547429 1.00000352796551 -134.078826547429 0.000281627457866434 136.715582667521 
! Gamma  !      0                1697.63446778086 0                1697.63446778086 
! Port Impedance  376.730313474969 0                376.730313474969 0                

82               0.000267586845202547 128.971231056993 1.00000342634657 -140.176605885704 1.00000342634657 -140.176605885704 0.000267579424419425 130.636767897516 
! Gamma  !      0                1718.59291800038 0                1718.59291800036 
! Port Impedance  376.730313474969 0                376.730313474969 0                

83               0.000247839204935041 122.675936120371 1.00000183444911 -146.274186311826 1.00000183444911 -146.274186311826 0.000247817170895476 124.739802261491 
! Gamma  !      0                1739.5513682199  0                1739.5513682199  
! Port Impedance  376.730313474969 0                376.730313474969 0                

84               0.000222135117939877 116.147806445821 0.999999277511215 -152.371591346616 0.999999277511216 -152.371591346617 0.000222152543622265 119.130508159011 
! Gamma  !      0                1760.50981843941 0                1760.50981843941 
! Port Impedance  376.730313474969 0                376.730313474969 0                

85               0.000190382766239893 109.230486448294 0.999996374536445 -158.468850201821 0.999996374536446 -158.468850201821 0.000190537881167116 114.006172370642 
! Gamma  !      0                1781.46826865893 0                1781.46826865893 
! Port Impedance  376.730313474969 0                376.730313474969 0                

86               0.000152654368635881 101.548420200995 0.999993721149794 -164.56599149806 0.999993721149794 -164.56599149806 0.000153085556381837 109.803134278829 
! Gamma  !      0                1802.42671887845 0                1802.42671887845 
! Port Impedance  376.730313474969 0                376.730313474969 0                

87               0.000109286900385211 91.9894843526555 0.999991805176593 -170.663038566612 0.999991805176593 -170.663038566612 0.000110189347076483 107.758034422855 
! Gamma  !      0                1823.38516909796 0                1823.38516909796 
! Port Impedance  376.730313474969 0                376.730313474969 0                

88               6.15895151037655E-005 75.5595301625545 0.999990953207271 -176.760006294344 0.99999095320727 -176.760006294344 6.33817354742306E-005 113.190368436607 
! Gamma  !      0                1844.34361931748 0                1844.34361931748 
! Port Impedance  376.730313474969 0                376.730313474969 0                

89               2.4962575748893E-005 5.05654827883418 0.999991305549793 177.143100569927 0.999991305549792 177.143100569927 2.84588592454614E-005 167.948770872272 
! Gamma  !      0                1865.302069537   0                1865.302069537   
! Port Impedance  376.730313474969 0                376.730313474969 0                

90               6.55079612890584E-005 -69.4750354466353 0.999992816219158 171.046287769093 0.999992816219156 171.046287769093 6.62088375714778E-005 -131.397436890427 
! Gamma  !      0                1886.26051975651 0                1886.26051975651 
! Port Impedance  376.730313474969 0                376.730313474969 0                

91               0.000129174674133648 -86.3459518666697 0.999995273978817 164.949570710474 0.999995273978815 164.949570710474 0.000129122839613888 -124.941935218851 
! Gamma  !      0                1907.21896997603 0                1907.21896997603 
! Port Impedance  376.730313474969 0                376.730313474969 0                

92               0.000199158048834133 -95.8831578237238 0.999998339940699 158.852972651338 0.999998339940697 158.852972651338 0.000199044684965394 -126.718894522358 
! Gamma  !      0                1928.17742019555 0                1928.17742019555 
! Port Impedance  376.730313474969 0                376.730313474969 0                

93               0.000273811894398602 -103.4395555766  1.00000159685638 152.75652212189  1.00000159685637 152.75652212189  0.000274000715138647 -130.793768606705 
! Gamma  !      0                1949.13587041507 0                1949.13587041506 
! Port Impedance  376.730313474969 0                376.730313474969 0                

94               0.000352352890721567 -110.197173680078 1.00000460499841 146.66024983692  1.00000460499841 146.66024983692  0.000353095767283563 -135.848850243156 
! Gamma  !      0                1970.09432063458 0                1970.09432063458 
! Port Impedance  376.730313474969 0                376.730313474969 0                

95               0.000434051055795022 -116.565086367863 1.00000695944287 140.564185368641 1.00000695944287 140.564185368641 0.00043548310572092 -141.439454492814 
! Gamma  !      0                1991.0527708541  0                1991.0527708541  
! Port Impedance  376.730313474969 0                376.730313474969 0                

96               0.000518077769408375 -122.72275816373 1.00000834362341 134.468353868819 1.00000834362341 134.468353868818 0.000520181462956978 -147.374751761101 
! Gamma  !      0                2012.01122107361 0                2012.01122107361 
! Port Impedance  376.730313474969 0                376.730313474969 0                

97               0.000603449928463893 -128.759151808398 1.00000857423395 128.37277313756  1.00000857423395 128.37277313756  0.00060603045248177 -153.55608221139 
! Gamma  !      0                2032.96967129313 0                2032.96967129313 
! Port Impedance  376.730313474969 0                376.730313474969 0                

98               0.000689008650384304 -134.718817768838 1.00000763290591 122.277451338556 1.00000763290591 122.277451338556 0.000691703152651395 -159.922274096748 
! Gamma  !      0                2053.92812151265 0                2053.92812151265 
! Port Impedance  376.730313474969 0                376.730313474969 0                

99               0.000773426000324922 -140.619884095676 1.00000568057014 116.182385655904 1.00000568057014 116.182385655904 0.000775760697823989 -166.428519450373 
! Gamma  !      0                2074.88657173217 0                2074.88657173217 
! Port Impedance  376.730313474969 0                376.730313474969 0                

100              0.000855240989756829 -146.462116344793 1.00000305102202 110.087562175569 1.00000305102201 110.087562175569 0.000856737876212254 -173.038415317154 
! Gamma  !      0                2095.84502195168 0                2095.84502195168 
! Port Impedance  376.730313474969 0                376.73031347497  0                

101              0.000932922960319896 -152.231268734821 1.00000022092715 103.992957254979 1.00000022092715 103.992957254979 0.000933240924111513 -179.722201673313 
! Gamma  !      0                2116.8034721712  0                2116.8034721712  
! Port Impedance  376.730313474969 0                376.730313474968 0                

102              0.00100495244097764 -157.902169758559 0.999997754320247 97.8985406172327 0.999997754320246 97.8985406172327 0.00100403039237634 173.541768013631 
! Gamma  !      0                2137.76192239072 0                2137.76192239072 
! Port Impedance  376.730313474969 0                376.730313474968 0                

103              0.00106989913797053 -163.441567749574 0.999996220544706 91.8042803720085 0.999996220544704 91.8042803720086 0.00106805851877178 166.763977531376 
! Gamma  !      0                2158.72037261023 0                2158.72037261023 
! Port Impedance  376.730313474969 0                376.730313474969 0                

104              0.0011264659013769 -168.811242451035 0.999996085540542 85.7101501238056 0.99999608554054 85.7101501238057 0.00112443360101873 159.940313404211 
! Gamma  !      0                2179.67882282975 0                2179.67882282975 
! Port Impedance  376.730313474969 0                376.730313474969 0                

105              0.00117345736531698 -173.972092080176 0.999997577398667 79.6161382798702 0.999997577398665 79.6161382798704 0.00117229142742436 153.049307302771 
! Gamma  !      0                2200.63727304926 0                2200.63727304927 
! Port Impedance  376.730313474969 0                376.730313474966 0                

106              0.00120962532774582 -178.89154385634 1.00000052814735 73.5222596155589 1.00000052814735 73.5222596155591 0.00121056312081656 146.051297594657 
! Gamma  !      0                2221.59572326878 0                2221.59572326878 
! Port Impedance  376.730313474969 0                376.730313474968 0                

107              0.00123337271622806 176.43797256232  1.00000419480968 67.4285690943627 1.00000419480968 67.4285690943629 0.00123764273399715 138.89148567023  
! Gamma  !      0                2242.5541734883  0                2242.5541734883  
! Port Impedance  376.730313474969 0                376.730313474968 0                

108              0.00124257231110467 171.94863718665  1.00000706385674 61.335177873934  1.00000706385674 61.3351778739341 0.00125099459811455 131.510480773832 
! Gamma  !      0                2263.51262370782 0                2263.51262370782 
! Port Impedance  376.73031347497  0                376.730313474968 0                

109              0.00123604681546918 167.389879195475 1.0000066442658  55.2422713588239 1.0000066442658  55.242271358824  0.00124684079015093 123.868415666643 
! Gamma  !      0                2284.47107392733 0                2284.47107392733 
! Port Impedance  376.730313474969 0                376.730313474968 0                

110              0.00122027967380426 162.30980264242  0.99999925545845 49.1501290859542 0.999999255458447 49.1501290859542 0.00122027967388592 115.99045550099  
! Gamma  !      -0               2305.42952414685 -0               2305.42952414685 
! Port Impedance  376.730313474969 0                376.730313474969 0                

