!Created with mwavepy.
# GHz S RI R 50.0 
!freq	ReS11	ImS11	
500.0	0.0498419026729	-0.202306825828	
! Port Impedance	50.00000000000000	0.00000000000000	
501.25	0.0500151250648	-0.202590984403	
! Port Impedance	50.00000000000000	0.00000000000000	
502.5	0.0501714727249	-0.202866399544	
! Port Impedance	50.00000000000000	0.00000000000000	
503.75	0.0503104079899	-0.203132619672	
! Port Impedance	50.00000000000000	0.00000000000000	
505.0	0.0504336221841	-0.203390377155	
! Port Impedance	50.00000000000000	0.00000000000000	
506.25	0.0505393675851	-0.203638530835	
! Port Impedance	50.00000000000000	0.00000000000000	
507.5	0.0506305686576	-0.203878516597	
! Port Impedance	50.00000000000000	0.00000000000000	
508.75	0.0507067673189	-0.204109910721	
! Port Impedance	50.00000000000000	0.00000000000000	
510.0	0.0507694250918	-0.204333395601	
! Port Impedance	50.00000000000000	0.00000000000000	
511.25	0.0508170410496	-0.20454790207	
! Port Impedance	50.00000000000000	0.00000000000000	
512.5	0.0508521364019	-0.204754770066	
! Port Impedance	50.00000000000000	0.00000000000000	
513.75	0.0508743190445	-0.204953600792	
! Port Impedance	50.00000000000000	0.00000000000000	
515.0	0.0508848484472	-0.20514503013	
! Port Impedance	50.00000000000000	0.00000000000000	
516.25	0.0508824340507	-0.205328054306	
! Port Impedance	50.00000000000000	0.00000000000000	
517.5	0.0508692457597	-0.205503924785	
! Port Impedance	50.00000000000000	0.00000000000000	
518.75	0.0508449459236	-0.205672265151	
! Port Impedance	50.00000000000000	0.00000000000000	
520.0	0.0508106176463	-0.205833668362	
! Port Impedance	50.00000000000000	0.00000000000000	
521.25	0.050765148832	-0.205987190023	
! Port Impedance	50.00000000000000	0.00000000000000	
522.5	0.0507104053178	-0.2061340005	
! Port Impedance	50.00000000000000	0.00000000000000	
523.75	0.0506460942574	-0.206273743573	
! Port Impedance	50.00000000000000	0.00000000000000	
525.0	0.0505731458678	-0.206406972866	
! Port Impedance	50.00000000000000	0.00000000000000	
526.25	0.0504905988628	-0.206532797971	
! Port Impedance	50.00000000000000	0.00000000000000	
527.5	0.0504000574874	-0.206652315227	
! Port Impedance	50.00000000000000	0.00000000000000	
528.75	0.0503012657248	-0.20676518677	
! Port Impedance	50.00000000000000	0.00000000000000	
530.0	0.0501950221227	-0.206871930371	
! Port Impedance	50.00000000000000	0.00000000000000	
531.25	0.0500804924888	-0.206971704854	
! Port Impedance	50.00000000000000	0.00000000000000	
532.5	0.0499590572655	-0.207065539157	
! Port Impedance	50.00000000000000	0.00000000000000	
533.75	0.049830490776	-0.207153112258	
! Port Impedance	50.00000000000000	0.00000000000000	
535.0	0.0496954788675	-0.207234909355	
! Port Impedance	50.00000000000000	0.00000000000000	
536.25	0.0495532943311	-0.207310134384	
! Port Impedance	50.00000000000000	0.00000000000000	
537.5	0.0494051270839	-0.207379754972	
! Port Impedance	50.00000000000000	0.00000000000000	
538.75	0.049250776601	-0.207443465704	
! Port Impedance	50.00000000000000	0.00000000000000	
540.0	0.0490908328135	-0.207501722251	
! Port Impedance	50.00000000000000	0.00000000000000	
541.25	0.0489246586499	-0.207553770127	
! Port Impedance	50.00000000000000	0.00000000000000	
542.5	0.0487532825052	-0.207600521156	
! Port Impedance	50.00000000000000	0.00000000000000	
543.75	0.0485765249497	-0.207641684542	
! Port Impedance	50.00000000000000	0.00000000000000	
545.0	0.0483948946962	-0.207677689204	
! Port Impedance	50.00000000000000	0.00000000000000	
546.25	0.0482078308906	-0.207707819249	
! Port Impedance	50.00000000000000	0.00000000000000	
547.5	0.048016225417	-0.207732935591	
! Port Impedance	50.00000000000000	0.00000000000000	
548.75	0.0478199168555	-0.207752761286	
! Port Impedance	50.00000000000000	0.00000000000000	
550.0	0.0476193454384	-0.207767700973	
! Port Impedance	50.00000000000000	0.00000000000000	
551.25	0.0474140151983	-0.207777074878	
! Port Impedance	50.00000000000000	0.00000000000000	
552.5	0.0472047028406	-0.207781697282	
! Port Impedance	50.00000000000000	0.00000000000000	
553.75	0.0469912626921	-0.207781304509	
! Port Impedance	50.00000000000000	0.00000000000000	
555.0	0.0467740774219	-0.20777627909	
! Port Impedance	50.00000000000000	0.00000000000000	
556.25	0.0465527068861	-0.207765975334	
! Port Impedance	50.00000000000000	0.00000000000000	
557.5	0.0463278305914	-0.207751164585	
! Port Impedance	50.00000000000000	0.00000000000000	
558.75	0.0460993170314	-0.20773159599	
! Port Impedance	50.00000000000000	0.00000000000000	
560.0	0.045867500561	-0.207707631852	
! Port Impedance	50.00000000000000	0.00000000000000	
561.25	0.0456319897535	-0.207678658914	
! Port Impedance	50.00000000000000	0.00000000000000	
562.5	0.0453933818763	-0.207645408718	
! Port Impedance	50.00000000000000	0.00000000000000	
563.75	0.0451515585672	-0.207607642906	
! Port Impedance	50.00000000000000	0.00000000000000	
565.0	0.0449068136013	-0.207565705156	
! Port Impedance	50.00000000000000	0.00000000000000	
566.25	0.0446587988278	-0.207519013314	
! Port Impedance	50.00000000000000	0.00000000000000	
567.5	0.0444080415432	-0.207468261742	
! Port Impedance	50.00000000000000	0.00000000000000	
568.75	0.0441544359472	-0.207413224339	
! Port Impedance	50.00000000000000	0.00000000000000	
570.0	0.0438982416113	-0.207354227496	
! Port Impedance	50.00000000000000	0.00000000000000	
571.25	0.0436391496074	-0.207290719086	
! Port Impedance	50.00000000000000	0.00000000000000	
572.5	0.0433776271623	-0.207223358472	
! Port Impedance	50.00000000000000	0.00000000000000	
573.75	0.043113580789	-0.207151931612	
! Port Impedance	50.00000000000000	0.00000000000000	
575.0	0.0428472410257	-0.207076748722	
! Port Impedance	50.00000000000000	0.00000000000000	
576.25	0.0425783352476	-0.206997286825	
! Port Impedance	50.00000000000000	0.00000000000000	
577.5	0.0423072784548	-0.20691417206	
! Port Impedance	50.00000000000000	0.00000000000000	
578.75	0.0420339894633	-0.206827202288	
! Port Impedance	50.00000000000000	0.00000000000000	
580.0	0.0417586738911	-0.20673667244	
! Port Impedance	50.00000000000000	0.00000000000000	
581.25	0.0414810933939	-0.206642087962	
! Port Impedance	50.00000000000000	0.00000000000000	
582.5	0.0412016168272	-0.20654404321	
! Port Impedance	50.00000000000000	0.00000000000000	
583.75	0.040920175451	-0.20644234779	
! Port Impedance	50.00000000000000	0.00000000000000	
585.0	0.0406369531623	-0.206337282073	
! Port Impedance	50.00000000000000	0.00000000000000	
586.25	0.0403517445548	-0.206228379279	
! Port Impedance	50.00000000000000	0.00000000000000	
587.5	0.0400648769393	-0.206116203147	
! Port Impedance	50.00000000000000	0.00000000000000	
588.75	0.0397762942367	-0.206000574868	
! Port Impedance	50.00000000000000	0.00000000000000	
590.0	0.0394861610432	-0.205881760813	
! Port Impedance	50.00000000000000	0.00000000000000	
591.25	0.0391943040328	-0.205759321378	
! Port Impedance	50.00000000000000	0.00000000000000	
592.5	0.0389010123515	-0.205633790641	
! Port Impedance	50.00000000000000	0.00000000000000	
593.75	0.0386062428061	-0.205505001177	
! Port Impedance	50.00000000000000	0.00000000000000	
595.0	0.0383101424609	-0.205373205803	
! Port Impedance	50.00000000000000	0.00000000000000	
596.25	0.038012569523	-0.205237991494	
! Port Impedance	50.00000000000000	0.00000000000000	
597.5	0.0377137773746	-0.205099863461	
! Port Impedance	50.00000000000000	0.00000000000000	
598.75	0.0374137358851	-0.204958665421	
! Port Impedance	50.00000000000000	0.00000000000000	
600.0	0.0371125758241	-0.204814636994	
! Port Impedance	50.00000000000000	0.00000000000000	
601.25	0.036810186539	-0.2046673911	
! Port Impedance	50.00000000000000	0.00000000000000	
602.5	0.0365067872941	-0.20451740477	
! Port Impedance	50.00000000000000	0.00000000000000	
603.75	0.0362023611014	-0.204364532574	
! Port Impedance	50.00000000000000	0.00000000000000	
605.0	0.0358970232513	-0.204209001218	
! Port Impedance	50.00000000000000	0.00000000000000	
606.25	0.0355906938601	-0.204050448874	
! Port Impedance	50.00000000000000	0.00000000000000	
607.5	0.0352835591669	-0.203889325023	
! Port Impedance	50.00000000000000	0.00000000000000	
608.75	0.0349756152698	-0.203725494738	
! Port Impedance	50.00000000000000	0.00000000000000	
610.0	0.0346669624757	-0.203559172056	
! Port Impedance	50.00000000000000	0.00000000000000	
611.25	0.0343575512055	-0.203390019619	
! Port Impedance	50.00000000000000	0.00000000000000	
612.5	0.0340475353943	-0.203218459975	
! Port Impedance	50.00000000000000	0.00000000000000	
613.75	0.0337369240042	-0.203044368285	
! Port Impedance	50.00000000000000	0.00000000000000	
615.0	0.0334258026265	-0.202867946142	
! Port Impedance	50.00000000000000	0.00000000000000	
616.25	0.0331141513352	-0.202688879779	
! Port Impedance	50.00000000000000	0.00000000000000	
617.5	0.0328020922729	-0.202507565449	
! Port Impedance	50.00000000000000	0.00000000000000	
618.75	0.0324896468554	-0.202323887918	
! Port Impedance	50.00000000000000	0.00000000000000	
620.0	0.0321768860822	-0.202138036567	
! Port Impedance	50.00000000000000	0.00000000000000	
621.25	0.0318638187666	-0.201949720221	
! Port Impedance	50.00000000000000	0.00000000000000	
622.5	0.0315505357023	-0.201759309534	
! Port Impedance	50.00000000000000	0.00000000000000	
623.75	0.0312370701473	-0.201566698333	
! Port Impedance	50.00000000000000	0.00000000000000	
625.0	0.0309234785619	-0.201372064034	
! Port Impedance	50.00000000000000	0.00000000000000	
626.25	0.0306097972681	-0.201175136941	
! Port Impedance	50.00000000000000	0.00000000000000	
627.5	0.0302960862066	-0.200976262883	
! Port Impedance	50.00000000000000	0.00000000000000	
628.75	0.02998238966	-0.200775344145	
! Port Impedance	50.00000000000000	0.00000000000000	
630.0	0.0296687495956	-0.200572546457	
! Port Impedance	50.00000000000000	0.00000000000000	
631.25	0.0293552282594	-0.200367620378	
! Port Impedance	50.00000000000000	0.00000000000000	
632.5	0.0290418553893	-0.200160887777	
! Port Impedance	50.00000000000000	0.00000000000000	
633.75	0.0287286852703	-0.199952258742	
! Port Impedance	50.00000000000000	0.00000000000000	
635.0	0.0284157454732	-0.199741887647	
! Port Impedance	50.00000000000000	0.00000000000000	
636.25	0.0281031222104	-0.199529543967	
! Port Impedance	50.00000000000000	0.00000000000000	
637.5	0.0277908159019	-0.19931552659	
! Port Impedance	50.00000000000000	0.00000000000000	
638.75	0.0274788896209	-0.199099752713	
! Port Impedance	50.00000000000000	0.00000000000000	
640.0	0.0271673567327	-0.198882365723	
! Port Impedance	50.00000000000000	0.00000000000000	
641.25	0.0268563250862	-0.19866315259	
! Port Impedance	50.00000000000000	0.00000000000000	
642.5	0.0265457669655	-0.19844239031	
! Port Impedance	50.00000000000000	0.00000000000000	
643.75	0.0262357528424	-0.198220002457	
! Port Impedance	50.00000000000000	0.00000000000000	
645.0	0.0259262822024	-0.197996121873	
! Port Impedance	50.00000000000000	0.00000000000000	
646.25	0.0256174818429	-0.197770551511	
! Port Impedance	50.00000000000000	0.00000000000000	
647.5	0.0253092974366	-0.197543547683	
! Port Impedance	50.00000000000000	0.00000000000000	
648.75	0.0250018053134	-0.197315039591	
! Port Impedance	50.00000000000000	0.00000000000000	
650.0	0.0246949915674	-0.197085150028	
! Port Impedance	50.00000000000000	0.00000000000000	
651.25	0.0243889989341	-0.19685369637	
! Port Impedance	50.00000000000000	0.00000000000000	
652.5	0.024083748365	-0.19662091556	
! Port Impedance	50.00000000000000	0.00000000000000	
653.75	0.0237793203905	-0.196386741674	
! Port Impedance	50.00000000000000	0.00000000000000	
655.0	0.0234756883852	-0.196151288014	
! Port Impedance	50.00000000000000	0.00000000000000	
656.25	0.0231730077399	-0.195914384788	
! Port Impedance	50.00000000000000	0.00000000000000	
657.5	0.0228711769482	-0.195676250983	
! Port Impedance	50.00000000000000	0.00000000000000	
658.75	0.0225702790056	-0.195436824806	
! Port Impedance	50.00000000000000	0.00000000000000	
660.0	0.0222702754355	-0.195196210684	
! Port Impedance	50.00000000000000	0.00000000000000	
661.25	0.021971330795	-0.194954250068	
! Port Impedance	50.00000000000000	0.00000000000000	
662.5	0.0216733237469	-0.194711145483	
! Port Impedance	50.00000000000000	0.00000000000000	
663.75	0.0213763379841	-0.194466838554	
! Port Impedance	50.00000000000000	0.00000000000000	
665.0	0.0210803242489	-0.194221425506	
! Port Impedance	50.00000000000000	0.00000000000000	
666.25	0.0207854526521	-0.193974757469	
! Port Impedance	50.00000000000000	0.00000000000000	
667.5	0.0204915849892	-0.193727022072	
! Port Impedance	50.00000000000000	0.00000000000000	
668.75	0.0201988039045	-0.193478163684	
! Port Impedance	50.00000000000000	0.00000000000000	
670.0	0.0199070506272	-0.19322827105	
! Port Impedance	50.00000000000000	0.00000000000000	
671.25	0.0196164971858	-0.192977203486	
! Port Impedance	50.00000000000000	0.00000000000000	
672.5	0.0193269917633	-0.192725135327	
! Port Impedance	50.00000000000000	0.00000000000000	
673.75	0.0190386142917	-0.192472013083	
! Port Impedance	50.00000000000000	0.00000000000000	
675.0	0.018751297943	-0.19221791877	
! Port Impedance	50.00000000000000	0.00000000000000	
676.25	0.0184652131176	-0.191962718516	
! Port Impedance	50.00000000000000	0.00000000000000	
677.5	0.0181801978727	-0.191706574966	
! Port Impedance	50.00000000000000	0.00000000000000	
678.75	0.0178963279133	-0.191449436255	
! Port Impedance	50.00000000000000	0.00000000000000	
680.0	0.0176135299802	-0.191191378456	
! Port Impedance	50.00000000000000	0.00000000000000	
681.25	0.0173319695212	-0.190932273275	
! Port Impedance	50.00000000000000	0.00000000000000	
682.5	0.0170514781089	-0.190672273257	
! Port Impedance	50.00000000000000	0.00000000000000	
683.75	0.0167721259301	-0.190411327748	
! Port Impedance	50.00000000000000	0.00000000000000	
685.0	0.0164938350654	-0.19014950768	
! Port Impedance	50.00000000000000	0.00000000000000	
686.25	0.0162167630534	-0.189886689297	
! Port Impedance	50.00000000000000	0.00000000000000	
687.5	0.0159407386841	-0.189623016574	
! Port Impedance	50.00000000000000	0.00000000000000	
688.75	0.0156658256403	-0.189358439791	
! Port Impedance	50.00000000000000	0.00000000000000	
690.0	0.0153919432259	-0.189093025533	
! Port Impedance	50.00000000000000	0.00000000000000	
691.25	0.0151192386427	-0.188826653787	
! Port Impedance	50.00000000000000	0.00000000000000	
692.5	0.0148475415545	-0.188559461391	
! Port Impedance	50.00000000000000	0.00000000000000	
693.75	0.0145769085458	-0.18829139943	
! Port Impedance	50.00000000000000	0.00000000000000	
695.0	0.0143072581006	-0.188022530924	
! Port Impedance	50.00000000000000	0.00000000000000	
696.25	0.0140387253647	-0.187752739092	
! Port Impedance	50.00000000000000	0.00000000000000	
697.5	0.0137711443589	-0.187482154935	
! Port Impedance	50.00000000000000	0.00000000000000	
698.75	0.0135045644632	-0.187210730388	
! Port Impedance	50.00000000000000	0.00000000000000	
700.0	0.0132389053255	-0.186938525652	
! Port Impedance	50.00000000000000	0.00000000000000	
701.25	0.0129742892168	-0.186665427003	
! Port Impedance	50.00000000000000	0.00000000000000	
702.5	0.0127105576859	-0.186391560726	
! Port Impedance	50.00000000000000	0.00000000000000	
703.75	0.0124477533915	-0.186116879848	
! Port Impedance	50.00000000000000	0.00000000000000	
705.0	0.012185799102	-0.185841442446	
! Port Impedance	50.00000000000000	0.00000000000000	
706.25	0.0119248045044	-0.185565138061	
! Port Impedance	50.00000000000000	0.00000000000000	
707.5	0.0116646213774	-0.185288089159	
! Port Impedance	50.00000000000000	0.00000000000000	
708.75	0.0114052868395	-0.185010250318	
! Port Impedance	50.00000000000000	0.00000000000000	
710.0	0.0111467286479	-0.184731678118	
! Port Impedance	50.00000000000000	0.00000000000000	
711.25	0.0108890455308	-0.184452266004	
! Port Impedance	50.00000000000000	0.00000000000000	
712.5	0.010632101557	-0.18417213325	
! Port Impedance	50.00000000000000	0.00000000000000	
713.75	0.0103759302985	-0.183891236688	
! Port Impedance	50.00000000000000	0.00000000000000	
715.0	0.010120466214	-0.18360963193	
! Port Impedance	50.00000000000000	0.00000000000000	
716.25	0.00986580027046	-0.183327217452	
! Port Impedance	50.00000000000000	0.00000000000000	
717.5	0.0096118100577	-0.183044109641	
! Port Impedance	50.00000000000000	0.00000000000000	
718.75	0.00935852852894	-0.182760268551	
! Port Impedance	50.00000000000000	0.00000000000000	
720.0	0.00910589832634	-0.182475749241	
! Port Impedance	50.00000000000000	0.00000000000000	
721.25	0.00885400767891	-0.182190456876	
! Port Impedance	50.00000000000000	0.00000000000000	
722.5	0.00860274789591	-0.18190450489	
! Port Impedance	50.00000000000000	0.00000000000000	
723.75	0.00835215530131	-0.181617857815	
! Port Impedance	50.00000000000000	0.00000000000000	
725.0	0.00810218188946	-0.181330570438	
! Port Impedance	50.00000000000000	0.00000000000000	
726.25	0.00785292026857	-0.181042556845	
! Port Impedance	50.00000000000000	0.00000000000000	
727.5	0.00760427441462	-0.180753927041	
! Port Impedance	50.00000000000000	0.00000000000000	
728.75	0.0073562892071	-0.180464651591	
! Port Impedance	50.00000000000000	0.00000000000000	
730.0	0.00710892675947	-0.180174785133	
! Port Impedance	50.00000000000000	0.00000000000000	
731.25	0.00686229355213	-0.179884253534	
! Port Impedance	50.00000000000000	0.00000000000000	
732.5	0.00661630369056	-0.179593162424	
! Port Impedance	50.00000000000000	0.00000000000000	
733.75	0.00637101712992	-0.179301490286	
! Port Impedance	50.00000000000000	0.00000000000000	
735.0	0.00612640637233	-0.179009291549	
! Port Impedance	50.00000000000000	0.00000000000000	
736.25	0.00588260393571	-0.17871650739	
! Port Impedance	50.00000000000000	0.00000000000000	
737.5	0.00563952978571	-0.178423237609	
! Port Impedance	50.00000000000000	0.00000000000000	
738.75	0.00539726695539	-0.178129470828	
! Port Impedance	50.00000000000000	0.00000000000000	
740.0	0.00515579800605	-0.177835261008	
! Port Impedance	50.00000000000000	0.00000000000000	
741.25	0.00491529664262	-0.177540568881	
! Port Impedance	50.00000000000000	0.00000000000000	
742.5	0.00467568242788	-0.177245486391	
! Port Impedance	50.00000000000000	0.00000000000000	
743.75	0.0044370711112	-0.176950014894	
! Port Impedance	50.00000000000000	0.00000000000000	
745.0	0.00419945427765	-0.176654207394	
! Port Impedance	50.00000000000000	0.00000000000000	
746.25	0.00396306528131	-0.17635804918	
! Port Impedance	50.00000000000000	0.00000000000000	
747.5	0.00372781475013	-0.176061621713	
! Port Impedance	50.00000000000000	0.00000000000000	
748.75	0.00349386258784	-0.175764942051	
! Port Impedance	50.00000000000000	0.00000000000000	
750.0	0.00326120754984	-0.175468061509	
! Port Impedance	50.00000000000000	0.00000000000000	
