!Created with skrf (http://scikit-rf.org).
# GHz S RI R 50.0 
!freq ReS11 ImS11 ReS21 ImS21 ReS12 ImS12 ReS22 ImS22
500.0 0.04980816817355349 0.11561570341576832 -0.6127882359446172 0.2081168759318855 -0.6127882359446171 0.20811687593188546 0.04207144602636811 0.024720655737364816
500.625 0.04692980166983317 0.0883997770332332 -0.4358679375142825 0.4858635001532801 -0.4358679375142826 0.4858635001532802 0.05428822602743397 -0.028599964555705102
501.25 0.026525882607116552 0.08172957943929868 0.14204745330244037 -0.6412733426534831 0.14204745330244048 -0.6412733426534832 0.0208133694014896 -0.07690663700115422
501.875 0.007346178158879571 0.0904379338711993 0.1869852365492592 0.6283992690836643 0.18698523654925917 0.6283992690836644 -0.028758299459149938 -0.07671806234791644
502.5 0.009664295746727947 0.10925745703227832 0.4725354000257203 0.4570682665448646 0.47253540002572025 0.4570682665448644 -0.05681784619484539 -0.017221288275925815
503.125 0.018152995954331674 0.12356050975283261 -0.6352038174083772 -0.17352027380465013 -0.635203817408377 -0.1735202738046501 -0.028346247650212632 0.038787224287219355
503.75 0.03627225156379424 0.11928391044764955 0.6393940489102022 -0.15439778112838254 0.639394048910202 -0.15439778112838243 0.02941491775593153 0.04494578187053903
504.375 0.05012392539869026 0.11018863160681434 -0.48609741689282926 0.44666896904409337 -0.48609741689282926 0.44666896904409337 0.06607679295899181 -0.0013291141427038532
505.0 0.04664778401319129 0.0941927998324904 0.21328386789999268 -0.6282753839173836 0.21328386789999268 -0.6282753839173836 0.047097530652444576 -0.05095836354555093
505.625 0.037798709882114256 0.07957112506072833 0.11643620238698714 0.6537137429947389 0.1164362023869872 0.6537137429947389 -0.0031448929528302277 -0.06082720426431565
506.25 0.02293626979039423 0.08347928980664647 -0.41896826767776296 -0.5173241567972288 -0.41896826767776296 -0.5173241567972288 -0.04401716644527581 -0.017378144426125636
506.875 0.0068233702838784785 0.09471141183718346 -0.6178493558967607 -0.2513958287829052 -0.6178493558967606 -0.2513958287829051 -0.026253365901160997 0.04365995625842901
507.5 0.011378692567350454 0.11104923828452491 0.6600602606922542 -0.07439447517643216 0.6600602606922542 -0.07439447517643216 0.026362042818828185 0.05915183170487105
508.125 0.029505248951346902 0.12314111251944541 0.5459433224565494 -0.3810602758384512 0.5459433224565495 -0.3810602758384513 0.07570763959340247 0.02407680177209748
508.75 0.049237534859649185 0.11487715479589033 -0.2991678769227705 0.595079348332646 -0.29916787692277064 0.5950793483326461 0.07643382819451927 -0.034400100229259434
509.375 0.06028374874223167 0.09510738653171211 -0.02116256657829352 -0.6685553121202167 -0.021162566578293563 -0.6685553121202166 0.028012350779477318 -0.05977909836420595
510.0 0.050526482146111745 0.07833207028630512 -0.3420363277393409 -0.5810874128242328 -0.34203632773934073 -0.5810874128242327 -0.02497075296911303 -0.03304315385821218
510.625 0.02507948092005491 0.06946594521836351 -0.5759747094938251 -0.347965223892835 -0.5759747094938251 -0.347965223892835 -0.03334970778560235 0.02438821004897735
511.25 0.010639079049239691 0.08503092628064735 0.6720955595675491 0.03011080035810297 0.6720955595675489 0.030110800358103196 0.01543121424228228 0.05756515373920962
511.875 0.011524436925379938 0.11227552336551144 -0.606382436156907 0.2935824517197808 -0.6063824361569071 0.2935824517197807 0.07468190936939126 0.03746341839262603
512.5 0.031114635452760886 0.12235826889142731 0.397265288773916 -0.5401875295995913 0.397265288773916 -0.5401875295995913 0.09389938736991874 -0.008126967268687444
513.125 0.06234297900937858 0.11310600752297448 0.09693376859302001 -0.6657013457635741 0.09693376859302007 -0.6657013457635742 0.06095255570205536 -0.05219513533204314
513.75 0.07107128258348765 0.08530061759634507 0.2327291193552631 0.6374176613716479 0.23272911935526314 0.6374176613716478 -0.003151393762022177 -0.05058808918469986
514.375 0.05214015805031855 0.06091102566413595 -0.5091438497477767 -0.45293517897115537 -0.5091438497477767 -0.4529351789711554 -0.03141430052057767 -0.0016566864763831943
515.0 0.02286282689763046 0.06049121520153687 0.6647458372482038 0.15566737848462986 0.6647458372482039 0.1556673784846299 0.0009256001782058141 0.04818949415212126
515.625 0.0031130613917920436 0.08118712507002841 0.6570660694790429 -0.1773262175072353 0.6570660694790429 -0.17732621750723532 0.06092997268085576 0.054861982882353416
516.25 0.011943056208033292 0.10846925498421411 -0.49481737792018704 0.462816355148654 -0.4948173779201869 0.46281635514865377 0.09338409398289624 0.008721360442389192
516.875 0.03943829069561461 0.12196868980765668 -0.22229057317868606 0.6405112915453908 -0.22229057317868606 0.6405112915453907 0.07192761045058207 -0.04459063065565571
517.5 0.06244282281084025 0.107730340881601 -0.09933445826094406 -0.6714317651596943 -0.09933445826094403 -0.6714317651596942 0.021269310998383417 -0.06417005819344619
518.125 0.0692476761090593 0.07718174126212118 -0.40556941058899054 -0.5480972627264836 -0.40556941058899054 -0.5480972627264836 -0.022153916345680584 -0.024076719681219643
518.75 0.04966834301313955 0.059861346164546955 0.618883205290583 0.2965872215250878 0.618883205290583 0.2965872215250878 -0.017751436083615676 0.03608051946435316
519.375 0.019696026265990936 0.06353766007093617 -0.6854763973348845 0.028723946266797404 -0.6854763973348843 0.02872394626679735 0.031778539861469265 0.06458865979464538
520.0 0.00949828760208861 0.086583480165592 0.5886904622777742 -0.3464299058737401 0.5886904622777741 -0.3464299058737401 0.08348785726036571 0.03574054234596793
520.625 0.024040552954967473 0.11114144194239628 -0.3594249369610387 0.577234080972628 -0.3594249369610387 0.577234080972628 0.09170098772453315 -0.021472262629937792
521.25 0.05093785298060011 0.11424623544718442 0.052245756661453494 -0.6778776949863626 0.05224575666145352 -0.6778776949863627 0.054363540168386085 -0.05703759129534122
521.875 0.07280766407965672 0.0935231020285057 -0.26926674643564147 -0.6272601818941511 -0.2692667464356414 -0.6272601818941509 -0.002673508702509115 -0.04163834227430084
522.5 0.06555630174999375 0.06693198104233142 0.529421582690467 0.43566110257967705 0.5294215826904668 0.43566110257967683 -0.02799586795216602 0.005976521624294462
523.125 0.04117146534680291 0.05078087011714688 -0.6731577800329184 -0.13717557421746956 -0.6731577800329186 -0.13717557421746962 0.006393751282867241 0.05422908441476697
523.75 0.0179440911751525 0.061049993632663765 0.6594587124795257 -0.19237880092175852 0.6594587124795257 -0.19237880092175852 0.06363708419951417 0.054647636752336554
524.375 0.0098911681343846 0.08827528763053696 0.4945839417776368 -0.4745037196509023 0.4945839417776368 -0.4745037196509023 0.09924967335061746 0.014449450754077619
525.0 0.027701863543743432 0.10844179697868997 0.22090876088103767 -0.6484899337855539 0.22090876088103784 -0.6484899337855539 0.08008847169597305 -0.03703513459297071
525.625 0.05733932401188746 0.10599818855123772 0.10239151205290084 0.6767019752884982 0.10239151205290067 0.6767019752884985 0.02280150543484074 -0.054790838437971875
526.25 0.070894324909855 0.08801194456703211 -0.4012435357025781 -0.5565067523831766 -0.40124353570257826 -0.5565067523831767 -0.021162342972836666 -0.022636200628596486
526.875 0.06258094020744198 0.06280264144897495 0.6127861269125401 0.31078256275318034 0.6127861269125401 0.31078256275318034 -0.017421086297874065 0.03531035534920542
527.5 0.04349913347759937 0.05282902865042412 -0.6884381369626819 0.007231500365977694 -0.6884381369626819 0.007231500365977694 0.03309035432026766 0.06922310369296858
528.125 0.025249269072704437 0.06385774645836789 0.6073332009340909 -0.3240413335700986 0.607333200934091 -0.32404133357009873 0.08501945500973135 0.046475728359017573
528.75 0.023343528761902335 0.08242520981641488 -0.39056705311166684 0.563505143101025 -0.390567053111667 0.5635051431010251 0.09784697480045675 -0.004329419033283566
529.375 0.03859497706108456 0.09649122878008408 0.08968411319094191 -0.679342728437698 0.08968411319094191 -0.6793427284376978 0.06489406018866875 -0.047149479369900854
530.0 0.0555551852861548 0.09440588387022317 0.22840062114644172 0.64683284144291 0.2284006211464416 0.6468328414429099 0.013298380519865254 -0.043598965115806965
530.625 0.06349680555051357 0.07599337314885912 -0.49638396314801486 -0.4720286867570296 -0.49638396314801486 -0.47202868675702964 -0.012061824190049 -0.0004665611166639744
531.25 0.056820212186419514 0.05976241222803538 -0.6600716398901315 -0.19237877179746604 -0.6600716398901315 -0.19237877179746599 0.003296839241574705 0.05044385040702754
531.875 0.04065471776486067 0.05755193389800167 0.6769013388099603 -0.13008378506391644 0.6769013388099605 -0.1300837850639165 0.05663955308170723 0.06772427647829558
532.5 0.028026116269040946 0.06565552426114549 -0.5418646721926177 0.4243167024435087 -0.541864672192618 0.42431670244350894 0.09829980615007913 0.03373655599230729
533.125 0.03068311482976177 0.07949299309555025 0.28818364632329635 -0.6230011679397162 0.2881836463232964 -0.6230011679397159 0.09457617969395518 -0.018874630842199633
533.75 0.04302893326923046 0.08711631416857173 0.024483295630177947 0.6848406401244732 0.02448329563017794 0.684840640124473 0.05222138437356691 -0.047394141329610825
534.375 0.05304957282947272 0.08113250211358522 -0.3323084029367679 -0.6006880103365949 -0.33230840293676767 -0.6006880103365946 0.0038214531027571594 -0.028142770057597886
535.0 0.05488801237965968 0.07017731434585534 0.568767608911239 0.3853312252490444 0.568767608911239 0.3853312252490444 -0.004879873976089452 0.022509516688317653
535.625 0.04832329208657707 0.06158852885123116 0.6825239664338602 0.08915486130853564 0.6825239664338602 0.08915486130853564 0.02595494347665452 0.06476555827635684
536.25 0.03875515419185829 0.06041281406090127 -0.6490971653628663 0.22969464019680444 -0.6490971653628664 0.2296946401968045 0.07798995229558618 0.062355952054655474
536.875 0.03436382230576088 0.06857418744521086 0.4736056032216234 -0.49799062059748983 0.4736056032216234 -0.49799062059748983 0.10750178116261645 0.01883160414933412
537.5 0.03572436470488968 0.07927910456082722 0.19942966708649504 -0.6583479830513346 0.1994296670864951 -0.6583479830513347 0.09348279273983304 -0.028541716911686135
538.125 0.0441412742176642 0.0813576504277895 0.11605768574362552 0.6765569369135832 0.11605768574362553 0.6765569369135832 0.04816064728406573 -0.04543094236077505
538.75 0.051995617509266144 0.07754731806629558 -0.40724648902418414 -0.5525536229665665 -0.40724648902418426 -0.5525536229665665 0.006506441339485476 -0.017318543584717353
539.375 0.05300496819778848 0.07110819930792514 -0.6139339078907132 -0.31042199953603505 -0.6139339078907132 -0.31042199953603505 0.0063985648066609 0.034330186070549065
540.0 0.04955108971235712 0.06568552735803534 0.6884183117990819 0.0021848489387363435 0.6884183117990818 0.002184848938736399 0.04505152209622203 0.06628236060575109
540.625 0.04655663727687782 0.06579310110051312 -0.6179535427760326 0.3064237438214643 -0.6179535427760329 0.3064237438214645 0.0979526452580381 0.056401531223411
541.25 0.04818188671226763 0.06668948697345033 -0.41415700151094187 0.550887056508483 -0.41415700151094187 0.550887056508483 0.1176309962916957 0.007652274676606934
541.875 0.051123376514202276 0.06615279328574991 0.12273801583760105 -0.678599479321167 0.122738015837601 -0.6785994793211668 0.09391329664932359 -0.037439462777485305
542.5 0.05110831614582714 0.06536077094328484 -0.19427174613326445 -0.6640811466358254 -0.19427174613326445 -0.6640811466358254 0.0400662274952928 -0.0444775032630462
543.125 0.047820524214095966 0.06282464233322826 0.46849734379023517 0.5075344411215555 0.46849734379023517 0.5075344411215555 0.009236571642679617 -0.006750183559243043
543.75 0.04593522693814403 0.06179097113294428 -0.6466271233237468 -0.24409020855000585 -0.6466271233237468 -0.24409020855000574 0.019951125878934835 0.0465391270278408
544.375 0.04612050484586791 0.066722516397121 0.6866193477128235 -0.07177058493926375 0.6866193477128236 -0.0717705849392639 0.06896930355125386 0.06699229660826607
545.0 0.04824107187388586 0.06828190718537 -0.5836602920996771 0.36882810679906847 -0.5836602920996767 0.36882810679906847 0.11612906278239118 0.047285806409798195
545.625 0.05305063777038553 0.06551248729171939 0.3586566990708562 -0.5897688799021469 0.3586566990708561 -0.5897688799021468 0.126226707144467 -0.00433924818911071
546.25 0.05811142851495075 0.06032486385582954 -0.05915617967446914 0.6873217518068832 -0.05915617967446921 0.687321751806883 0.09666083998037009 -0.042025517976519156
546.875 0.05354204913639793 0.05352910754509714 -0.2522784233901502 -0.6441364312943347 -0.25227842339015033 -0.6441364312943348 0.046830050414964505 -0.0440311638927892
547.5 0.04306084977687924 0.05211492154639409 -0.5120064852963149 -0.4641274589318584 -0.5120064852963151 -0.4641274589318585 0.020368582459494987 -0.00044662529790587616
548.125 0.03666503402135049 0.0593877778800972 -0.6647638741886887 -0.18872821970504233 -0.6647638741886885 -0.18872821970504233 0.03704126953009676 0.047549103197368006
548.75 0.03876520428605319 0.06933706999819109 -0.678873957036449 0.125993845176922 -0.6788739570364487 0.1259938451769219 0.08633670666126779 0.0648397166103382
549.375 0.05032326753436003 0.07256776389217977 -0.5515908488502683 0.4111391204904831 -0.5515908488502684 0.4111391204904832 0.1282621258399266 0.03539539885782492
550.0 0.06368966706833776 0.0668962556724821 -0.3145959029737291 0.6134797212675623 -0.31459590297372914 0.6134797212675625 0.13628672586239343 -0.01649332926963022
550.625 0.06617977779368589 0.05224386353260704 -0.01082113139253725 0.6906621852675887 -0.01082113139253717 0.6906621852675888 0.10039367614973145 -0.05038461990085671
551.25 0.055648768320972986 0.03793665218995545 0.29431668653974646 0.6251313551759179 0.29431668653974646 0.6251313551759177 0.0552800521288027 -0.04599058928589046
551.875 0.03966963982610499 0.03806236538689928 -0.5410653832795296 -0.4284237752261733 -0.5410653832795296 -0.4284237752261733 0.03251780834222635 6.373802603410264e-05
552.5 0.028984560499743794 0.05186328526975547 0.6733114180010206 0.14448901097889955 0.6733114180010206 0.14448901097889957 0.055914848025762125 0.0406533977346413
553.125 0.030762694498403645 0.06673653585934301 -0.6659774462944257 0.16571489953444546 -0.6659774462944256 0.16571489953444551 0.10403972665181689 0.04924261081392191
553.75 0.04640687092208822 0.07396190869447823 -0.5225288610849297 0.43938900629036887 -0.5225288610849297 0.43938900629036887 0.13983575283155406 0.016611524190316838
554.375 0.06475890404021326 0.0673992203783285 0.2781073908263976 -0.6211634467186836 0.27810739082639746 -0.6211634467186835 0.13949778973096622 -0.030573678277351135
555.0 0.0690525558905861 0.04843051618099786 0.02075605257555829 0.6800045553509952 0.020756052575558317 0.6800045553509952 0.1028777274859445 -0.05848002144228161
555.625 0.055274124636076755 0.03331287014473511 -0.3158576854389466 -0.6011597301959256 -0.3158576854389465 -0.6011597301959254 0.06093925536830217 -0.04693211026755874
556.25 0.03321894280559387 0.03384694878822364 -0.5465011740949123 -0.40248685778502064 -0.5465011740949122 -0.4024868577850205 0.04329325644319802 -0.005414685543508609
556.875 0.021564354902246174 0.05101865375375528 -0.663508772644294 -0.12460128160218198 -0.663508772644294 -0.12460128160218198 0.0667391750833287 0.028994696376436292
557.5 0.028109936683377162 0.07224337538816833 -0.6506306489734577 0.17402187469381808 -0.6506306489734572 0.17402187469381797 0.10971832650902615 0.03643005518275377
558.125 0.049378106319525744 0.08364047774958262 -0.5105104690606135 0.4387046173425744 -0.5105104690606135 0.4387046173425744 0.1464468677989077 0.005200905620141336
558.75 0.07183396523276209 0.07397871664131059 -0.2738908331967673 0.6166487741846748 -0.2738908331967673 0.616648774184675 0.1476527349323372 -0.038724629885967934
559.375 0.07960064564409097 0.04850006298340147 0.019236673948794372 0.6785553199311317 0.019236673948794483 0.6785553199311316 0.11244032922761162 -0.06917671206607763
560.0 0.06558393773799985 0.025824912596856917 0.3136780602970779 0.6051435738351036 0.3136780602970779 0.6051435738351036 0.07034935361031525 -0.06016138873162015
560.625 0.037097182187510666 0.022435706959156334 -0.5501700762169534 -0.40948845418651547 -0.5501700762169531 -0.40948845418651525 0.049499349686924723 -0.018691781897680504
561.25 0.015540112329520267 0.043578599828750564 0.6740851336878347 0.12582706697075047 0.6740851336878346 0.12582706697075038 0.07562459532618696 0.02107322749518353
561.875 0.019940531944689272 0.07422568629690815 -0.660856590120902 0.17854752311320216 -0.660856590120902 0.1785475231132021 0.12132214315014299 0.028606469304866593
562.5 0.049959837198862864 0.09072922761629948 0.5176191457441955 -0.44661920330560273 0.5176191457441958 -0.44661920330560284 0.15814243212093376 -0.0056207543789993115
563.125 0.08446533702969346 0.07863682165707597 -0.27416096202414686 0.6256758402365962 -0.2741609620241468 0.6256758402365961 0.15680436065078662 -0.053279466223792885
563.75 0.0967450578700523 0.04478457579064757 -0.02262453296139078 -0.686607989273792 -0.022624532961390775 -0.6866079892737921 0.11946544629432257 -0.08528186105913299
564.375 0.07891658971068784 0.010863267740772425 0.3187785475860814 0.6122689943927734 0.3187785475860815 0.6122689943927735 0.07485399263297168 -0.07668049672449495
565.0 0.0409321605330738 0.0007452259561698121 0.5548203322233708 0.4136578840664222 0.5548203322233708 0.4136578840664222 0.054793895861697854 -0.036465449761314335
565.625 0.008093440667346567 0.02472515853505375 0.6790071369472123 0.1277283634238361 0.6790071369472123 0.1277283634238361 0.08216374271715335 0.005580378297012939
566.25 0.006053492029311214 0.06626693967554638 0.6645161903520358 -0.17696055224216542 0.6645161903520358 -0.17696055224216534 0.12955023955420047 0.011394396161997267
566.875 0.037068015324869696 0.09521257742972292 0.5222192864254463 -0.4437567036674949 0.5222192864254465 -0.44375670366749476 0.16612437115058265 -0.024818765110665657
567.5 0.08154379536762676 0.09055820502743059 0.282386840905016 -0.6230462406070689 0.282386840905016 -0.623046240607069 0.16252555837975538 -0.07183005534622629
568.125 0.10918049330630153 0.05284604463556626 -0.010698379023337546 -0.6872707233735225 -0.010698379023337437 -0.6872707233735222 0.12693874172650546 -0.10456836721865048
568.75 0.0974648643778521 0.006279414030765013 -0.3071924406383204 -0.6187615076441128 -0.3071924406383204 -0.6187615076441126 0.08033202165065287 -0.09606109185966806
569.375 0.052777470107033195 -0.017512865442645135 -0.546888867050076 -0.42719268246851444 -0.546888867050076 -0.42719268246851444 0.05655003141085421 -0.05855181038779152
570.0 0.004345135587230237 0.0014340765104831343 -0.6783365546823092 -0.14533036085578058 -0.6783365546823095 -0.14533036085578058 0.07965725387970676 -0.014936405143874447
570.625 -0.00996975360610003 0.05038461372806134 0.6712240225298808 -0.16024472719144475 0.6712240225298808 -0.16024472719144475 0.12276069173978447 -0.006006790514508989
571.25 0.017289217678903485 0.09367764123252714 -0.5349626240964211 0.43016990860926313 -0.534962624096421 0.4301699086092631 0.16225365328294838 -0.039157451853965214
571.875 0.0700888083859234 0.10103784782713854 0.3005036303493955 -0.6149520122619986 0.3005036303493956 -0.6149520122619988 0.16218786339809751 -0.08720434667686593
572.5 0.11006985220757028 0.06579409316759964 -0.012177696313507763 0.6860427869074918 -0.012177696313507928 0.6860427869074917 0.12951439250736246 -0.1227735463824253
573.125 0.11059505270614294 0.010491814809107212 -0.2831462599739421 -0.6289114012241968 -0.283146259973942 -0.6289114012241966 0.08307273382737551 -0.11767782263727228
