!Created with skrf (http://scikit-rf.org).
# GHz S RI R 50.0 
!freq ReS11 ImS11 ReS21 ImS21 ReS12 ImS12 ReS22 ImS22
500.0 0.04980816817355381 0.11561570341576832 -0.6127882359446175 0.20811687593188544 -0.6127882359446176 0.20811687593188546 0.0420714460263682 0.024720655737364913
500.625 0.04692980166983303 0.08839977703323318 -0.43586793751428243 0.4858635001532801 -0.43586793751428254 0.4858635001532802 0.05428822602743393 -0.028599964555704946
501.25 0.026525882607116233 0.08172957943929848 0.14204745330244026 -0.6412733426534833 0.14204745330244017 -0.6412733426534833 0.020813369401489448 -0.07690663700115442
501.875 0.007346178158879446 0.09043793387119925 0.18698523654925922 0.6283992690836641 0.18698523654925925 0.6283992690836643 -0.02875829945915006 -0.0767180623479164
502.5 0.009664295746727808 0.10925745703227828 0.47253540002572053 0.45706826654486443 0.47253540002572036 0.45706826654486443 -0.05681784619484538 -0.017221288275925922
503.125 0.018152995954331792 0.12356050975283284 -0.6352038174083775 -0.17352027380465027 -0.6352038174083775 -0.17352027380465027 -0.02834624765021282 0.038787224287219306
503.75 0.03627225156379424 0.1192839104476496 0.6393940489102021 -0.15439778112838254 0.639394048910202 -0.15439778112838246 0.02941491775593147 0.04494578187053898
504.375 0.050123925398690594 0.11018863160681373 -0.4860974168928292 0.4466689690440935 -0.4860974168928292 0.4466689690440935 0.06607679295899159 -0.0013291141427038671
505.0 0.04664778401319119 0.09419279983249046 0.21328386789999274 -0.6282753839173836 0.21328386789999282 -0.6282753839173836 0.04709753065244477 -0.050958363545551194
505.625 0.03779870988211409 0.0795711250607283 0.11643620238698718 0.6537137429947392 0.11643620238698724 0.653713742994739 -0.003144892952830193 -0.06082720426431582
506.25 0.022936269790394925 0.08347928980664632 -0.4189682676777634 -0.5173241567972294 -0.4189682676777634 -0.5173241567972293 -0.044017166445276014 -0.017378144426125383
506.875 0.00682337028387852 0.09471141183718351 -0.6178493558967609 -0.2513958287829053 -0.6178493558967612 -0.25139582878290523 -0.026253365901161424 0.043659956258429056
507.5 0.011378692567350177 0.11104923828452472 0.6600602606922547 -0.07439447517643216 0.6600602606922544 -0.07439447517643222 0.026362042818827997 0.0591518317048713
508.125 0.029505248951347054 0.12314111251944532 0.5459433224565495 -0.3810602758384513 0.5459433224565496 -0.3810602758384514 0.07570763959340243 0.024076801772097173
508.75 0.04923753485964941 0.11487715479589021 -0.29916787692277036 0.5950793483326456 -0.2991678769227703 0.5950793483326455 0.07643382819451945 -0.03440010022925941
509.375 0.06028374874223144 0.09510738653171183 -0.021162566578293546 -0.6685553121202167 -0.02116256657829352 -0.6685553121202166 0.0280123507794773 -0.059779098364205654
510.0 0.05052648214611172 0.07833207028630519 -0.34203632773934106 -0.5810874128242329 -0.3420363277393408 -0.5810874128242327 -0.024970752969113184 -0.03304315385821222
510.625 0.025079480920055658 0.06946594521836308 -0.5759747094938251 -0.3479652238928349 -0.575974709493825 -0.34796522389283496 -0.033349707785602006 0.024388210048977156
511.25 0.010639079049239726 0.08503092628064748 0.6720955595675492 0.030110800358103023 0.6720955595675492 0.030110800358103082 0.01543121424228239 0.05756515373920965
511.875 0.011524436925379633 0.11227552336551146 -0.6063824361569071 0.2935824517197808 -0.6063824361569071 0.2935824517197807 0.07468190936939122 0.03746341839262593
512.5 0.031114635452761275 0.12235826889142695 0.39726528877391604 -0.5401875295995913 0.39726528877391604 -0.5401875295995914 0.09389938736991865 -0.008126967268687614
513.125 0.06234297900937876 0.11310600752297453 0.09693376859301998 -0.6657013457635743 0.0969337685930201 -0.6657013457635743 0.06095255570205545 -0.05219513533204333
513.75 0.07107128258348792 0.08530061759634516 0.23272911935526308 0.6374176613716479 0.2327291193552631 0.6374176613716478 -0.003151393762022503 -0.050588089184699536
514.375 0.052140158050318464 0.06091102566413584 -0.5091438497477763 -0.45293517897115504 -0.5091438497477763 -0.45293517897115504 -0.031414300520577525 -0.0016566864763831249
515.0 0.022862826897630667 0.06049121520153704 0.6647458372482035 0.1556673784846299 0.6647458372482037 0.15566737848462986 0.0009256001782059541 0.04818949415212119
515.625 0.00311306139179221 0.08118712507002816 0.6570660694790429 -0.17732621750723537 0.6570660694790427 -0.17732621750723526 0.0609299726808557 0.054861982882353146
516.25 0.011943056208033168 0.10846925498421403 -0.4948173779201872 0.4628163551486542 -0.49481737792018704 0.462816355148654 0.09338409398289613 0.008721360442389362
516.875 0.03943829069561505 0.12196868980765627 -0.22229057317868609 0.6405112915453908 -0.22229057317868617 0.640511291545391 0.07192761045058202 -0.04459063065565574
517.5 0.06244282281084012 0.10773034088160101 -0.09933445826094402 -0.6714317651596943 -0.09933445826094404 -0.6714317651596943 0.021269310998383466 -0.06417005819344632
518.125 0.06924767610905928 0.07718174126212102 -0.4055694105889905 -0.5480972627264835 -0.40556941058899043 -0.5480972627264834 -0.022153916345680466 -0.024076719681219744
518.75 0.04966834301313952 0.059861346164547524 0.618883205290582 0.29658722152509 0.6188832052905822 0.29658722152509 -0.01775143608361591 0.036080519464353006
519.375 0.019696026265990943 0.06353766007093631 -0.6854763973348849 0.02872394626679737 -0.685476397334885 0.028723946266797397 0.03177853986146942 0.06458865979464536
520.0 0.009498287602088859 0.08658348016559189 0.5886904622777743 -0.34642990587374023 0.5886904622777742 -0.34642990587374006 0.08348785726036578 0.0357405423459678
520.625 0.024040552954967494 0.11114144194239653 -0.3594249369610389 0.5772340809726282 -0.35942493696103894 0.5772340809726283 0.09170098772453313 -0.021472262629937747
521.25 0.050937852980599996 0.1142462354471847 0.05224575666145347 -0.6778776949863626 0.0522457566614535 -0.6778776949863627 0.05436354016838601 -0.05703759129534128
521.875 0.07280766407965725 0.09352310202850536 -0.2692667464356414 -0.6272601818941511 -0.2692667464356414 -0.6272601818941511 -0.0026735087025093925 -0.04163834227430079
522.5 0.06555630174999305 0.06693198104233142 0.5294215826904664 0.4356611025796765 0.5294215826904666 0.43566110257967666 -0.027995867952165694 0.005976521624294483
523.125 0.04117146534680308 0.05078087011714675 -0.6731577800329185 -0.13717557421746962 -0.6731577800329185 -0.13717557421746962 0.006393751282867292 0.05422908441476708
523.75 0.017944091175151528 0.061049993632663904 0.6594587124795253 -0.19237880092175846 0.6594587124795254 -0.1923788009217583 0.06363708419951375 0.054647636752336394
524.375 0.00989116813438435 0.08827528763053741 0.49458394177763715 -0.4745037196509027 0.49458394177763715 -0.4745037196509027 0.09924967335061724 0.014449450754077244
525.0 0.027701863543743543 0.10844179697869011 0.22090876088103786 -0.6484899337855541 0.22090876088103786 -0.6484899337855541 0.08008847169597347 -0.037035134592971176
525.625 0.05733932401188774 0.10599818855123733 0.10239151205290074 0.6767019752884981 0.10239151205290058 0.6767019752884981 0.022801505434840642 -0.05479083843797165
526.25 0.07089432490985495 0.08801194456703225 -0.4012435357025781 -0.5565067523831766 -0.4012435357025781 -0.5565067523831766 -0.021162342972836822 -0.022636200628596535
526.875 0.06258094020744216 0.06280264144897509 0.6127861269125404 0.31078256275318056 0.6127861269125404 0.3107825627531805 -0.01742108629787434 0.03531035534920547
527.5 0.04349913347759939 0.05282902865042415 -0.6884381369626822 0.007231500365977663 -0.6884381369626822 0.007231500365977663 0.033090354320267454 0.06922310369296879
528.125 0.025249269072704597 0.06385774645836781 0.607333200934091 -0.3240413335700987 0.6073332009340912 -0.3240413335700988 0.08501945500973132 0.046475728359017365
528.75 0.02334352876190246 0.08242520981641466 -0.39056705311166684 0.5635051431010248 -0.39056705311166695 0.563505143101025 0.09784697480045684 -0.004329419033283509
529.375 0.038594977061084834 0.09649122878008419 0.08968411319094197 -0.6793427284376984 0.08968411319094191 -0.6793427284376984 0.06489406018866842 -0.04714947936990103
530.0 0.055555185286154815 0.09440588387022295 0.22840062114644177 0.6468328414429101 0.22840062114644183 0.6468328414429102 0.013298380519865385 -0.04359896511580702
530.625 0.06349680555051347 0.07599337314885939 -0.496383963148015 -0.47202868675702964 -0.49638396314801486 -0.47202868675702936 -0.012061824190048979 -0.00046656111666380784
531.25 0.05682021218641915 0.05976241222803541 -0.6600716398901315 -0.19237877179746588 -0.6600716398901315 -0.19237877179746585 0.0032968392415748315 0.05044385040702787
531.875 0.04065471776486064 0.05755193389800195 0.6769013388099604 -0.1300837850639165 0.6769013388099603 -0.1300837850639164 0.056639553081707386 0.06772427647829558
532.5 0.028026116269040557 0.06565552426114571 -0.5418646721926184 0.4243167024435091 -0.5418646721926182 0.42431670244350916 0.09829980615007913 0.03373655599230756
533.125 0.030683114829762104 0.07949299309555001 0.2881836463232963 -0.6230011679397159 0.28818364632329635 -0.6230011679397158 0.09457617969395543 -0.018874630842199557
533.75 0.04302893326922995 0.08711631416857166 0.02448329563017798 0.6848406401244733 0.024483295630177974 0.6848406401244733 0.05222138437356681 -0.047394141329610895
534.375 0.05304957282947287 0.08113250211358487 -0.33230840293676783 -0.6006880103365947 -0.3323084029367679 -0.6006880103365946 0.003821453102757215 -0.02814277005759797
535.0 0.05488801237965989 0.07017731434585514 0.5687676089112389 0.38533122524904434 0.5687676089112388 0.3853312252490443 -0.0048798739760895875 0.022509516688317563
535.625 0.04832329208657732 0.06158852885123081 0.6825239664338603 0.08915486130853567 0.6825239664338604 0.0891548613085357 0.025954943476654516 0.06476555827635709
536.25 0.03875515419185821 0.06041281406090116 -0.6490971653628661 0.22969464019680436 -0.6490971653628662 0.2296946401968044 0.07798995229558607 0.062355952054655536
536.875 0.0343638223057611 0.06857418744521081 0.4736056032216238 -0.49799062059749005 0.4736056032216237 -0.49799062059748994 0.10750178116261644 0.01883160414933397
537.5 0.03572436470488974 0.0792791045608272 0.1994296670864953 -0.658347983051335 0.19942966708649512 -0.658347983051335 0.09348279273983294 -0.028541716911685944
538.125 0.044141274217664395 0.08135765042778953 0.11605768574362554 0.6765569369135833 0.11605768574362554 0.6765569369135833 0.04816064728406568 -0.04543094236077494
538.75 0.051995617509266116 0.0775473180662956 -0.4072464890241839 -0.5525536229665663 -0.40724648902418403 -0.5525536229665663 0.006506441339485476 -0.017318543584717197
539.375 0.05300496819778848 0.07110819930792532 -0.6139339078907131 -0.31042199953603505 -0.6139339078907131 -0.31042199953603505 0.006398564806661058 0.03433018607054911
540.0 0.049551089712357596 0.06568552735803522 0.6884183117990818 0.002184848938736454 0.6884183117990814 0.002184848938736399 0.04505152209622225 0.06628236060575113
540.625 0.04655663727687745 0.06579310110051306 -0.6179535427760323 0.30642374382146415 -0.6179535427760323 0.3064237438214642 0.09795264525803812 0.05640153122341095
541.25 0.048181886712267835 0.06668948697345031 -0.41415700151094215 0.5508870565084836 -0.4141570015109421 0.5508870565084835 0.11763099629169582 0.007652274676606764
541.875 0.05112337651420218 0.06615279328575 0.12273801583760127 -0.6785994793211672 0.12273801583760105 -0.678599479321167 0.0939132966493234 -0.03743946277748557
542.5 0.05110831614582734 0.06536077094328481 -0.19427174613326437 -0.6640811466358253 -0.19427174613326442 -0.6640811466358253 0.04006622749529255 -0.0444775032630461
543.125 0.04782052421409606 0.06282464233322815 0.468497343790235 0.5075344411215554 0.46849734379023494 0.5075344411215554 0.009236571642679558 -0.006750183559242929
543.75 0.04593522693814439 0.06179097113294427 -0.6466271233237469 -0.24409020855000585 -0.6466271233237468 -0.24409020855000585 0.01995112587893455 0.04653912702784088
544.375 0.04612050484586733 0.06672251639712104 0.6866193477128232 -0.07177058493926396 0.6866193477128232 -0.07177058493926396 0.06896930355125401 0.06699229660826628
545.0 0.048241071873885585 0.06828190718537044 -0.5836602920996772 0.3688281067990686 -0.5836602920996773 0.3688281067990687 0.11612906278239113 0.04728580640979806
545.625 0.05305063777038524 0.0655124872917194 0.3586566990708561 -0.5897688799021469 0.3586566990708562 -0.5897688799021469 0.1262267071444673 -0.004339248189110762
546.25 0.058111428514950575 0.060324863855829886 -0.05915617967446906 0.6873217518068829 -0.05915617967446914 0.6873217518068829 0.09666083998036992 -0.04202551797651914
546.875 0.05354204913639804 0.053529107545096766 -0.2522784233901502 -0.6441364312943345 -0.25227842339015033 -0.6441364312943346 0.04683005041496447 -0.044031163892789195
547.5 0.043060849776879594 0.05211492154639364 -0.5120064852963149 -0.4641274589318584 -0.5120064852963151 -0.4641274589318585 0.02036858245949496 -0.0004466252979059334
548.125 0.03666503402135045 0.059387777880096984 -0.6647638741886882 -0.18872821970504222 -0.6647638741886881 -0.18872821970504225 0.03704126953009682 0.04754910319736817
548.75 0.03876520428605319 0.06933706999819107 -0.6788739570364487 0.125993845176922 -0.6788739570364487 0.125993845176922 0.08633670666126812 0.06483971661033833
549.375 0.05032326753436016 0.07256776389217977 -0.5515908488502683 0.4111391204904833 -0.5515908488502684 0.4111391204904834 0.12826212583992652 0.035395398857824924
550.0 0.06368966706833759 0.06689625567248207 -0.314595902973729 0.6134797212675621 -0.31459590297372897 0.613479721267562 0.1362867258623934 -0.016493329269630142
550.625 0.06617977779368595 0.052243863532607376 -0.01082113139253724 0.6906621852675887 -0.010821131392537214 0.6906621852675888 0.10039367614973152 -0.050384619900856804
551.25 0.05564876832097329 0.037936652189955275 0.29431668653974635 0.6251313551759177 0.29431668653974635 0.6251313551759179 0.055280052128802576 -0.045990589285890386
551.875 0.039669639826104885 0.03806236538689975 -0.5410653832795296 -0.4284237752261733 -0.5410653832795296 -0.4284237752261733 0.03251780834222627 6.373802603409223e-05
552.5 0.028984560499743572 0.05186328526975559 0.6733114180010207 0.14448901097889955 0.6733114180010208 0.1444890109788996 0.055914848025761965 0.040653397734640995
553.125 0.030762694498403576 0.0667365358593429 -0.6659774462944255 0.1657148995344455 -0.6659774462944255 0.16571489953444532 0.10403972665181685 0.04924261081392191
553.75 0.046406870922088124 0.0739619086944779 -0.5225288610849294 0.4393890062903687 -0.5225288610849292 0.4393890062903686 0.13983575283155414 0.016611524190316685
554.375 0.06475890404021317 0.06739922037832852 0.2781073908263976 -0.6211634467186837 0.2781073908263975 -0.6211634467186836 0.1394977897309664 -0.030573678277351232
555.0 0.069052555890586 0.048430516180998 0.02075605257555829 0.6800045553509952 0.02075605257555829 0.6800045553509952 0.1028777274859444 -0.05848002144228159
555.625 0.0552741246360766 0.033312870144735024 -0.3158576854389465 -0.6011597301959254 -0.31585768543894643 -0.6011597301959253 0.06093925536830214 -0.04693211026755861
556.25 0.03321894280559479 0.03384694878822239 -0.5465011740949183 -0.4024868577850129 -0.546501174094918 -0.40248685778501303 0.04329325644319844 -0.0054146855435078835
556.875 0.021564354902246202 0.05101865375375493 -0.6635087726442938 -0.12460128160218192 -0.6635087726442938 -0.12460128160218192 0.06673917508332873 0.02899469637643634
557.5 0.028109936683377426 0.0722433753881685 -0.6506306489734578 0.17402187469381802 -0.6506306489734577 0.174021874693818 0.10971832650902602 0.036430055182753794
558.125 0.049378106319525966 0.08364047774958266 -0.5105104690606135 0.4387046173425745 -0.5105104690606136 0.4387046173425746 0.1464468677989074 0.0052009056201413285
558.75 0.07183396523276205 0.07397871664131034 -0.2738908331967671 0.6166487741846747 -0.2738908331967671 0.6166487741846748 0.14765273493233727 -0.0387246298859676
559.375 0.07960064564409104 0.04850006298340154 0.019236673948794393 0.678555319931132 0.019236673948794338 0.6785553199311322 0.11244032922761166 -0.06917671206607759
560.0 0.06558393773799984 0.025824912596856917 0.3136780602970778 0.6051435738351036 0.3136780602970778 0.6051435738351036 0.07034935361031533 -0.06016138873162001
560.625 0.03709718218751111 0.0224357069591562 -0.5501700762169536 -0.4094884541865156 -0.5501700762169534 -0.40948845418651536 0.04949934968692473 -0.018691781897680424
561.25 0.015540112329520302 0.043578599828750515 0.6740851336878345 0.1258270669707504 0.6740851336878345 0.1258270669707503 0.07562459532618687 0.02107322749518369
561.875 0.01994053194468932 0.07422568629690804 -0.660856590120902 0.17854752311320216 -0.660856590120902 0.1785475231132021 0.12132214315014296 0.028606469304866596
562.5 0.04995983719886324 0.09072922761629965 0.5176191457441959 -0.44661920330560306 0.5176191457441959 -0.4466192033056032 0.15814243212093385 -0.005620754378999461
563.125 0.08446533702969372 0.0786368216570758 -0.27416096202414686 0.6256758402365962 -0.2741609620241469 0.6256758402365963 0.15680436065078654 -0.05327946622379275
563.75 0.09674505787005191 0.044784575790647735 -0.02262453296139079 -0.686607989273792 -0.022624532961390803 -0.686607989273792 0.11946544629432262 -0.08528186105913307
564.375 0.07891658971068768 0.010863267740772342 0.3187785475860812 0.612268994392773 0.3187785475860812 0.612268994392773 0.07485399263297189 -0.07668049672449474
565.0 0.04093216053307386 0.0007452259561697289 0.5548203322233706 0.41365788406642223 0.5548203322233707 0.4136578840664222 0.054793895861697806 -0.03646544976131409
565.625 0.008093440667346408 0.02472515853505329 0.6790071369472125 0.12772836342383612 0.6790071369472125 0.12772836342383612 0.08216374271715297 0.005580378297013168
566.25 0.006053492029311006 0.0662669396755464 0.6645161903520361 -0.1769605522421655 0.664516190352036 -0.17696055224216548 0.1295502395542005 0.01139439616199709
566.875 0.037068015324869974 0.09521257742972286 0.5222192864254466 -0.443756703667495 0.5222192864254462 -0.4437567036674948 0.16612437115058276 -0.02481876511066572
567.5 0.08154379536762608 0.0905582050274308 0.28238684090501553 -0.6230462406070681 0.28238684090501553 -0.6230462406070681 0.16252555837975513 -0.07183005534622613
568.125 0.10918049330630152 0.052846044635566206 -0.01069837902333755 -0.6872707233735224 -0.01069837902333755 -0.6872707233735225 0.12693874172650566 -0.10456836721865045
568.75 0.09746486437785222 0.006279414030765013 -0.30719244063832046 -0.6187615076441125 -0.3071924406383204 -0.6187615076441126 0.08033202165065272 -0.09606109185966806
569.375 0.05277747010703304 -0.01751286544264494 -0.5468888670500758 -0.4271926824685142 -0.5468888670500758 -0.4271926824685142 0.05655003141085431 -0.058551810387791454
570.0 0.004345135587230334 0.0014340765104831898 -0.6783365546823092 -0.14533036085578052 -0.6783365546823092 -0.14533036085578052 0.07965725387970679 -0.014936405143874523
570.625 -0.009969753606100196 0.05038461372806098 0.6712240225298806 -0.16024472719144484 0.6712240225298806 -0.16024472719144484 0.12276069173978435 -0.00600679051450894
571.25 0.017289217678903707 0.0936776412325274 -0.5349626240964214 0.4301699086092634 -0.5349626240964211 0.4301699086092631 0.1622536532829486 -0.03915745185396514
571.875 0.07008880838592343 0.10103784782713843 0.3005036303493956 -0.6149520122619986 0.3005036303493956 -0.6149520122619988 0.16218786339809751 -0.08720434667686602
572.5 0.11006985220757004 0.06579409316759964 -0.012177696313507853 0.6860427869074917 -0.012177696313507772 0.6860427869074918 0.12951439250736238 -0.12277354638242514
573.125 0.11059505270614284 0.01049181480910733 -0.2831462599739421 -0.628911401224197 -0.2831462599739421 -0.6289114012241968 0.08307273382737541 -0.11767782263727208
