!Created with skrf (http://scikit-rf.org).
# GHz S RI R 50.0 
!freq ReS11 ImS11 ReS21 ImS21 ReS12 ImS12 ReS22 ImS22
500.0 0.0498081681735537 0.11561570341576821 -0.6127882359446171 0.20811687593188546 -0.612788235944617 0.20811687593188544 0.042071446026368205 0.024720655737364632
500.625 0.04692980166983313 0.08839977703323323 -0.4358679375142825 0.4858635001532801 -0.4358679375142826 0.4858635001532802 0.05428822602743402 -0.028599964555705005
501.25 0.026525882607116302 0.0817295794392984 0.14204745330244034 -0.6412733426534831 0.14204745330244045 -0.6412733426534832 0.020813369401489614 -0.0769066370011545
501.875 0.007346178158879418 0.09043793387119911 0.1869852365492593 0.6283992690836644 0.1869852365492593 0.6283992690836646 -0.028758299459150025 -0.07671806234791656
502.5 0.009664295746727863 0.10925745703227835 0.4725354000257204 0.4570682665448646 0.4725354000257203 0.4570682665448645 -0.05681784619484535 -0.017221288275925943
503.125 0.018152995954331827 0.12356050975283284 -0.6352038174083774 -0.17352027380465024 -0.6352038174083773 -0.17352027380465018 -0.028346247650212632 0.03878722428721929
503.75 0.03627225156379435 0.11928391044764958 0.6393940489102025 -0.15439778112838257 0.6393940489102022 -0.15439778112838248 0.029414917755931483 0.04494578187053881
504.375 0.05012392539869054 0.1101886316068143 -0.4860974168928295 0.44666896904409353 -0.4860974168928295 0.44666896904409353 0.06607679295899171 -0.0013291141427038185
505.0 0.04664778401319128 0.09419279983249007 0.21328386789999268 -0.6282753839173836 0.21328386789999268 -0.6282753839173836 0.047097530652444736 -0.05095836354555109
505.625 0.03779870988211362 0.07957112506072794 0.11643620238698718 0.653713742994739 0.11643620238698724 0.653713742994739 -0.003144892952830023 -0.060827204264315905
506.25 0.02293626979039423 0.08347928980664636 -0.41896826767776213 -0.5173241567972295 -0.4189682676777622 -0.5173241567972295 -0.04401716644527592 -0.017378144426125834
506.875 0.006823370283878395 0.09471141183718368 -0.6178493558967609 -0.25139582878290523 -0.6178493558967607 -0.25139582878290523 -0.02625336590116101 0.04365995625842915
507.5 0.011378692567350204 0.11104923828452473 0.6600602606922544 -0.07439447517643223 0.6600602606922544 -0.07439447517643223 0.02636204281882791 0.05915183170487133
508.125 0.029505248951346957 0.12314111251944533 0.5459433224565493 -0.38106027583845126 0.5459433224565494 -0.3810602758384512 0.07570763959340247 0.024076801772097343
508.75 0.049237534859649046 0.11487715479589018 -0.2991678769227704 0.5950793483326458 -0.2991678769227706 0.5950793483326459 0.0764338281945196 -0.034400100229259545
509.375 0.060283748742231656 0.09510738653171211 -0.021162566578293535 -0.6685553121202169 -0.021162566578293577 -0.6685553121202168 0.028012350779477283 -0.05977909836420593
510.0 0.050526482146111745 0.07833207028630512 -0.3420363277393409 -0.5810874128242328 -0.34203632773934073 -0.5810874128242327 -0.02497075296911316 -0.033043153858212174
510.625 0.025079480920054992 0.06946594521836365 -0.5759747094938251 -0.34796522389283496 -0.5759747094938251 -0.34796522389283496 -0.03334970778560219 0.02438821004897706
511.25 0.010639079049239622 0.08503092628064746 0.6720955595675492 0.030110800358102964 0.6720955595675492 0.03011080035810319 0.015431214242282425 0.05756515373920964
511.875 0.011524436925379938 0.11227552336551136 -0.606382436156907 0.2935824517197808 -0.6063824361569071 0.2935824517197807 0.07468190936939127 0.03746341839262593
512.5 0.031114635452761025 0.12235826889142709 0.39726528877391615 -0.5401875295995913 0.39726528877391615 -0.5401875295995913 0.09389938736991868 -0.008126967268687526
513.125 0.06234297900937858 0.1131060075229745 0.09693376859302001 -0.6657013457635741 0.09693376859302007 -0.6657013457635742 0.06095255570205534 -0.05219513533204326
513.75 0.07107128258348779 0.08530061759634498 0.2327291193552631 0.6374176613716479 0.23272911935526314 0.6374176613716478 -0.003151393762022392 -0.05058808918469955
514.375 0.052140158050318464 0.060911025664135934 -0.5091438497477764 -0.45293517897115504 -0.5091438497477764 -0.45293517897115504 -0.03141430052057751 -0.001656686476383222
515.0 0.022862826897630417 0.0604912152015369 0.6647458372482036 0.15566737848462986 0.6647458372482037 0.15566737848462986 0.0009256001782057392 0.04818949415212108
515.625 0.003113061391792127 0.08118712507002833 0.6570660694790429 -0.1773262175072353 0.6570660694790429 -0.17732621750723532 0.06092997268085568 0.054861982882353194
516.25 0.01194305620803325 0.10846925498421409 -0.49481737792018704 0.462816355148654 -0.4948173779201869 0.46281635514865377 0.09338409398289611 0.008721360442389177
516.875 0.0394382906956145 0.12196868980765649 -0.22229057317868606 0.6405112915453908 -0.22229057317868606 0.6405112915453907 0.07192761045058209 -0.04459063065565557
517.5 0.062442822810840355 0.10773034088160108 -0.09933445826094404 -0.6714317651596943 -0.09933445826094402 -0.6714317651596942 0.02126931099838339 -0.06417005819344639
518.125 0.06924767610905928 0.07718174126212127 -0.40556941058899043 -0.5480972627264834 -0.40556941058899043 -0.5480972627264834 -0.02215391634568046 -0.024076719681219716
518.75 0.04966834301313988 0.05986134616454704 0.6188832052905829 0.29658722152508776 0.6188832052905829 0.29658722152508776 -0.01775143608361551 0.03608051946435287
519.375 0.01969602626599088 0.0635376600709362 -0.6854763973348845 0.028723946266797404 -0.6854763973348843 0.02872394626679735 0.031778539861469376 0.06458865979464552
520.0 0.009498287602088581 0.08658348016559184 0.588690462277774 -0.34642990587374006 0.5886904622777739 -0.3464299058737401 0.0834878572603657 0.03574054234596772
520.625 0.024040552954967466 0.11114144194239634 -0.3594249369610388 0.5772340809726281 -0.3594249369610388 0.5772340809726281 0.09170098772453304 -0.021472262629937768
521.25 0.05093785298060013 0.11424623544718449 0.05224575666145352 -0.6778776949863627 0.05224575666145352 -0.6778776949863629 0.05436354016838598 -0.057037591295341084
521.875 0.07280766407965669 0.09352310202850568 -0.2692667464356436 -0.62726018189415 -0.2692667464356435 -0.6272601818941498 -0.002673508702509271 -0.041638342274300515
522.5 0.06555630174999352 0.06693198104233145 0.5294215826904668 0.43566110257967683 0.5294215826904667 0.4356611025796767 -0.027995867952165788 0.00597652162429458
523.125 0.04117146534680308 0.05078087011714687 -0.673157780032918 -0.1371755742174696 -0.6731577800329183 -0.13717557421746956 0.006393751282867287 0.054229084414767016
523.75 0.017944091175152277 0.06104999363266378 0.6594587124795257 -0.19237880092175855 0.6594587124795257 -0.19237880092175855 0.06363708419951389 0.05464763675233649
524.375 0.009891168134384502 0.08827528763053702 0.4945839417776368 -0.47450371965090243 0.4945839417776368 -0.47450371965090243 0.09924967335061738 0.014449450754077393
525.0 0.02770186354374332 0.10844179697868991 0.22090876088103756 -0.6484899337855536 0.22090876088103778 -0.6484899337855538 0.08008847169597325 -0.03703513459297077
525.625 0.05733932401188746 0.10599818855123785 0.10239151205290084 0.6767019752884982 0.10239151205290067 0.6767019752884985 0.022801505434840663 -0.05479083843797171
526.25 0.07089432490985517 0.08801194456703228 -0.40124353570257804 -0.5565067523831766 -0.40124353570257815 -0.5565067523831767 -0.021162342972836812 -0.02263620062859641
526.875 0.06258094020744197 0.06280264144897486 0.6127861269125403 0.31078256275318034 0.6127861269125403 0.31078256275318034 -0.017421086297874276 0.035310355349205465
527.5 0.04349913347759925 0.05282902865042401 -0.6884381369626822 0.007231500365977673 -0.6884381369626822 0.007231500365977673 0.03309035432026743 0.06922310369296868
528.125 0.025249269072704486 0.06385774645836799 0.607333200934091 -0.3240413335700987 0.6073332009340912 -0.3240413335700988 0.08501945500973129 0.04647572835901766
528.75 0.023343528761902446 0.08242520981641492 -0.39056705311166684 0.563505143101025 -0.390567053111667 0.5635051431010251 0.09784697480045679 -0.0043294190332835
529.375 0.03859497706108467 0.09649122878008407 0.089684113190942 -0.6793427284376985 0.08968411319094198 -0.6793427284376984 0.06489406018866845 -0.047149479369901076
530.0 0.05555518528615469 0.09440588387022306 0.22840062114644172 0.64683284144291 0.2284006211464416 0.6468328414429099 0.01329838051986542 -0.04359896511580697
530.625 0.06349680555051351 0.07599337314885908 -0.4963839631480149 -0.4720286867570295 -0.49638396314801486 -0.4720286867570296 -0.012061824190048955 -0.0004665611166638807
531.25 0.05682021218641935 0.05976241222803551 -0.6600716398901316 -0.19237877179746604 -0.6600716398901316 -0.19237877179746599 0.0032968392415748003 0.050443850407027785
531.875 0.040654717764860696 0.0575519338980017 0.6769013388099601 -0.1300837850639164 0.6769013388099602 -0.1300837850639164 0.05663955308170743 0.06772427647829561
532.5 0.028026116269040918 0.06565552426114543 -0.5418646721926177 0.4243167024435087 -0.541864672192618 0.42431670244350894 0.0982998061500791 0.03373655599230734
533.125 0.030683114829761864 0.07949299309555007 0.28818364632329624 -0.6230011679397158 0.2881836463232963 -0.6230011679397157 0.09457617969395532 -0.01887463084219954
533.75 0.04302893326923016 0.08711631416857148 0.02448329563017799 0.6848406401244738 0.02448329563017798 0.6848406401244737 0.05222138437356692 -0.04739414132961108
534.375 0.05304957282947275 0.08113250211358522 -0.3323084029367679 -0.6006880103365949 -0.33230840293676767 -0.6006880103365946 0.003821453102757222 -0.028142770057597934
535.0 0.05488801237965975 0.07017731434585522 0.5687676089112388 0.3853312252490443 0.5687676089112388 0.3853312252490443 -0.004879873976089497 0.022509516688317514
535.625 0.04832329208657696 0.061588528851230964 0.68252396643386 0.08915486130853562 0.68252396643386 0.08915486130853562 0.025954943476654564 0.06476555827635706
536.25 0.03875515419185811 0.06041281406090118 -0.6490971653628662 0.2296946401968044 -0.6490971653628663 0.22969464019680444 0.077989952295586 0.06235595205465558
536.875 0.034363822305760905 0.06857418744521095 0.47360560322162 -0.49799062059749327 0.47360560322162 -0.49799062059749327 0.10750178116261613 0.018831604149333492
537.5 0.03572436470488974 0.07927910456082722 0.19942966708649498 -0.6583479830513345 0.19942966708649504 -0.6583479830513345 0.09348279273983308 -0.028541716911685944
538.125 0.0441412742176642 0.08135765042778959 0.11605768574362553 0.6765569369135833 0.11605768574362556 0.6765569369135833 0.04816064728406566 -0.04543094236077496
538.75 0.05199561750926618 0.07754731806629551 -0.40724648902418414 -0.5525536229665665 -0.40724648902418426 -0.5525536229665665 0.006506441339485511 -0.01731854358471725
539.375 0.05300496819778856 0.07110819930792515 -0.6139339078907132 -0.31042199953603505 -0.6139339078907132 -0.31042199953603505 0.006398564806660961 0.03433018607054908
540.0 0.049551089712357166 0.0656855273580354 0.6884183117990818 0.002184848938736373 0.6884183117990816 0.0021848489387364003 0.045051522096222194 0.0662823606057509
540.625 0.046556637276877866 0.06579310110051317 -0.6179535427760326 0.3064237438214643 -0.6179535427760329 0.3064237438214645 0.09795264525803823 0.05640153122341113
541.25 0.048181886712267766 0.06668948697345009 -0.4141570015109421 0.5508870565084834 -0.4141570015109421 0.5508870565084834 0.11763099629169574 0.007652274676606837
541.875 0.05112337651420214 0.06615279328575005 0.1227380158376011 -0.6785994793211672 0.12273801583760097 -0.6785994793211668 0.09391329664932334 -0.037439462777485555
542.5 0.0511083161458272 0.06536077094328464 -0.19427174613326442 -0.6640811466358253 -0.19427174613326442 -0.6640811466358253 0.04006622749529249 -0.044477503263046
543.125 0.04782052421409602 0.06282464233322838 0.4684973437902352 0.5075344411215557 0.4684973437902353 0.5075344411215557 0.009236571642679513 -0.0067501835592430216
543.75 0.04593522693814406 0.06179097113294449 -0.6466271233237469 -0.24409020855000585 -0.6466271233237469 -0.2440902085500058 0.019951125878934575 0.046539127027840785
544.375 0.04612050484586752 0.06672251639712105 0.6866193477128228 -0.07177058493926378 0.6866193477128231 -0.07177058493926394 0.06896930355125386 0.0669922966082662
545.0 0.048241071873885974 0.06828190718537014 -0.5836602920996771 0.3688281067990685 -0.5836602920996768 0.36882810679906847 0.11612906278239118 0.04728580640979822
545.625 0.053050637770385434 0.06551248729171939 0.3586566990708562 -0.5897688799021469 0.3586566990708561 -0.5897688799021468 0.12622670714446735 -0.0043392481891107865
546.25 0.058111428514950804 0.06032486385582979 -0.059156179674469136 0.687321751806883 -0.059156179674469206 0.6873217518068829 0.09666083998036998 -0.04202551797651911
546.875 0.053542049136397846 0.05352910754509706 -0.2522784233901502 -0.6441364312943346 -0.2522784233901503 -0.6441364312943347 0.04683005041496448 -0.04403116389278916
547.5 0.043060849776879316 0.052114921546393994 -0.5120064852963149 -0.4641274589318584 -0.5120064852963151 -0.4641274589318585 0.02036858245949496 -0.0004466252979057929
548.125 0.036665034021350545 0.0593877778800972 -0.6647638741886882 -0.18872821970504222 -0.6647638741886881 -0.18872821970504225 0.03704126953009687 0.04754910319736828
548.75 0.03876520428605325 0.06933706999819117 -0.6788739570364488 0.12599384517692197 -0.6788739570364486 0.12599384517692186 0.08633670666126805 0.06483971661033835
549.375 0.050323267534360144 0.0725677638921798 -0.5515908488502684 0.41113912049048323 -0.5515908488502685 0.41113912049048323 0.1282621258399266 0.03539539885782484
550.0 0.0636896670683377 0.06689625567248206 -0.314595902973729 0.6134797212675621 -0.314595902973729 0.6134797212675622 0.13628672586239346 -0.016493329269630062
550.625 0.06617977779368595 0.052243863532607016 -0.010821131392537256 0.6906621852675887 -0.010821131392537176 0.6906621852675888 0.10039367614973141 -0.050384619900856686
551.25 0.05564876832097293 0.03793665218995547 0.29431668653974646 0.6251313551759179 0.29431668653974646 0.6251313551759177 0.055280052128802715 -0.045990589285890476
551.875 0.03966963982610484 0.03806236538689947 -0.5410653832795296 -0.4284237752261733 -0.5410653832795296 -0.4284237752261733 0.03251780834222633 6.373802603411652e-05
552.5 0.028984560499743905 0.0518632852697555 0.6733114180010207 0.1444890109788996 0.6733114180010207 0.14448901097889963 0.05591484802576205 0.0406533977346411
553.125 0.030762694498403576 0.06673653585934315 -0.6659774462944256 0.16571489953444554 -0.6659774462944255 0.16571489953444557 0.1040397266518169 0.04924261081392207
553.75 0.04640687092208807 0.07396190869447825 -0.5225288610849296 0.43938900629036876 -0.5225288610849296 0.43938900629036876 0.13983575283155414 0.016611524190316876
554.375 0.06475890404021323 0.06739922037832835 0.2781073908263976 -0.6211634467186836 0.27810739082639746 -0.6211634467186835 0.13949778973096638 -0.030573678277351208
555.0 0.06905255589058604 0.04843051618099778 0.020756052575558296 0.6800045553509951 0.02075605257555835 0.6800045553509951 0.10287772748594445 -0.05848002144228156
555.625 0.05527412463607656 0.03331287014473505 -0.31585768543894677 -0.6011597301959258 -0.3158576854389466 -0.6011597301959256 0.060939255368301894 -0.04693211026755869
556.25 0.033218942805593746 0.033846948788223474 -0.5465011740949124 -0.40248685778502075 -0.5465011740949124 -0.40248685778502064 0.043293256443197814 -0.005414685543508459
556.875 0.02156435490224612 0.05101865375375525 -0.6635087726442936 -0.12460128160218195 -0.6635087726442936 -0.12460128160218192 0.06673917508332876 0.028994696376436514
557.5 0.028109936683377107 0.07224337538816833 -0.6506306489734577 0.1740218746938181 -0.6506306489734572 0.17402187469381797 0.1097183265090259 0.03643005518275368
558.125 0.0493781063195258 0.08364047774958264 -0.5105104690606135 0.4387046173425744 -0.5105104690606135 0.4387046173425744 0.1464468677989073 0.005200905620141369
558.75 0.07183396523276198 0.0739787166413107 -0.2738908331967672 0.6166487741846747 -0.27389083319676727 0.6166487741846748 0.14765273493233722 -0.0387246298859676
559.375 0.07960064564409108 0.04850006298340144 0.01923667394879431 0.6785553199311316 0.01923667394879442 0.6785553199311315 0.11244032922761159 -0.06917671206607745
560.0 0.06558393773799985 0.025824912596856903 0.3136780602970778 0.6051435738351036 0.3136780602970778 0.6051435738351036 0.07034935361031527 -0.06016138873162001
560.625 0.037097182187510805 0.022435706959156185 -0.5501700762169534 -0.40948845418651536 -0.550170076216953 -0.40948845418651525 0.04949934968692481 -0.01869178189768046
561.25 0.015540112329520211 0.04357859982875044 0.6740851336878345 0.1258270669707504 0.6740851336878345 0.12582706697075033 0.07562459532618694 0.02107322749518371
561.875 0.01994053194468922 0.07422568629690818 -0.660856590120902 0.17854752311320216 -0.660856590120902 0.1785475231132021 0.12132214315014299 0.02860646930486662
562.5 0.04995983719886288 0.09072922761629958 0.5176191457441957 -0.44661920330560284 0.5176191457441959 -0.4466192033056029 0.15814243212093365 -0.005620754378999341
563.125 0.08446533702969357 0.07863682165707586 -0.2741609620241469 0.6256758402365963 -0.27416096202414686 0.6256758402365962 0.15680436065078654 -0.05327946622379265
563.75 0.09674505787005253 0.04478457579064755 -0.02262453296139076 -0.6866079892737917 -0.022624532961390758 -0.6866079892737919 0.11946544629432261 -0.08528186105913299
564.375 0.0789165897106877 0.010863267740772453 0.3187785475860814 0.6122689943927734 0.3187785475860815 0.6122689943927735 0.07485399263297182 -0.07668049672449495
565.0 0.0409321605330738 0.0007452259561697566 0.5548203322233708 0.4136578840664222 0.5548203322233708 0.4136578840664222 0.05479389586169791 -0.03646544976131407
565.625 0.008093440667346366 0.024725158535053512 0.6790071369472125 0.12772836342383612 0.6790071369472125 0.12772836342383612 0.08216374271715299 0.005580378297013133
566.25 0.006053492029311186 0.06626693967554634 0.664516190352036 -0.17696055224216553 0.664516190352036 -0.17696055224216542 0.12955023955420059 0.011394396161997163
566.875 0.03706801532486986 0.09521257742972297 0.5222192864254463 -0.4437567036674949 0.5222192864254465 -0.44375670366749476 0.16612437115058254 -0.024818765110665397
567.5 0.08154379536762682 0.09055820502743075 0.2823868409050158 -0.6230462406070685 0.28238684090501587 -0.6230462406070686 0.16252555837975527 -0.07183005534622618
568.125 0.10918049330630142 0.05284604463556626 -0.010698379023337553 -0.6872707233735224 -0.010698379023337498 -0.6872707233735221 0.1269387417265055 -0.1045683672186504
568.75 0.09746486437785237 0.006279414030765068 -0.3071924406383205 -0.6187615076441129 -0.3071924406383205 -0.6187615076441129 0.08033202165065281 -0.09606109185966795
569.375 0.05277747010703336 -0.017512865442645176 -0.5468888670500758 -0.4271926824685143 -0.5468888670500758 -0.4271926824685143 0.05655003141085424 -0.058551810387791545
570.0 0.004345135587230126 0.0014340765104831898 -0.6783365546823092 -0.14533036085578058 -0.6783365546823095 -0.14533036085578058 0.07965725387970676 -0.014936405143874322
570.625 -0.009969753606100196 0.05038461372806133 0.6712240225298804 -0.1602447271914447 0.6712240225298804 -0.1602447271914447 0.1227606917397843 -0.006006790514508913
571.25 0.017289217678903596 0.09367764123252716 -0.5349626240964211 0.430169908609263 -0.534962624096421 0.43016990860926296 0.1622536532829483 -0.0391574518539652
571.875 0.07008880838592349 0.10103784782713865 0.30050363034939565 -0.6149520122619987 0.30050363034939565 -0.6149520122619989 0.1621878633980976 -0.08720434667686591
572.5 0.11006985220757004 0.06579409316759939 -0.012177696313507713 0.6860427869074917 -0.012177696313507874 0.6860427869074914 0.12951439250736246 -0.12277354638242528
573.125 0.11059505270614306 0.010491814809107132 -0.2831462599739421 -0.6289114012241969 -0.283146259973942 -0.6289114012241968 0.08307273382737533 -0.11767782263727208
