!Created with skrf (http://scikit-rf.org).
# GHz S RI R 50.0 
!freq ReS11 ImS11 ReS21 ImS21 ReS12 ImS12 ReS22 ImS22
500.0 0.04980816817355373 0.11561570341576799 -0.612788235944617 0.20811687593188521 -0.6127882359446168 0.2081168759318852 0.04207144602636814 0.024720655737364587
500.625 0.04692980166983303 0.08839977703323323 -0.4358679375142823 0.48586350015328006 -0.43586793751428243 0.48586350015328017 0.05428822602743409 -0.0285999645557051
501.25 0.02652588260711615 0.08172957943929872 0.14204745330244037 -0.641273342653483 0.14204745330244042 -0.6412733426534832 0.020813369401489493 -0.07690663700115427
501.875 0.007346178158879502 0.09043793387119932 0.18698523654925917 0.6283992690836641 0.18698523654925925 0.6283992690836643 -0.02875829945914995 -0.07671806234791644
502.5 0.009664295746728113 0.10925745703227804 0.47253540002572036 0.4570682665448646 0.47253540002572025 0.4570682665448645 -0.056817846194845506 -0.017221288275925842
503.125 0.018152995954331903 0.12356050975283214 -0.6352038174083776 -0.17352027380465024 -0.6352038174083776 -0.17352027380465024 -0.0283462476502128 0.03878722428721948
503.75 0.036272251563794156 0.11928391044764976 0.6393940489102025 -0.15439778112838254 0.6393940489102022 -0.15439778112838248 0.029414917755931632 0.04494578187053902
504.375 0.050123925398690566 0.11018863160681405 -0.4860974168928294 0.4466689690440936 -0.48609741689282937 0.44666896904409353 0.06607679295899178 -0.0013291141427038636
505.0 0.046647784013191106 0.09419279983249051 0.21328386789999268 -0.6282753839173836 0.21328386789999268 -0.6282753839173836 0.04709753065244487 -0.05095836354555118
505.625 0.03779870988211387 0.07957112506072808 0.1164362023869871 0.6537137429947388 0.11643620238698711 0.6537137429947392 -0.003144892952830096 -0.060827204264315926
506.25 0.022936269790394564 0.0834792898066464 -0.4189682676777631 -0.5173241567972291 -0.41896826767776324 -0.5173241567972292 -0.04401716644527606 -0.01737814442612543
506.875 0.006823370283878388 0.0947114118371834 -0.6178493558967609 -0.2513958287829053 -0.6178493558967609 -0.25139582878290523 -0.026253365901161056 0.043659956258429077
507.5 0.011378692567350454 0.11104923828452462 0.6600602606922549 -0.07439447517643223 0.6600602606922544 -0.07439447517643229 0.026362042818827945 0.05915183170487128
508.125 0.029505248951346985 0.12314111251944548 0.5459433224565494 -0.3810602758384512 0.5459433224565495 -0.3810602758384513 0.07570763959340257 0.02407680177209739
508.75 0.04923753485964927 0.11487715479589031 -0.2991678769227703 0.5950793483326455 -0.2991678769227702 0.5950793483326454 0.0764338281945197 -0.034400100229259704
509.375 0.060283748742231524 0.0951073865317123 -0.021162566578293584 -0.668555312120217 -0.021162566578293573 -0.6685553121202169 0.02801235077947721 -0.059779098364205835
510.0 0.05052648214611155 0.07833207028630502 -0.34203632773934095 -0.5810874128242328 -0.34203632773934073 -0.5810874128242327 -0.024970752969113316 -0.03304315385821219
510.625 0.025079480920055464 0.06946594521836326 -0.5759747094938249 -0.34796522389283485 -0.5759747094938249 -0.34796522389283485 -0.03334970778560213 0.024388210048977177
511.25 0.01063907904923958 0.08503092628064748 0.6720955595675492 0.03011080035810308 0.672095559567549 0.03011080035810291 0.015431214242282342 0.057565153739209604
511.875 0.011524436925379966 0.1122755233655117 -0.6063824361569073 0.2935824517197809 -0.6063824361569073 0.29358245171978087 0.07468190936939136 0.037463418392626235
512.5 0.03111463545276097 0.12235826889142704 0.39726528877391615 -0.5401875295995913 0.39726528877391604 -0.5401875295995913 0.09389938736991868 -0.008126967268687597
513.125 0.06234297900937867 0.11310600752297445 0.09693376859302007 -0.665701345763574 0.09693376859302007 -0.6657013457635741 0.06095255570205535 -0.0521951353320431
513.75 0.07107128258348779 0.08530061759634486 0.2327291193552631 0.6374176613716478 0.23272911935526308 0.6374176613716477 -0.0031513937620221977 -0.05058808918470001
514.375 0.052140158050318575 0.060911025664135976 -0.5091438497477765 -0.45293517897115515 -0.5091438497477764 -0.45293517897115515 -0.031414300520577386 -0.001656686476383444
515.0 0.022862826897630403 0.06049121520153697 0.6647458372482037 0.1556673784846298 0.6647458372482038 0.15566737848462983 0.0009256001782057635 0.04818949415212134
515.625 0.003113061391791988 0.0811871250700284 0.6570660694790433 -0.17732621750723548 0.6570660694790433 -0.17732621750723548 0.06092997268085568 0.05486198288235347
516.25 0.011943056208033334 0.10846925498421403 -0.49481737792018704 0.462816355148654 -0.494817377920187 0.4628163551486539 0.09338409398289635 0.008721360442389253
516.875 0.039438290695614775 0.12196868980765668 -0.22229057317868609 0.6405112915453909 -0.22229057317868614 0.6405112915453907 0.07192761045058206 -0.04459063065565573
517.5 0.062442822810840536 0.10773034088160088 -0.09933445826094403 -0.6714317651596943 -0.09933445826094409 -0.6714317651596943 0.021269310998383577 -0.0641700581934464
518.125 0.06924767610905927 0.07718174126212116 -0.40556941058899054 -0.5480972627264835 -0.40556941058899043 -0.5480972627264834 -0.022153916345680588 -0.024076719681219712
518.75 0.049668343013139715 0.05986134616454697 0.618883205290583 0.29658722152508776 0.6188832052905832 0.29658722152508776 -0.017751436083615544 0.03608051946435323
519.375 0.019696026265991057 0.06353766007093578 -0.6854763973348847 0.028723946266797435 -0.685476397334885 0.028723946266797435 0.03177853986146925 0.06458865979464538
520.0 0.009498287602088804 0.08658348016559185 0.588690462277774 -0.34642990587373995 0.5886904622777739 -0.34642990587373984 0.08348785726036573 0.03574054234596786
520.625 0.02404055295496772 0.11114144194239638 -0.3594249369610387 0.5772340809726278 -0.35942493696103867 0.5772340809726278 0.09170098772453318 -0.021472262629937892
521.25 0.05093785298059979 0.11424623544718458 0.05224575666145349 -0.677877694986363 0.05224575666145349 -0.6778776949863629 0.05436354016838576 -0.05703759129534117
521.875 0.07280766407965733 0.09352310202850538 -0.26926674643564147 -0.6272601818941513 -0.26926674643564147 -0.6272601818941513 -0.002673508702509257 -0.041638342274300744
522.5 0.06555630174999336 0.0669319810423313 0.5294215826904668 0.4356611025796769 0.5294215826904666 0.4356611025796767 -0.027995867952165875 0.005976521624294649
523.125 0.04117146534680305 0.05078087011714672 -0.6731577800329184 -0.13717557421746956 -0.6731577800329186 -0.13717557421746962 0.006393751282867311 0.0542290844147671
523.75 0.01794409117515247 0.06104999363266381 0.6594587124795257 -0.19237880092175852 0.6594587124795254 -0.19237880092175846 0.06363708419951421 0.05464763675233652
524.375 0.009891168134384648 0.08827528763053691 0.4945839417776369 -0.4745037196509025 0.4945839417776369 -0.4745037196509025 0.0992496733506174 0.014449450754077414
525.0 0.02770186354374346 0.10844179697869005 0.22090876088103756 -0.6484899337855535 0.22090876088103764 -0.6484899337855534 0.08008847169597329 -0.037035134592970816
525.625 0.05733932401188756 0.10599818855123735 0.1023915120529008 0.6767019752884981 0.10239151205290069 0.6767019752884981 0.0228015054348406 -0.05479083843797189
526.25 0.07089432490985495 0.08801194456703247 -0.4012435357025781 -0.5565067523831766 -0.40124353570257815 -0.5565067523831767 -0.021162342972836836 -0.022636200628596552
526.875 0.062580940207442 0.06280264144897478 0.6127861269125402 0.31078256275318034 0.6127861269125402 0.31078256275318034 -0.01742108629787437 0.035310355349205486
527.5 0.043499133477599164 0.05282902865042412 -0.688438136962682 0.007231500365977666 -0.688438136962682 0.007231500365977666 0.03309035432026758 0.06922310369296875
528.125 0.025249269072704653 0.06385774645836793 0.607333200934091 -0.32404133357009873 0.607333200934091 -0.3240413335700987 0.08501945500973135 0.04647572835901746
528.75 0.02334352876190228 0.08242520981641474 -0.39056705311166684 0.563505143101025 -0.39056705311166706 0.563505143101025 0.09784697480045679 -0.004329419033283377
529.375 0.03859497706108478 0.096491228780084 0.0896841131909419 -0.6793427284376983 0.0896841131909419 -0.6793427284376983 0.06489406018866864 -0.047149479369900923
530.0 0.055555185286154746 0.09440588387022306 0.22840062114644172 0.64683284144291 0.22840062114644177 0.64683284144291 0.013298380519865365 -0.04359896511580691
530.625 0.06349680555051353 0.07599337314885905 -0.49638396314801486 -0.4720286867570296 -0.49638396314801486 -0.47202868675702964 -0.012061824190048934 -0.0004665611166639258
531.25 0.05682021218641935 0.05976241222803545 -0.6600716398901314 -0.19237877179746599 -0.6600716398901314 -0.19237877179746596 0.003296839241574842 0.050443850407027514
531.875 0.04065471776486053 0.05755193389800181 0.6769013388099601 -0.13008378506391638 0.6769013388099603 -0.13008378506391632 0.05663955308170741 0.06772427647829565
532.5 0.02802611626904089 0.06565552426114543 -0.5418646721926181 0.42431670244350894 -0.541864672192618 0.42431670244350883 0.09829980615007886 0.03373655599230746
533.125 0.030683114829762072 0.07949299309555 0.2881836463232963 -0.6230011679397158 0.2881836463232963 -0.6230011679397158 0.09457617969395535 -0.018874630842199713
533.75 0.043028933269230435 0.0871163141685716 0.024483295630177968 0.6848406401244735 0.024483295630177964 0.6848406401244734 0.0522213843735668 -0.04739414132961098
534.375 0.053049572829472945 0.08113250211358529 -0.3323084029367679 -0.6006880103365949 -0.3323084029367678 -0.6006880103365947 0.0038214531027570414 -0.028142770057597813
535.0 0.05488801237965972 0.07017731434585528 0.5687676089112388 0.38533122524904434 0.5687676089112388 0.38533122524904434 -0.004879873976089279 0.02250951668831742
535.625 0.04832329208657733 0.06158852885123088 0.6825239664338604 0.08915486130853567 0.6825239664338605 0.08915486130853571 0.02595494347665448 0.064765558276357
536.25 0.038755154191858446 0.06041281406090116 -0.6490971653628663 0.22969464019680444 -0.6490971653628664 0.22969464019680447 0.07798995229558607 0.062355952054655536
536.875 0.03436382230576107 0.06857418744521075 0.4736056032216234 -0.49799062059748983 0.47360560322162343 -0.4979906205974897 0.1075017811626163 0.018831604149334158
537.5 0.03572436470488988 0.07927910456082733 0.19942966708649532 -0.6583479830513351 0.19942966708649523 -0.658347983051335 0.093482792739833 -0.02854171691168614
538.125 0.044141274217664415 0.08135765042778928 0.11605768574362553 0.6765569369135833 0.11605768574362553 0.6765569369135833 0.04816064728406583 -0.04543094236077501
538.75 0.05199561750926603 0.07754731806629582 -0.407246489024184 -0.5525536229665662 -0.40724648902418403 -0.5525536229665663 0.006506441339485539 -0.017318543584717384
539.375 0.05300496819778852 0.07110819930792553 -0.6139339078907133 -0.31042199953603516 -0.6139339078907133 -0.31042199953603516 0.006398564806660843 0.03433018607054909
540.0 0.049551089712357166 0.06568552735803551 0.6884183117990818 0.0021848489387363856 0.6884183117990819 0.0021848489387362754 0.04505152209622214 0.06628236060575106
540.625 0.046556637276877845 0.06579310110051324 -0.6179535427760326 0.30642374382146426 -0.6179535427760329 0.3064237438214644 0.09795264525803839 0.05640153122341092
541.25 0.048181886712267655 0.06668948697345022 -0.4141570015109421 0.5508870565084835 -0.4141570015109421 0.5508870565084834 0.11763099629169568 0.007652274676606938
541.875 0.05112337651420214 0.06615279328575008 0.12273801583760112 -0.6785994793211668 0.12273801583760112 -0.678599479321167 0.09391329664932328 -0.03743946277748541
542.5 0.051108316145827615 0.06536077094328488 -0.1942717461332644 -0.6640811466358255 -0.19427174613326445 -0.6640811466358256 0.04006622749529242 -0.04447750326304617
543.125 0.04782052421409587 0.06282464233322865 0.46849734379023533 0.5075344411215559 0.46849734379023505 0.5075344411215555 0.009236571642679471 -0.00675018355924299
543.75 0.04593522693814425 0.06179097113294452 -0.646627123323747 -0.2440902085500058 -0.6466271233237469 -0.24409020855000585 0.019951125878934616 0.046539127027840965
544.375 0.046120504845867494 0.06672251639712133 0.6866193477128237 -0.0717705849392639 0.6866193477128235 -0.07177058493926392 0.06896930355125398 0.0669922966082662
545.0 0.04824107187388595 0.06828190718537008 -0.5836602920996772 0.3688281067990685 -0.5836602920996768 0.36882810679906847 0.11612906278239127 0.04728580640979801
545.625 0.05305063777038546 0.06551248729171932 0.35865669907085596 -0.5897688799021467 0.35865669907085584 -0.5897688799021465 0.12622670714446732 -0.0043392481891108454
546.25 0.05811142851495088 0.060324863855829566 -0.0591561796744692 0.6873217518068832 -0.05915617967446917 0.6873217518068829 0.09666083998036999 -0.04202551797651918
546.875 0.053542049136397915 0.053529107545096814 -0.2522784233901502 -0.6441364312943346 -0.25227842339015033 -0.6441364312943347 0.04683005041496457 -0.044031163892789243
547.5 0.04306084977687951 0.052114921546393966 -0.512006485296315 -0.4641274589318585 -0.5120064852963152 -0.4641274589318586 0.020368582459494945 -0.0004466252979059022
548.125 0.03666503402135063 0.05938777788009731 -0.6647638741886884 -0.1887282197050423 -0.6647638741886883 -0.1887282197050423 0.03704126953009687 0.04754910319736805
548.75 0.038765204286053415 0.06933706999819109 -0.6788739570364486 0.12599384517692197 -0.6788739570364484 0.1259938451769219 0.08633670666126804 0.06483971661033833
549.375 0.05032326753435999 0.07256776389218016 -0.551590848850268 0.41113912049048307 -0.5515908488502681 0.411139120490483 0.1282621258399265 0.035395398857824896
550.0 0.06368966706833742 0.06689625567248222 -0.31459590297372897 0.613479721267562 -0.31459590297372886 0.613479721267562 0.1362867258623936 -0.01649332926963002
550.625 0.0661797777936859 0.05224386353260754 -0.010821131392537243 0.6906621852675892 -0.01082113139253725 0.6906621852675896 0.10039367614973135 -0.05038461990085675
551.25 0.05564876832097343 0.03793665218995547 0.29431668653974646 0.6251313551759177 0.2943166865397464 0.6251313551759179 0.055280052128802534 -0.04599058928589031
551.875 0.039669639826104844 0.0380623653868995 -0.5410653832795297 -0.42842377522617336 -0.5410653832795297 -0.4284237752261734 0.03251780834222644 6.373802603414427e-05
552.5 0.0289845604997451 0.051863285269754394 0.6733114180010225 0.14448901097889 0.6733114180010226 0.14448901097888997 0.05591484802576323 0.04065339773464135
553.125 0.03076269449840386 0.06673653585934251 -0.6659774462944255 0.16571489953444557 -0.6659774462944252 0.16571489953444546 0.10403972665181707 0.04924261081392199
553.75 0.046406870922087964 0.07396190869447813 -0.5225288610849297 0.43938900629036887 -0.5225288610849297 0.43938900629036887 0.13983575283155414 0.016611524190316865
554.375 0.06475890404021334 0.06739922037832863 0.2781073908263976 -0.6211634467186836 0.2781073908263975 -0.6211634467186836 0.13949778973096652 -0.030573678277351295
555.0 0.06905255589058609 0.0484305161809979 0.02075605257555825 0.6800045553509952 0.02075605257555828 0.6800045553509952 0.1028777274859444 -0.05848002144228162
555.625 0.05527412463607659 0.03331287014473501 -0.31585768543894666 -0.6011597301959257 -0.31585768543894654 -0.6011597301959255 0.060939255368301984 -0.04693211026755879
556.25 0.03321894280559398 0.03384694878822292 -0.5465011740949126 -0.4024868577850208 -0.5465011740949124 -0.4024868577850207 0.04329325644319773 -0.005414685543508404
556.875 0.021564354902246147 0.05101865375375528 -0.663508772644294 -0.12460128160218198 -0.663508772644294 -0.12460128160218198 0.0667391750833287 0.028994696376436292
557.5 0.02810993668337683 0.07224337538816866 -0.6506306489734577 0.17402187469381808 -0.6506306489734576 0.17402187469381802 0.109718326509026 0.036430055182753725
558.125 0.049378106319525356 0.08364047774958293 -0.5105104690606134 0.43870461734257427 -0.5105104690606135 0.43870461734257415 0.14644686779890742 0.005200905620141376
558.75 0.07183396523276223 0.0739787166413107 -0.2738908331967672 0.6166487741846749 -0.27389083319676727 0.6166487741846749 0.14765273493233733 -0.038724629885967775
559.375 0.07960064564409096 0.04850006298340164 0.019236673948794365 0.6785553199311317 0.019236673948794532 0.6785553199311318 0.11244032922761146 -0.06917671206607763
560.0 0.06558393773799989 0.025824912596857055 0.3136780602970778 0.6051435738351036 0.3136780602970778 0.6051435738351036 0.07034935361031534 -0.06016138873162012
560.625 0.037097182187510735 0.02243570695915628 -0.5501700762169534 -0.40948845418651536 -0.550170076216953 -0.40948845418651525 0.049499349686924904 -0.01869178189768056
561.25 0.015540112329520073 0.043578599828750966 0.6740851336878348 0.1258270669707505 0.6740851336878348 0.12582706697075047 0.07562459532618694 0.021073227495183568
561.875 0.019940531944689234 0.07422568629690815 -0.660856590120902 0.17854752311320216 -0.660856590120902 0.1785475231132021 0.12132214315014303 0.028606469304866572
562.5 0.04995983719886293 0.09072922761629958 0.5176191457441953 -0.4466192033056024 0.5176191457441955 -0.4466192033056026 0.15814243212093376 -0.005620754378999407
563.125 0.08446533702969365 0.07863682165707565 -0.27416096202414697 0.6256758402365964 -0.27416096202414697 0.6256758402365964 0.15680436065078643 -0.053279466223792864
563.75 0.09674505787005244 0.044784575790647485 -0.022624532961390786 -0.6866079892737919 -0.022624532961390786 -0.6866079892737919 0.11946544629432268 -0.08528186105913316
564.375 0.07891658971068777 0.010863267740772259 0.3187785475860812 0.612268994392773 0.3187785475860812 0.612268994392773 0.07485399263297178 -0.07668049672449491
565.0 0.04093216053307416 0.0007452259561695554 0.5548203322233708 0.4136578840664224 0.5548203322233708 0.4136578840664223 0.0547938958616979 -0.03646544976131427
565.625 0.008093440667346526 0.024725158535053512 0.6790071369472123 0.12772836342383606 0.6790071369472123 0.1277283634238361 0.08216374271715307 0.005580378297013119
566.25 0.006053492029310881 0.06626693967554662 0.6645161903520362 -0.1769605522421655 0.6645161903520359 -0.17696055224216545 0.12955023955420036 0.011394396161997358
566.875 0.0370680153248701 0.09521257742972293 0.5222192864254465 -0.443756703667495 0.5222192864254462 -0.4437567036674949 0.1661243711505828 -0.024818765110665577
567.5 0.08154379536762661 0.09055820502743067 0.2823868409050157 -0.6230462406070683 0.2823868409050157 -0.6230462406070683 0.16252555837975546 -0.0718300553462262
568.125 0.10918049330630164 0.052846044635566185 -0.010698379023337553 -0.6872707233735224 -0.010698379023337387 -0.6872707233735224 0.12693874172650535 -0.10456836721865047
568.75 0.09746486437785229 0.006279414030764763 -0.3071924406383203 -0.6187615076441123 -0.3071924406383203 -0.6187615076441123 0.08033202165065287 -0.09606109185966796
569.375 0.05277747010703339 -0.01751286544264512 -0.5468888670500761 -0.4271926824685145 -0.5468888670500761 -0.4271926824685145 0.056550031410854185 -0.058551810387791565
570.0 0.004345135587230042 0.0014340765104832176 -0.6783365546823097 -0.1453303608557805 -0.6783365546823095 -0.1453303608557805 0.07965725387970671 -0.01493640514387442
570.625 -0.009969753606100168 0.050384613728061266 0.671224022529881 -0.1602447271914449 0.6712240225298808 -0.16024472719144478 0.12276069173978432 -0.006006790514508913
571.25 0.017289217678903554 0.09367764123252706 -0.5349626240964211 0.43016990860926313 -0.5349626240964211 0.430169908609263 0.16225365328294852 -0.039157451853965304
571.875 0.0700888083859234 0.10103784782713862 0.3005036303493955 -0.6149520122619986 0.30050363034939553 -0.6149520122619988 0.16218786339809751 -0.08720434667686588
572.5 0.11006985220757011 0.06579409316759963 -0.012177696313507826 0.6860427869074917 -0.012177696313507826 0.6860427869074917 0.1295143925073624 -0.12277354638242526
573.125 0.11059505270614294 0.010491814809107115 -0.28314625997394216 -0.628911401224197 -0.28314625997394205 -0.6289114012241969 0.08307273382737529 -0.11767782263727217
