!Created with skrf (http://scikit-rf.org).
# GHz S RI R 50.0 
!freq ReS11 ImS11 ReS21 ImS21 ReS12 ImS12 ReS22 ImS22
500.0 0.04980816817355421 0.11561570341576763 -0.6127882359446171 0.20811687593188524 -0.612788235944617 0.2081168759318852 0.04207144602636826 0.024720655737364858
500.625 0.04692980166983286 0.0883997770332332 -0.43586793751428243 0.4858635001532801 -0.43586793751428254 0.4858635001532802 0.0542882260274339 -0.028599964555704984
501.25 0.026525882607116413 0.08172957943929872 0.14204745330243998 -0.6412733426534832 0.14204745330243995 -0.6412733426534832 0.02081336940148945 -0.07690663700115431
501.875 0.007346178158879488 0.09043793387119915 0.18698523654925947 0.6283992690836641 0.18698523654925944 0.6283992690836638 -0.028758299459149927 -0.07671806234791613
502.5 0.009664295746728141 0.10925745703227825 0.4725354000257203 0.45706826654486427 0.4725354000257204 0.4570682665448644 -0.056817846194845506 -0.01722128827592565
503.125 0.018152995954331917 0.12356050975283234 -0.6352038174083775 -0.17352027380465027 -0.6352038174083776 -0.17352027380465032 -0.028346247650212705 0.038787224287219355
503.75 0.036272251563794156 0.11928391044764966 0.6393940489102024 -0.15439778112838254 0.6393940489102021 -0.15439778112838248 0.0294149177559316 0.044945781870538964
504.375 0.05012392539869073 0.11018863160681383 -0.48609741689282926 0.4466689690440934 -0.4860974168928292 0.4466689690440935 0.06607679295899158 -0.0013291141427038333
505.0 0.04664778401319121 0.09419279983249007 0.2132838678999927 -0.6282753839173835 0.2132838678999927 -0.6282753839173835 0.04709753065244488 -0.05095836354555122
505.625 0.03779870988211387 0.07957112506072811 0.1164362023869872 0.653713742994739 0.11643620238698725 0.6537137429947392 -0.003144892952830141 -0.060827204264315815
506.25 0.022936269790394842 0.08347928980664639 -0.4189682676777633 -0.5173241567972293 -0.41896826767776324 -0.5173241567972292 -0.04401716644527615 -0.01737814442612553
506.875 0.006823370283878485 0.09471141183718357 -0.6178493558967612 -0.2513958287829053 -0.6178493558967614 -0.25139582878290523 -0.026253365901161348 0.04365995625842922
507.5 0.011378692567350288 0.11104923828452483 0.6600602606922548 -0.07439447517643216 0.6600602606922544 -0.07439447517643227 0.026362042818828098 0.059151831704871094
508.125 0.029505248951346874 0.12314111251944526 0.5459433224565495 -0.3810602758384513 0.5459433224565494 -0.38106027583845137 0.07570763959340233 0.024076801772097253
508.75 0.04923753485964902 0.11487715479589027 -0.2991678769227703 0.5950793483326456 -0.2991678769227703 0.5950793483326455 0.0764338281945195 -0.034400100229259406
509.375 0.06028374874223148 0.09510738653171211 -0.021162566578293577 -0.6685553121202169 -0.021162566578293494 -0.6685553121202169 0.028012350779477224 -0.0597790983642056
510.0 0.05052648214611152 0.07833207028630504 -0.342036327739341 -0.5810874128242329 -0.34203632773934084 -0.5810874128242328 -0.024970752969113063 -0.03304315385821219
510.625 0.025079480920055075 0.06946594521836351 -0.5759747094938251 -0.3479652238928349 -0.5759747094938251 -0.3479652238928348 -0.033349707785602145 0.024388210048977156
511.25 0.010639079049239462 0.08503092628064757 0.6720955595675491 0.030110800358103068 0.6720955595675489 0.030110800358102957 0.015431214242282318 0.05756515373920959
511.875 0.011524436925379605 0.11227552336551148 -0.606382436156907 0.29358245171978087 -0.606382436156907 0.29358245171978065 0.07468190936939115 0.03746341839262603
512.5 0.031114635452760997 0.12235826889142726 0.3972652887739161 -0.5401875295995913 0.39726528877391604 -0.5401875295995913 0.09389938736991886 -0.008126967268687491
513.125 0.06234297900937879 0.11310600752297452 0.09693376859301997 -0.6657013457635742 0.09693376859302005 -0.6657013457635745 0.0609525557020554 -0.052195135332043154
513.75 0.07107128258348776 0.08530061759634497 0.23272911935526322 0.637417661371648 0.2327291193552632 0.6374176613716481 -0.003151393762022378 -0.05058808918469987
514.375 0.052140158050318394 0.06091102566413605 -0.5091438497477762 -0.4529351789711549 -0.5091438497477762 -0.4529351789711549 -0.03141430052057748 -0.0016566864763832394
515.0 0.02286282689763068 0.06049121520153716 0.6647458372482039 0.15566737848462994 0.6647458372482038 0.15566737848462991 0.000925600178205852 0.04818949415212126
515.625 0.00311306139179221 0.08118712507002823 0.6570660694790427 -0.17732621750723535 0.6570660694790424 -0.17732621750723523 0.06092997268085563 0.0548619828823534
516.25 0.011943056208033334 0.108469254984214 -0.4948173779201871 0.4628163551486541 -0.4948173779201871 0.462816355148654 0.09338409398289624 0.008721360442389227
516.875 0.03943829069561475 0.12196868980765684 -0.22229057317868622 0.640511291545391 -0.22229057317868614 0.6405112915453908 0.07192761045058213 -0.044590630655655814
517.5 0.06244282281084013 0.10773034088160098 -0.09933445826094403 -0.671431765159694 -0.09933445826094409 -0.6714317651596939 0.021269310998383542 -0.06417005819344614
518.125 0.06924767610905908 0.07718174126212124 -0.4055694105889906 -0.5480972627264836 -0.4055694105889906 -0.5480972627264836 -0.02215391634568074 -0.024076719681219567
518.75 0.049668343013139604 0.05986134616454736 0.6188832052905819 0.2965872215250899 0.618883205290582 0.29658722152508993 -0.017751436083615967 0.036080519464353006
519.375 0.019696026265991234 0.06353766007093595 -0.6854763973348844 0.028723946266797334 -0.6854763973348846 0.028723946266797362 0.03177853986146936 0.06458865979464529
520.0 0.009498287602088665 0.08658348016559193 0.588690462277774 -0.34642990587374006 0.5886904622777739 -0.3464299058737399 0.08348785726036584 0.03574054234596781
520.625 0.024040552954967487 0.1111414419423965 -0.35942493696103894 0.5772340809726283 -0.3594249369610389 0.5772340809726282 0.09170098772453313 -0.021472262629937632
521.25 0.05093785298060027 0.1142462354471845 0.05224575666145347 -0.6778776949863626 0.0522457566614535 -0.6778776949863627 0.05436354016838595 -0.057037591295341236
521.875 0.0728076640796573 0.09352310202850535 -0.2692667464356413 -0.6272601818941509 -0.2692667464356413 -0.6272601818941509 -0.0026735087025092433 -0.04163834227430088
522.5 0.06555630174999308 0.06693198104233122 0.5294215826904665 0.4356611025796767 0.5294215826904666 0.43566110257967683 -0.027995867952165764 0.005976521624294455
523.125 0.041171465346803104 0.05078087011714675 -0.6731577800329183 -0.13717557421746973 -0.6731577800329183 -0.1371755742174698 0.006393751282867288 0.05422908441476717
523.75 0.017944091175152138 0.06104999363266356 0.6594587124795254 -0.19237880092175844 0.6594587124795254 -0.19237880092175833 0.06363708419951399 0.05464763675233642
524.375 0.009891168134384565 0.08827528763053694 0.4945839417776369 -0.47450371965090243 0.4945839417776368 -0.4745037196509023 0.0992496733506176 0.014449450754077279
525.0 0.02770186354374382 0.10844179697869022 0.2209087608810377 -0.6484899337855538 0.22090876088103778 -0.6484899337855541 0.08008847169597338 -0.03703513459297099
525.625 0.057339324011887696 0.10599818855123747 0.10239151205290073 0.6767019752884978 0.10239151205290069 0.6767019752884976 0.022801505434840566 -0.05479083843797186
526.25 0.070894324909855 0.08801194456703214 -0.4012435357025782 -0.5565067523831768 -0.4012435357025782 -0.5565067523831768 -0.021162342972836912 -0.02263620062859672
526.875 0.06258094020744201 0.06280264144897509 0.6127861269125403 0.31078256275318045 0.6127861269125403 0.3107825627531804 -0.017421086297874342 0.035310355349205624
527.5 0.043499133477599275 0.052829028650423965 -0.688438136962682 0.007231500365977694 -0.688438136962682 0.007231500365977694 0.03309035432026755 0.06922310369296877
528.125 0.02524926907270473 0.06385774645836766 0.607333200934091 -0.3240413335700987 0.6073332009340912 -0.3240413335700988 0.08501945500973129 0.046475728359017476
528.75 0.02334352876190278 0.0824252098164147 -0.3905670531116669 0.5635051431010248 -0.39056705311166684 0.5635051431010247 0.09784697480045673 -0.004329419033283478
529.375 0.038594977061084806 0.09649122878008409 0.08968411319094198 -0.6793427284376984 0.08968411319094198 -0.6793427284376984 0.06489406018866836 -0.04714947936990092
530.0 0.05555518528615472 0.09440588387022311 0.22840062114644175 0.6468328414429099 0.22840062114644177 0.64683284144291 0.01329838051986533 -0.04359896511580688
530.625 0.0634968055505138 0.07599337314885907 -0.496383963148015 -0.47202868675702964 -0.49638396314801486 -0.4720286867570294 -0.01206182419004902 -0.0004665611166638599
531.25 0.05682021218641918 0.05976241222803566 -0.6600716398901315 -0.1923787717974659 -0.6600716398901315 -0.19237877179746588 0.0032968392415748645 0.050443850407027715
531.875 0.04065471776486049 0.05755193389800181 0.6769013388099596 -0.1300837850639163 0.6769013388099598 -0.13008378506391635 0.05663955308170737 0.06772427647829593
532.5 0.02802611626904089 0.06565552426114551 -0.541864672192618 0.42431670244350883 -0.541864672192618 0.42431670244350883 0.09829980615007902 0.03373655599230754
533.125 0.030683114829762045 0.07949299309555 0.2881836463232964 -0.623001167939716 0.2881836463232964 -0.6230011679397158 0.09457617969395535 -0.018874630842199577
533.75 0.04302893326923039 0.08711631416857166 0.02448329563017795 0.6848406401244732 0.024483295630177957 0.6848406401244732 0.05222138437356677 -0.04739414132961069
534.375 0.05304957282947283 0.08113250211358493 -0.3323084029367679 -0.6006880103365947 -0.33230840293676783 -0.6006880103365946 0.0038214531027572426 -0.028142770057597938
535.0 0.05488801237965987 0.0701773143458551 0.5687676089112388 0.3853312252490443 0.5687676089112387 0.38533122524904423 -0.004879873976089466 0.02250951668831758
535.625 0.04832329208657726 0.06158852885123087 0.6825239664338605 0.0891548613085357 0.6825239664338606 0.08915486130853571 0.025954943476654467 0.06476555827635697
536.25 0.03875515419185828 0.060412814060901064 -0.6490971653628662 0.22969464019680438 -0.6490971653628663 0.22969464019680444 0.07798995229558615 0.062355952054655446
536.875 0.03436382230576114 0.06857418744521072 0.4736056032216202 -0.4979906205974934 0.47360560322162015 -0.4979906205974932 0.1075017811626161 0.018831604149333506
537.5 0.03572436470488963 0.0792791045608271 0.19942966708649512 -0.6583479830513347 0.19942966708649512 -0.6583479830513349 0.09348279273983308 -0.028541716911686263
538.125 0.04414127421766445 0.08135765042778942 0.11605768574362556 0.6765569369135835 0.11605768574362556 0.6765569369135835 0.04816064728406568 -0.04543094236077509
538.75 0.051995617509266026 0.0775473180662958 -0.40724648902418403 -0.5525536229665664 -0.4072464890241842 -0.5525536229665665 0.00650644133948531 -0.017318543584717173
539.375 0.05300496819778834 0.07110819930792546 -0.613933907890713 -0.31042199953603516 -0.6139339078907132 -0.31042199953603505 0.0063985648066609765 0.03433018607054912
540.0 0.04955108971235708 0.06568552735803579 0.6884183117990818 0.0021848489387363765 0.6884183117990816 0.0021848489387363487 0.04505152209622217 0.06628236060575109
540.625 0.04655663727687766 0.06579310110051315 -0.6179535427760325 0.3064237438214643 -0.6179535427760326 0.3064237438214644 0.09795264525803826 0.056401531223410795
541.25 0.04818188671226782 0.06668948697345045 -0.4141570015109422 0.5508870565084835 -0.4141570015109423 0.5508870565084835 0.11763099629169585 0.0076522746766069134
541.875 0.051123376514202415 0.06615279328575002 0.1227380158376012 -0.678599479321167 0.12273801583760108 -0.6785994793211669 0.09391329664932355 -0.03743946277748543
542.5 0.05110831614582764 0.06536077094328518 -0.19427174613326437 -0.6640811466358254 -0.19427174613326437 -0.6640811466358254 0.04006622749529251 -0.044477503263046184
543.125 0.0478205242140963 0.06282464233322843 0.4684973437902352 0.5075344411215558 0.4684973437902352 0.5075344411215558 0.009236571642679423 -0.006750183559242768
543.75 0.04593522693814442 0.06179097113294424 -0.6466271233237472 -0.2440902085500059 -0.646627123323747 -0.24409020855000588 0.019951125878934627 0.0465391270278406
544.375 0.04612050484586763 0.06672251639712115 0.6866193477128236 -0.07177058493926387 0.6866193477128235 -0.07177058493926393 0.06896930355125394 0.06699229660826614
545.0 0.048241071873885745 0.06828190718537036 -0.5836602920996774 0.3688281067990688 -0.5836602920996773 0.36882810679906874 0.11612906278239118 0.04728580640979797
545.625 0.05305063777038542 0.06551248729171916 0.35865669907085607 -0.5897688799021467 0.35865669907085623 -0.589768879902147 0.12622670714446704 -0.004339248189110783
546.25 0.05811142851495083 0.060324863855829594 -0.059156179674469185 0.6873217518068833 -0.059156179674469254 0.6873217518068832 0.09666083998036994 -0.0420255179765191
546.875 0.05354204913639819 0.05352910754509686 -0.2522784233901502 -0.6441364312943346 -0.2522784233901503 -0.6441364312943347 0.04683005041496447 -0.04403116389278926
547.5 0.04306084977687924 0.05211492154639408 -0.5120064852963149 -0.4641274589318584 -0.5120064852963151 -0.4641274589318585 0.02036858245949502 -0.0004466252979061624
548.125 0.036665034021350656 0.05938777788009701 -0.6647638741886883 -0.18872821970504228 -0.6647638741886882 -0.18872821970504228 0.03704126953009684 0.047549103197368096
548.75 0.038765204286053415 0.06933706999819106 -0.6788739570364486 0.12599384517692191 -0.6788739570364487 0.12599384517692191 0.08633670666126805 0.06483971661033819
549.375 0.05032326753435998 0.07256776389218009 -0.5515908488502682 0.4111391204904832 -0.5515908488502682 0.4111391204904831 0.12826212583992652 0.035395398857825035
550.0 0.06368966706833748 0.06689625567248218 -0.31459590297372914 0.6134797212675623 -0.3145959029737291 0.6134797212675622 0.1362867258623934 -0.016493329269630094
550.625 0.06617977779368601 0.0522438635326071 -0.010821131392537249 0.690662185267589 -0.010821131392537228 0.6906621852675895 0.10039367614973152 -0.05038461990085674
551.25 0.0556487683209731 0.03793665218995527 0.2943166865397465 0.625131355175918 0.2943166865397466 0.6251313551759179 0.05528005212880257 -0.045990589285890573
551.875 0.039669639826105114 0.038062365386899694 -0.5410653832795295 -0.4284237752261732 -0.5410653832795295 -0.4284237752261732 0.03251780834222633 6.373802603424489e-05
552.5 0.028984560499743822 0.051863285269755456 0.6733114180010208 0.1444890109788996 0.6733114180010209 0.14448901097889963 0.05591484802576191 0.04065339773464118
553.125 0.0307626944984035 0.06673653585934305 -0.6659774462944256 0.16571489953444557 -0.6659774462944256 0.16571489953444551 0.10403972665181695 0.04924261081392188
553.75 0.04640687092208825 0.07396190869447793 -0.5225288610849294 0.4393890062903687 -0.5225288610849292 0.4393890062903686 0.13983575283155417 0.01661152419031655
554.375 0.06475890404021327 0.06739922037832854 0.2781073908263976 -0.6211634467186837 0.2781073908263975 -0.6211634467186835 0.1394977897309665 -0.030573678277351135
555.0 0.06905255589058601 0.048430516180998175 0.020756052575558286 0.6800045553509951 0.020756052575558258 0.6800045553509951 0.10287772748594451 -0.05848002144228175
555.625 0.0552741246360767 0.03331287014473508 -0.3158576854389466 -0.6011597301959257 -0.3158576854389465 -0.6011597301959255 0.060939255368302046 -0.04693211026755863
556.25 0.03321894280559483 0.03384694878822253 -0.546501174094918 -0.4024868577850128 -0.5465011740949179 -0.4024868577850129 0.04329325644319848 -0.005414685543507793
556.875 0.021564354902246313 0.051018653753754986 -0.6635087726442936 -0.12460128160218195 -0.6635087726442936 -0.12460128160218192 0.06673917508332883 0.028994696376436334
557.5 0.028109936683377343 0.07224337538816863 -0.6506306489734575 0.17402187469381802 -0.6506306489734573 0.17402187469381794 0.10971832650902603 0.03643005518275378
558.125 0.04937810631952544 0.08364047774958283 -0.5105104690606134 0.43870461734257427 -0.5105104690606134 0.43870461734257415 0.14644686779890725 0.005200905620141477
558.75 0.07183396523276186 0.07397871664131075 -0.2738908331967672 0.6166487741846748 -0.2738908331967673 0.6166487741846748 0.14765273493233733 -0.03872462988596795
559.375 0.07960064564409108 0.04850006298340139 0.019236673948794386 0.6785553199311318 0.019236673948794386 0.6785553199311317 0.11244032922761174 -0.06917671206607778
560.0 0.06558393773799968 0.025824912596856778 0.3136780602970778 0.6051435738351036 0.3136780602970778 0.6051435738351036 0.07034935361031541 -0.06016138873162005
560.625 0.037097182187510916 0.022435706959156393 -0.5501700762169531 -0.4094884541865153 -0.5501700762169529 -0.40948845418651514 0.049499349686924723 -0.018691781897680386
561.25 0.015540112329520281 0.043578599828750536 0.6740851336878346 0.12582706697075044 0.6740851336878344 0.12582706697075044 0.07562459532618693 0.021073227495183446
561.875 0.01994053194468904 0.07422568629690846 -0.660856590120902 0.17854752311320216 -0.660856590120902 0.17854752311320216 0.1213221431501431 0.028606469304866565
562.5 0.04995983719886335 0.0907292276162996 0.5176191457441959 -0.44661920330560295 0.5176191457441957 -0.44661920330560284 0.15814243212093393 -0.005620754378999258
563.125 0.08446533702969385 0.07863682165707563 -0.27416096202414697 0.6256758402365964 -0.27416096202414697 0.6256758402365963 0.1568043606507865 -0.05327946622379301
563.75 0.09674505787005228 0.044784575790647374 -0.022624532961390807 -0.6866079892737921 -0.022624532961390786 -0.6866079892737921 0.11946544629432262 -0.08528186105913303
564.375 0.07891658971068752 0.010863267740772342 0.31877854758608143 0.6122689943927734 0.3187785475860814 0.6122689943927733 0.0748539926329719 -0.07668049672449492
565.0 0.04093216053307383 0.0007452259561697358 0.554820332223371 0.41365788406642234 0.554820332223371 0.41365788406642234 0.05479389586169789 -0.03646544976131441
565.625 0.008093440667346484 0.024725158535053512 0.6790071369472126 0.12772836342383612 0.6790071369472127 0.12772836342383617 0.08216374271715303 0.005580378297013119
566.25 0.006053492029310811 0.06626693967554668 0.6645161903520364 -0.17696055224216556 0.6645161903520362 -0.17696055224216548 0.12955023955420047 0.01139439616199724
566.875 0.03706801532487 0.095212577429723 0.5222192864254465 -0.44375670366749487 0.5222192864254465 -0.44375670366749487 0.16612437115058268 -0.024818765110665542
567.5 0.081543795367626 0.09055820502743075 0.2823868409050156 -0.6230462406070683 0.2823868409050156 -0.6230462406070683 0.16252555837975513 -0.07183005534622595
568.125 0.10918049330630146 0.05284604463556625 -0.010698379023337557 -0.6872707233735224 -0.010698379023337501 -0.6872707233735221 0.12693874172650563 -0.10456836721865051
568.75 0.0974648643778526 0.006279414030764693 -0.3071924406383205 -0.6187615076441129 -0.3071924406383205 -0.6187615076441129 0.08033202165065274 -0.09606109185966821
569.375 0.05277747010703317 -0.01751286544264485 -0.5468888670500758 -0.4271926824685143 -0.5468888670500758 -0.4271926824685143 0.05655003141085428 -0.05855181038779147
570.0 0.004345135587230264 0.0014340765104831343 -0.6783365546823091 -0.14533036085578055 -0.6783365546823094 -0.14533036085578052 0.07965725387970676 -0.01493640514387446
570.625 -0.009969753606100196 0.05038461372806124 0.6712240225298809 -0.16024472719144484 0.6712240225298811 -0.1602447271914449 0.1227606917397843 -0.006006790514508885
571.25 0.017289217678903818 0.09367764123252705 -0.5349626240964216 0.4301699086092634 -0.5349626240964216 0.4301699086092633 0.1622536532829485 -0.039157451853965
571.875 0.0700888083859234 0.10103784782713854 0.3005036303493956 -0.6149520122619986 0.3005036303493956 -0.6149520122619988 0.16218786339809754 -0.08720434667686597
572.5 0.11006985220757014 0.06579409316759958 -0.012177696313507763 0.6860427869074917 -0.0121776963135079 0.6860427869074915 0.1295143925073625 -0.1227735463824251
573.125 0.1105950527061427 0.010491814809107405 -0.283146259973942 -0.6289114012241969 -0.283146259973942 -0.6289114012241966 0.08307273382737546 -0.11767782263727218
