!Created with skrf (http://scikit-rf.org).
# GHz S RI R 50.0 
!freq ReS11 ImS11 ReS21 ImS21 ReS12 ImS12 ReS22 ImS22
500.0 0.04980816817355356 0.11561570341576807 -0.6127882359446171 0.20811687593188544 -0.6127882359446171 0.20811687593188544 0.042071446026368156 0.024720655737364643
500.625 0.04692980166983336 0.08839977703323293 -0.4358679375142825 0.4858635001532801 -0.43586793751428254 0.4858635001532802 0.05428822602743395 -0.028599964555704953
501.25 0.02652588260711644 0.08172957943929862 0.14204745330244023 -0.641273342653483 0.14204745330244029 -0.6412733426534832 0.020813369401489427 -0.0769066370011543
501.875 0.007346178158879724 0.09043793387119937 0.1869852365492592 0.6283992690836641 0.18698523654925925 0.6283992690836642 -0.02875829945914988 -0.07671806234791623
502.5 0.009664295746728335 0.10925745703227815 0.4725354000257204 0.4570682665448644 0.4725354000257202 0.45706826654486427 -0.05681784619484549 -0.017221288275925676
503.125 0.018152995954331654 0.1235605097528325 -0.6352038174083772 -0.17352027380465015 -0.6352038174083774 -0.1735202738046502 -0.028346247650212705 0.038787224287219445
503.75 0.03627225156379421 0.11928391044764974 0.6393940489102024 -0.15439778112838254 0.6393940489102021 -0.15439778112838248 0.02941491775593153 0.04494578187053905
504.375 0.05012392539869048 0.11018863160681414 -0.4860974168928294 0.4466689690440936 -0.48609741689282926 0.44666896904409337 0.06607679295899153 -0.0013291141427038506
505.0 0.04664778401319089 0.09419279983249068 0.2132838678999927 -0.6282753839173836 0.21328386789999276 -0.6282753839173838 0.04709753065244489 -0.05095836354555115
505.625 0.03779870988211431 0.07957112506072822 0.11643620238698725 0.6537137429947396 0.11643620238698732 0.6537137429947394 -0.0031448929528302173 -0.06082720426431591
506.25 0.022936269790394564 0.08347928980664628 -0.4189682676777622 -0.5173241567972297 -0.4189682676777624 -0.5173241567972299 -0.04401716644527601 -0.01737814442612576
506.875 0.006823370283878298 0.09471141183718373 -0.6178493558967612 -0.2513958287829053 -0.6178493558967612 -0.2513958287829053 -0.026253365901161358 0.04365995625842919
507.5 0.011378692567350385 0.11104923828452498 0.6600602606922547 -0.07439447517643227 0.6600602606922547 -0.07439447517643238 0.026362042818828084 0.05915183170487106
508.125 0.02950524895134675 0.12314111251944546 0.5459433224565493 -0.38106027583845126 0.5459433224565494 -0.3810602758384512 0.07570763959340235 0.02407680177209732
508.75 0.04923753485964927 0.11487715479588999 -0.2991678769227703 0.5950793483326455 -0.29916787692277025 0.5950793483326454 0.07643382819451958 -0.03440010022925949
509.375 0.06028374874223177 0.09510738653171191 -0.02116256657829352 -0.6685553121202168 -0.021162566578293494 -0.6685553121202167 0.028012350779477148 -0.059779098364205654
510.0 0.05052648214611155 0.07833207028630502 -0.3420363277393411 -0.5810874128242329 -0.3420363277393408 -0.5810874128242328 -0.024970752969113164 -0.033043153858212215
510.625 0.025079480920055436 0.06946594521836327 -0.5759747094938251 -0.34796522389283496 -0.5759747094938251 -0.3479652238928351 -0.0333497077856022 0.02438821004897715
511.25 0.010639079049239608 0.08503092628064737 0.672095559567549 0.03011080035810301 0.6720955595675487 0.030110800358102954 0.015431214242282313 0.057565153739209625
511.875 0.011524436925379689 0.1122755233655114 -0.6063824361569069 0.2935824517197807 -0.6063824361569069 0.2935824517197807 0.07468190936939127 0.037463418392626104
512.5 0.03111463545276097 0.12235826889142692 0.39726528877391604 -0.5401875295995912 0.397265288773916 -0.5401875295995913 0.09389938736991874 -0.008126967268687469
513.125 0.062342979009378664 0.11310600752297455 0.09693376859302008 -0.6657013457635744 0.09693376859302008 -0.6657013457635744 0.06095255570205537 -0.052195135332043105
513.75 0.07107128258348788 0.08530061759634486 0.23272911935526314 0.6374176613716479 0.23272911935526316 0.6374176613716479 -0.003151393762022524 -0.050588089184699876
514.375 0.05214015805031856 0.06091102566413611 -0.5091438497477764 -0.45293517897115504 -0.5091438497477764 -0.45293517897115504 -0.03141430052057739 -0.0016566864763831457
515.0 0.02286282689763043 0.06049121520153701 0.6647458372482038 0.15566737848462986 0.6647458372482039 0.1556673784846299 0.0009256001782059859 0.04818949415212119
515.625 0.003113061391792571 0.0811871250700283 0.6570660694790429 -0.17732621750723532 0.6570660694790429 -0.17732621750723537 0.060929972680855524 0.05486198288235334
516.25 0.011943056208033112 0.1084692549842141 -0.494817377920187 0.462816355148654 -0.49481737792018693 0.4628163551486539 0.09338409398289634 0.0087213604423892
516.875 0.039438290695614775 0.12196868980765688 -0.22229057317868609 0.6405112915453909 -0.2222905731786862 0.6405112915453909 0.07192761045058202 -0.04459063065565566
517.5 0.062442822810840334 0.10773034088160088 -0.09933445826094389 -0.6714317651596943 -0.09933445826094389 -0.6714317651596942 0.021269310998383376 -0.06417005819344615
518.125 0.0692476761090592 0.07718174126212124 -0.4055694105889906 -0.5480972627264837 -0.4055694105889906 -0.5480972627264836 -0.022153916345680726 -0.024076719681219643
518.75 0.04966834301313905 0.05986134616454761 0.618883205290582 0.29658722152509 0.618883205290582 0.29658722152509 -0.017751436083615967 0.03608051946435297
519.375 0.01969602626599097 0.06353766007093603 -0.6854763973348844 0.02872394626679737 -0.6854763973348843 0.02872394626679734 0.03177853986146949 0.06458865979464527
520.0 0.009498287602088595 0.08658348016559198 0.5886904622777742 -0.3464299058737402 0.5886904622777741 -0.34642990587374 0.08348785726036578 0.03574054234596789
520.625 0.024040552954967445 0.1111414419423966 -0.359424936961039 0.5772340809726284 -0.359424936961039 0.5772340809726284 0.09170098772453303 -0.021472262629937643
521.25 0.050937852980600176 0.11424623544718435 0.052245756661453494 -0.6778776949863629 0.052245756661453494 -0.677877694986363 0.05436354016838591 -0.0570375912953413
521.875 0.07280766407965711 0.09352310202850547 -0.26926674643564363 -0.6272601818941501 -0.26926674643564363 -0.6272601818941501 -0.002673508702509271 -0.04163834227430048
522.5 0.0655563017499933 0.06693198104233158 0.5294215826904668 0.435661102579677 0.5294215826904667 0.4356611025796769 -0.027995867952165757 0.005976521624294486
523.125 0.04117146534680305 0.050780870117147 -0.6731577800329183 -0.13717557421746962 -0.6731577800329184 -0.13717557421746968 0.00639375128286731 0.054229084414767106
523.75 0.017944091175152194 0.06104999363266385 0.6594587124795256 -0.1923788009217585 0.6594587124795254 -0.19237880092175844 0.06363708419951382 0.054647636752336595
524.375 0.009891168134384731 0.08827528763053724 0.49458394177763704 -0.47450371965090254 0.4945839417776369 -0.47450371965090243 0.09924967335061746 0.014449450754077386
525.0 0.027701863543743654 0.10844179697868993 0.22090876088103764 -0.6484899337855539 0.22090876088103775 -0.6484899337855538 0.08008847169597348 -0.037035134592970885
525.625 0.05733932401188775 0.10599818855123755 0.10239151205290065 0.6767019752884981 0.10239151205290054 0.676701975288498 0.022801505434840545 -0.054790838437971834
526.25 0.07089432490985473 0.0880119445670325 -0.4012435357025781 -0.5565067523831767 -0.4012435357025781 -0.5565067523831767 -0.021162342972837023 -0.02263620062859673
526.875 0.06258094020744195 0.06280264144897496 0.6127861269125401 0.3107825627531804 0.6127861269125403 0.31078256275318045 -0.01742108629787421 0.03531035534920553
527.5 0.043499133477599164 0.05282902865042394 -0.6884381369626817 0.007231500365977726 -0.6884381369626816 0.007231500365977753 0.03309035432026758 0.06922310369296869
528.125 0.025249269072704715 0.06385774645836767 0.6073332009340909 -0.3240413335700987 0.607333200934091 -0.32404133357009873 0.08501945500973125 0.04647572835901758
528.75 0.02334352876190246 0.0824252098164147 -0.39056705311166684 0.5635051431010248 -0.39056705311166695 0.563505143101025 0.0978469748004567 -0.004329419033283431
529.375 0.03859497706108503 0.09649122878008418 0.08968411319094204 -0.6793427284376984 0.08968411319094198 -0.6793427284376984 0.06489406018866833 -0.04714947936990083
530.0 0.055555185286154815 0.09440588387022286 0.22840062114644175 0.6468328414429099 0.22840062114644177 0.6468328414429098 0.013298380519865323 -0.043598965115806805
530.625 0.06349680555051308 0.07599337314885946 -0.49638396314801486 -0.4720286867570296 -0.49638396314801486 -0.47202868675702964 -0.012061824190048993 -0.000466561116664016
531.25 0.056820212186419375 0.05976241222803545 -0.6600716398901314 -0.19237877179746599 -0.6600716398901314 -0.19237877179746596 0.003296839241574763 0.0504438504070277
531.875 0.04065471776486024 0.0575519338980017 0.6769013388099598 -0.13008378506391638 0.6769013388099598 -0.13008378506391638 0.056639553081707365 0.06772427647829588
532.5 0.02802611626904089 0.06565552426114549 -0.5418646721926181 0.42431670244350883 -0.5418646721926182 0.42431670244350894 0.09829980615007916 0.033736555992307654
533.125 0.03068311482976186 0.07949299309554995 0.28818364632329646 -0.6230011679397163 0.28818364632329635 -0.6230011679397159 0.09457617969395549 -0.01887463084219963
533.75 0.043028933269230546 0.08711631416857182 0.024483295630177957 0.6848406401244735 0.02448329563017795 0.6848406401244734 0.0522213843735668 -0.04739414132961077
534.375 0.05304957282947285 0.08113250211358512 -0.33230840293676794 -0.6006880103365947 -0.3323084029367679 -0.6006880103365947 0.0038214531027572496 -0.028142770057598
535.0 0.05488801237965976 0.07017731434585545 0.568767608911239 0.38533122524904445 0.5687676089112389 0.38533122524904434 -0.004879873976089424 0.02250951668831752
535.625 0.0483232920865769 0.061588528851231006 0.6825239664338603 0.08915486130853566 0.6825239664338603 0.08915486130853564 0.02595494347665452 0.06476555827635685
536.25 0.03875515419185831 0.06041281406090113 -0.6490971653628661 0.2296946401968044 -0.6490971653628662 0.22969464019680447 0.07798995229558613 0.06235595205465545
536.875 0.03436382230576111 0.06857418744521071 0.4736056032216202 -0.4979906205974934 0.4736056032216202 -0.4979906205974932 0.1075017811626161 0.01883160414933352
537.5 0.035724364704889794 0.07927910456082704 0.19942966708649534 -0.6583479830513354 0.19942966708649532 -0.6583479830513352 0.09348279273983306 -0.0285417169116863
538.125 0.044141274217664235 0.0813576504277894 0.1160576857436255 0.6765569369135831 0.11605768574362552 0.6765569369135831 0.04816064728406567 -0.045430942360775106
538.75 0.0519956175092661 0.07754731806629576 -0.4072464890241839 -0.5525536229665663 -0.4072464890241841 -0.5525536229665664 0.006506441339485469 -0.01731854358471724
539.375 0.053004968197788396 0.07110819930792542 -0.6139339078907131 -0.31042199953603505 -0.6139339078907131 -0.31042199953603494 0.006398564806660876 0.03433018607054905
540.0 0.04955108971235719 0.06568552735803543 0.688418311799082 0.002184848938736434 0.6884183117990818 0.002184848938736379 0.04505152209622227 0.06628236060575095
540.625 0.046556637276877554 0.06579310110051323 -0.6179535427760325 0.30642374382146437 -0.6179535427760325 0.30642374382146437 0.09795264525803826 0.05640153122341088
541.25 0.04818188671226781 0.06668948697345016 -0.4141570015109422 0.5508870565084835 -0.414157001510942 0.5508870565084832 0.1176309962916957 0.007652274676606785
541.875 0.051123376514202415 0.06615279328575005 0.12273801583760106 -0.678599479321167 0.12273801583760115 -0.6785994793211672 0.09391329664932337 -0.03743946277748546
542.5 0.051108316145827726 0.06536077094328491 -0.19427174613326434 -0.6640811466358253 -0.19427174613326437 -0.6640811466358254 0.04006622749529247 -0.044477503263046114
543.125 0.04782052421409634 0.06282464233322838 0.4684973437902352 0.5075344411215558 0.4684973437902352 0.5075344411215558 0.00923657164267945 -0.006750183559242837
543.75 0.04593522693814425 0.061790971132944406 -0.6466271233237473 -0.24409020855000596 -0.6466271233237473 -0.24409020855000596 0.019951125878934644 0.04653912702784065
544.375 0.046120504845867605 0.06672251639712107 0.6866193477128233 -0.0717705849392638 0.6866193477128233 -0.07177058493926392 0.06896930355125389 0.06699229660826618
545.0 0.04824107187388584 0.06828190718537008 -0.5836602920996771 0.3688281067990685 -0.5836602920996771 0.36882810679906863 0.1161290627823911 0.04728580640979793
545.625 0.053050637770385184 0.0655124872917196 0.35865669907085596 -0.5897688799021467 0.3586566990708559 -0.5897688799021468 0.1262267071444671 -0.004339248189110717
546.25 0.05811142851495071 0.060324863855829705 -0.05915617967446917 0.6873217518068832 -0.059156179674469136 0.6873217518068829 0.09666083998037005 -0.042025517976519
546.875 0.05354204913639794 0.053529107545096724 -0.2522784233901503 -0.6441364312943346 -0.2522784233901504 -0.6441364312943347 0.046830050414964415 -0.04403116389278917
547.5 0.04306084977687938 0.05211492154639387 -0.5120064852963149 -0.4641274589318584 -0.5120064852963151 -0.4641274589318585 0.020368582459495112 -0.000446625297906152
548.125 0.03666503402135057 0.05938777788009728 -0.6647638741886887 -0.1887282197050424 -0.6647638741886885 -0.18872821970504233 0.037041269530096885 0.04754910319736812
548.75 0.03876520428605318 0.06933706999819143 -0.6788739570364486 0.12599384517692191 -0.6788739570364484 0.12599384517692183 0.08633670666126804 0.06483971661033835
549.375 0.05032326753436049 0.0725677638921796 -0.5515908488502683 0.41113912049048307 -0.5515908488502683 0.41113912049048307 0.1282621258399264 0.03539539885782503
550.0 0.06368966706833756 0.06689625567248195 -0.3145959029737291 0.6134797212675622 -0.3145959029737291 0.6134797212675622 0.13628672586239338 -0.016493329269630055
550.625 0.06617977779368611 0.05224386353260696 -0.010821131392537216 0.6906621852675887 -0.010821131392537217 0.6906621852675888 0.10039367614973146 -0.05038461990085673
551.25 0.05564876832097315 0.037936652189955566 0.29431668653974663 0.625131355175918 0.2943166865397465 0.6251313551759179 0.05528005212880255 -0.04599058928589059
551.875 0.03966963982610489 0.03806236538689922 -0.5410653832795297 -0.4284237752261734 -0.5410653832795297 -0.4284237752261734 0.03251780834222636 6.373802603411305e-05
552.5 0.02898456049974535 0.0518632852697545 0.6733114180010229 0.14448901097889008 0.6733114180010228 0.1444890109788901 0.05591484802576293 0.04065339773464142
553.125 0.03076269449840343 0.06673653585934337 -0.6659774462944258 0.16571489953444557 -0.6659774462944255 0.16571489953444551 0.10403972665181703 0.04924261081392199
553.75 0.04640687092208831 0.07396190869447757 -0.5225288610849296 0.43938900629036887 -0.5225288610849294 0.4393890062903687 0.13983575283155408 0.01661152419031654
554.375 0.06475890404021319 0.06739922037832871 0.2781073908263976 -0.6211634467186837 0.27810739082639757 -0.6211634467186837 0.13949778973096646 -0.030573678277351232
555.0 0.0690525558905862 0.04843051618099771 0.020756052575558258 0.6800045553509951 0.020756052575558258 0.6800045553509951 0.10287772748594451 -0.05848002144228175
555.625 0.05527412463607652 0.03331287014473528 -0.31585768543894643 -0.6011597301959254 -0.3158576854389465 -0.6011597301959255 0.06093925536830199 -0.046932110267558724
556.25 0.0332189428055949 0.033846948788222087 -0.546501174094918 -0.4024868577850128 -0.546501174094918 -0.40248685778501303 0.043293256443198445 -0.0054146855435078
556.875 0.021564354902246452 0.05101865375375504 -0.6635087726442938 -0.12460128160218198 -0.6635087726442938 -0.12460128160218195 0.06673917508332876 0.02899469637643642
557.5 0.028109936683376927 0.07224337538816855 -0.6506306489734578 0.1740218746938181 -0.6506306489734578 0.17402187469381805 0.10971832650902597 0.03643005518275361
558.125 0.04937810631952538 0.08364047774958284 -0.5105104690606134 0.43870461734257427 -0.5105104690606134 0.43870461734257415 0.14644686779890725 0.005200905620141536
558.75 0.07183396523276186 0.07397871664131081 -0.2738908331967672 0.616648774184675 -0.2738908331967672 0.616648774184675 0.14765273493233722 -0.03872462988596782
559.375 0.07960064564409088 0.04850006298340157 0.01923667394879445 0.6785553199311315 0.019236673948794504 0.6785553199311315 0.1124403292276117 -0.06917671206607776
560.0 0.06558393773799989 0.025824912596856917 0.31367806029707784 0.6051435738351035 0.31367806029707784 0.6051435738351035 0.07034935361031538 -0.060161388731620025
560.625 0.0370971821875106 0.022435706959156587 -0.5501700762169532 -0.4094884541865154 -0.550170076216953 -0.40948845418651525 0.049499349686924946 -0.01869178189768039
561.25 0.01554011232952024 0.04357859982875066 0.6740851336878348 0.12582706697075047 0.6740851336878348 0.12582706697075044 0.07562459532618689 0.021073227495183536
561.875 0.01994053194468917 0.07422568629690822 -0.660856590120902 0.17854752311320207 -0.6608565901209019 0.17854752311320202 0.12132214315014299 0.028606469304866676
562.5 0.049959837198863044 0.09072922761629945 0.5176191457441959 -0.44661920330560306 0.5176191457441959 -0.44661920330560306 0.15814243212093387 -0.005620754378999322
563.125 0.08446533702969353 0.0786368216570754 -0.2741609620241468 0.6256758402365962 -0.27416096202414686 0.6256758402365962 0.15680436065078654 -0.053279466223792885
563.75 0.0967450578700523 0.04478457579064753 -0.02262453296139078 -0.6866079892737919 -0.022624532961390782 -0.686607989273792 0.11946544629432268 -0.08528186105913303
564.375 0.07891658971068785 0.010863267740772453 0.3187785475860813 0.6122689943927734 0.3187785475860814 0.6122689943927734 0.0748539926329718 -0.07668049672449498
565.0 0.04093216053307369 0.0007452259561698191 0.5548203322233709 0.4136578840664223 0.5548203322233709 0.4136578840664223 0.05479389586169796 -0.03646544976131434
565.625 0.008093440667346498 0.024725158535053457 0.6790071369472123 0.12772836342383612 0.6790071369472124 0.1277283634238361 0.08216374271715296 0.005580378297013147
566.25 0.006053492029311186 0.06626693967554659 0.664516190352036 -0.1769605522421654 0.664516190352036 -0.1769605522421655 0.12955023955420053 0.011394396161997326
566.875 0.037068015324869974 0.09521257742972287 0.5222192864254465 -0.4437567036674948 0.5222192864254466 -0.4437567036674949 0.16612437115058265 -0.02481876511066563
567.5 0.08154379536762671 0.09055820502743062 0.2823868409050158 -0.6230462406070686 0.28238684090501587 -0.6230462406070687 0.16252555837975524 -0.07183005534622602
568.125 0.10918049330630161 0.05284604463556624 -0.01069837902333755 -0.6872707233735224 -0.010698379023337383 -0.6872707233735224 0.12693874172650543 -0.10456836721865037
568.75 0.0974648643778524 0.006279414030764957 -0.3071924406383204 -0.6187615076441128 -0.3071924406383204 -0.6187615076441126 0.08033202165065277 -0.0960610918596681
569.375 0.05277747010703336 -0.01751286544264503 -0.5468888670500761 -0.42719268246851444 -0.5468888670500761 -0.42719268246851444 0.05655003141085416 -0.058551810387791524
570.0 0.004345135587230348 0.0014340765104831343 -0.678336554682309 -0.14533036085578055 -0.6783365546823091 -0.14533036085578055 0.07965725387970676 -0.014936405143874398
570.625 -0.009969753606100334 0.05038461372806137 0.6712240225298809 -0.16024472719144484 0.6712240225298809 -0.16024472719144484 0.12276069173978435 -0.0060067905145089265
571.25 0.017289217678903568 0.09367764123252711 -0.5349626240964213 0.43016990860926324 -0.5349626240964209 0.43016990860926296 0.16225365328294827 -0.03915745185396509
571.875 0.07008880838592318 0.10103784782713862 0.3005036303493954 -0.6149520122619986 0.30050363034939553 -0.6149520122619987 0.16218786339809743 -0.08720434667686594
572.5 0.1100698522075704 0.06579409316759936 -0.012177696313507732 0.6860427869074917 -0.012177696313507893 0.6860427869074914 0.12951439250736235 -0.12277354638242513
573.125 0.11059505270614292 0.010491814809107098 -0.2831462599739421 -0.6289114012241968 -0.283146259973942 -0.6289114012241966 0.08307273382737532 -0.11767782263727222
