# GHz S RI R 50 
!freq	ReS11	ImS11	ReS21	ImS21	ReS12	ImS12	ReS22	ImS22	
500.0	0.0209268214371	-0.0255798533232	1.0	0.0	-0.00662060910769	0.0268003591684	0.0873507337668	0.296651003529	
500.625	-0.0143011748982	0.0443149256848	1.0	0.0	-0.0351495941338	0.0361103142451	0.241319312346	-0.0257802385968	
501.25	-0.0735089305364	0.0766957912566	1.0	0.0	0.078578078479	0.025753644575	0.177970084928	-0.0832477150789	
501.875	-0.0478721880747	0.0260101683129	1.0	0.0	0.0208380487447	-0.0818170093471	0.192458642535	-0.0601177612081	
502.5	0.0570785358196	-0.067392295579	1.0	0.0	-0.0915677668783	-0.0462952737933	0.188310749564	-0.0448749673603	
503.125	-0.00869865092603	-0.00264249769045	1.0	0.0	0.00775170569168	0.005646834374	0.0437026251468	-0.178139329227	
503.75	0.0516567652504	0.0389768002402	1.0	0.0	0.04903615745	0.0615360042759	0.192547292643	-0.0763680733527	
504.375	0.0745828993664	0.00165969829746	1.0	0.0	-0.0235027426182	-0.0637057571256	0.165876935179	-0.0778479337442	
505.0	0.0181377069402	-0.0449485146078	1.0	0.0	-0.0229405601757	0.0499458893473	0.184333941445	-0.0642549458889	
505.625	-0.02152119684	0.0151990236142	1.0	0.0	0.0158245814073	-0.0346737793165	0.202300249845	-0.0990085681836	
506.25	-0.00491692782259	0.0394702583691	1.0	0.0	-0.0935243830014	0.0325365809675	0.184399297562	-0.120116804249	
506.875	-0.106695840425	0.129045270217	1.0	0.0	0.236842584385	0.138149586693	0.153089060394	-0.115195886845	
507.5	-0.150767708654	0.152531535868	1.0	0.0	0.189779663495	-0.223012159304	0.161419626091	-0.0934369634021	
508.125	-0.0141280995266	0.0746765976878	1.0	0.0	-0.0899619526599	-0.381606830608	0.186927441981	-0.113287953278	
508.75	0.174181314393	0.217218702434	1.0	0.0	-0.411127993753	-0.337590857897	0.169442943977	-0.155196150076	
509.375	-0.0342817074116	0.0861110741095	1.0	0.0	-0.273673408182	0.04678186575	0.148809506624	-0.144778081529	
510.0	-0.0618309071304	0.0381688905672	1.0	0.0	0.0748604635925	0.0660189475076	0.125927953614	-0.121344206435	
510.625	-0.0289513564641	0.0517614170479	1.0	0.0	0.0136864452222	-0.0495776006753	0.164757497292	-0.148380062927	
511.25	0.0163956732151	0.0174311317114	1.0	0.0	-0.0194600750568	0.0256459795783	0.149968405178	-0.178327884797	
511.875	0.00207658385953	0.00504942053743	1.0	0.0	0.015839191895	-0.00297091088722	0.106003009762	-0.15446001602	
512.5	0.00319022397087	-0.00201432634268	1.0	0.0	-0.00611153198346	0.0037740545557	0.111974419235	-0.145632201392	
513.125	-0.00383647716833	0.00452810259699	1.0	0.0	0.00620206058606	-0.0192815500637	0.124672525306	-0.147534239187	
513.75	0.00437708842265	-0.00285643898243	1.0	0.0	-0.00580046257105	0.00969688162971	0.130654342205	-0.173383492255	
514.375	0.000308967721931	-0.0171964680037	1.0	0.0	0.0594185714708	0.0121382223093	0.0995330887495	-0.171090129754	
515.0	0.00738923252103	0.0459123345386	1.0	0.0	0.00655990714452	-0.227504064562	0.0808076194798	-0.165110546017	
515.625	0.0345054003649	0.0293115851923	1.0	0.0	-0.137788142668	-0.0172048494947	0.0940298490768	-0.167785220471	
516.25	-0.00289519769709	-0.0531928478509	1.0	0.0	0.0552541382202	0.147649279738	0.0898789353071	-0.173188804221	
516.875	-0.0560254599931	-0.0299657715488	1.0	0.0	0.088359163346	-0.0682617908727	0.0744354603003	-0.188655241726	
517.5	-0.0195424622819	-0.0219396466727	1.0	0.0	-0.058851996007	-0.0754620442375	0.0511148757829	-0.179494060496	
518.125	0.00583871696525	-0.0394590449058	1.0	0.0	-0.030836057535	0.056296715075	0.06116998485	-0.169510726799	
518.75	-0.0150159213213	-0.0513736826629	1.0	0.0	0.0655104087165	0.00430043647991	0.0649508966623	-0.187216859584	
519.375	-0.00322758037405	0.00896366410027	1.0	0.0	-0.0130616531453	0.0262729714855	0.042318485551	-0.199314932437	
520.0	-0.023984787571	-0.00899651719592	1.0	0.0	0.0567349487019	0.0154129822238	0.022390596213	-0.201014666284	
520.625	-0.0472165355562	-0.021558209708	1.0	0.0	0.0324255443942	-0.108639950495	0.0216469616266	-0.160820991979	
521.25	0.017218220037	-0.0246383954416	1.0	0.0	-0.193270505656	-0.0229904285189	0.031834364877	-0.176706232211	
521.875	0.10113084257	-0.104339293682	1.0	0.0	0.0140404194208	0.236961149772	0.0327915612591	-0.201437690022	
522.5	-0.0605636480139	-0.104353515612	1.0	0.0	0.0983754116424	-0.223760067588	0.00901882787915	-0.200273328438	
523.125	0.0198370060698	-0.00703579834347	1.0	0.0	-0.25144959917	-0.136950211044	-0.0265268205962	-0.184690450441	
523.75	0.0864012052573	0.0434009631492	1.0	0.0	-0.200560738947	0.163154581559	-0.0057880790724	-0.171670993681	
524.375	0.0886070547093	-0.0222072518807	1.0	0.0	0.153374913171	0.288406577505	-0.000155803578664	-0.181587370642	
525.0	-0.0058077981978	-0.104825773255	1.0	0.0	0.341954392765	-0.142570960347	-0.0230994253884	-0.188497581289	
525.625	-0.0123642628578	-0.00637541165555	1.0	0.0	-0.124719457756	-0.0816317474174	-0.0438451300422	-0.183295548554	
526.25	0.035521762853	-0.0318294652493	1.0	0.0	-0.00470629344644	0.117673608659	-0.0359704195424	-0.15755656622	
526.875	0.0179030078881	-0.061756772963	1.0	0.0	0.104344611926	-0.0325915186275	-0.022522862765	-0.165059150637	
527.5	0.000547131059537	-0.0135758024981	1.0	0.0	-0.0610078883484	-0.0496524043345	-0.0441293473403	-0.189005404611	
528.125	0.0427883481638	-0.00995505982473	1.0	0.0	-0.0133555603214	0.095483788393	-0.0605502093679	-0.18353911818	
528.75	0.0169811032384	-0.015100938865	1.0	0.0	0.0611816262325	-0.0205338451151	-0.0653691784776	-0.147754864845	
529.375	0.0105843835367	0.000272077326326	1.0	0.0	-0.0252856386247	0.0159426747141	-0.0578204351038	-0.163923187663	
530.0	0.0379960829564	-0.0525208983664	1.0	0.0	0.0795594653792	0.00491063589463	-0.0484068582216	-0.167316132815	
530.625	0.0490870302131	-0.043870144642	1.0	0.0	0.0203356637998	-0.122325861062	-0.0887218563553	-0.163704159144	
531.25	0.0587606293264	0.0139178860184	1.0	0.0	-0.13534760761	0.0241100241478	-0.0951609742944	-0.144655791642	
531.875	0.0431720019395	-0.0669688526195	1.0	0.0	0.142615976657	0.0310844239664	-0.0716653527368	-0.141773927667	
532.5	-0.0446457169006	-0.0455373269053	1.0	0.0	0.0439298999548	-0.164310415172	-0.0755106615387	-0.153792325378	
533.125	-0.0766595661073	0.0233443899227	1.0	0.0	-0.127163856127	-0.0173536959467	-0.107878357373	-0.159789874657	
533.75	-0.0205192776339	0.0195576138329	1.0	0.0	0.0308649911596	0.0573902768032	-0.135474889872	-0.139893316371	
534.375	-0.0549633365599	0.00743884950533	1.0	0.0	0.0528829188296	-0.066318704309	-0.107575715153	-0.107143076368	
535.0	-0.00543631011229	0.0211548973941	1.0	0.0	-0.0236603415277	0.0093100392699	-0.0911757346351	-0.126576436582	
535.625	0.0144493455148	0.0239150895791	1.0	0.0	0.022817421148	0.0563294708697	-0.123295642675	-0.160833840571	
536.25	0.00512811596652	-0.0198389834628	1.0	0.0	0.024624130841	-0.0331324199447	-0.167295111738	-0.125791897674	
536.875	-0.0171463611759	0.00869787665692	1.0	0.0	-0.00768761781207	0.0359534141911	-0.166511559705	-0.0714430794512	
537.5	-0.047024589283	-0.0339616605227	1.0	0.0	0.0890477428497	0.0309574949271	-0.111039837452	-0.0978222968869	
538.125	-0.14498915157	0.0236036702624	1.0	0.0	-0.069628881123	-0.106505686663	-0.120380166762	-0.117877898501	
538.75	-0.155840705097	0.123360847639	1.0	0.0	-0.128627360648	0.143192823245	-0.173745708462	-0.106710795778	
539.375	-0.0556561291758	0.0328920042484	1.0	0.0	0.11960190609	0.172894280351	-0.182208044284	-0.0673695341352	
540.0	-0.00927604575589	-0.0682461746695	1.0	0.0	0.203413807878	-0.149552437644	-0.140926205225	-0.05269195681	
540.625	-0.0199179892632	-0.0288534395677	1.0	0.0	0.0394969802085	-0.232979178361	-0.126865297163	-0.0768159953265	
541.25	-0.0963958821383	0.0836876606916	1.0	0.0	-0.213522576908	-0.0685686387629	-0.153212239547	-0.0963346182043	
541.875	-0.125029928206	0.0933600342501	1.0	0.0	-0.175211317709	0.162412037649	-0.180840555062	-0.0608443753668	
542.5	-0.021671135923	0.00575160631387	1.0	0.0	0.128068116263	0.192364333738	-0.175930560833	-0.0411235875443	
543.125	-0.0103777038461	-0.116365343322	1.0	0.0	0.164075692985	-0.184371724673	-0.145657214089	-0.0378398268262	
543.75	-0.0559415776253	-0.021234449843	1.0	0.0	-0.193994679696	-0.00544670423847	-0.14816785528	-0.0524349900575	
544.375	0.0682311821323	-0.0215571934515	1.0	0.0	0.125549973211	0.134714334855	-0.167908385241	-0.0612446434415	
545.0	0.0957378666418	-0.0998786215919	1.0	0.0	0.12379248714	-0.15453936499	-0.185924370166	-0.0293410978884	
545.625	0.0523978022862	-0.0312450526591	1.0	0.0	-0.179263310717	-0.0948668645892	-0.170092158726	-0.0253030535689	
546.25	0.134895032107	0.079452651319	1.0	0.0	-0.0472119188941	0.209569241351	-0.158843602462	-0.0239277276082	
546.875	0.194254990329	0.0706926312397	1.0	0.0	0.231006586382	0.0392305125842	-0.174481242364	-0.0302293107796	
547.5	0.0677381540474	0.0203306357421	1.0	0.0	-0.0158676498926	-0.245336316735	-0.19614331226	-0.0232819251991	
548.125	-0.0619286391661	0.125037293358	1.0	0.0	-0.2429150509	0.0333519353457	-0.187473914347	0.00687065479367	
548.75	0.0341057800042	0.150849513019	1.0	0.0	0.130186319766	0.21154282333	-0.180596468227	0.0145843980527	
549.375	-0.000677155906638	-0.00624670412354	1.0	0.0	0.196365131864	-0.153097225374	-0.170566735477	0.00477042408509	
550.0	-0.153929311073	0.0120757212348	1.0	0.0	-0.234184288706	-0.0810570416644	-0.185090244381	0.00847638006959	
550.625	-0.0897707174201	0.0931043884441	1.0	0.0	-0.0324886578574	0.241870998197	-0.204126554731	0.0248929468278	
551.25	0.0257466062085	-0.034105687273	1.0	0.0	0.21133078035	-0.112300542871	-0.183954853191	0.0508890557444	
551.875	-0.0979970289181	-0.0633147121478	1.0	0.0	-0.193768892835	-0.0902848986263	-0.170717620937	0.0515655171646	
552.5	-0.0307644783902	0.0255869104092	1.0	0.0	0.0288545640997	0.16709648168	-0.167923554197	0.0381764405652	
553.125	0.0353985122667	-0.0533835630592	1.0	0.0	0.138522728214	-0.0768444975855	-0.174624090535	0.0427384565411	
553.75	-0.0134925535282	0.0249890819872	1.0	0.0	0.00425039725131	0.054094039627	-0.195060953089	0.0631195678321	
554.375	0.00289948166326	-0.00850406993387	1.0	0.0	0.0932104256409	-0.0467833284011	-0.171117090299	0.0778489434271	
555.0	-0.0562166045222	-0.0399348983625	1.0	0.0	-0.0790627288063	-0.0618071151998	-0.151524497212	0.0730511108487	
555.625	-0.0797858138339	0.00941765855842	1.0	0.0	-0.0228525613312	0.138947035249	-0.1781042372	0.0594981611159	
556.25	-0.00798200822571	-0.0499611941035	1.0	0.0	0.141461872676	-0.0214010640067	-0.177901346646	0.0830541966439	
556.875	-0.0707472269352	-0.12242455934	1.0	0.0	-0.08204694919	-0.125281462753	-0.172483173195	0.116252156422	
557.5	-0.061658690467	-0.0802303110186	1.0	0.0	-0.127755797479	0.0629919249158	-0.153148894813	0.11409914876	
558.125	0.0279197388369	-0.00277619676899	1.0	0.0	0.0186500264841	0.137654750952	-0.126228527323	0.0997238223845	
558.75	0.0956165792395	0.0371513236026	1.0	0.0	0.143490207088	0.015426348056	-0.148152294176	0.0927411072421	
559.375	0.0731424099453	0.000819935633385	1.0	0.0	0.0209020647967	-0.147828460795	-0.16173202321	0.111099019323	
560.0	-0.0245872172848	0.0157903042293	1.0	0.0	-0.15839410839	-0.00648677510617	-0.13172919573	0.132341943774	
560.625	-0.0753937729673	0.0630775661469	1.0	0.0	-0.0869773577466	0.1553962788	-0.114620953307	0.124255006971	
561.25	0.0252037055115	0.0707353445899	1.0	0.0	0.179176719329	0.0733174848297	-0.118592326469	0.098285772002	
561.875	0.0834229663837	-0.0485043766707	1.0	0.0	0.0736989421863	-0.184125846427	-0.145121772136	0.11215046312	
562.5	-0.0504715183542	-0.0781905140694	1.0	0.0	-0.175140139215	0.0875466052971	-0.150429530318	0.137904923885	
563.125	0.0264299996227	0.0100717340724	1.0	0.0	-0.0501341272201	0.190961586856	-0.104610681887	0.157824487328	
563.75	0.117537909327	0.0822431727601	1.0	0.0	0.171592995189	0.0945346704491	-0.0897338127061	0.128127361874	
564.375	0.0986023634884	-0.0993160475894	1.0	0.0	-0.0669331768321	-0.178627322009	-0.132616660737	0.108772043283	
565.0	-0.0333532148099	-0.0422663048308	1.0	0.0	-0.1904595755	0.0464261155604	-0.14560001454	0.149516442285	
565.625	-0.0670211917483	0.100971721301	1.0	0.0	0.0909309593175	0.170930659106	-0.119004348576	0.1927645463	
566.25	-0.0763635581805	0.0433572534412	1.0	0.0	0.196672726431	0.00998156559601	-0.063061393091	0.165656616277	
566.875	-0.0487615051523	-0.137937559711	1.0	0.0	0.0777854626793	-0.182050635798	-0.0685886336152	0.141516971012	
567.5	-0.0550279669258	-0.26461823492	1.0	0.0	-0.155654762837	-0.12062193417	-0.121204394684	0.153208003325	
568.125	-0.0572239764051	-0.218156164962	1.0	0.0	-0.165554641809	0.119168392106	-0.106595528313	0.187347424638	
568.75	-0.00204784783645	-0.0349597209712	1.0	0.0	0.128847489138	0.165759922592	-0.0510771008534	0.199305340556	
569.375	0.105573750839	0.00157757112444	1.0	0.0	0.164087648794	-0.152499803939	-0.0371489222393	0.166148470522	
570.0	0.0109236907671	-0.0477700712175	1.0	0.0	-0.170198506257	-0.164239731229	-0.0631987826655	0.147165707405	
570.625	-0.163906253665	0.0769855510961	1.0	0.0	-0.130900903909	0.194459135676	-0.0853192699404	0.189825275161	
571.25	-0.0565912265074	0.233063815782	1.0	0.0	0.232861304156	0.068106523401	-0.0603213283188	0.201468781696	
571.875	0.0848924923105	0.0163078970005	1.0	0.0	-0.172058677358	-0.176004514082	-0.0190941375995	0.204319475581	
572.5	-0.0829386622465	0.0729132126302	1.0	0.0	-0.0534660722321	0.250485857786	-0.0124689609073	0.183241200324	
573.125	0.125243455193	0.0646556432235	1.0	0.0	0.145463656812	-0.216799256373	-0.0284560899182	0.176275764593	
573.75	0.0145122998161	-0.0985287621818	1.0	0.0	-0.203856477321	-0.156055757231	-0.0277579312905	0.198234834415	
574.375	-0.141670389112	0.124396173297	1.0	0.0	0.14390972636	0.207947735601	-0.00917234623797	0.207129669863	
575.0	-0.105997145804	-0.00289908485308	1.0	0.0	0.184392333811	0.162588546962	0.0123084354717	0.195463724018	
575.625	0.0302978708399	-0.0938806851191	1.0	0.0	0.0203372473058	-0.241447588879	0.019639539862	0.196358151675	
576.25	-0.00599021534492	-0.224866015909	1.0	0.0	-0.226422790153	-0.062308839728	0.00400734741158	0.187776886586	
576.875	-0.0698960495897	-0.151413642841	1.0	0.0	-0.112586153362	0.194347544419	0.0161825601058	0.206863663475	
577.5	-0.0224014183143	0.0345641110889	1.0	0.0	0.1942486698	0.120447327102	0.0480732705696	0.215821744851	
578.125	0.129637514732	0.0472031489951	1.0	0.0	0.1237953123	-0.198935226097	0.0665813253146	0.197560893369	
578.75	0.118498826228	-0.0451205883869	1.0	0.0	-0.164333096849	-0.197432180844	0.0598957806366	0.178961526183	
579.375	-0.10728549454	0.0159265005404	1.0	0.0	-0.0282554796226	0.251419001586	0.0572546981201	0.193112636454	
580.0	-0.0739087351258	0.194218707747	1.0	0.0	0.243385932987	0.0701805885712	0.0602624125217	0.202905501369	
580.625	0.170081563931	0.0487993311657	1.0	0.0	-0.122124393823	-0.216061991822	0.102090665594	0.214264314237	
581.25	0.0264871178747	-0.0461639724438	1.0	0.0	-0.255436074076	0.0115170396475	0.136519754387	0.182548973461	
581.875	-0.1263011096	-0.0784877439902	1.0	0.0	-0.142288714741	0.228949918458	0.112186770026	0.161922863655	
582.5	-0.115745142152	0.0995187165506	1.0	0.0	0.251585039723	0.0970754607292	0.111564042849	0.16977240462	
583.125	0.136064415609	0.0275200737599	1.0	0.0	-0.0264868168418	-0.269194227354	0.121529223931	0.18526938348	
583.75	0.00670686546195	-0.178303642551	1.0	0.0	-0.215942218729	0.146366899874	0.153371341323	0.179963321093	
584.375	-0.0788456817341	-0.00712268510216	1.0	0.0	0.203987936928	0.15583808237	0.183456177486	0.16196410728	
585.0	0.115325925058	0.0878522253672	1.0	0.0	0.166446782313	-0.194515292641	0.16693190163	0.12844102553	
585.625	0.106689537591	0.175274689014	1.0	0.0	0.0614966147427	-0.240976624729	0.150750223004	0.13659016822	
586.25	0.0620224438292	-0.0120868394523	1.0	0.0	-0.240665885205	-0.0131755127703	0.176854981806	0.159672218014	
586.875	-0.166771874442	-0.045804243291	1.0	0.0	-0.0404713567084	0.239000595886	0.200654027497	0.145369588754	
587.5	-0.219820627249	-0.0102181652544	1.0	0.0	0.207515524806	0.120676931977	0.224844892538	0.108644107326	
588.125	-0.0323077048133	0.00225538917289	1.0	0.0	0.152808678277	-0.199859392052	0.210222877806	0.0992973778056	
588.75	0.113617845274	-0.183463074806	1.0	0.0	-0.229562797002	-0.112850050419	0.187484378093	0.0951059897773	
589.375	-0.0723485607452	-0.239599894548	1.0	0.0	-0.00536472016627	0.246841776742	0.212958428333	0.119445975953	
590.0	-0.0317686806413	-0.0217222604372	1.0	0.0	0.232180609	-0.0771621431871	0.251015780259	0.108839000152	
590.625	0.192993460171	-0.0629529989622	1.0	0.0	-0.138073272037	-0.2083914737	0.259758349546	0.0702196418876	
591.25	0.0423366404147	-0.210887786647	1.0	0.0	-0.112512967759	0.227539655982	0.247349503719	0.0422003512874	
591.875	-0.0437583934807	0.0399685932829	1.0	0.0	0.251633056656	-0.00364252252573	0.235107762834	0.0545508762736	
592.5	0.189627129995	0.101690108356	1.0	0.0	-0.102005069969	-0.219490954164	0.252719176493	0.0557075286442	
593.125	0.146907927798	-0.0518941411786	1.0	0.0	-0.156230453183	0.176927141047	0.277948885955	0.0399784668103	
593.75	0.0361373166792	0.095291807929	1.0	0.0	0.233005622725	0.0369694143507	0.273275228177	0.00777356968944	
594.375	0.239109555886	0.123944490894	1.0	0.0	-0.0784342890538	-0.221929099157	0.247276230664	-0.0105823532387	
595.0	0.152922052206	-0.0887010881078	1.0	0.0	-0.15936578405	0.166302051388	0.264085627728	0.00327389189286	
595.625	-0.0920332088471	0.028866670781	1.0	0.0	0.188178369669	0.103585870468	0.287070721703	0.00215687243659	
596.25	-0.115216507874	0.193796278393	1.0	0.0	0.123032723008	-0.169997051252	0.31875922504	-0.0742156339988	
596.875	0.0353896757458	0.116313707724	1.0	0.0	-0.213687803808	0.0257325055615	0.288865431693	-0.0802793175794	
597.5	-0.130923465683	0.127503475376	1.0	0.0	0.135329050359	0.178017938736	0.266245911584	-0.0771696037056	
598.125	-0.304393804822	0.0459270337813	1.0	0.0	0.214685582697	0.043307890425	0.24204662329	-0.0514884768424	
598.75	-0.204878476812	-0.0350152934985	1.0	0.0	0.1637661472	-0.132348587831	0.286900055012	-0.0475190944509	
599.375	0.000191632404359	-0.027487451572	1.0	0.0	-0.198037204359	-0.0722788107029	0.291447181418	-0.0909860502079	
600.0	0.0361577872349	-0.166260627009	1.0	0.0	-0.124747343502	0.174432822673	0.276572730132	-0.133061906182	
600.625	0.0322231705774	-0.120229705598	1.0	0.0	0.0170408308701	0.229005609723	0.240983694639	-0.13418626366	
601.25	-0.0976060373284	0.0759933254128	1.0	0.0	0.231194815754	-0.0289919766356	0.238698599647	-0.112419111744	
601.875	0.0288968067758	0.262539999371	1.0	0.0	-0.0374160411544	-0.236806252252	0.271076754009	-0.125322143134	
602.5	0.21423558141	-0.0109085713907	1.0	0.0	-0.140580335092	0.187203595195	0.282311522105	-0.161754103042	
603.125	0.0344544913897	-0.0153016671405	1.0	0.0	-0.00958629126718	0.245380374214	0.236153967646	-0.192818363654	
603.75	-0.139331136098	0.0549109508149	1.0	0.0	0.253402609979	-0.0314775001889	0.206456294671	-0.182083138835	
604.375	0.00872366149945	0.171767170873	1.0	0.0	-0.106359355922	-0.229243565362	0.213205426233	-0.167780113301	
605.0	0.121208177213	-0.0316005681293	1.0	0.0	-0.210028203286	0.141981978403	0.229632929291	-0.170273126832	
605.625	-0.0207109542943	-0.182831868723	1.0	0.0	0.118971723171	0.220104798799	0.234712511784	-0.202189188554	
606.25	-0.113585641364	-0.0973242819513	1.0	0.0	0.248546800895	-0.0593966543552	0.217724000713	-0.224654320169	
606.875	-0.00587677320184	0.0803866131747	1.0	0.0	0.0187576979793	-0.273423343397	0.169671087263	-0.23180466242	
607.5	0.177502037896	0.134891925888	1.0	0.0	-0.263140382302	-0.0952757310374	0.174470284655	-0.199000470861	
608.125	0.173640720818	0.0634750741271	1.0	0.0	-0.204627972969	0.194666920032	0.200762510652	-0.20124529193	
608.75	-0.0297334212741	-0.0643280994959	1.0	0.0	0.0966398202056	0.279059170318	0.198244824355	-0.232832323462	
609.375	-0.264496939685	-0.00427070423989	1.0	0.0	0.283191494322	-0.0772428101222	0.187225792477	-0.260410216453	
610.0	-0.158689495044	0.177608990281	1.0	0.0	-0.122869468695	-0.27426654092	0.157965405421	-0.262920167484	
