!Created with skrf (http://scikit-rf.org).
# GHz S RI R 50.0 
!freq ReS11 ImS11
500.0 0.02137487 -0.2637574
500.625 0.008452484 0.2488759
501.25 0.1568355 -0.3932756
501.875 -0.5144978 0.08922155
502.5 0.3899173 0.2555108
503.125 -0.1589035 -0.4397939
503.75 -0.08905159 0.2996497
504.375 0.09334456 -0.3326726
505.0 -0.3860277 0.2784217
505.625 0.3284905 0.1518355
506.25 -0.2942095 -0.2646013
506.875 -0.3972603 0.5839174
507.5 0.5399832 -0.1465003
508.125 -0.4726466 -0.4374699
508.75 0.2025065 0.6002865
509.375 0.01005535 -0.4937509
510.0 -0.6384836 0.4321161
510.625 0.4168943 -0.2375179
511.25 -0.332962 0.05504794
511.875 0.4373611 0.05568168
512.5 -0.2379196 -0.2848419
513.125 0.281518 0.2123979
513.75 -0.3005584 -0.4337004
514.375 0.08465673 0.5949666
515.0 0.2686244 -0.6153813
515.625 -0.6567798 -0.2824097
516.25 0.4410258 0.279634
516.875 0.2778473 -0.6506035
517.5 -0.4655525 0.4278218
518.125 0.4350938 0.5864005
518.75 -0.2622193 -0.5322782
519.375 -0.3612399 0.4915502
520.0 0.4164256 -0.2728201
520.625 -0.4990903 -0.04045521
521.25 0.3927245 0.2063061
521.875 -0.07424107 -0.3743864
522.5 -0.100724 0.4788359
523.125 0.663323 -0.2361441
523.75 -0.9108894 0.005375905
524.375 0.3489423 1.239906
525.0 0.3749954 -0.2867144
525.625 -0.3727567 0.1205273
526.25 0.41799 0.3738849
526.875 0.03190976 -0.4413024
527.5 -0.1616977 0.3848792
528.125 0.3192419 -0.3317535
528.75 -0.4052667 0.0400852
529.375 0.5518106 -0.08122641
530.0 -0.5830933 -0.2162152
530.625 0.4445456 0.3419804
531.25 -0.09636812 -0.7589508
531.875 -0.5986623 0.6719989
532.5 0.7281308 -0.1189944
533.125 -0.5259632 -0.2162338
533.75 0.2965556 0.5167201
534.375 0.2552834 -0.5010059
535.0 -0.5071391 0.238037
535.625 0.2807177 0.4144732
536.25 -0.08400872 -0.4134311
536.875 -0.1796885 0.4569947
537.5 0.6254829 0.1029907
538.125 -0.2702034 -0.4491313
538.75 -0.0357065 0.5131546
539.375 0.5894322 -0.2591072
540.0 -0.6732253 -0.3882679
540.625 0.1141671 0.7061321
541.25 0.3746646 -0.413197
541.875 -0.512001 0.1199137
542.5 0.4397041 0.4561763
543.125 0.07172487 -0.55032
543.75 -0.1644399 0.3456014
544.375 0.3636145 -0.3371746
545.0 -0.5286826 0.1861404
545.625 0.4540936 0.1164886
546.25 -0.4293366 -0.2367892
546.875 0.1194772 0.5269642
547.5 0.4188444 -0.4008638
548.125 -0.6506458 -0.1801586
548.75 -0.008014902 0.638923
549.375 0.4087381 -0.3053209
550.0 -0.5616509 -0.2484924
550.625 -0.08581834 0.707379
551.25 0.4852494 0.06176191
551.875 -0.3798023 -0.2326281
552.5 0.1047037 0.5814607
553.125 0.3423534 -0.4126231
553.75 -0.4596457 0.03918611
554.375 0.4076735 0.2307115
555.0 -0.1067593 -0.4590509
555.625 -0.2552463 0.4371482
556.25 0.5646799 0.09127197
556.875 -0.09259991 -0.4869353
557.5 -0.1650172 0.339022
558.125 0.5109574 -0.1151682
558.75 -0.1044832 -0.531189
559.375 -0.3050025 0.304968
560.0 0.4031748 -0.01907458
560.625 -0.3536646 -0.2980151
561.25 0.04806551 0.505923
561.875 0.2773292 -0.3916812
562.5 -0.3989227 0.1779887
563.125 0.4370044 -0.0106404
563.75 -0.4574 -0.2696194
564.375 0.005903215 0.5672096
565.0 0.4553096 -0.2022709
565.625 -0.4343769 -0.1252428
566.25 0.1302796 0.4852996
566.875 0.4180251 -0.3302026
567.5 -0.355805 -0.3661971
568.125 -0.1389161 0.4143202
568.75 0.4473521 -0.1200424
569.375 -0.3423325 -0.3756431
570.0 -0.176847 0.4716047
570.625 0.354295 -0.1917812
571.25 -0.454347 -0.004976387
571.875 0.3053146 0.4210323
572.5 0.04819385 -0.4964647
573.125 -0.3398715 0.3500735
573.75 0.5234388 -0.1102387
574.375 -0.4565335 -0.2313963
575.0 0.1939383 0.4537845
575.625 0.205526 -0.4902129
576.25 -0.5002236 0.07449578
576.875 0.3364242 0.2739201
577.5 -0.01680845 -0.4876057
578.125 -0.4938908 0.158511
578.75 0.3445082 0.2978909
579.375 -0.09373842 -0.397997
580.0 -0.3169625 0.3900701
580.625 0.5198633 0.08845688
581.25 -0.2484214 -0.4049669
581.875 -0.2194135 0.4212849
582.5 0.4959005 0.01990993
583.125 -0.2496222 -0.4397044
583.75 -0.1861027 0.468231
584.375 0.4966478 -0.06458423
585.0 -0.3159196 -0.3468333
585.625 -0.06875641 0.4751868
586.25 0.5213418 -0.1481912
586.875 -0.3533562 -0.3253298
587.5 0.04065613 0.4156862
588.125 0.2532494 -0.3957726
588.75 -0.5164508 0.07262457
589.375 0.4059218 0.323003
590.0 -0.06062587 -0.5054859
590.625 -0.3672322 0.3607217
591.25 0.4930383 -0.01286237
591.875 -0.2061843 -0.4781463
592.5 -0.3206002 0.3940611
593.125 0.4586513 0.0395395
593.75 -0.2098883 -0.4237568
594.375 -0.3305281 0.4139346
595.0 0.4704944 0.2328413
595.625 0.1069998 -0.4894962
596.25 -0.4672653 0.04672673
596.875 0.3393371 0.2858264
597.5 0.03790592 -0.4969264
598.125 -0.4836646 0.2880255
598.75 0.4193542 0.2743234
599.375 -0.0611945 -0.4263974
600.0 -0.3987572 0.3647469
600.625 0.5071623 0.2530415
601.25 -0.01993446 -0.4852393
601.875 -0.286985 0.3153641
602.5 0.5058425 0.05749017
603.125 -0.1456881 -0.5233839
603.75 -0.3595842 0.3262808
604.375 0.4886798 0.170952
605.0 0.01416516 -0.4866517
605.625 -0.4538177 0.172048
606.25 0.3551964 0.3430145
606.875 0.1053705 -0.4873801
607.5 -0.4559595 0.1697915
608.125 0.4385872 0.2230995
608.75 0.05531691 -0.5504156
609.375 -0.4482961 0.22108
610.0 0.3963917 0.2941055
610.625 0.0509573 -0.5175989
611.25 -0.4470321 0.2123035
611.875 0.3985101 0.2884843
612.5 -0.0222581 -0.5288995
613.125 -0.5530984 0.1780141
613.75 0.3298569 0.3663361
614.375 0.07707102 -0.4595267
615.0 -0.4544888 0.2961943
615.625 0.4458871 0.2867014
616.25 -0.09955598 -0.4594098
616.875 -0.3432905 0.3926081
617.5 0.5500885 0.1767295
618.125 -0.0618835 -0.5605041
618.75 -0.3744658 0.3102386
619.375 0.4795035 0.1550396
620.0 -0.06611408 -0.4950901
620.625 -0.3345014 0.4224248
621.25 0.5282355 0.1210497
621.875 -0.1364189 -0.4724029
622.5 -0.3077163 0.4102885
623.125 0.540769 0.05959181
623.75 -0.129828 -0.5289896
624.375 -0.3017747 0.3441973
625.0 0.4804778 0.01370471
625.625 -0.3126841 -0.4629886
626.25 -0.2154161 0.5037507
626.875 0.526517 0.02371227
627.5 -0.165851 -0.5366519
628.125 -0.3450661 0.3900138
628.75 0.4637608 0.1099317
629.375 -0.1363958 -0.4929503
630.0 -0.4867931 0.2918054
630.625 0.3715745 0.3439235
631.25 0.09981301 -0.4807813
631.875 -0.5405822 0.1339956
632.5 0.3662283 0.3893369
633.125 0.1853957 -0.4527437
633.75 -0.4767128 0.1757494
634.375 0.4475101 0.3474719
635.0 0.0001351431 -0.5175517
635.625 -0.370167 0.3794397
636.25 0.5591765 0.1610172
636.875 -0.007011672 -0.5746317
637.5 -0.432081 0.2266694
638.125 0.4883517 0.1569927
638.75 -0.02331447 -0.5360156
639.375 -0.4659759 0.1796837
640.0 0.2988308 0.395132
640.625 0.3560555 -0.422827
641.25 -0.4549129 -0.2964303
641.875 -0.05997811 0.4548798
642.5 0.4241521 -0.2519575
643.125 -0.364062 -0.3763615
643.75 -0.1607869 0.4757461
644.375 0.4592018 -0.2154024
645.0 -0.4426503 -0.3459801
645.625 -0.1157982 0.533621
646.25 0.4532902 -0.2540975
646.875 -0.4716161 -0.2697799
647.5 -0.08770873 0.5372171
648.125 0.4570566 -0.1528836
648.75 -0.4030311 -0.2669509
649.375 -0.1719845 0.5099559
650.0 0.5165871 0.1063305
650.625 0.03012477 -0.5035084
651.25 -0.4835812 0.1014521
651.875 0.2518132 0.4307669
652.5 0.2806667 -0.3932477
653.125 -0.4968851 -0.204262
653.75 -0.05558247 0.5401019
654.375 0.4990308 -0.1141494
655.0 -0.3336833 -0.4075437
655.625 -0.2279218 0.5182803
656.25 0.5586948 -0.08838528
656.875 -0.3731505 -0.3882493
657.5 0.003853625 0.5320735
658.125 0.4482772 -0.3260359
658.75 -0.5202352 -0.1585309
659.375 0.2066478 0.5313143
660.0 0.3653861 -0.4680572
660.625 -0.5551605 0.03083115
661.25 0.3982721 0.3118205
661.875 -0.1469153 -0.5267987
662.5 -0.369708 0.4772408
663.125 0.5491036 0.1693583
663.75 -0.01459268 -0.5503786
664.375 -0.5958095 -0.00895481
665.0 -0.0713869 0.6210447
665.625 0.5444943 0.01869686
666.25 -0.150164 -0.5101667
666.875 -0.4156222 0.4017741
667.5 0.5193936 0.2257362
668.125 -0.1166066 -0.5177754
668.75 -0.4640521 0.3647649
669.375 0.5113143 0.3389462
670.0 0.1166786 -0.5313705
670.625 -0.44359 0.2168322
671.25 0.5157146 0.1705998
671.875 -0.197315 -0.5497393
672.5 -0.1185554 0.5530149
673.125 0.4438929 -0.371044
673.75 -0.5707836 -0.2655617
674.375 -0.1664861 0.5888131
675.0 0.5714924 0.07578133
675.625 -0.09449375 -0.555476
676.25 -0.4915202 0.2460951
676.875 0.4423751 0.3351127
677.5 0.09573546 -0.5879332
678.125 -0.5920973 0.1127887
678.75 0.2921343 0.5047115
679.375 0.3258877 -0.4763751
680.0 -0.5628009 0.006648209
680.625 0.3154787 0.46039
681.25 0.08994876 -0.5396641
681.875 -0.4638812 0.3545312
682.5 0.5976319 0.0540956
683.125 -0.225827 -0.5806933
683.75 -0.5421197 0.3777907
684.375 0.2606602 0.609983
685.0 0.5510269 -0.1759872
685.625 -0.2332418 -0.4943382
686.25 -0.5161399 0.343864
686.875 0.4492626 0.4593257
687.5 0.2757376 -0.5248303
688.125 -0.6204127 -0.002538787
688.75 0.1426263 0.6475415
689.375 0.5897692 -0.2663074
690.0 -0.4238173 -0.3538015
690.625 -0.04573932 0.5747302
691.25 0.4803235 -0.4480953
691.875 -0.632347 0.1862411
692.5 0.6458092 0.03087471
693.125 -0.6845529 -0.2444749
693.75 0.3942083 0.6502835
694.375 0.2983632 -0.6374756
695.0 -0.6331169 -0.1035348
695.625 -0.1945666 0.6397206
696.25 0.428443 0.5206948
696.875 0.61433 -0.1837294
697.5 -0.1166587 -0.6232135
698.125 -0.6553785 0.1554011
698.75 0.3014044 0.5845569
699.375 0.3443022 -0.4859315
700.0 -0.5704581 -0.106458
700.625 0.08023249 0.5837011
701.25 0.4676384 -0.3307926
701.875 -0.6069472 -0.03326811
702.5 0.537141 0.4623938
703.125 -0.1856456 -0.7200946
703.75 -0.2047447 0.6814655
704.375 0.5305181 -0.4567121
705.0 -0.6447029 -0.3014866
705.625 -0.2172302 0.626632
706.25 0.5788634 0.2075825
706.875 0.3179056 -0.5795612
707.5 -0.5248495 -0.4849606
708.125 -0.5430452 0.4128847
708.75 0.3732174 0.5331926
709.375 0.4532704 -0.4165828
710.0 -0.4233144 -0.3880875
710.625 -0.2757752 0.4864122
711.25 0.6097229 0.1021272
711.875 -0.2346163 -0.5744266
712.5 -0.2759854 0.5822043
713.125 0.5262786 -0.4433999
713.75 -0.7305871 0.2018275
714.375 0.7165835 0.190704
715.0 -0.3948523 -0.5627357
715.625 -0.2537401 0.6420552
716.25 0.7230302 0.1589329
716.875 0.1133967 -0.7022849
717.5 -0.6971206 -0.2111783
718.125 -0.08794527 0.7429179
718.75 0.7266162 -0.06265154
719.375 -0.1360244 -0.6046497
720.0 -0.6164096 0.03279684
720.625 -0.209037 0.5959847
721.25 0.3943727 0.5065355
721.875 0.5867996 -0.2347863
722.5 -0.3037063 -0.6619755
723.125 -0.3168695 0.7506835
723.75 0.6566241 -0.5316322
724.375 -0.6344824 0.3513104
725.0 0.6303193 -0.1161303
725.625 -0.5887961 -0.2306902
726.25 0.1317464 0.6423152
726.875 0.6498315 -0.2400315
727.5 -0.252984 -0.7216957
728.125 -0.7160221 0.2997054
728.75 0.5279089 0.5614133
729.375 0.01150076 -0.7394655
730.0 -0.6337519 0.3869417
730.625 0.4997593 0.4019406
731.25 0.2717814 -0.4866548
731.875 -0.4990359 -0.3032618
732.5 -0.5997936 0.3853348
733.125 0.2210599 0.693293
733.75 0.5918071 -0.3930781
734.375 -0.6996154 -0.1640834
735.0 0.5595821 0.5190094
735.625 -0.1558439 -0.712249
736.25 -0.3168045 0.6169025
736.875 0.6892543 -0.09518501
737.5 -0.1195389 -0.6798312
738.125 -0.661881 0.215394
738.75 0.3125863 0.6341827
739.375 0.4293519 -0.652304
740.0 -0.7963092 -0.0111761
740.625 0.5303486 0.4551099
741.25 0.0656509 -0.6292517
741.875 -0.6369849 -0.1324062
742.5 -0.6080906 0.3463056
743.125 -0.1968138 0.7291625
743.75 0.6145549 0.3800424
744.375 0.02825823 -0.6456501
745.0 -0.51442 0.3910082
745.625 0.753015 -0.1042966
746.25 -0.5530226 -0.414034
746.875 0.1505204 0.5633127
747.5 0.2680974 -0.3859524
748.125 -0.5072207 0.07369552
748.75 0.4644887 0.289535
749.375 -0.3954893 -0.4719447
750.0 0.3496636 0.5004784
