!Created with skrf (http://scikit-rf.org).
# GHz S RI R 50.0 
!freq ReS11 ImS11
500.0 0.02542616 0.003946557
500.625 -0.01488623 -0.1248064
501.25 -0.08656433 0.02558731
501.875 0.1356031 -0.07404073
502.5 -0.02264468 -0.2033815
503.125 -0.01817022 0.00365846
503.75 -0.03469736 -0.1378134
504.375 -0.151495 0.03730786
505.0 -0.01343015 -0.0007634898
505.625 -0.1975074 0.01521605
506.25 -0.05406715 0.1854907
506.875 0.04041425 0.01633409
507.5 -0.1507401 0.06305709
508.125 0.01761201 0.1222952
508.75 -0.1307719 -0.09635477
509.375 -0.1423745 0.2498572
510.0 0.1058035 0.145636
510.625 -0.02424421 0.08478355
511.25 0.1791809 0.05989068
511.875 0.01365096 -0.09725447
512.5 0.05643819 -0.01200261
513.125 -0.1411995 -0.1044034
513.75 -0.0444457 0.1908347
514.375 0.09791262 -0.1103426
515.0 -0.0946729 0.009953834
515.625 0.1187477 -0.03039685
516.25 -0.200084 -0.1612654
516.875 -0.1924118 0.01355294
517.5 0.02929645 -0.07933909
518.125 -0.1733533 -0.3521532
518.75 -0.1451233 0.1340728
519.375 0.03321337 -0.01958286
520.0 -0.1028684 0.07931356
520.625 0.1178655 0.04004611
521.25 -0.131156 -0.1080408
521.875 -0.1051121 0.09234641
522.5 0.03205647 0.0006859313
523.125 -0.1882988 0.155656
523.75 0.2414394 0.3145163
524.375 0.07600087 -0.02432815
525.0 -0.06083942 0.165649
525.625 0.1901624 0.1221569
526.25 0.08162981 -0.08954299
526.875 0.0001135163 0.05644356
527.5 0.07764395 -0.07013445
528.125 -0.057769 0.04940347
528.75 0.1771781 0.006646682
529.375 -0.1118483 -0.1890547
530.0 -0.01310701 0.06227798
530.625 -0.1375537 -0.07860865
531.25 -0.2039091 0.2189578
531.875 0.1005637 0.05161677
532.5 -0.1311469 0.09480978
533.125 0.1737194 0.1869532
533.75 0.08819664 -0.1723154
534.375 -0.1217391 0.02520726
535.0 0.09528174 0.05154531
535.625 -0.02937974 -0.05549731
536.25 0.0329137 0.1472981
536.875 0.2018523 -0.06536117
537.5 -0.01857531 -0.1263084
538.125 0.03103189 0.0896851
538.75 0.103993 -0.1348754
539.375 -0.1330846 -0.07775176
540.0 0.05873552 0.1034327
540.625 -0.007489953 -0.1358285
541.25 -0.1590313 0.1272998
541.875 0.186525 0.1601118
542.5 0.1162915 -0.08169122
543.125 0.03578306 0.02249574
543.75 0.0760961 -0.1689085
544.375 -0.1746984 -0.0737166
545.0 0.032676 0.04338469
545.625 -0.1324504 -0.03541051
546.25 0.03363933 0.1778798
546.875 0.08168969 -0.07737294
547.5 -0.1426366 0.01445098
548.125 0.02659496 0.1295747
548.75 -0.01899126 -0.07672097
549.375 -0.2247469 0.1097888
550.0 -0.04544523 0.2477665
550.625 0.05886848 0.02060182
551.25 -0.1464146 0.01971022
551.875 0.02320705 0.2107309
552.5 0.1204505 -0.02668392
553.125 -0.04495607 0.05144046
553.75 0.141756 0.05973124
554.375 -0.01457778 -0.1266668
555.0 -0.06535886 0.1058665
555.625 0.1467285 0.02113715
556.25 0.01135669 -0.06188186
556.875 0.06833609 0.07747952
557.5 0.1695745 -0.1157099
558.125 -0.06852854 -0.1713727
558.75 -0.04750999 0.01484547
559.375 0.07060871 -0.07380954
560.0 -0.1223914 -0.09201221
560.625 -0.02997585 0.1260952
561.25 0.07042804 -0.05368902
561.875 -0.06770059 0.0303669
562.5 0.1218129 -0.02166932
563.125 -0.1278418 -0.1314104
563.75 -0.07767902 0.1393016
564.375 0.04454827 0.0007498405
565.0 -0.09051446 0.06406407
565.625 0.1155008 0.1363835
566.25 0.126186 -0.09111826
566.875 -0.08107525 -0.04835685
567.5 0.01632045 0.07691014
568.125 0.09384888 -0.08142612
568.75 -0.1142731 -0.1011585
569.375 -0.05967255 0.07768562
570.0 0.02330033 -0.04417216
570.625 -0.1550949 0.03958613
571.25 0.06656215 0.1807912
571.875 0.09548222 -0.06496509
572.5 -0.04250947 0.04002915
573.125 0.1233475 -0.01954814
573.75 -0.08847523 -0.07306751
574.375 0.05807505 0.09745081
575.0 0.07195673 -0.1491793
575.625 -0.1346614 -0.02059152
576.25 0.05953432 0.0539169
576.875 -0.02060957 -0.1287268
577.5 -0.1267537 0.03752058
578.125 0.02560995 0.04005349
578.75 -0.08713557 -0.06049901
579.375 -0.08486436 0.1696053
580.0 0.1463583 0.07640329
580.625 -0.008012361 -0.08838454
581.25 -0.0234109 0.09681565
581.875 0.1156708 -0.009743303
582.5 -0.05205351 -0.07765605
583.125 -0.02801693 0.1056328
583.75 0.1095869 -0.02582635
584.375 -0.07904524 -0.05616934
585.0 0.00437386 0.1472614
585.625 0.1669111 -0.008218125
586.25 -0.01246029 -0.0935864
586.875 0.03265748 0.03264078
587.5 0.04326911 -0.1330808
588.125 -0.1559561 -0.0153616
588.75 0.05516782 0.1035359
589.375 0.01458765 -0.1180568
590.0 -0.1097025 0.05576483
590.625 0.09854493 0.02722801
591.25 -0.07037807 -0.09252933
591.875 -0.07854838 0.07706559
592.5 0.07209933 -0.003095243
593.125 -0.1097295 -0.06787362
593.75 -0.1068834 0.1499875
594.375 0.1206302 0.09964034
595.0 0.04113405 -0.07750877
595.625 -0.0473006 0.03041379
596.25 0.09654813 0.02137734
596.875 -0.02654677 -0.1576355
597.5 -0.1743094 0.03659604
598.125 0.05204703 0.1030263
598.75 -0.01969643 -0.06358442
599.375 -0.08865976 0.1207888
600.0 0.1148426 0.1062476
600.625 0.03576166 -0.05253859
601.25 -0.002182324 0.08777265
601.875 0.1732875 -0.01277435
602.5 -0.004697806 -0.1677239
603.125 -0.1044823 0.03230077
603.75 0.08269381 0.04329929
604.375 -0.004197591 -0.09177946
605.0 -0.06616516 0.04937848
605.625 0.09930022 0.04698944
606.25 0.03043642 -0.1180714
606.875 -0.1050872 0.03106214
607.5 0.1030406 0.08255669
608.125 0.04813951 -0.1358902
608.75 -0.09063777 -0.007359791
609.375 0.07047029 0.01709703
610.0 -0.005463468 -0.1376386
610.625 -0.1201341 0.02619586
611.25 0.0856299 0.04329729
611.875 0.01329025 -0.1546689
612.5 -0.1695422 -0.009708476
613.125 -0.003737411 0.08320134
613.75 -0.03384075 -0.06068961
614.375 -0.1281494 0.08183066
615.0 0.08505955 0.09916803
615.625 -0.007556952 -0.0814126
616.25 -0.09946364 0.1198828
616.875 0.1429766 0.1233141
617.5 0.07995506 -0.09920138
618.125 -0.03489155 0.01576747
618.75 0.09112883 -0.01679594
619.375 -0.05063532 -0.1163338
620.0 -0.1194159 0.09153242
620.625 0.1309049 0.07287922
621.25 0.02230447 -0.1051178
621.875 -0.06553546 0.05738476
622.5 0.1216373 0.02571067
623.125 0.007355552 -0.1096034
623.75 -0.03380135 0.03664616
624.375 0.1100869 -0.04439081
625.0 -0.0726883 -0.1592147
625.625 -0.1331445 0.08749303
626.25 0.1005406 0.04627187
626.875 -0.01117515 -0.1015653
627.5 -0.07128204 0.03458719
628.125 0.07353584 -0.01406741
628.75 -0.07063808 -0.1281087
629.375 -0.1505485 0.0753565
630.0 0.05185987 0.1125188
630.625 0.0448491 -0.08703093
631.25 -0.1273431 -0.003711707
631.875 0.01959226 0.1006106
632.5 0.01250274 -0.05486873
633.125 -0.114388 0.05319942
633.75 0.09484272 0.1272144
634.375 0.06233422 -0.1034914
635.0 -0.1101313 0.04781965
635.625 0.1260929 0.1001477
636.25 0.0681695 -0.110425
636.875 -0.04060285 0.008716653
637.5 0.1113176 0.007429386
638.125 -0.01538982 -0.1519349
638.75 -0.1173242 0.03540202
639.375 0.08728115 0.09777174
640.0 0.1346587 -0.09434488
640.625 -0.0518738 -0.11668
641.25 -0.01565064 0.02449415
641.875 0.0664359 -0.07827181
642.5 -0.1046344 -0.09155384
643.125 -0.06460949 0.07945346
643.75 0.1045953 -0.02564302
644.375 -0.0871448 -0.1298546
645.0 -0.1113778 0.08107567
645.625 0.06625795 0.02169365
646.25 -0.0780992 -0.04780924
646.875 -0.03693221 0.1043379
647.5 0.07195552 -0.01558169
648.125 -0.1080662 -0.05074802
648.75 -0.07255349 0.1651864
649.375 0.1369951 0.1021851
650.0 0.06617495 -0.07961199
650.625 -0.05621997 0.00236198
651.25 0.05136357 0.06034416
651.875 0.0555727 -0.08777945
652.5 -0.1218397 -0.04016979
653.125 -0.04056327 0.125384
653.75 0.1084962 0.01170114
654.375 -0.04827558 -0.1012071
655.0 -0.09846266 0.0903728
655.625 0.09461989 0.06153073
656.25 -0.01809449 -0.06376461
656.875 -0.008731844 0.09514302
657.5 0.1187765 -0.06549883
658.125 -0.1106329 -0.09786859
658.75 -0.04435246 0.1516636
659.375 0.1542163 -0.01750917
660.0 -0.04652257 -0.09101172
660.625 0.02031609 0.03768502
661.25 -0.01149893 -0.1192364
661.875 -0.1444029 0.07328117
662.5 0.1025598 0.08604755
663.125 0.01106764 -0.1115587
663.75 -0.1546316 0.01658228
664.375 -0.04984837 0.1481596
665.0 0.07096253 0.04064763
665.625 -0.04086423 -0.05241638
666.25 -0.09415305 0.08797849
666.875 0.1006518 0.07822525
667.5 0.007532703 -0.1186689
668.125 -0.1631925 0.05612892
668.75 0.05390979 0.1801074
669.375 0.1128996 -0.03011016
670.0 -0.02789981 0.01092696
670.625 0.1065387 0.05491914
671.25 0.03579333 -0.1391351
671.875 -0.1008728 0.03835015
672.5 0.1274764 -0.007175087
673.125 -0.1013324 -0.1411117
673.75 -0.1119691 0.1001977
674.375 0.0665091 0.04556962
675.0 -0.01775427 -0.07577349
675.625 -0.08929076 0.05319225
676.25 0.09025637 0.0787653
676.875 0.06318619 -0.1459647
677.5 -0.1710843 -0.0602877
678.125 -0.03561989 0.1484202
678.75 0.100844 -0.01793221
679.375 -0.07037191 -0.04898554
680.0 0.01031796 0.08703176
680.625 0.05785995 -0.0736683
681.25 -0.1193892 0.01724529
681.875 0.1025703 0.1014229
682.5 0.0285181 -0.1561342
683.125 -0.1699918 0.01292219
683.75 0.007875144 0.1463021
684.375 0.06170384 0.01860271
685.0 -0.06432527 -0.01362498
685.625 -0.08686695 0.1298007
686.25 0.09470645 0.1501578
686.875 0.1198949 -0.07546481
687.5 -0.1170329 -0.07722214
688.125 -0.05226693 0.1616428
688.75 0.1322687 0.05176627
689.375 0.0009439285 -0.05584041
690.0 -0.01052071 0.0908863
690.625 0.1505568 -0.01328418
691.25 -0.08646601 -0.1167821
691.875 0.03508317 0.1231804
692.5 0.01977026 -0.1739791
693.125 -0.1319529 0.1404543
693.75 0.1263579 0.01399998
694.375 -0.05194719 -0.007325574
695.0 0.05016348 0.1285893
695.625 0.1674578 0.03745193
696.25 0.1181733 -0.08975912
696.875 -0.04168352 -0.1505822
697.5 -0.1854388 -0.01622842
698.125 -0.05337142 0.1528933
698.75 0.08567293 0.007386095
699.375 -0.06783697 -0.03081885
700.0 -0.008480683 0.1056636
700.625 0.09003895 -0.0232468
701.25 -0.1088072 -0.06617545
701.875 -0.02421776 0.2012644
702.5 0.2122407 -0.06961226
703.125 -0.1313316 -0.08525555
703.75 0.05411911 0.04077808
704.375 -0.07627572 -0.07310151
705.0 -0.04826961 0.09171677
705.625 0.09064151 -0.0110638
706.25 -0.003562209 -0.1733325
706.875 -0.1659478 -0.1493206
707.5 -0.1924478 0.04998523
708.125 -0.0002763192 0.1263155
708.75 0.08403272 -0.02640479
709.375 -0.04877617 -0.06650546
710.0 -0.04023967 0.076998
710.625 0.1261087 0.03282591
711.25 0.03923384 -0.1586525
711.875 -0.1596647 0.00476187
712.5 0.1066 0.1092678
713.125 -0.03934756 -0.1507775
713.75 -0.03460887 0.1276108
714.375 0.04202784 -0.06677507
715.0 -0.06328763 0.08891979
715.625 0.1626131 0.04531577
716.25 0.06919058 -0.1767605
716.875 -0.1619773 -0.1004179
717.5 -0.138607 0.1300434
718.125 0.1037722 0.1136434
718.75 0.04527285 -0.07202429
719.375 -0.07030278 0.02216193
720.0 0.02383958 0.1113275
720.625 0.1182477 0.04671022
721.25 0.1177113 -0.0775479
721.875 -0.01251486 -0.1750856
722.5 -0.1997464 -0.02243266
723.125 0.06106344 0.1589543
723.75 0.008872197 -0.08379742
724.375 0.05244586 0.04832872
725.0 -0.06032237 -0.1118111
725.625 -0.05953807 0.1398848
726.25 0.1677492 0.002672166
726.875 0.02414704 -0.1784035
727.5 -0.161624 -0.04505862
728.125 -0.02063355 0.1157171
728.75 0.09808845 -0.07363659
729.375 -0.1487088 -0.05349389
730.0 0.002118947 0.1227599
730.625 0.0310511 -0.04476035
731.25 -0.1425055 -0.01769167
731.875 -0.1743318 0.1416082
732.5 -0.04350743 0.2312011
733.125 0.1070972 0.1116132
733.75 0.006687709 -0.04727072
734.375 -0.01201615 0.0983405
735.0 0.0894964 -0.09253289
735.625 -0.1264911 0.04023633
736.25 0.1596603 0.08825821
736.875 0.0724783 -0.1825919
737.5 -0.1342392 -0.07701678
738.125 -0.02051483 0.0968376
738.75 0.1241712 -0.03268282
739.375 -0.06632646 -0.1351817
740.0 -0.05091813 0.07529169
740.625 0.01476067 -0.07899291
741.25 -0.1825706 0.02312383
741.875 -0.1395061 0.1863293
742.5 -0.05982577 0.2232826
743.125 0.0328214 0.1744726
743.75 0.06796403 0.03432636
744.375 -0.02593253 0.04199231
745.0 0.1418719 0.08059379
745.625 0.01809275 -0.2046118
746.25 -0.1494285 0.06393076
746.875 0.1063107 0.0295957
747.5 -0.06097179 -0.08994946
748.125 -0.05480774 0.1105553
748.75 0.113121 -0.01996111
749.375 -0.06974082 -0.02003174
750.0 0.03375079 -0.0264403
