!Created with skrf (http://scikit-rf.org).
# GHz S RI R 50.0 
!freq ReS11 ImS11
500.0 0.2431757 -0.01382979
500.625 -0.3134156 -0.08631473
501.25 0.2680327 0.2381149
501.875 -0.006930899 -0.5823511
502.5 -0.3992752 0.1514495
503.125 0.3593837 -0.1133297
503.75 -0.3884743 -0.1773697
504.375 0.1646998 0.2296749
505.0 -0.2344479 -0.307584
505.625 -0.3117791 0.4257476
506.25 0.336923 -0.004967242
506.875 -0.4406359 -0.3661776
507.5 0.01764375 0.617423
508.125 0.478596 -0.3004661
508.75 -0.6916223 0.1554346
509.375 0.4270027 0.4081007
510.0 -0.1101311 -0.5176727
510.625 0.2224729 0.4659873
511.25 0.1981746 -0.3628427
511.875 -0.1289611 0.2774736
512.5 0.2717939 -0.2403991
513.125 -0.4096132 0.2062631
513.75 0.5117348 0.01366464
514.375 -0.4790632 -0.1801605
515.0 0.4229288 0.340064
515.625 0.3575623 -0.6847578
516.25 -0.5759168 0.3212577
516.875 0.3161857 0.4163233
517.5 -0.331748 -0.5392946
518.125 -0.9686531 0.06337058
518.75 0.4356362 0.1046196
519.375 -0.3831305 -0.3832876
520.0 0.1406918 0.4995915
520.625 0.2418714 -0.460512
521.25 -0.4420725 0.2760528
521.875 0.265845 0.1630903
522.5 -0.3576426 -0.1777968
523.125 0.04041459 0.8982458
523.75 0.5909121 -0.6305256
524.375 -0.9590313 0.04399135
525.0 0.233168 0.5566117
525.625 0.2916383 -0.3455587
526.25 -0.3767706 0.1243984
526.875 0.4100559 0.1291335
527.5 -0.2761618 -0.3206882
528.125 0.1901709 0.4006355
528.75 0.2244214 -0.4652617
529.375 -0.3366582 0.3411491
530.0 0.3003751 -0.362873
530.625 -0.5938246 0.3708608
531.25 0.6049666 0.4497439
531.875 -0.339435 -0.593865
532.5 -0.07258707 0.8012179
533.125 0.6353405 -0.2773764
533.75 -0.5298268 -0.1057137
534.375 0.2354591 0.4438982
535.0 0.0374145 -0.4910195
535.625 -0.4679914 0.1508084
536.25 0.4768445 0.1540958
536.875 -0.1514241 -0.4748929
537.5 -0.3495029 0.3554302
538.125 0.5236804 -0.06084167
538.75 -0.4133307 -0.3788651
539.375 -0.109286 0.5688635
540.0 0.5398051 -0.4147556
540.625 -0.6837979 -0.2163343
541.25 0.1454939 0.6719383
541.875 0.3631541 -0.4049653
542.5 -0.4072936 0.03445581
543.125 0.5082144 0.1564439
543.75 -0.2972997 -0.4746661
544.375 -0.0849499 0.3999034
545.0 0.05159528 -0.4469455
545.625 -0.3876581 0.3991347
546.25 0.473655 -0.08006732
546.875 -0.4407272 -0.2033721
547.5 0.06194 0.5617434
548.125 0.4246013 -0.3611034
548.75 -0.5822882 -0.2428167
549.375 -0.05417211 0.6925359
550.0 0.5061399 -0.03294259
550.625 -0.4296556 -0.2674728
551.25 -0.3558508 0.5243986
551.875 0.4896327 0.01193317
552.5 -0.3651454 -0.201451
553.125 0.2265445 0.4881845
553.75 0.3278177 -0.3950156
554.375 -0.4289319 0.109925
555.0 0.4038846 0.2543625
555.625 -0.08263432 -0.4258448
556.25 -0.2765989 0.3638789
556.875 0.5370271 0.08474451
557.5 -0.08213251 -0.5211263
558.125 -0.2913142 0.2646646
558.75 0.4065365 0.1273281
559.375 -0.1071955 -0.4831874
560.0 -0.344138 0.2969838
560.625 0.4115973 -0.006978605
561.25 -0.3428488 -0.2460647
561.875 0.1604061 0.4403251
562.5 0.139862 -0.4857447
563.125 -0.3986401 0.2520403
563.75 0.4098436 0.005663229
564.375 -0.4079123 -0.205411
565.0 -0.04533379 0.577023
565.625 0.4891155 -0.1732941
566.25 -0.3249888 -0.3060009
566.875 -0.03738193 0.4465241
567.5 0.4770124 -0.0490571
568.125 -0.2127421 -0.4634971
568.75 -0.2893539 0.3430498
569.375 0.3853736 0.0129706
570.0 -0.2845477 -0.3901381
570.625 -0.152772 0.504539
571.25 0.4258867 -0.1269446
571.875 -0.3606961 -0.08617876
572.5 0.3442991 0.3330739
573.125 -0.003194596 -0.5199668
573.75 -0.2678384 0.408086
574.375 0.4986472 -0.1477885
575.0 -0.4194625 -0.2864094
575.625 0.06326896 0.4411903
576.25 0.2711341 -0.3852287
576.875 -0.4856687 -0.01161452
577.5 0.2277196 0.328554
578.125 0.1199581 -0.4041611
578.75 -0.5060238 0.09791058
579.375 0.3310828 0.3844096
580.0 0.1309312 -0.3868759
580.625 -0.3674951 0.2152871
581.25 0.4591146 0.1633713
581.875 -0.06891559 -0.4537161
582.5 -0.3393654 0.3016286
583.125 0.4482537 0.1868537
583.75 -0.1207655 -0.4511636
584.375 -0.3418988 0.3576998
585.0 0.4814383 0.1413242
585.625 -0.07207916 -0.4422145
586.25 -0.2003064 0.3320259
586.875 0.4665294 -0.09147217
587.5 -0.3365791 -0.3769661
588.125 -0.07401063 0.4509577
588.75 0.360695 -0.2803059
589.375 -0.4776633 -0.05802584
590.0 0.273549 0.409929
590.625 0.05564085 -0.4894575
591.25 -0.3888958 0.2867343
591.875 0.3655829 0.2562349
592.5 -0.03385579 -0.4873384
593.125 -0.4520006 0.2614704
593.75 0.3390961 0.3665426
594.375 0.16184 -0.400131
595.0 -0.4216721 0.1024882
595.625 0.2703626 0.3924331
596.25 0.3263533 -0.3785175
596.875 -0.4990741 -0.1336564
597.5 0.07071529 0.4613445
598.125 0.226188 -0.3615211
598.75 -0.5061368 0.04644706
599.375 0.3099263 0.4192713
600.0 0.2143877 -0.3732056
600.625 -0.4335188 0.1338289
601.25 0.3816864 0.3824543
601.875 0.1879667 -0.5038769
602.5 -0.4356814 0.03507631
603.125 0.285507 0.3369205
603.75 0.1314818 -0.4644776
604.375 -0.4427395 0.1043657
605.0 0.2987163 0.3964496
605.625 0.3031717 -0.3746238
606.25 -0.4474213 -0.1468031
606.875 0.1000033 0.4691662
607.5 0.3626379 -0.3264222
608.125 -0.463772 -0.09415194
608.75 0.2075941 0.37398
609.375 0.2366023 -0.4617822
610.0 -0.5006415 -0.1246472
610.625 0.1472562 0.4526255
611.25 0.2894046 -0.4015065
611.875 -0.4643781 -0.1734969
612.5 0.07473398 0.4655572
613.125 0.2478209 -0.3633741
613.75 -0.5421571 -0.04818245
614.375 0.1066401 0.4991688
615.0 0.2990047 -0.3459541
615.625 -0.508688 -0.005855023
616.25 0.2304686 0.486917
616.875 0.3043757 -0.3732935
617.5 -0.4238137 0.06146935
618.125 0.3591155 0.3297467
618.75 0.1414934 -0.5164788
619.375 -0.5222792 0.01948017
620.0 0.2331427 0.4912637
620.625 0.2305302 -0.4018829
621.25 -0.4488415 0.04391488
621.875 0.337098 0.3935249
622.5 0.1290153 -0.4753563
623.125 -0.4481496 0.1256305
623.75 0.3634814 0.3170156
624.375 0.1442716 -0.5315451
625.0 -0.5186662 0.03615663
625.625 0.2962822 0.3683039
626.25 0.07282256 -0.4800659
626.875 -0.4586944 0.1865659
627.5 0.3338867 0.3496057
628.125 0.09230421 -0.5267216
628.75 -0.5603576 0.01524814
629.375 0.1770615 0.4666023
630.0 0.3452431 -0.2877411
630.625 -0.4679608 -0.2033229
631.25 0.0101249 0.4961068
631.875 0.349296 -0.2774373
632.5 -0.4798019 -0.1338999
633.125 -0.03803606 0.5533537
633.75 0.4611382 -0.2411332
634.375 -0.4337667 -0.2031483
635.0 0.1221162 0.5194024
635.625 0.3413402 -0.3856793
636.25 -0.4561635 0.007305049
636.875 0.2766027 0.4278158
637.5 0.3340373 -0.4549188
638.125 -0.5120995 -0.09944879
638.75 0.1166872 0.4711539
639.375 0.4584188 -0.2135414
640.0 -0.2647021 -0.4031215
640.625 -0.1825439 0.3752782
641.25 0.4657978 -0.02844379
641.875 -0.1292039 -0.5101362
642.5 -0.3927343 0.2829745
643.125 0.3973299 0.2605528
643.75 0.03872533 -0.5068376
644.375 -0.4677127 0.186054
645.0 0.3770064 0.2614743
645.625 -0.09359749 -0.4798423
646.25 -0.3496001 0.3826822
646.875 0.4816565 0.1507558
647.5 -0.09749883 -0.4967425
648.125 -0.4523982 0.2853976
648.75 0.3583557 0.3734341
649.375 0.2059704 -0.3923989
650.0 -0.4270153 0.008063637
650.625 0.1746151 0.421976
651.25 0.4324081 -0.2384172
651.875 -0.3328319 -0.3777977
652.5 -0.2615903 0.4382585
653.125 0.4444776 0.1507922
653.75 0.01717424 -0.4852981
654.375 -0.4904812 0.1798287
655.0 0.340229 0.3721183
655.625 0.1146918 -0.4598971
656.25 -0.447986 0.2412427
656.875 0.4957157 0.2907542
657.5 -0.0727054 -0.55395
658.125 -0.4558483 0.2795917
658.75 0.4885513 0.2274146
659.375 -0.144795 -0.4789514
660.0 -0.1805857 0.430986
660.625 0.4750921 -0.2192605
661.25 -0.519871 -0.2662448
661.875 0.1064381 0.5547059
662.5 0.3091959 -0.4171337
663.125 -0.5329474 -0.149863
663.75 -0.05226614 0.5717446
664.375 0.5161521 0.02891123
665.0 -0.09582342 -0.4841281
665.625 -0.5504586 0.1339491
666.25 0.2120889 0.5341327
666.875 0.3849154 -0.3857205
667.5 -0.5179429 -0.2036666
668.125 -0.02158947 0.5740958
668.75 0.4591256 -0.1965265
669.375 -0.423605 -0.1778628
670.0 0.1126713 0.5154437
670.625 0.4832419 -0.2898046
671.25 -0.4820087 -0.2105247
671.875 0.2013676 0.4749371
672.5 0.1578944 -0.5492847
673.125 -0.5152638 0.2631173
673.75 0.4495332 0.2468186
674.375 0.02494854 -0.5227674
675.0 -0.5623385 0.03609139
675.625 0.141112 0.5464398
676.25 0.5100697 -0.2596444
676.875 -0.3981065 -0.4082319
677.5 -0.27178 0.4676051
678.125 0.5103301 0.006647731
678.75 -0.2934211 -0.4300103
679.375 -0.2290506 0.4665402
680.0 0.5270227 -0.04332365
680.625 -0.3392748 -0.4279159
681.25 -0.1223488 0.5602245
681.875 0.4902754 -0.2722464
682.5 -0.5309469 -0.2202344
683.125 0.05985792 0.5685619
683.75 0.447453 -0.2837123
684.375 -0.3492186 -0.4199917
685.0 -0.5306625 0.3216684
685.625 0.231874 0.5994244
686.25 0.5569418 -0.171929
686.875 -0.2811456 -0.471745
687.5 -0.3971452 0.4418383
688.125 0.5591127 0.1627367
688.75 -0.1067864 -0.5166119
689.375 -0.4352956 0.31904
690.0 0.4873747 0.3742604
690.625 0.1462062 -0.5992118
691.25 -0.4799629 0.3281504
691.875 0.6081573 -0.06894078
692.5 -0.6319122 -0.2319387
693.125 0.5096853 0.3621324
693.75 -0.3371372 -0.5010968
694.375 -0.1645807 0.6531338
695.0 0.7024049 0.1366949
695.625 0.3472285 -0.5670726
696.25 -0.2887086 -0.5483217
696.875 -0.628256 -0.02900492
697.5 -0.1370173 0.6057056
698.125 0.5472673 -0.002430256
698.75 -0.2874393 -0.4622357
699.375 -0.33929 0.4824328
700.0 0.557025 0.1490526
700.625 -0.03893838 -0.5625874
701.25 -0.5412866 0.2732506
701.875 0.5190559 0.3591878
702.5 -0.1800448 -0.5632402
703.125 0.05630404 0.5764017
703.75 0.1028106 -0.644941
704.375 -0.5448923 0.4091358
705.0 0.5825702 0.2948848
705.625 0.2425452 -0.6196755
706.25 -0.5552247 -0.4120352
706.875 -0.5927076 0.2744869
707.5 0.2079881 0.5467286
708.125 0.5101612 -0.2592818
708.75 -0.3162882 -0.4783867
709.375 -0.4711457 0.3319476
710.0 0.406442 0.4328061
710.625 0.4126599 -0.4370376
711.25 -0.465685 -0.3208766
711.875 -0.09646954 0.5632647
712.5 0.4469585 -0.4090682
713.125 -0.5927901 0.216987
713.75 0.6120189 -0.07636919
714.375 -0.6207824 -0.2435377
715.0 0.3344685 0.6510418
715.625 0.500279 -0.5476113
716.25 -0.5421351 -0.4288053
716.875 -0.4650098 0.4884593
717.5 0.4884092 0.4430216
718.125 0.2325618 -0.5669934
718.75 -0.607585 0.01231031
719.375 0.04854373 0.6615413
720.0 0.6308765 0.07043586
720.625 0.3854725 -0.4719005
721.25 -0.1424005 -0.5890636
721.875 -0.6314449 -0.1645292
722.5 -0.04574908 0.6568567
723.125 0.4095179 -0.5125021
723.75 -0.5398557 0.4349814
724.375 0.7135542 -0.2757701
725.0 -0.7026393 -0.02202379
725.625 0.4273755 0.4862503
726.25 0.1895764 -0.5998533
726.875 -0.6139404 -0.1702606
727.5 -0.0278592 0.6547367
728.125 0.7011411 -0.07820173
728.75 -0.3748443 -0.6538665
729.375 -0.3290501 0.6600711
730.0 0.5903054 -0.2176509
730.625 -0.4126956 -0.4482969
731.25 -0.5136406 0.387125
731.875 0.07708428 0.6483858
732.5 0.5603657 0.06931818
733.125 -0.0115193 -0.5364212
733.75 -0.5279244 0.370933
734.375 0.6531683 0.3699836
735.0 -0.415798 -0.6578976
735.625 -0.111146 0.7450614
736.25 0.5872365 -0.3931758
736.875 -0.4962625 -0.3742549
737.5 -0.1626523 0.5742438
738.125 0.6357273 0.01752217
738.75 -0.08696762 -0.6992798
739.375 -0.6015821 0.3416612
740.0 0.6883755 0.117099
740.625 -0.4105768 -0.5921947
741.25 -0.4515867 0.5896576
741.875 0.2502552 0.6151268
742.5 0.5807856 0.1495648
743.125 0.3195334 -0.4069718
743.75 -0.503429 -0.2996857
744.375 -0.1451854 0.6982003
745.0 0.7964489 -0.231908
745.625 -0.6131594 -0.3707658
746.25 0.1721938 0.5766354
746.875 0.1897988 -0.4846502
747.5 -0.4745449 0.1949981
748.125 0.3933585 0.2106172
748.75 -0.2474555 -0.385872
749.375 0.1998216 0.4618225
750.0 -0.2942819 -0.5844353
