! Filename:  P:\Prog\Test\Noise\ATS_data\Testdata_Net\06 Compressed Noise after Statistics\BFU520_APG2013_37_A05_05p0V_010mA_NF_CM01_D.sf
! Date/Time: Fri 26/Apr/2013 14:13:11
! BFU520_APG2013_37_A05_05p0V_1to20mA_NF_CM01_Bias6_R.sf
! Noise Parameter Data File
! BFU520_APG2013_37_A05_05p0V_1to20mA_NF_CM01
! Date/time: Tue Apr 23 16:46:24 2013
! VAR V_out= 5.000000
! VAR I_out= 9.990000
! VAR V_in= 0.838700
! VAR I_in= 0.114405
! Device data file deembeded for feedlines and parallel
! Original file: \06 Compressed Noise after Statistics\BFU520_APG2013_37_A05_05p0V_010mA_NF_CM01_R.sf
! Feed-files: PR047V01_250413_Feed1.s2p, PR047V01_250413_Feed2.s2p
! Parallel-file: PR047V01_250413_Par.s2p
# MHz S MA R 50
!  Freq-MHz   S11-mag  S11-arg   S21-mag  S21-arg   S12-mag  S12-arg   S22-mag  S22-arg
        400   0.54054   -99.54    15.544   120.57  0.038417    52.70   0.64309   -42.41
        420    0.5352  -102.61     15.07   118.92  0.039332    52.05    0.6275   -43.40
        433   0.53134  -104.56    14.773   117.86  0.039892    51.69   0.61778   -43.93
        440   0.52948  -105.66    14.625   117.29  0.040202    51.47   0.61293   -44.21
        460    0.5244  -108.54     14.19   115.77  0.041009    50.96   0.59957   -45.08
        480   0.52038  -111.31    13.785   114.31  0.041756    50.46   0.58519   -45.78
        500   0.51557  -114.01    13.393   112.91  0.042495    50.08   0.57298   -46.50
        550   0.50467  -120.49    12.506   109.44  0.043962    49.24    0.5419   -47.94
        600   0.49714  -125.91    11.706   106.58  0.045726    48.75   0.51864   -49.23
        650   0.49159  -130.97    10.979   103.90  0.047258    48.32   0.49698   -50.46
        700   0.48617  -135.43    10.327   101.43  0.048627    48.15   0.47792   -51.26
        750   0.48131  -139.87    9.7477    99.11  0.050071    48.07   0.46162   -52.19
        800   0.47868  -143.66    9.2242    96.98  0.051459    48.10   0.44655   -53.03
        850   0.47574  -147.37    8.7534    94.98  0.052823    48.13   0.43356   -53.66
        900   0.47167  -150.99    8.3211    93.02  0.054162    48.26   0.42251   -54.47
        950   0.47086  -154.09    7.9344    91.25  0.055515    48.45   0.41197   -55.09
       1000    0.4684  -156.95    7.5769    89.52   0.05691    48.68   0.40351   -55.64
       1050   0.46695  -160.15     7.247    87.80  0.058259    48.84   0.39576   -56.43
       1100   0.46713  -162.45    6.9429    86.28  0.059669    49.13   0.38876   -56.86
       1150   0.46502  -165.27    6.6618    84.71  0.061044    49.34   0.38236   -57.53
       1200   0.46475  -167.79    6.4061    83.19  0.062433    49.54   0.37684   -58.25
       1250   0.46508  -169.89    6.1685    81.84  0.063881    49.85    0.3719   -58.60
       1300   0.46303  -172.29    5.9461    80.41  0.065311    50.07   0.36764   -59.39
       1350   0.46365  -174.41    5.7397    79.08  0.066771    50.32   0.36349   -60.01
       1400   0.46435  -176.23      5.55    77.80  0.068282    50.58   0.35997   -60.43
       1450   0.46322  -178.76    5.3657    76.41  0.069741    50.70   0.35745   -61.31
       1500   0.46462   179.50    5.1943    75.14  0.071208    50.88   0.35476   -61.97
       1550    0.4637   177.73    5.0342    73.94  0.072732    51.07   0.35229   -62.52
       1600   0.46403   175.60    4.8782    72.65  0.074185    51.19   0.35023   -63.36
       1650   0.46499   174.33    4.7395    71.54  0.075739    51.44   0.34844   -63.82
       1700   0.46461   172.55    4.6078    70.44  0.077301    51.63   0.34674   -64.53
       1750   0.46537   170.45     4.475    69.21  0.078777    51.66   0.34485   -65.43
       1800   0.46719   169.35    4.3652    68.13  0.080477    51.87   0.34423   -65.87
       1850   0.46743   167.28    4.2454    66.88  0.081953    51.87   0.34424   -66.88
       1900   0.46782   165.78    4.1339    65.79  0.083469    51.91   0.34325   -67.65
       1950    0.4684   164.84     4.035    64.74   0.08505    52.02   0.34329   -68.19
       2000   0.46792   162.95    3.9265    63.61  0.086333    52.11   0.34252   -69.29

!  
! Device Noise Parameters
!  Freq-MHz   Fmin-dB  Gopt-mag  Gopt-arg   Rn-Ohm_normalized
        400    0.9487   0.01215   134.27    0.1159
        420    0.8745   0.05115   162.50    0.0968
        433    0.8775   0.04122   147.07    0.1023
        440    0.8377   0.03847   152.24    0.1022
        460    0.8669   0.05820   168.41    0.0961
        480    0.8871   0.04636   149.26    0.0957
        500    0.8921   0.05537   160.35    0.0965
        550    0.8974   0.04855   153.14    0.1056
        600    0.9488   0.03887   147.79    0.1077
        650    0.9083   0.06176   154.65    0.0989
        700    0.9379   0.06979   156.51    0.0959
        750    0.9053   0.07666   158.67    0.0947
        800    0.9504   0.08128   159.93    0.0943
        850    0.9376   0.09107   159.71    0.0923
        900    0.9459   0.08510   160.46    0.0943
        950    0.9500   0.09899   163.70    0.0906
       1000    0.9502   0.09867   162.93    0.0914
       1050    0.9602   0.09771   163.36    0.0931
       1100    0.9800   0.10782   163.90    0.0893
       1150    0.9914   0.10902   165.93    0.0914
       1200    0.9720   0.11256   166.95    0.0945
       1250    0.9864   0.12021   167.24    0.0919
       1300    1.0138   0.12486   166.99    0.0894
       1350    1.0007   0.12538   168.19    0.0924
       1400    1.0056   0.13742   167.90    0.0888
       1450    1.0703   0.13630   172.83    0.0863
       1500    1.0514   0.13818   176.00    0.0917
       1550    1.0306   0.13433   174.28    0.0936
       1600    1.0307   0.14885   174.24    0.0884
       1650    1.0257   0.15432   179.01    0.0900
       1700    1.0358   0.15897   177.29    0.0901
       1750    1.0485   0.16412  -179.76    0.0857
       1800    1.0122   0.16875   179.35    0.0852
       1850    1.0489   0.17124  -178.00    0.0837
       1900    1.0587   0.17541  -177.01    0.0881
       1950    1.0862   0.18373  -176.92    0.0872
       2000    1.0811   0.18377  -175.16    0.0906

