! 2/19/2018 12:36:31 PM
! E:\STEPPED_EXPERIMENT_2018-02-19\P1-MSL_THRU_200-P2.S2P
! CHANNEL.1
! TR.MEASUREMENT
! CORRECTED.DATA
# GHZ S RI R 50.0
! FREQ.GHZ         S11RE         S11IM         S21RE         S21IM         S12RE         S12IM         S22RE         S22IM         
!; PortSelection: Port_12
   0.001000000     0.0019449    0.0013523     0.9937081   -0.0071358     1.0001660   -0.0084115    -0.0005099    0.0007408 
   0.002000000     0.0022117    0.0004574     0.9943559   -0.0168106     1.0000680   -0.0170971     0.0001066    0.0006250 
   0.003000000     0.0005556   -0.0052137     0.9957069   -0.0366396     1.0007720   -0.0417268    -0.0013000   -0.0042862 
   0.004000000     0.0023097   -0.0044854     0.9993793   -0.0461399     1.0021380   -0.0420677     0.0007220   -0.0036136 
   0.005000000     0.0020894   -0.0013344     0.9960384   -0.0439791     0.9983066   -0.0438262     0.0006882   -0.0013676 
   0.006000000     0.0024282   -0.0017976     0.9965403   -0.0523498     0.9974903   -0.0524656     0.0009136   -0.0017874 
   0.007000000     0.0022037   -0.0018744     0.9966116   -0.0619814     0.9966214   -0.0608197     0.0009256   -0.0022857 
   0.008000000     0.0019757   -0.0027778     0.9970007   -0.0704711     0.9962278   -0.0699586     0.0011731   -0.0030252 
   0.009000000     0.0015212   -0.0032714     0.9968408   -0.0795057     0.9954331   -0.0784315     0.0012717   -0.0034024 
   0.010000000     0.0011047   -0.0035197     0.9962358   -0.0878485     0.9945562   -0.0865992     0.0008066   -0.0039116 
   0.011000000     0.0011425   -0.0038843     0.9957365   -0.0960064     0.9940265   -0.0944943     0.0010531   -0.0040610 
   0.012000000     0.0008416   -0.0040670     0.9946584   -0.1041235     0.9927418   -0.1029078     0.0007858   -0.0043036 
   0.013000000     0.0006942   -0.0043988     0.9937823   -0.1121754     0.9917139   -0.1111765     0.0006929   -0.0046084 
   0.014000000     0.0006789   -0.0046675     0.9930341   -0.1201119     0.9906760   -0.1193965     0.0006858   -0.0048663 
   0.015000000     0.0004375   -0.0049505     0.9918953   -0.1280430     0.9894806   -0.1274884     0.0005204   -0.0048198 
   0.016000000     0.0004451   -0.0052319     0.9908126   -0.1360044     0.9883148   -0.1352355    -0.0000036   -0.0053387 
   0.017000000    -0.0000088   -0.0055556     0.9894768   -0.1444176     0.9872761   -0.1436264     0.0001522   -0.0055329 
   0.018000000    -0.0003846   -0.0054926     0.9882680   -0.1524033     0.9856585   -0.1517580    -0.0002874   -0.0056477 
   0.019000000    -0.0004573   -0.0060467     0.9869782   -0.1605130     0.9846216   -0.1598631    -0.0002309   -0.0058711 
   0.020000000    -0.0005283   -0.0063031     0.9855469   -0.1686638     0.9829605   -0.1677805    -0.0005310   -0.0064200 
   0.021000000    -0.0006764   -0.0065174     0.9840884   -0.1770501     0.9814565   -0.1757035    -0.0006109   -0.0066340 
   0.022000000    -0.0007963   -0.0068646     0.9828489   -0.1851396     0.9793857   -0.1836536    -0.0007524   -0.0067236 
   0.023000000    -0.0010531   -0.0071871     0.9811216   -0.1932448     0.9778990   -0.1920719    -0.0010256   -0.0070195 
   0.024000000    -0.0014984   -0.0073580     0.9796070   -0.2017985     0.9764279   -0.2001893    -0.0008644   -0.0074816 
   0.025000000    -0.0015030   -0.0075410     0.9778097   -0.2098728     0.9747535   -0.2082230    -0.0013755   -0.0076961 
   0.026000000    -0.0016716   -0.0079072     0.9761380   -0.2176914     0.9725692   -0.2157033    -0.0014564   -0.0079452 
   0.027000000    -0.0021183   -0.0081037     0.9741989   -0.2258060     0.9705610   -0.2239798    -0.0015202   -0.0084193 
   0.028000000    -0.0024425   -0.0084266     0.9722890   -0.2336917     0.9688321   -0.2321473    -0.0016278   -0.0088407 
   0.029000000    -0.0025261   -0.0088129     0.9698551   -0.2419073     0.9663087   -0.2401844    -0.0015438   -0.0091184 
   0.030000000    -0.0026069   -0.0090723     0.9674513   -0.2498751     0.9642744   -0.2482062    -0.0018855   -0.0094484 
   0.031000000    -0.0030089   -0.0097539     0.9656758   -0.2575577     0.9622049   -0.2565775    -0.0021722   -0.0098005 
   0.032000000    -0.0030187   -0.0096971     0.9630736   -0.2658223     0.9597569   -0.2640020    -0.0021612   -0.0102177 
   0.033000000    -0.0031772   -0.0099327     0.9613479   -0.2734393     0.9573527   -0.2720846    -0.0026936   -0.0106572 
   0.034000000    -0.0036938   -0.0101827     0.9584268   -0.2818987     0.9552045   -0.2797558    -0.0029673   -0.0105881 
   0.035000000    -0.0040470   -0.0105770     0.9562096   -0.2895212     0.9527541   -0.2876972    -0.0027844   -0.0109769 
   0.036000000    -0.0042213   -0.0108686     0.9538441   -0.2969260     0.9502786   -0.2955072    -0.0032105   -0.0111850 
   0.037000000    -0.0044323   -0.0112960     0.9509651   -0.3049309     0.9476467   -0.3032333    -0.0036504   -0.0114922 
   0.038000000    -0.0046609   -0.0115134     0.9486274   -0.3129421     0.9451177   -0.3106851    -0.0038261   -0.0116078 
   0.039000000    -0.0049517   -0.0116173     0.9456949   -0.3205935     0.9421464   -0.3184992    -0.0041354   -0.0115726 
   0.040000000    -0.0053950   -0.0118352     0.9430132   -0.3283397     0.9397134   -0.3262361    -0.0044335   -0.0118351 
   0.041000000    -0.0053412   -0.0120706     0.9401949   -0.3361279     0.9366552   -0.3338003    -0.0044819   -0.0120236 
   0.042000000    -0.0057992   -0.0123200     0.9368686   -0.3442811     0.9337747   -0.3413458    -0.0045078   -0.0124500 
   0.043000000    -0.0057443   -0.0123372     0.9336961   -0.3513390     0.9312456   -0.3491493    -0.0050220   -0.0125843 
   0.044000000    -0.0062982   -0.0127175     0.9309708   -0.3590755     0.9281734   -0.3568530    -0.0051063   -0.0125865 
   0.045000000    -0.0065564   -0.0129753     0.9281896   -0.3666380     0.9250450   -0.3645020    -0.0052844   -0.0130904 
   0.046000000    -0.0065425   -0.0130602     0.9244643   -0.3742947     0.9220535   -0.3724267    -0.0055604   -0.0130184 
   0.047000000    -0.0068552   -0.0131742     0.9216385   -0.3820559     0.9189984   -0.3799359    -0.0055419   -0.0131814 
   0.048000000    -0.0067905   -0.0133766     0.9182259   -0.3896014     0.9153100   -0.3873793    -0.0057412   -0.0134597 
   0.049000000    -0.0072306   -0.0134867     0.9146004   -0.3967537     0.9120449   -0.3952793    -0.0059439   -0.0135661 
   0.050000000    -0.0072601   -0.0136313     0.9116207   -0.4045798     0.9090858   -0.4028182    -0.0061848   -0.0137703 
   0.051000000    -0.0075994   -0.0137635     0.9081045   -0.4118160     0.9051937   -0.4105041    -0.0064266   -0.0137262 
   0.052000000    -0.0076482   -0.0138011     0.9042360   -0.4194721     0.9017710   -0.4181000    -0.0065702   -0.0142618 
   0.053000000    -0.0078284   -0.0141514     0.9005712   -0.4269455     0.8981802   -0.4254884    -0.0068472   -0.0145360 
   0.054000000    -0.0082242   -0.0141529     0.8971708   -0.4342683     0.8944723   -0.4325578    -0.0068743   -0.0145862 
   0.055000000    -0.0083297   -0.0144407     0.8933643   -0.4417951     0.8908890   -0.4397901    -0.0073215   -0.0146189 
   0.056000000    -0.0085746   -0.0144791     0.8899212   -0.4490867     0.8874760   -0.4470697    -0.0072922   -0.0147334 
   0.057000000    -0.0087758   -0.0147941     0.8856633   -0.4564424     0.8833969   -0.4545274    -0.0076337   -0.0149388 
   0.058000000    -0.0091543   -0.0149585     0.8816100   -0.4636657     0.8796421   -0.4617092    -0.0078904   -0.0151086 
   0.059000000    -0.0095179   -0.0149729     0.8778091   -0.4707546     0.8754405   -0.4688284    -0.0081321   -0.0152061 
   0.060000000    -0.0096246   -0.0150350     0.8738344   -0.4783086     0.8717375   -0.4760493    -0.0082698   -0.0154922 
   0.061000000    -0.0100294   -0.0153775     0.8697869   -0.4853155     0.8677385   -0.4831396    -0.0084837   -0.0156903 
   0.062000000    -0.0104199   -0.0153294     0.8654865   -0.4929608     0.8636088   -0.4901996    -0.0088867   -0.0156986 
   0.063000000    -0.0106313   -0.0153038     0.8612984   -0.4998311     0.8596082   -0.4971775    -0.0091313   -0.0160216 
   0.064000000    -0.0109619   -0.0152724     0.8571956   -0.5069079     0.8557637   -0.5039598    -0.0093454   -0.0161448 
   0.065000000    -0.0111861   -0.0154197     0.8525606   -0.5139640     0.8513701   -0.5113234    -0.0095475   -0.0162137 
   0.066000000    -0.0114040   -0.0154008     0.8486561   -0.5209366     0.8465332   -0.5181043    -0.0098624   -0.0163418 
   0.067000000    -0.0117729   -0.0154462     0.8440185   -0.5278872     0.8425254   -0.5253066    -0.0101649   -0.0163770 
   0.068000000    -0.0126178   -0.0157693     0.8396556   -0.5343256     0.8379667   -0.5322114    -0.0110337   -0.0166921 
   0.069000000    -0.0123199   -0.0153828     0.8355864   -0.5415935     0.8339156   -0.5387937    -0.0106700   -0.0165899 
   0.070000000    -0.0129893   -0.0154476     0.8309682   -0.5483332     0.8288749   -0.5457503    -0.0110241   -0.0169470 
   0.071000000    -0.0131973   -0.0157565     0.8262045   -0.5548486     0.8245413   -0.5523381    -0.0114504   -0.0169691 
   0.072000000    -0.0134589   -0.0154691     0.8213759   -0.5620841     0.8198109   -0.5586841    -0.0117627   -0.0171965 
   0.073000000    -0.0140880   -0.0155188     0.8165566   -0.5684127     0.8150072   -0.5657210    -0.0121027   -0.0170447 
   0.074000000    -0.0142808   -0.0155588     0.8120742   -0.5751201     0.8102387   -0.5723128    -0.0124409   -0.0171586 
   0.075000000    -0.0147103   -0.0157107     0.8071851   -0.5813957     0.8054730   -0.5786907    -0.0128393   -0.0174394 
   0.076000000    -0.0149898   -0.0158449     0.8023502   -0.5878248     0.8008651   -0.5853430    -0.0131544   -0.0172381 
   0.077000000    -0.0154053   -0.0157614     0.7973816   -0.5944342     0.7957612   -0.5917084    -0.0135768   -0.0170234 
   0.078000000    -0.0156019   -0.0159586     0.7918955   -0.6011353     0.7906843   -0.5982382    -0.0139553   -0.0171878 
   0.079000000    -0.0160594   -0.0159904     0.7872661   -0.6068807     0.7858503   -0.6046258    -0.0144905   -0.0175280 
   0.080000000    -0.0162929   -0.0161943     0.7823072   -0.6127573     0.7808134   -0.6109278    -0.0149504   -0.0173912 
   0.081000000    -0.0165538   -0.0164313     0.7769545   -0.6197750     0.7756203   -0.6177707    -0.0148722   -0.0171421 
   0.082000000    -0.0165766   -0.0163559     0.7718282   -0.6260090     0.7703422   -0.6238098    -0.0153211   -0.0174614 
   0.083000000    -0.0171610   -0.0163463     0.7664359   -0.6324530     0.7654167   -0.6302292    -0.0158005   -0.0170580 
   0.084000000    -0.0174848   -0.0165376     0.7611943   -0.6384245     0.7598262   -0.6364240    -0.0160299   -0.0171623 
   0.085000000    -0.0177279   -0.0165698     0.7557589   -0.6448848     0.7544699   -0.6424673    -0.0164922   -0.0168197 
   0.086000000    -0.0181466   -0.0164147     0.7506861   -0.6503323     0.7491834   -0.6481876    -0.0177752   -0.0174214 
   0.087000000    -0.0184068   -0.0162001     0.7450129   -0.6567526     0.7437822   -0.6547154    -0.0174816   -0.0170638 
   0.088000000    -0.0186638   -0.0161748     0.7392327   -0.6630473     0.7383506   -0.6606289    -0.0176985   -0.0167825 
   0.089000000    -0.0192070   -0.0162601     0.7339822   -0.6688478     0.7328883   -0.6665344    -0.0182649   -0.0167287 
   0.090000000    -0.0196685   -0.0161083     0.7278857   -0.6747957     0.7275091   -0.6724474    -0.0184881   -0.0167529 
   0.091000000    -0.0198376   -0.0161286     0.7225612   -0.6805815     0.7216053   -0.6780922    -0.0191444   -0.0166327 
   0.092000000    -0.0202648   -0.0159079     0.7163594   -0.6865619     0.7158856   -0.6839281    -0.0191259   -0.0167277 
   0.093000000    -0.0205993   -0.0161394     0.7109857   -0.6921819     0.7100722   -0.6897395    -0.0196810   -0.0165789 
   0.094000000    -0.0211090   -0.0158386     0.7052795   -0.6980672     0.7043993   -0.6958760    -0.0197521   -0.0164209 
   0.095000000    -0.0213390   -0.0159513     0.6994529   -0.7040207     0.6983064   -0.7017256    -0.0200598   -0.0165219 
   0.096000000    -0.0217871   -0.0159989     0.6936600   -0.7089819     0.6928795   -0.7072737    -0.0210606   -0.0165578 
   0.097000000    -0.0220918   -0.0161389     0.6872141   -0.7149262     0.6865083   -0.7134951    -0.0202909   -0.0163063 
   0.098000000    -0.0224587   -0.0160518     0.6812822   -0.7206648     0.6806424   -0.7187471    -0.0205268   -0.0164287 
   0.099000000    -0.0226873   -0.0161285     0.6753794   -0.7260420     0.6743072   -0.7246378    -0.0209431   -0.0168106 
   0.100000000    -0.0230280   -0.0160349     0.6699586   -0.7317417     0.6682985   -0.7302130    -0.0216464   -0.0166934 
   0.101000000    -0.0236259   -0.0158892     0.6633212   -0.7368423     0.6622149   -0.7358144    -0.0211954   -0.0165597 
   0.102000000    -0.0240310   -0.0157197     0.6566367   -0.7423317     0.6560468   -0.7408023    -0.0213455   -0.0167265 
   0.103000000    -0.0243533   -0.0157491     0.6509517   -0.7475510     0.6501855   -0.7461751    -0.0216513   -0.0164560 
   0.104000000    -0.0245856   -0.0158721     0.6448599   -0.7530033     0.6440066   -0.7515551    -0.0226680   -0.0164189 
   0.105000000    -0.0249612   -0.0154402     0.6384727   -0.7582487     0.6379178   -0.7564921    -0.0221252   -0.0165886 
   0.106000000    -0.0250219   -0.0155277     0.6319938   -0.7633151     0.6315733   -0.7619343    -0.0226963   -0.0167162 
   0.107000000    -0.0255005   -0.0153045     0.6257847   -0.7685666     0.6253941   -0.7667678    -0.0229127   -0.0166931 
   0.108000000    -0.0259516   -0.0149519     0.6192372   -0.7737175     0.6190223   -0.7718089    -0.0231704   -0.0167871 
   0.109000000    -0.0259928   -0.0149996     0.6126945   -0.7787076     0.6129648   -0.7767050    -0.0235211   -0.0165315 
   0.110000000    -0.0260378   -0.0146788     0.6063673   -0.7839472     0.6066798   -0.7815831    -0.0234589   -0.0167657 
   0.111000000    -0.0261861   -0.0143321     0.5999159   -0.7886891     0.5998857   -0.7866992    -0.0241271   -0.0166935 
   0.112000000    -0.0264696   -0.0143567     0.5932190   -0.7934873     0.5932483   -0.7915443    -0.0242492   -0.0166335 
   0.113000000    -0.0266583   -0.0140894     0.5866145   -0.7984864     0.5869792   -0.7965444    -0.0245007   -0.0165827 
   0.114000000    -0.0268971   -0.0140587     0.5801316   -0.8030238     0.5804041   -0.8009570    -0.0248807   -0.0166049 
   0.115000000    -0.0270929   -0.0140213     0.5734109   -0.8078724     0.5734966   -0.8056431    -0.0254423   -0.0166418 
   0.116000000    -0.0271549   -0.0136662     0.5667722   -0.8125147     0.5668844   -0.8103893    -0.0254805   -0.0164485 
   0.117000000    -0.0274185   -0.0138354     0.5599452   -0.8169790     0.5601408   -0.8149492    -0.0258160   -0.0164280 
   0.118000000    -0.0276125   -0.0136040     0.5533588   -0.8216296     0.5535827   -0.8193170    -0.0259274   -0.0162749 
   0.119000000    -0.0276524   -0.0134523     0.5463594   -0.8262824     0.5466293   -0.8239033    -0.0262882   -0.0162289 
   0.120000000    -0.0279999   -0.0132970     0.5396767   -0.8306150     0.5398121   -0.8284520    -0.0262292   -0.0163457 
   0.121000000    -0.0282578   -0.0131004     0.5327947   -0.8348323     0.5331692   -0.8326346    -0.0266688   -0.0159113 
   0.122000000    -0.0286689   -0.0130839     0.5261550   -0.8390458     0.5260640   -0.8370825    -0.0267195   -0.0159899 
   0.123000000    -0.0290503   -0.0127810     0.5190184   -0.8430642     0.5188314   -0.8412845    -0.0269244   -0.0157159 
   0.124000000    -0.0291881   -0.0125455     0.5120823   -0.8472395     0.5122300   -0.8449605    -0.0272594   -0.0156441 
   0.125000000    -0.0292725   -0.0123078     0.5052140   -0.8516040     0.5048141   -0.8495603    -0.0274263   -0.0156079 
   0.126000000    -0.0297679   -0.0121767     0.4981228   -0.8550795     0.4980051   -0.8535637    -0.0277066   -0.0153798 
   0.127000000    -0.0302675   -0.0116168     0.4909249   -0.8595397     0.4906595   -0.8572209    -0.0278104   -0.0151124 
   0.128000000    -0.0303954   -0.0112839     0.4837743   -0.8631287     0.4836788   -0.8608766    -0.0279606   -0.0151327 
   0.129000000    -0.0306261   -0.0108959     0.4766915   -0.8671529     0.4766819   -0.8648162    -0.0283190   -0.0150159 
   0.130000000    -0.0310452   -0.0104297     0.4696625   -0.8708469     0.4693663   -0.8687233    -0.0285252   -0.0145793 
   0.131000000    -0.0312082   -0.0099431     0.4621159   -0.8748298     0.4624026   -0.8722571    -0.0286024   -0.0145316 
   0.132000000    -0.0313362   -0.0097650     0.4549157   -0.8780721     0.4552103   -0.8760570    -0.0286836   -0.0141818 
   0.133000000    -0.0316079   -0.0089648     0.4475433   -0.8817115     0.4479053   -0.8793336    -0.0291094   -0.0140862 
   0.134000000    -0.0317945   -0.0089290     0.4400805   -0.8850660     0.4402943   -0.8828819    -0.0290436   -0.0137731 
   0.135000000    -0.0318005   -0.0087342     0.4323683   -0.8886897     0.4331529   -0.8860937    -0.0293241   -0.0134959 
   0.136000000    -0.0319426   -0.0084194     0.4253637   -0.8919846     0.4256335   -0.8896651    -0.0294630   -0.0138142 
   0.137000000    -0.0318290   -0.0083211     0.4177619   -0.8951529     0.4182180   -0.8930745    -0.0295864   -0.0139185 
   0.138000000    -0.0322780   -0.0083521     0.4107537   -0.8980916     0.4107000   -0.8962454    -0.0299870   -0.0135941 
   0.139000000    -0.0326562   -0.0082769     0.4034456   -0.9014888     0.4035036   -0.8991775    -0.0303545   -0.0134921 
   0.140000000    -0.0330422   -0.0078981     0.3962006   -0.9043398     0.3963871   -0.9025151    -0.0309307   -0.0135622 
   0.141000000    -0.0333442   -0.0076132     0.3890480   -0.9079797     0.3889861   -0.9055712    -0.0313788   -0.0130511 
   0.142000000    -0.0336910   -0.0072809     0.3816490   -0.9109679     0.3817346   -0.9088950    -0.0314826   -0.0126108 
   0.143000000    -0.0339763   -0.0070374     0.3741221   -0.9141048     0.3739812   -0.9120227    -0.0317498   -0.0120850 
   0.144000000    -0.0341554   -0.0062878     0.3664461   -0.9171174     0.3666450   -0.9156213    -0.0319837   -0.0118700 
   0.145000000    -0.0344820   -0.0059082     0.3587450   -0.9205025     0.3592509   -0.9186714    -0.0323397   -0.0116808 
   0.146000000    -0.0346197   -0.0055352     0.3513198   -0.9232323     0.3516644   -0.9216687    -0.0322274   -0.0111808 
   0.147000000    -0.0348919   -0.0052933     0.3435012   -0.9258983     0.3442794   -0.9247319    -0.0325017   -0.0107488 
   0.148000000    -0.0348251   -0.0051348     0.3358663   -0.9286917     0.3364813   -0.9274874    -0.0326761   -0.0103460 
   0.149000000    -0.0351379   -0.0047029     0.3282211   -0.9315121     0.3288664   -0.9302522    -0.0327777   -0.0099381 
   0.150000000    -0.0353224   -0.0042917     0.3206662   -0.9342076     0.3212568   -0.9329906    -0.0330100   -0.0100525 
   0.151000000    -0.0356502   -0.0037427     0.3129911   -0.9368907     0.3137943   -0.9356836    -0.0330723   -0.0092979 
   0.152000000    -0.0357563   -0.0037194     0.3051685   -0.9392471     0.3062198   -0.9378248    -0.0332519   -0.0090110 
   0.153000000    -0.0359513   -0.0031221     0.2972485   -0.9419653     0.2986616   -0.9403909    -0.0332913   -0.0086925 
   0.154000000    -0.0358046   -0.0026245     0.2898992   -0.9438553     0.2906556   -0.9426808    -0.0336462   -0.0083712 
   0.155000000    -0.0360664   -0.0022265     0.2820863   -0.9464705     0.2832232   -0.9452513    -0.0336581   -0.0080571 
   0.156000000    -0.0362093   -0.0018207     0.2742542   -0.9486454     0.2754312   -0.9473351    -0.0338009   -0.0075933 
   0.157000000    -0.0363999   -0.0015797     0.2668641   -0.9506509     0.2677402   -0.9494717    -0.0340717   -0.0072760 
   0.158000000    -0.0365019   -0.0013737     0.2588436   -0.9529447     0.2598086   -0.9515945    -0.0340019   -0.0068646 
