! 2/19/2018 12:55:07 PM
! E:\STEPPED_EXPERIMENT_2018-02-19\P1-MSL_OPEN_50.S1P
! CHANNEL.1
! TR.MEASUREMENT
! CORRECTED.DATA
# GHZ S RI R 50.0
! FREQ.GHZ         S11RE         S11IM         
!; PortSelection: Port_1
   0.001000000     1.0044310   -0.0012749  
   0.002000000     1.0037020   -0.0062638  
   0.003000000     1.0037360   -0.0114761  
   0.004000000     1.0032520   -0.0161900  
   0.005000000     1.0024800   -0.0216266  
   0.006000000     1.0026910   -0.0264098  
   0.007000000     1.0018480   -0.0317127  
   0.008000000     1.0014650   -0.0366368  
   0.009000000     1.0009880   -0.0418648  
   0.010000000     1.0005150   -0.0459714  
   0.011000000     1.0002970   -0.0503320  
   0.012000000     0.9999999   -0.0549316  
   0.013000000     0.9995001   -0.0593014  
   0.014000000     0.9993008   -0.0637683  
   0.015000000     0.9984071   -0.0680841  
   0.016000000     0.9982447   -0.0726026  
   0.017000000     0.9978626   -0.0769979  
   0.018000000     0.9970580   -0.0814422  
   0.019000000     0.9966342   -0.0859852  
   0.020000000     0.9961237   -0.0902768  
   0.021000000     0.9953826   -0.0949047  
   0.022000000     0.9948388   -0.0989517  
   0.023000000     0.9942586   -0.1036761  
   0.024000000     0.9937254   -0.1077399  
   0.025000000     0.9929377   -0.1124270  
   0.026000000     0.9926001   -0.1163471  
   0.027000000     0.9915202   -0.1209716  
   0.028000000     0.9910151   -0.1254152  
   0.029000000     0.9906824   -0.1298903  
   0.030000000     0.9899307   -0.1343027  
   0.031000000     0.9890853   -0.1386991  
   0.032000000     0.9882784   -0.1430100  
   0.033000000     0.9876683   -0.1473112  
   0.034000000     0.9869695   -0.1518690  
   0.035000000     0.9863166   -0.1562157  
   0.036000000     0.9854449   -0.1607568  
   0.037000000     0.9846316   -0.1649746  
   0.038000000     0.9838040   -0.1694643  
   0.039000000     0.9832031   -0.1738250  
   0.040000000     0.9820389   -0.1781856  
   0.041000000     0.9812875   -0.1828640  
   0.042000000     0.9804356   -0.1870656  
   0.043000000     0.9799439   -0.1914058  
   0.044000000     0.9788131   -0.1957221  
   0.045000000     0.9779120   -0.1999834  
   0.046000000     0.9770365   -0.2044632  
   0.047000000     0.9759469   -0.2087740  
   0.048000000     0.9750041   -0.2130933  
   0.049000000     0.9741849   -0.2173607  
   0.050000000     0.9731165   -0.2213821  
   0.051000000     0.9723921   -0.2260349  
   0.052000000     0.9712099   -0.2303110  
   0.053000000     0.9699922   -0.2345415  
   0.054000000     0.9688861   -0.2388600  
   0.055000000     0.9679487   -0.2426816  
   0.056000000     0.9672742   -0.2468993  
   0.057000000     0.9658583   -0.2512759  
   0.058000000     0.9645653   -0.2553660  
   0.059000000     0.9634075   -0.2593563  
   0.060000000     0.9621209   -0.2636443  
   0.061000000     0.9611596   -0.2677316  
   0.062000000     0.9598863   -0.2720863  
   0.063000000     0.9590459   -0.2760579  
   0.064000000     0.9574737   -0.2800374  
   0.065000000     0.9562774   -0.2844384  
   0.066000000     0.9550350   -0.2878518  
   0.067000000     0.9538565   -0.2921292  
   0.068000000     0.9527915   -0.2965413  
   0.069000000     0.9508938   -0.3005226  
   0.070000000     0.9497594   -0.3040496  
   0.071000000     0.9487080   -0.3082517  
   0.072000000     0.9471740   -0.3124509  
   0.073000000     0.9457496   -0.3165213  
   0.074000000     0.9442021   -0.3209555  
   0.075000000     0.9428204   -0.3247498  
   0.076000000     0.9410170   -0.3288136  
   0.077000000     0.9397754   -0.3331734  
   0.078000000     0.9382823   -0.3368346  
   0.079000000     0.9369181   -0.3409212  
   0.080000000     0.9353673   -0.3451045  
   0.081000000     0.9338450   -0.3492838  
   0.082000000     0.9320027   -0.3530389  
   0.083000000     0.9302714   -0.3569864  
   0.084000000     0.9287643   -0.3611751  
   0.085000000     0.9273621   -0.3652945  
   0.086000000     0.9256027   -0.3691580  
   0.087000000     0.9237261   -0.3733482  
   0.088000000     0.9220086   -0.3773415  
   0.089000000     0.9201829   -0.3812431  
   0.090000000     0.9186609   -0.3855250  
   0.091000000     0.9166491   -0.3896816  
   0.092000000     0.9148957   -0.3934735  
   0.093000000     0.9133462   -0.3976192  
   0.094000000     0.9107938   -0.4018346  
   0.095000000     0.9092942   -0.4058238  
   0.096000000     0.9076229   -0.4095429  
   0.097000000     0.9052160   -0.4138339  
   0.098000000     0.9033525   -0.4179149  
   0.099000000     0.9012379   -0.4219490  
   0.100000000     0.8996241   -0.4258386  
   0.101000000     0.8975574   -0.4302000  
   0.102000000     0.8956500   -0.4341429  
   0.103000000     0.8933163   -0.4379632  
   0.104000000     0.8911415   -0.4421195  
   0.105000000     0.8892912   -0.4460498  
   0.106000000     0.8873779   -0.4499222  
   0.107000000     0.8850196   -0.4540021  
   0.108000000     0.8830296   -0.4580692  
   0.109000000     0.8809205   -0.4617063  
   0.110000000     0.8788098   -0.4656512  
   0.111000000     0.8766942   -0.4697601  
   0.112000000     0.8745714   -0.4736112  
   0.113000000     0.8722292   -0.4774235  
   0.114000000     0.8701780   -0.4815181  
   0.115000000     0.8677083   -0.4851522  
   0.116000000     0.8658707   -0.4887089  
   0.117000000     0.8637021   -0.4925810  
   0.118000000     0.8611828   -0.4964826  
   0.119000000     0.8592774   -0.5006732  
   0.120000000     0.8570566   -0.5044907  
   0.121000000     0.8548948   -0.5080880  
   0.122000000     0.8524973   -0.5118193  
   0.123000000     0.8505072   -0.5156173  
   0.124000000     0.8481905   -0.5191232  
   0.125000000     0.8460479   -0.5229215  
   0.126000000     0.8436315   -0.5265750  
   0.127000000     0.8412519   -0.5300005  
   0.128000000     0.8390888   -0.5337726  
   0.129000000     0.8368340   -0.5373218  
   0.130000000     0.8345055   -0.5409657  
   0.131000000     0.8320299   -0.5441778  
   0.132000000     0.8296910   -0.5479927  
   0.133000000     0.8273491   -0.5514849  
   0.134000000     0.8250394   -0.5550489  
   0.135000000     0.8227243   -0.5587564  
   0.136000000     0.8201086   -0.5620996  
   0.137000000     0.8178462   -0.5656542  
   0.138000000     0.8149643   -0.5693011  
   0.139000000     0.8128557   -0.5728117  
   0.140000000     0.8104351   -0.5759675  
   0.141000000     0.8081143   -0.5796797  
   0.142000000     0.8054847   -0.5829260  
   0.143000000     0.8028815   -0.5864887  
   0.144000000     0.8006982   -0.5898063  
   0.145000000     0.7981226   -0.5930520  
   0.146000000     0.7953868   -0.5965464  
   0.147000000     0.7927333   -0.5996747  
   0.148000000     0.7902092   -0.6029610  
   0.149000000     0.7873288   -0.6065515  
   0.150000000     0.7846738   -0.6098733  
   0.151000000     0.7822931   -0.6131974  
   0.152000000     0.7796797   -0.6165596  
   0.153000000     0.7767302   -0.6197247  
   0.154000000     0.7738943   -0.6231180  
   0.155000000     0.7711821   -0.6262234  
   0.156000000     0.7683991   -0.6298150  
   0.157000000     0.7654029   -0.6328307  
   0.158000000     0.7624251   -0.6362262  
   0.159000000     0.7599993   -0.6392691  
   0.160000000     0.7569606   -0.6428035  
   0.161000000     0.7542635   -0.6460716  
   0.162000000     0.7511089   -0.6493228  
   0.163000000     0.7482288   -0.6525734  
   0.164000000     0.7450902   -0.6557621  
   0.165000000     0.7421792   -0.6590747  
   0.166000000     0.7392811   -0.6621890  
   0.167000000     0.7362045   -0.6654657  
   0.168000000     0.7335123   -0.6688011  
   0.169000000     0.7302809   -0.6718993  
   0.170000000     0.7270569   -0.6752012  
   0.171000000     0.7241541   -0.6783702  
   0.172000000     0.7210548   -0.6812775  
   0.173000000     0.7180629   -0.6844515  
   0.174000000     0.7148100   -0.6877405  
   0.175000000     0.7117386   -0.6911208  
   0.176000000     0.7085013   -0.6940464  
   0.177000000     0.7053196   -0.6969639  
   0.178000000     0.7021877   -0.7003794  
   0.179000000     0.6991810   -0.7032357  
   0.180000000     0.6956816   -0.7062032  
   0.181000000     0.6925868   -0.7091837  
   0.182000000     0.6892747   -0.7123051  
   0.183000000     0.6862872   -0.7155871  
   0.184000000     0.6830216   -0.7182653  
   0.185000000     0.6797166   -0.7213637  
   0.186000000     0.6764576   -0.7243664  
   0.187000000     0.6732172   -0.7271591  
   0.188000000     0.6700817   -0.7299534  
   0.189000000     0.6669891   -0.7332590  
   0.190000000     0.6638371   -0.7359036  
   0.191000000     0.6602412   -0.7385519  
   0.192000000     0.6573637   -0.7416430  
   0.193000000     0.6540092   -0.7443140  
   0.194000000     0.6503186   -0.7473922  
   0.195000000     0.6475444   -0.7500432  
   0.196000000     0.6442113   -0.7526500  
   0.197000000     0.6406935   -0.7554201  
   0.198000000     0.6373543   -0.7586121  
   0.199000000     0.6341239   -0.7612125  
   0.200000000     0.6312066   -0.7637702  
   0.201000000     0.6275850   -0.7665064  
   0.202000000     0.6240911   -0.7691286  
   0.203000000     0.6212106   -0.7720885  
   0.204000000     0.6179188   -0.7743973  
   0.205000000     0.6144825   -0.7771226  
   0.206000000     0.6109048   -0.7797692  
   0.207000000     0.6076638   -0.7822320  
   0.208000000     0.6044059   -0.7848842  
   0.209000000     0.6006314   -0.7875205  
   0.210000000     0.5970711   -0.7900997  
   0.211000000     0.5939330   -0.7928455  
   0.212000000     0.5906445   -0.7951390  
   0.213000000     0.5870297   -0.7976374  
   0.214000000     0.5841005   -0.8001480  
   0.215000000     0.5803593   -0.8025685  
   0.216000000     0.5769603   -0.8051152  
   0.217000000     0.5731924   -0.8074835  
   0.218000000     0.5700552   -0.8098771  
   0.219000000     0.5661365   -0.8124902  
   0.220000000     0.5627507   -0.8149672  
   0.221000000     0.5591568   -0.8171141  
   0.222000000     0.5555824   -0.8196355  
   0.223000000     0.5520625   -0.8219397  
   0.224000000     0.5482739   -0.8240855  
   0.225000000     0.5448558   -0.8264981  
   0.226000000     0.5414594   -0.8288800  
   0.227000000     0.5375970   -0.8311084  
   0.228000000     0.5337429   -0.8333866  
   0.229000000     0.5300308   -0.8356684  
   0.230000000     0.5258929   -0.8378293  
   0.231000000     0.5224167   -0.8400950  
   0.232000000     0.5185384   -0.8422167  
   0.233000000     0.5147570   -0.8444158  
   0.234000000     0.5111115   -0.8469577  
   0.235000000     0.5074936   -0.8491296  
   0.236000000     0.5034596   -0.8511938  
   0.237000000     0.4998228   -0.8532181  
   0.238000000     0.4956859   -0.8557467  
   0.239000000     0.4919623   -0.8575330  
   0.240000000     0.4881378   -0.8599470  
   0.241000000     0.4843148   -0.8621658  
   0.242000000     0.4805106   -0.8640537  
   0.243000000     0.4763340   -0.8661861  
   0.244000000     0.4726289   -0.8682222  
   0.245000000     0.4687834   -0.8707053  
   0.246000000     0.4650351   -0.8725722  
   0.247000000     0.4612196   -0.8744200  
   0.248000000     0.4573662   -0.8764372  
   0.249000000     0.4533977   -0.8781708  
   0.250000000     0.4495585   -0.8801961  
   0.251000000     0.4458765   -0.8823304  
   0.252000000     0.4418620   -0.8840491  
   0.253000000     0.4379818   -0.8860546  
   0.254000000     0.4339021   -0.8878705  
   0.255000000     0.4302227   -0.8895592  
   0.256000000     0.4261136   -0.8915352  
   0.257000000     0.4221166   -0.8934823  
   0.258000000     0.4181728   -0.8949729  
   0.259000000     0.4143238   -0.8969803  
   0.260000000     0.4102586   -0.8986101  
   0.261000000     0.4065395   -0.9002589  
   0.262000000     0.4025026   -0.9021738  
   0.263000000     0.3989674   -0.9038937  
   0.264000000     0.3945023   -0.9057033  
   0.265000000     0.3906477   -0.9070925  
   0.266000000     0.3867948   -0.9086789  
   0.267000000     0.3824294   -0.9098955  
   0.268000000     0.3785700   -0.9120316  
   0.269000000     0.3749236   -0.9131791  
   0.270000000     0.3709889   -0.9148687  
   0.271000000     0.3669508   -0.9164208  
   0.272000000     0.3625950   -0.9183065  
   0.273000000     0.3588051   -0.9194375  
   0.274000000     0.3548145   -0.9207766  
   0.275000000     0.3510308   -0.9221056  
   0.276000000     0.3470838   -0.9238467  
   0.277000000     0.3431990   -0.9253020  
   0.278000000     0.3388910   -0.9265485  
   0.279000000     0.3347004   -0.9279134  
   0.280000000     0.3305740   -0.9295750  
   0.281000000     0.3266459   -0.9308713  
   0.282000000     0.3225220   -0.9322926  
   0.283000000     0.3188283   -0.9338212  
   0.284000000     0.3143908   -0.9350311  
   0.285000000     0.3103706   -0.9362908  
   0.286000000     0.3063142   -0.9377453  
   0.287000000     0.3017979   -0.9388447  
   0.288000000     0.2978606   -0.9406333  
   0.289000000     0.2936416   -0.9416137  
   0.290000000     0.2895625   -0.9430333  
   0.291000000     0.2854421   -0.9443805  
   0.292000000     0.2811204   -0.9452262  
   0.293000000     0.2767402   -0.9466421  
   0.294000000     0.2725260   -0.9481217  
   0.295000000     0.2685419   -0.9488505  
   0.296000000     0.2641851   -0.9499548  
   0.297000000     0.2599230   -0.9511973  
   0.298000000     0.2555113   -0.9528270  
   0.299000000     0.2513222   -0.9534032  
   0.300000000     0.2466967   -0.9545971  
   0.301000000     0.2427864   -0.9556171  
   0.302000000     0.2383431   -0.9564755  
   0.303000000     0.2343717   -0.9575262  
   0.304000000     0.2297752   -0.9584402  
   0.305000000     0.2257729   -0.9591626  
   0.306000000     0.2214944   -0.9601759  
   0.307000000     0.2170330   -0.9612197  
   0.308000000     0.2133171   -0.9625027  
   0.309000000     0.2087833   -0.9632109  
   0.310000000     0.2046636   -0.9639722  
   0.311000000     0.2000549   -0.9647480  
   0.312000000     0.1956304   -0.9659432  
   0.313000000     0.1916288   -0.9665243  
   0.314000000     0.1871967   -0.9672581  
   0.315000000     0.1826872   -0.9683368  
   0.316000000     0.1787857   -0.9688026  
   0.317000000     0.1743198   -0.9700208  
   0.318000000     0.1702532   -0.9703771  
   0.319000000     0.1659189   -0.9714389  
   0.320000000     0.1616093   -0.9718632  
   0.321000000     0.1574041   -0.9726407  
   0.322000000     0.1529460   -0.9732725  
   0.323000000     0.1489671   -0.9741899  
   0.324000000     0.1448674   -0.9748206  
   0.325000000     0.1406142   -0.9755114  
   0.326000000     0.1361462   -0.9760448  
   0.327000000     0.1319004   -0.9765292  
   0.328000000     0.1277886   -0.9772725  
   0.329000000     0.1234569   -0.9778358  
   0.330000000     0.1194353   -0.9781762  
   0.331000000     0.1149369   -0.9787823  
   0.332000000     0.1104205   -0.9783870  
   0.333000000     0.1066904   -0.9793374  
   0.334000000     0.1025542   -0.9801546  
   0.335000000     0.0982563   -0.9803983  
   0.336000000     0.0940212   -0.9808866  
   0.337000000     0.0899615   -0.9811989  
   0.338000000     0.0858724   -0.9816525  
   0.339000000     0.0815682   -0.9815804  
   0.340000000     0.0773472   -0.9823114  
   0.341000000     0.0733006   -0.9824566  
   0.342000000     0.0689381   -0.9828456  
   0.343000000     0.0650648   -0.9832475  
   0.344000000     0.0606608   -0.9835711  
   0.345000000     0.0564273   -0.9833406  
   0.346000000     0.0521174   -0.9835250  
   0.347000000     0.0481926   -0.9838192  
   0.348000000     0.0436670   -0.9840403  
   0.349000000     0.0400971   -0.9839848  
   0.350000000     0.0354875   -0.9843891  
   0.351000000     0.0314457   -0.9837515  
   0.352000000     0.0273906   -0.9844854  
   0.353000000     0.0232728   -0.9840993  
   0.354000000     0.0187718   -0.9842985  
   0.355000000     0.0147531   -0.9843031  
   0.356000000     0.0101670   -0.9841721  
   0.357000000     0.0060370   -0.9839889  
   0.358000000     0.0018537   -0.9841822  
   0.359000000    -0.0023489   -0.9838845  
   0.360000000    -0.0067324   -0.9835288  
   0.361000000    -0.0108959   -0.9836310  
   0.362000000    -0.0154480   -0.9836936  
   0.363000000    -0.0195628   -0.9834496  
   0.364000000    -0.0242127   -0.9830817  
   0.365000000    -0.0284048   -0.9827265  
   0.366000000    -0.0329865   -0.9825484  
   0.367000000    -0.0376019   -0.9824936  
   0.368000000    -0.0418225   -0.9821997  
   0.369000000    -0.0460905   -0.9822391  
   0.370000000    -0.0506341   -0.9817241  
   0.371000000    -0.0552322   -0.9813178  
   0.372000000    -0.0589101   -0.9800429  
   0.373000000    -0.0638120   -0.9806913  
   0.374000000    -0.0684534   -0.9805086  
   0.375000000    -0.0724494   -0.9801471  
   0.376000000    -0.0770252   -0.9800855  
   0.377000000    -0.0814298   -0.9794591  
   0.378000000    -0.0860477   -0.9790988  
   0.379000000    -0.0905451   -0.9787737  
   0.380000000    -0.0948409   -0.9783377  
   0.381000000    -0.0993306   -0.9780506  
   0.382000000    -0.1041771   -0.9773805  
   0.383000000    -0.1083474   -0.9769202  
   0.384000000    -0.1125897   -0.9765680  
   0.385000000    -0.1167539   -0.9761505  
   0.386000000    -0.1211605   -0.9755108  
   0.387000000    -0.1255979   -0.9752446  
   0.388000000    -0.1297058   -0.9745769  
   0.389000000    -0.1336177   -0.9740891  
   0.390000000    -0.1380751   -0.9736437  
   0.391000000    -0.1425609   -0.9728456  
   0.392000000    -0.1466925   -0.9722218  
   0.393000000    -0.1508873   -0.9715926  
   0.394000000    -0.1552141   -0.9712432  
   0.395000000    -0.1596233   -0.9702525  
   0.396000000    -0.1635830   -0.9696009  
   0.397000000    -0.1678693   -0.9689280  
   0.398000000    -0.1723154   -0.9682045  
   0.399000000    -0.1763959   -0.9672412  
   0.400000000    -0.1809705   -0.9668326  
   0.401000000    -0.1849429   -0.9655685  
   0.402000000    -0.1890689   -0.9649338  
   0.403000000    -0.1933510   -0.9643651  
   0.404000000    -0.1973614   -0.9633769  
   0.405000000    -0.2016853   -0.9625034  
   0.406000000    -0.2058584   -0.9615581  
   0.407000000    -0.2099211   -0.9610749  
   0.408000000    -0.2141087   -0.9598032  
   0.409000000    -0.2183381   -0.9586153  
   0.410000000    -0.2222341   -0.9575788  
   0.411000000    -0.2261122   -0.9568385  
   0.412000000    -0.2303565   -0.9556816  
   0.413000000    -0.2345874   -0.9543564  
   0.414000000    -0.2388862   -0.9535758  
   0.415000000    -0.2431764   -0.9522394  
   0.416000000    -0.2466279   -0.9513332  
   0.417000000    -0.2506260   -0.9501717  
   0.418000000    -0.2549385   -0.9489217  
   0.419000000    -0.2589788   -0.9477142  
   0.420000000    -0.2628500   -0.9466516  
   0.421000000    -0.2669698   -0.9453084  
   0.422000000    -0.2709107   -0.9441887  
   0.423000000    -0.2748908   -0.9427140  
   0.424000000    -0.2787738   -0.9415400  
   0.425000000    -0.2826540   -0.9400911  
   0.426000000    -0.2870363   -0.9392403  
   0.427000000    -0.2909990   -0.9377207  
   0.428000000    -0.2951889   -0.9363692  
   0.429000000    -0.2993642   -0.9349059  
   0.430000000    -0.3032562   -0.9335202  
   0.431000000    -0.3072237   -0.9324243  
   0.432000000    -0.3117474   -0.9308500  
   0.433000000    -0.3156907   -0.9293665  
   0.434000000    -0.3196122   -0.9281731  
   0.435000000    -0.3237568   -0.9267603  
   0.436000000    -0.3274716   -0.9253946  
   0.437000000    -0.3314730   -0.9236938  
   0.438000000    -0.3353575   -0.9223162  
   0.439000000    -0.3395955   -0.9203820  
   0.440000000    -0.3430362   -0.9190353  
   0.441000000    -0.3472893   -0.9174243  
   0.442000000    -0.3510567   -0.9159666  
   0.443000000    -0.3553683   -0.9143238  
   0.444000000    -0.3594170   -0.9129781  
   0.445000000    -0.3633511   -0.9110300  
   0.446000000    -0.3677491   -0.9092496  
   0.447000000    -0.3717475   -0.9078123  
   0.448000000    -0.3754560   -0.9058481  
   0.449000000    -0.3796917   -0.9040034  
