! 2/19/2018 12:39:02 PM
! E:\STEPPED_EXPERIMENT_2018-02-19\P1-MSL_STEPPED140-P2.S2P
! CHANNEL.1
! TR.MEASUREMENT
! CORRECTED.DATA
# GHZ S RI R 50.0
! FREQ.GHZ         S11RE         S11IM         S21RE         S21IM         S12RE         S12IM         S22RE         S22IM         
!; PortSelection: Port_12
   0.001000000     0.0025951    0.0017341     0.9940890   -0.0046118     1.0001750   -0.0066211    -0.0006404    0.0007102 
   0.002000000     0.0023382    0.0004449     0.9949309   -0.0128521     1.0005150   -0.0137063     0.0005213    0.0008270 
   0.003000000     0.0007426   -0.0047904     0.9963095   -0.0306675     1.0006950   -0.0352590    -0.0011643   -0.0041162 
   0.004000000     0.0027567   -0.0043188     0.9994893   -0.0379139     1.0025990   -0.0337022     0.0008202   -0.0034254 
   0.005000000     0.0024632   -0.0012011     0.9966952   -0.0340142     0.9988107   -0.0336125     0.0007821   -0.0012091 
   0.006000000     0.0028031   -0.0014825     0.9970765   -0.0403601     0.9982224   -0.0403326     0.0012501   -0.0015075 
   0.007000000     0.0025629   -0.0017265     0.9977286   -0.0478047     0.9980032   -0.0464476     0.0010282   -0.0019590 
   0.008000000     0.0023774   -0.0023845     0.9982532   -0.0545136     0.9971458   -0.0532917     0.0013299   -0.0028619 
   0.009000000     0.0018406   -0.0031488     0.9987019   -0.0613570     0.9967207   -0.0600510     0.0014844   -0.0031221 
   0.010000000     0.0016669   -0.0030834     0.9981699   -0.0675503     0.9962850   -0.0663895     0.0009400   -0.0035743 
   0.011000000     0.0016195   -0.0035350     0.9982711   -0.0740503     0.9958538   -0.0720790     0.0012348   -0.0036907 
   0.012000000     0.0015130   -0.0039145     0.9974623   -0.0796785     0.9950471   -0.0787443     0.0009143   -0.0039179 
   0.013000000     0.0012942   -0.0041355     0.9964924   -0.0860340     0.9945454   -0.0849678     0.0008882   -0.0042511 
   0.014000000     0.0013109   -0.0041474     0.9963143   -0.0916646     0.9939882   -0.0912228     0.0009010   -0.0042290 
   0.015000000     0.0009812   -0.0044414     0.9954621   -0.0978288     0.9931255   -0.0972095     0.0005581   -0.0044433 
   0.016000000     0.0012215   -0.0047461     0.9950915   -0.1038997     0.9925998   -0.1032947     0.0002401   -0.0049192 
   0.017000000     0.0007212   -0.0050546     0.9942141   -0.1100424     0.9917982   -0.1095094     0.0002454   -0.0051758 
   0.018000000     0.0005863   -0.0050381     0.9935272   -0.1162049     0.9911069   -0.1159268    -0.0000425   -0.0052562 
   0.019000000     0.0005465   -0.0054771     0.9930227   -0.1227564     0.9900502   -0.1217174     0.0000518   -0.0053253 
   0.020000000     0.0003735   -0.0057471     0.9921833   -0.1285688     0.9893305   -0.1283026    -0.0002731   -0.0058908 
   0.021000000     0.0001991   -0.0060693     0.9914855   -0.1353177     0.9883122   -0.1341465    -0.0003793   -0.0059826 
   0.022000000     0.0004665   -0.0064430     0.9907901   -0.1413787     0.9872233   -0.1399661    -0.0006880   -0.0061589 
   0.023000000     0.0001506   -0.0066993     0.9897736   -0.1475405     0.9864171   -0.1463357    -0.0009248   -0.0064509 
   0.024000000    -0.0000895   -0.0068746     0.9889105   -0.1538038     0.9853555   -0.1525252    -0.0008841   -0.0070172 
   0.025000000    -0.0000224   -0.0072176     0.9879097   -0.1601442     0.9843929   -0.1588942    -0.0010920   -0.0069891 
   0.026000000    -0.0001589   -0.0074926     0.9866822   -0.1660310     0.9830101   -0.1646589    -0.0012050   -0.0071670 
   0.027000000    -0.0004328   -0.0077041     0.9857779   -0.1726470     0.9818683   -0.1708483    -0.0014266   -0.0077134 
   0.028000000    -0.0006256   -0.0080551     0.9843372   -0.1784373     0.9808117   -0.1770451    -0.0014821   -0.0080929 
   0.029000000    -0.0006059   -0.0084908     0.9830994   -0.1848728     0.9794662   -0.1832230    -0.0014714   -0.0084114 
   0.030000000    -0.0006561   -0.0086814     0.9819258   -0.1908786     0.9780818   -0.1895914    -0.0018904   -0.0087274 
   0.031000000    -0.0010178   -0.0094604     0.9804795   -0.1969306     0.9769721   -0.1957425    -0.0020267   -0.0089591 
   0.032000000    -0.0008696   -0.0094502     0.9792131   -0.2035029     0.9754818   -0.2016569    -0.0018717   -0.0092948 
   0.033000000    -0.0008710   -0.0097226     0.9780542   -0.2092147     0.9738923   -0.2078054    -0.0025631   -0.0097478 
   0.034000000    -0.0012185   -0.0100309     0.9766327   -0.2158044     0.9730940   -0.2136197    -0.0028821   -0.0098790 
   0.035000000    -0.0016462   -0.0103950     0.9755091   -0.2215088     0.9711989   -0.2200178    -0.0027735   -0.0101411 
   0.036000000    -0.0014370   -0.0107306     0.9739115   -0.2275185     0.9698205   -0.2260518    -0.0030062   -0.0103330 
   0.037000000    -0.0016404   -0.0112433     0.9722352   -0.2336137     0.9686308   -0.2320373    -0.0034504   -0.0107388 
   0.038000000    -0.0017109   -0.0113552     0.9705313   -0.2397108     0.9667877   -0.2379841    -0.0038359   -0.0108081 
   0.039000000    -0.0019442   -0.0117162     0.9689928   -0.2459291     0.9652082   -0.2438645    -0.0039900   -0.0109272 
   0.040000000    -0.0021560   -0.0120476     0.9673473   -0.2516822     0.9638608   -0.2498870    -0.0043589   -0.0110705 
   0.041000000    -0.0020380   -0.0123173     0.9657736   -0.2577319     0.9619147   -0.2553641    -0.0046784   -0.0112565 
   0.042000000    -0.0023423   -0.0127524     0.9640603   -0.2640232     0.9602324   -0.2616466    -0.0045275   -0.0116912 
   0.043000000    -0.0022588   -0.0127888     0.9616113   -0.2697433     0.9587275   -0.2676691    -0.0049701   -0.0117260 
   0.044000000    -0.0025711   -0.0132086     0.9600852   -0.2757600     0.9568847   -0.2738623    -0.0052366   -0.0117418 
   0.045000000    -0.0026211   -0.0135604     0.9584498   -0.2816591     0.9551686   -0.2794160    -0.0053617   -0.0121305 
   0.046000000    -0.0025098   -0.0137535     0.9563411   -0.2879199     0.9530478   -0.2860142    -0.0056965   -0.0121456 
   0.047000000    -0.0027912   -0.0139690     0.9550325   -0.2938324     0.9514306   -0.2921179    -0.0056470   -0.0124395 
   0.048000000    -0.0024774   -0.0142724     0.9527518   -0.2995568     0.9491159   -0.2979833    -0.0059010   -0.0126264 
   0.049000000    -0.0029092   -0.0144346     0.9503354   -0.3055538     0.9476087   -0.3043100    -0.0060768   -0.0125996 
   0.050000000    -0.0026488   -0.0148097     0.9486538   -0.3116123     0.9456494   -0.3100453    -0.0064035   -0.0128334 
   0.051000000    -0.0028493   -0.0148748     0.9467862   -0.3172104     0.9436318   -0.3160363    -0.0066763   -0.0128554 
   0.052000000    -0.0027330   -0.0149485     0.9443787   -0.3229659     0.9415721   -0.3218625    -0.0068838   -0.0131324 
   0.053000000    -0.0027974   -0.0153313     0.9423304   -0.3294430     0.9396620   -0.3278278    -0.0071838   -0.0135095 
   0.054000000    -0.0029610   -0.0154962     0.9400654   -0.3352004     0.9373062   -0.3335724    -0.0072746   -0.0135970 
   0.055000000    -0.0030203   -0.0157266     0.9371191   -0.3426610     0.9354647   -0.3380328    -0.0076082   -0.0135969 
   0.056000000    -0.0030251   -0.0160697     0.9358945   -0.3468093     0.9328900   -0.3452769    -0.0077579   -0.0136300 
   0.057000000    -0.0030465   -0.0164818     0.9332563   -0.3530521     0.9305222   -0.3510104    -0.0080792   -0.0137887 
   0.058000000    -0.0031763   -0.0167255     0.9309900   -0.3589318     0.9285148   -0.3567526    -0.0084926   -0.0140302 
   0.059000000    -0.0032610   -0.0169815     0.9285904   -0.3647214     0.9259967   -0.3627189    -0.0086964   -0.0141315 
   0.060000000    -0.0033709   -0.0171308     0.9265551   -0.3704287     0.9236565   -0.3681324    -0.0089974   -0.0142713 
   0.061000000    -0.0035292   -0.0174662     0.9239841   -0.3760468     0.9213142   -0.3740003    -0.0090257   -0.0144947 
   0.062000000    -0.0037155   -0.0177253     0.9215736   -0.3823160     0.9191869   -0.3795403    -0.0095245   -0.0146914 
   0.063000000    -0.0038290   -0.0179541     0.9190691   -0.3880449     0.9163343   -0.3856853    -0.0096530   -0.0148062 
   0.064000000    -0.0040619   -0.0180126     0.9165340   -0.3935247     0.9138700   -0.3916392    -0.0099488   -0.0150370 
   0.065000000    -0.0040437   -0.0182883     0.9138774   -0.3996056     0.9120090   -0.3966470    -0.0102336   -0.0151638 
   0.066000000    -0.0041902   -0.0184894     0.9116436   -0.4049726     0.9088053   -0.4026263    -0.0107097   -0.0153422 
   0.067000000    -0.0044531   -0.0186692     0.9083869   -0.4109493     0.9063951   -0.4083645    -0.0110548   -0.0153144 
   0.068000000    -0.0050643   -0.0193160     0.9062330   -0.4167312     0.9040135   -0.4139205    -0.0118204   -0.0157611 
   0.069000000    -0.0047578   -0.0191554     0.9036726   -0.4221272     0.9014516   -0.4196988    -0.0116649   -0.0155067 
   0.070000000    -0.0049573   -0.0193294     0.9009671   -0.4278411     0.8985023   -0.4249218    -0.0119444   -0.0156389 
   0.071000000    -0.0052668   -0.0196699     0.8979465   -0.4332232     0.8957890   -0.4307394    -0.0124622   -0.0158170 
   0.072000000    -0.0052964   -0.0197158     0.8955912   -0.4389022     0.8929079   -0.4358725    -0.0126559   -0.0159649 
   0.073000000    -0.0055175   -0.0200857     0.8924150   -0.4440857     0.8902977   -0.4418389    -0.0130393   -0.0160820 
   0.074000000    -0.0057389   -0.0201643     0.8896078   -0.4496301     0.8876932   -0.4472302    -0.0135741   -0.0159379 
   0.075000000    -0.0058633   -0.0205373     0.8864895   -0.4549993     0.8844194   -0.4522744    -0.0137680   -0.0162630 
   0.076000000    -0.0060229   -0.0209301     0.8835916   -0.4606225     0.8814482   -0.4580568    -0.0143459   -0.0162413 
   0.077000000    -0.0063106   -0.0210539     0.8807729   -0.4661409     0.8789081   -0.4634259    -0.0147520   -0.0161481 
   0.078000000    -0.0062892   -0.0214027     0.8772741   -0.4714386     0.8756084   -0.4689755    -0.0154051   -0.0162070 
   0.079000000    -0.0064627   -0.0215930     0.8745039   -0.4764296     0.8724470   -0.4744133    -0.0159762   -0.0162507 
   0.080000000    -0.0066529   -0.0219126     0.8717909   -0.4819416     0.8694865   -0.4799260    -0.0166535   -0.0164178 
   0.081000000    -0.0065649   -0.0222573     0.8681680   -0.4874797     0.8665147   -0.4854621    -0.0167500   -0.0159567 
   0.082000000    -0.0064217   -0.0226052     0.8653358   -0.4928450     0.8634150   -0.4907914    -0.0169931   -0.0163787 
   0.083000000    -0.0067841   -0.0228670     0.8621242   -0.4983576     0.8603325   -0.4960910    -0.0176727   -0.0161359 
   0.084000000    -0.0069554   -0.0232729     0.8587596   -0.5035493     0.8571641   -0.5010403    -0.0181062   -0.0160001 
   0.085000000    -0.0071168   -0.0233736     0.8556583   -0.5089970     0.8539270   -0.5064014    -0.0185431   -0.0159477 
   0.086000000    -0.0075375   -0.0236079     0.8526377   -0.5136590     0.8504815   -0.5116657    -0.0198646   -0.0166534 
   0.087000000    -0.0076456   -0.0238026     0.8488352   -0.5191854     0.8475977   -0.5169991    -0.0197738   -0.0160437 
   0.088000000    -0.0078018   -0.0238911     0.8455363   -0.5244528     0.8440019   -0.5222568    -0.0202428   -0.0159073 
   0.089000000    -0.0080957   -0.0242812     0.8418473   -0.5295623     0.8404514   -0.5275981    -0.0206151   -0.0158984 
   0.090000000    -0.0084329   -0.0244323     0.8386171   -0.5349478     0.8375533   -0.5324485    -0.0211619   -0.0157560 
   0.091000000    -0.0084414   -0.0245661     0.8354661   -0.5402603     0.8336698   -0.5374439    -0.0218011   -0.0158441 
   0.092000000    -0.0088457   -0.0248562     0.8314011   -0.5452537     0.8301060   -0.5429131    -0.0219066   -0.0157557 
   0.093000000    -0.0090018   -0.0251846     0.8281855   -0.5502598     0.8269675   -0.5481078    -0.0225867   -0.0157101 
   0.094000000    -0.0093697   -0.0252487     0.8246923   -0.5552344     0.8232194   -0.5534577    -0.0230089   -0.0155454 
   0.095000000    -0.0095828   -0.0256206     0.8213273   -0.5606692     0.8194920   -0.5586781    -0.0232078   -0.0155259 
   0.096000000    -0.0097602   -0.0259484     0.8175880   -0.5654576     0.8163136   -0.5636585    -0.0242379   -0.0157271 
   0.097000000    -0.0100194   -0.0263029     0.8138104   -0.5706917     0.8127611   -0.5689976    -0.0240397   -0.0151428 
   0.098000000    -0.0101225   -0.0266668     0.8101159   -0.5758211     0.8089006   -0.5739805    -0.0242722   -0.0152497 
   0.099000000    -0.0101799   -0.0269363     0.8064593   -0.5806084     0.8048398   -0.5793442    -0.0245949   -0.0155427 
   0.100000000    -0.0105179   -0.0272027     0.8035678   -0.5857241     0.8011934   -0.5845568    -0.0252202   -0.0153972 
   0.101000000    -0.0110431   -0.0276074     0.7991160   -0.5905777     0.7973616   -0.5894722    -0.0252405   -0.0152303 
   0.102000000    -0.0111415   -0.0277362     0.7950360   -0.5955960     0.7937556   -0.5942757    -0.0254160   -0.0151536 
   0.103000000    -0.0114056   -0.0283022     0.7913914   -0.6005244     0.7902793   -0.5990871    -0.0258353   -0.0149695 
   0.104000000    -0.0115481   -0.0285940     0.7874652   -0.6051514     0.7865669   -0.6040385    -0.0269726   -0.0152353 
   0.105000000    -0.0119942   -0.0285890     0.7838635   -0.6104245     0.7829964   -0.6085393    -0.0265673   -0.0149881 
   0.106000000    -0.0118664   -0.0289592     0.7802420   -0.6152868     0.7786486   -0.6137401    -0.0273450   -0.0150509 
   0.107000000    -0.0123179   -0.0292182     0.7758557   -0.6201540     0.7750907   -0.6181348    -0.0273859   -0.0150301 
   0.108000000    -0.0129141   -0.0293817     0.7718415   -0.6250853     0.7714880   -0.6228763    -0.0277505   -0.0150563 
   0.109000000    -0.0128927   -0.0295213     0.7680786   -0.6299043     0.7677854   -0.6276661    -0.0283711   -0.0148879 
   0.110000000    -0.0129776   -0.0295818     0.7639583   -0.6346954     0.7637541   -0.6322102    -0.0283365   -0.0150637 
   0.111000000    -0.0132659   -0.0296182     0.7599974   -0.6392868     0.7595955   -0.6370402    -0.0291206   -0.0150854 
   0.112000000    -0.0135487   -0.0298416     0.7560766   -0.6440113     0.7554289   -0.6416223    -0.0294534   -0.0147082 
   0.113000000    -0.0138178   -0.0301064     0.7519910   -0.6486975     0.7513162   -0.6467577    -0.0297772   -0.0147990 
   0.114000000    -0.0138112   -0.0301925     0.7480273   -0.6533863     0.7473413   -0.6508718    -0.0302673   -0.0146866 
   0.115000000    -0.0138177   -0.0307395     0.7435747   -0.6581383     0.7431973   -0.6557506    -0.0309282   -0.0148749 
   0.116000000    -0.0139626   -0.0306506     0.7397230   -0.6626538     0.7389055   -0.6603571    -0.0310992   -0.0144127 
   0.117000000    -0.0139724   -0.0312246     0.7352900   -0.6673688     0.7346603   -0.6650435    -0.0315669   -0.0144686 
   0.118000000    -0.0143143   -0.0312885     0.7312241   -0.6716402     0.7306777   -0.6695884    -0.0319697   -0.0141976 
   0.119000000    -0.0141982   -0.0315134     0.7269467   -0.6765196     0.7265905   -0.6741465    -0.0322293   -0.0141811 
   0.120000000    -0.0146286   -0.0318010     0.7229233   -0.6809120     0.7222403   -0.6785778    -0.0324510   -0.0141173 
   0.121000000    -0.0146182   -0.0321148     0.7185393   -0.6852419     0.7181439   -0.6830668    -0.0330623   -0.0136942 
   0.122000000    -0.0150203   -0.0323932     0.7145093   -0.6897796     0.7135344   -0.6876197    -0.0332360   -0.0136702 
   0.123000000    -0.0152727   -0.0326580     0.7097805   -0.6940346     0.7091901   -0.6919005    -0.0336677   -0.0133663 
   0.124000000    -0.0155938   -0.0328346     0.7052270   -0.6985989     0.7048771   -0.6957160    -0.0342745   -0.0132136 
   0.125000000    -0.0155766   -0.0331124     0.7012045   -0.7027802     0.7002661   -0.7007110    -0.0346787   -0.0130022 
   0.126000000    -0.0159975   -0.0335536     0.6966925   -0.7069052     0.6958062   -0.7052513    -0.0352012   -0.0129069 
   0.127000000    -0.0165918   -0.0335241     0.6920048   -0.7115226     0.6912493   -0.7091997    -0.0354528   -0.0125322 
   0.128000000    -0.0168716   -0.0336348     0.6875254   -0.7152656     0.6867215   -0.7130010    -0.0356454   -0.0123196 
   0.129000000    -0.0169857   -0.0338769     0.6829896   -0.7196345     0.6825240   -0.7175511    -0.0360789   -0.0121855 
   0.130000000    -0.0175350   -0.0338576     0.6786004   -0.7238390     0.6777021   -0.7215695    -0.0364388   -0.0117308 
   0.131000000    -0.0178969   -0.0339669     0.6736438   -0.7281801     0.6731363   -0.7257306    -0.0368181   -0.0114478 
   0.132000000    -0.0181048   -0.0340623     0.6690055   -0.7321808     0.6686602   -0.7298927    -0.0370443   -0.0111004 
   0.133000000    -0.0185321   -0.0338618     0.6645076   -0.7363339     0.6638541   -0.7338538    -0.0376140   -0.0109858 
   0.134000000    -0.0186275   -0.0343046     0.6597418   -0.7401507     0.6590486   -0.7377515    -0.0378558   -0.0105260 
   0.135000000    -0.0188772   -0.0343913     0.6545618   -0.7444862     0.6542800   -0.7416886    -0.0385017   -0.0102330 
   0.136000000    -0.0190648   -0.0345675     0.6501024   -0.7481865     0.6495396   -0.7458526    -0.0386114   -0.0103081 
   0.137000000    -0.0189773   -0.0346381     0.6452924   -0.7522877     0.6448001   -0.7498489    -0.0391221   -0.0100726 
   0.138000000    -0.0194096   -0.0349573     0.6404589   -0.7559123     0.6398545   -0.7538459    -0.0395161   -0.0098284 
   0.139000000    -0.0196009   -0.0352644     0.6356297   -0.7598656     0.6349837   -0.7576498    -0.0398751   -0.0095600 
   0.140000000    -0.0199346   -0.0355458     0.6308583   -0.7635254     0.6302411   -0.7614107    -0.0405335   -0.0093962 
   0.141000000    -0.0202199   -0.0358552     0.6262326   -0.7674837     0.6253911   -0.7653051    -0.0410480   -0.0089025 
   0.142000000    -0.0204621   -0.0359080     0.6215656   -0.7710483     0.6207234   -0.7690660    -0.0414556   -0.0085393 
   0.143000000    -0.0207521   -0.0362472     0.6164731   -0.7748784     0.6157308   -0.7729961    -0.0419012   -0.0079679 
   0.144000000    -0.0211718   -0.0362801     0.6118897   -0.7787895     0.6111111   -0.7769995    -0.0424053   -0.0077124 
   0.145000000    -0.0214637   -0.0365042     0.6066679   -0.7830131     0.6064026   -0.7808088    -0.0428736   -0.0072474 
   0.146000000    -0.0216762   -0.0365747     0.6017821   -0.7866068     0.6016519   -0.7845138    -0.0432256   -0.0066245 
   0.147000000    -0.0219710   -0.0368397     0.5969329   -0.7901268     0.5967497   -0.7883717    -0.0438184   -0.0061435 
   0.148000000    -0.0220808   -0.0370330     0.5916154   -0.7939568     0.5918391   -0.7923813    -0.0442641   -0.0056499 
   0.149000000    -0.0225980   -0.0371062     0.5867507   -0.7975658     0.5867542   -0.7962086    -0.0446664   -0.0050168 
   0.150000000    -0.0227287   -0.0372141     0.5815036   -0.8012553     0.5817583   -0.7997975    -0.0450830   -0.0049780 
   0.151000000    -0.0233464   -0.0373249     0.5769346   -0.8050461     0.5770817   -0.8035461    -0.0456053   -0.0041761 
   0.152000000    -0.0234990   -0.0375383     0.5716842   -0.8083361     0.5721715   -0.8066039    -0.0459127   -0.0038147 
   0.153000000    -0.0240590   -0.0377313     0.5667990   -0.8120623     0.5673333   -0.8101107    -0.0463057   -0.0031192 
   0.154000000    -0.0240936   -0.0375780     0.5618263   -0.8150631     0.5621425   -0.8136319    -0.0467214   -0.0026651 
   0.155000000    -0.0245736   -0.0378324     0.5568354   -0.8189145     0.5572466   -0.8170084    -0.0469885   -0.0020357 
   0.156000000    -0.0249382   -0.0378600     0.5517019   -0.8224006     0.5520030   -0.8203639    -0.0473858   -0.0015013 
   0.157000000    -0.0253796   -0.0381046     0.5467282   -0.8254074     0.5470576   -0.8236219    -0.0479950   -0.0011321 
   0.158000000    -0.0256039   -0.0384397     0.5414826   -0.8289199     0.5417909   -0.8268314    -0.0483938   -0.0004656 
