! 2/19/2018 12:53:41 PM
! E:\STEPPED_EXPERIMENT_2018-02-19\P1-MSL_SHORT_50.S1P
! CHANNEL.1
! TR.MEASUREMENT
! CORRECTED.DATA
# GHZ S RI R 50.0
! FREQ.GHZ         S11RE         S11IM         
!; PortSelection: Port_1
   0.001000000    -1.0034680    0.0053160  
   0.002000000    -1.0048610    0.0099031  
   0.003000000    -1.0039260    0.0143707  
   0.004000000    -1.0042160    0.0195310  
   0.005000000    -1.0034420    0.0247203  
   0.006000000    -1.0029280    0.0290168  
   0.007000000    -1.0025910    0.0337127  
   0.008000000    -1.0021170    0.0386966  
   0.009000000    -1.0018580    0.0428103  
   0.010000000    -1.0014140    0.0471839  
   0.011000000    -1.0015280    0.0519333  
   0.012000000    -1.0006590    0.0557987  
   0.013000000    -1.0005450    0.0601878  
   0.014000000    -0.9999858    0.0648071  
   0.015000000    -0.9996121    0.0686140  
   0.016000000    -0.9987577    0.0735539  
   0.017000000    -0.9984286    0.0770336  
   0.018000000    -0.9981105    0.0812796  
   0.019000000    -0.9981694    0.0854111  
   0.020000000    -0.9976333    0.0896443  
   0.021000000    -0.9968536    0.0939484  
   0.022000000    -0.9966584    0.0980134  
   0.023000000    -0.9960154    0.1022906  
   0.024000000    -0.9955915    0.1061367  
   0.025000000    -0.9951725    0.1104849  
   0.026000000    -0.9948896    0.1148949  
   0.027000000    -0.9940063    0.1192072  
   0.028000000    -0.9937683    0.1231235  
   0.029000000    -0.9929050    0.1276458  
   0.030000000    -0.9926664    0.1317198  
   0.031000000    -0.9917088    0.1359579  
   0.032000000    -0.9909499    0.1401107  
   0.033000000    -0.9903123    0.1441881  
   0.034000000    -0.9897368    0.1487108  
   0.035000000    -0.9889769    0.1524542  
   0.036000000    -0.9885424    0.1569761  
   0.037000000    -0.9875786    0.1607450  
   0.038000000    -0.9866787    0.1649265  
   0.039000000    -0.9865702    0.1692269  
   0.040000000    -0.9857396    0.1733736  
   0.041000000    -0.9846641    0.1775869  
   0.042000000    -0.9840618    0.1817086  
   0.043000000    -0.9827052    0.1857558  
   0.044000000    -0.9821746    0.1895711  
   0.045000000    -0.9812915    0.1941679  
   0.046000000    -0.9803699    0.1982688  
   0.047000000    -0.9797292    0.2027007  
   0.048000000    -0.9786639    0.2065131  
   0.049000000    -0.9779194    0.2109570  
   0.050000000    -0.9769968    0.2149648  
   0.051000000    -0.9760939    0.2193056  
   0.052000000    -0.9750695    0.2233431  
   0.053000000    -0.9744575    0.2274842  
   0.054000000    -0.9732758    0.2317061  
   0.055000000    -0.9715672    0.2357754  
   0.056000000    -0.9706132    0.2402375  
   0.057000000    -0.9700118    0.2442379  
   0.058000000    -0.9687919    0.2485645  
   0.059000000    -0.9677497    0.2530339  
   0.060000000    -0.9663337    0.2569339  
   0.061000000    -0.9652119    0.2610066  
   0.062000000    -0.9640735    0.2651409  
   0.063000000    -0.9629924    0.2700250  
   0.064000000    -0.9615760    0.2740572  
   0.065000000    -0.9605030    0.2779754  
   0.066000000    -0.9594308    0.2827558  
   0.067000000    -0.9581028    0.2867495  
   0.068000000    -0.9569167    0.2910519  
   0.069000000    -0.9552225    0.2945645  
   0.070000000    -0.9539516    0.2993463  
   0.071000000    -0.9526951    0.3034387  
   0.072000000    -0.9513016    0.3076749  
   0.073000000    -0.9499123    0.3116828  
   0.074000000    -0.9491766    0.3159315  
   0.075000000    -0.9477682    0.3199217  
   0.076000000    -0.9460782    0.3242076  
   0.077000000    -0.9443921    0.3287404  
   0.078000000    -0.9431485    0.3327805  
   0.079000000    -0.9419397    0.3367890  
   0.080000000    -0.9402973    0.3409193  
   0.081000000    -0.9390473    0.3450078  
   0.082000000    -0.9372542    0.3490675  
   0.083000000    -0.9359540    0.3530954  
   0.084000000    -0.9343677    0.3569643  
   0.085000000    -0.9332348    0.3609975  
   0.086000000    -0.9309555    0.3649602  
   0.087000000    -0.9297197    0.3690780  
   0.088000000    -0.9283028    0.3730632  
   0.089000000    -0.9263428    0.3770792  
   0.090000000    -0.9252494    0.3810203  
   0.091000000    -0.9234472    0.3848519  
   0.092000000    -0.9216433    0.3886975  
   0.093000000    -0.9201405    0.3925296  
   0.094000000    -0.9186403    0.3964334  
   0.095000000    -0.9163836    0.4004202  
   0.096000000    -0.9148608    0.4042085  
   0.097000000    -0.9133288    0.4080302  
   0.098000000    -0.9118494    0.4114928  
   0.099000000    -0.9096112    0.4153606  
   0.100000000    -0.9076548    0.4192024  
   0.101000000    -0.9059970    0.4232916  
   0.102000000    -0.9042971    0.4271556  
   0.103000000    -0.9030467    0.4308569  
   0.104000000    -0.9008129    0.4343657  
   0.105000000    -0.8987470    0.4384159  
   0.106000000    -0.8968999    0.4424857  
   0.107000000    -0.8950668    0.4460084  
   0.108000000    -0.8929858    0.4498777  
   0.109000000    -0.8910256    0.4533967  
   0.110000000    -0.8890462    0.4573120  
   0.111000000    -0.8872267    0.4610818  
   0.112000000    -0.8855332    0.4648120  
   0.113000000    -0.8833936    0.4685940  
   0.114000000    -0.8814838    0.4719948  
   0.115000000    -0.8790152    0.4757572  
   0.116000000    -0.8771626    0.4797911  
   0.117000000    -0.8749167    0.4830391  
   0.118000000    -0.8730111    0.4869326  
   0.119000000    -0.8708074    0.4906719  
   0.120000000    -0.8683510    0.4944057  
   0.121000000    -0.8664752    0.4981814  
   0.122000000    -0.8644370    0.5019653  
   0.123000000    -0.8616632    0.5053040  
   0.124000000    -0.8597018    0.5091449  
   0.125000000    -0.8575653    0.5131198  
   0.126000000    -0.8553575    0.5166869  
   0.127000000    -0.8531464    0.5201498  
   0.128000000    -0.8505281    0.5240958  
   0.129000000    -0.8483269    0.5277779  
   0.130000000    -0.8459388    0.5312866  
   0.131000000    -0.8437276    0.5350742  
   0.132000000    -0.8410611    0.5383691  
   0.133000000    -0.8388453    0.5424228  
   0.134000000    -0.8362743    0.5460784  
   0.135000000    -0.8337867    0.5496243  
   0.136000000    -0.8315547    0.5532044  
   0.137000000    -0.8291224    0.5573151  
   0.138000000    -0.8268299    0.5605110  
   0.139000000    -0.8236561    0.5638959  
   0.140000000    -0.8219921    0.5677320  
   0.141000000    -0.8193028    0.5711185  
   0.142000000    -0.8166134    0.5749100  
   0.143000000    -0.8138340    0.5784696  
   0.144000000    -0.8116952    0.5821651  
   0.145000000    -0.8089362    0.5857176  
   0.146000000    -0.8064051    0.5893237  
   0.147000000    -0.8041762    0.5926487  
   0.148000000    -0.8009987    0.5963435  
   0.149000000    -0.7989149    0.5995545  
   0.150000000    -0.7961979    0.6030471  
   0.151000000    -0.7934031    0.6067573  
   0.152000000    -0.7905635    0.6099883  
   0.153000000    -0.7883359    0.6135845  
   0.154000000    -0.7854721    0.6167788  
   0.155000000    -0.7829174    0.6203659  
   0.156000000    -0.7802964    0.6236070  
   0.157000000    -0.7778148    0.6268938  
   0.158000000    -0.7749930    0.6302611  
   0.159000000    -0.7725638    0.6333554  
   0.160000000    -0.7698858    0.6370279  
   0.161000000    -0.7671008    0.6404371  
   0.162000000    -0.7642033    0.6435350  
   0.163000000    -0.7618211    0.6467962  
   0.164000000    -0.7587003    0.6499715  
   0.165000000    -0.7562414    0.6530341  
   0.166000000    -0.7532191    0.6564428  
   0.167000000    -0.7505399    0.6592345  
   0.168000000    -0.7480312    0.6625370  
   0.169000000    -0.7447661    0.6657750  
   0.170000000    -0.7422302    0.6690230  
   0.171000000    -0.7393724    0.6720822  
   0.172000000    -0.7360065    0.6753156  
   0.173000000    -0.7334617    0.6781451  
   0.174000000    -0.7305121    0.6814598  
   0.175000000    -0.7277875    0.6843123  
   0.176000000    -0.7247443    0.6874833  
   0.177000000    -0.7216395    0.6907309  
   0.178000000    -0.7191058    0.6936729  
   0.179000000    -0.7156767    0.6965468  
   0.180000000    -0.7130163    0.6995345  
   0.181000000    -0.7098630    0.7025656  
   0.182000000    -0.7068505    0.7054589  
   0.183000000    -0.7037371    0.7085501  
   0.184000000    -0.7001905    0.7114962  
   0.185000000    -0.6974371    0.7141469  
   0.186000000    -0.6945277    0.7169797  
   0.187000000    -0.6912891    0.7201053  
   0.188000000    -0.6884819    0.7226990  
   0.189000000    -0.6852333    0.7256290  
   0.190000000    -0.6817847    0.7285054  
   0.191000000    -0.6789976    0.7314433  
   0.192000000    -0.6752209    0.7343643  
   0.193000000    -0.6722577    0.7370301  
   0.194000000    -0.6693333    0.7399214  
   0.195000000    -0.6658185    0.7429082  
   0.196000000    -0.6630023    0.7459944  
   0.197000000    -0.6594085    0.7486102  
   0.198000000    -0.6565165    0.7512115  
   0.199000000    -0.6529235    0.7544762  
   0.200000000    -0.6498928    0.7569847  
   0.201000000    -0.6463969    0.7597076  
   0.202000000    -0.6430792    0.7624261  
   0.203000000    -0.6393819    0.7650847  
   0.204000000    -0.6360115    0.7677994  
   0.205000000    -0.6330633    0.7706307  
   0.206000000    -0.6297618    0.7729895  
   0.207000000    -0.6260413    0.7759556  
   0.208000000    -0.6228026    0.7785901  
   0.209000000    -0.6194246    0.7810564  
   0.210000000    -0.6163282    0.7839589  
   0.211000000    -0.6123548    0.7863338  
   0.212000000    -0.6091355    0.7895575  
   0.213000000    -0.6054808    0.7921629  
   0.214000000    -0.6023713    0.7943344  
   0.215000000    -0.5988417    0.7970598  
   0.216000000    -0.5952688    0.7996046  
   0.217000000    -0.5917004    0.8021120  
   0.218000000    -0.5882953    0.8050002  
   0.219000000    -0.5847858    0.8073622  
   0.220000000    -0.5811054    0.8098251  
   0.221000000    -0.5778268    0.8122461  
   0.222000000    -0.5743683    0.8147062  
   0.223000000    -0.5705902    0.8173203  
   0.224000000    -0.5672350    0.8197501  
   0.225000000    -0.5639774    0.8221630  
   0.226000000    -0.5601935    0.8245878  
   0.227000000    -0.5568464    0.8273273  
   0.228000000    -0.5535703    0.8294078  
   0.229000000    -0.5495219    0.8317209  
   0.230000000    -0.5461658    0.8341638  
   0.231000000    -0.5430310    0.8364551  
   0.232000000    -0.5392994    0.8388883  
   0.233000000    -0.5359657    0.8410556  
   0.234000000    -0.5322171    0.8431194  
   0.235000000    -0.5285522    0.8453807  
   0.236000000    -0.5253262    0.8479614  
   0.237000000    -0.5218056    0.8499234  
   0.238000000    -0.5180561    0.8520181  
   0.239000000    -0.5144916    0.8546697  
   0.240000000    -0.5104457    0.8565848  
   0.241000000    -0.5069255    0.8583865  
   0.242000000    -0.5034515    0.8609999  
   0.243000000    -0.4999284    0.8631095  
   0.244000000    -0.4964267    0.8652095  
   0.245000000    -0.4925123    0.8667975  
   0.246000000    -0.4886759    0.8689724  
   0.247000000    -0.4851932    0.8710549  
   0.248000000    -0.4810413    0.8730443  
   0.249000000    -0.4779101    0.8750796  
   0.250000000    -0.4744383    0.8768837  
   0.251000000    -0.4700703    0.8788897  
   0.252000000    -0.4669555    0.8807862  
   0.253000000    -0.4632847    0.8828281  
   0.254000000    -0.4592171    0.8844684  
   0.255000000    -0.4557737    0.8865146  
   0.256000000    -0.4520068    0.8883937  
   0.257000000    -0.4483690    0.8903188  
   0.258000000    -0.4448041    0.8922015  
   0.259000000    -0.4406369    0.8940043  
   0.260000000    -0.4367770    0.8959217  
   0.261000000    -0.4331693    0.8974966  
   0.262000000    -0.4293604    0.8995526  
   0.263000000    -0.4251150    0.9009922  
   0.264000000    -0.4215826    0.9031659  
   0.265000000    -0.4175517    0.9048642  
   0.266000000    -0.4135949    0.9069576  
   0.267000000    -0.4094452    0.9083592  
   0.268000000    -0.4055586    0.9102130  
   0.269000000    -0.4017749    0.9118240  
   0.270000000    -0.3977248    0.9139065  
   0.271000000    -0.3938570    0.9154488  
   0.272000000    -0.3897585    0.9169852  
   0.273000000    -0.3858967    0.9185379  
   0.274000000    -0.3817933    0.9199480  
   0.275000000    -0.3780105    0.9220796  
   0.276000000    -0.3738022    0.9235093  
   0.277000000    -0.3696076    0.9248998  
   0.278000000    -0.3659758    0.9263572  
   0.279000000    -0.3619616    0.9280302  
   0.280000000    -0.3580018    0.9293381  
   0.281000000    -0.3537803    0.9307625  
   0.282000000    -0.3499579    0.9323748  
   0.283000000    -0.3455919    0.9337939  
   0.284000000    -0.3421536    0.9355856  
   0.285000000    -0.3381710    0.9371986  
   0.286000000    -0.3338179    0.9384506  
   0.287000000    -0.3298306    0.9398657  
   0.288000000    -0.3255641    0.9412673  
   0.289000000    -0.3216154    0.9424527  
   0.290000000    -0.3173679    0.9438747  
   0.291000000    -0.3132592    0.9453250  
   0.292000000    -0.3097250    0.9465463  
   0.293000000    -0.3057434    0.9480338  
   0.294000000    -0.3016511    0.9489111  
   0.295000000    -0.2976209    0.9506606  
   0.296000000    -0.2937036    0.9513953  
   0.297000000    -0.2893768    0.9526872  
   0.298000000    -0.2857272    0.9535292  
   0.299000000    -0.2812739    0.9550749  
   0.300000000    -0.2776955    0.9559823  
   0.301000000    -0.2735214    0.9571025  
   0.302000000    -0.2695123    0.9584808  
   0.303000000    -0.2653368    0.9595788  
   0.304000000    -0.2616938    0.9605531  
   0.305000000    -0.2575419    0.9615331  
   0.306000000    -0.2532735    0.9628916  
   0.307000000    -0.2492784    0.9636835  
   0.308000000    -0.2451279    0.9644920  
   0.309000000    -0.2412626    0.9653030  
   0.310000000    -0.2372433    0.9664644  
   0.311000000    -0.2331619    0.9676208  
   0.312000000    -0.2292865    0.9684933  
   0.313000000    -0.2248645    0.9692249  
   0.314000000    -0.2207280    0.9704226  
   0.315000000    -0.2167410    0.9710764  
   0.316000000    -0.2127506    0.9719388  
   0.317000000    -0.2087347    0.9727725  
   0.318000000    -0.2044365    0.9741944  
   0.319000000    -0.2003196    0.9746103  
   0.320000000    -0.1962114    0.9752389  
   0.321000000    -0.1921154    0.9760695  
   0.322000000    -0.1881595    0.9766706  
   0.323000000    -0.1836584    0.9774928  
   0.324000000    -0.1798226    0.9781153  
   0.325000000    -0.1751591    0.9786903  
   0.326000000    -0.1713543    0.9793569  
   0.327000000    -0.1671205    0.9803209  
   0.328000000    -0.1626155    0.9806357  
   0.329000000    -0.1585894    0.9814633  
   0.330000000    -0.1545610    0.9824539  
   0.331000000    -0.1499803    0.9827021  
   0.332000000    -0.1461624    0.9835162  
   0.333000000    -0.1417143    0.9839349  
   0.334000000    -0.1376431    0.9841393  
   0.335000000    -0.1332393    0.9849552  
   0.336000000    -0.1289155    0.9852425  
   0.337000000    -0.1249323    0.9863991  
   0.338000000    -0.1204518    0.9863991  
   0.339000000    -0.1161480    0.9873856  
   0.340000000    -0.1122608    0.9875906  
   0.341000000    -0.1071623    0.9878201  
   0.342000000    -0.1032309    0.9884770  
   0.343000000    -0.0988742    0.9887924  
   0.344000000    -0.0945964    0.9891819  
   0.345000000    -0.0904527    0.9900838  
   0.346000000    -0.0860023    0.9905311  
   0.347000000    -0.0815326    0.9909719  
   0.348000000    -0.0769223    0.9910234  
   0.349000000    -0.0733014    0.9918920  
   0.350000000    -0.0687093    0.9917276  
   0.351000000    -0.0642209    0.9923298  
   0.352000000    -0.0601728    0.9921997  
   0.353000000    -0.0560514    0.9928883  
   0.354000000    -0.0517526    0.9928290  
   0.355000000    -0.0473182    0.9931419  
   0.356000000    -0.0433985    0.9932544  
   0.357000000    -0.0393462    0.9935004  
   0.358000000    -0.0349470    0.9936584  
   0.359000000    -0.0306965    0.9939331  
   0.360000000    -0.0267217    0.9937713  
   0.361000000    -0.0225251    0.9941493  
   0.362000000    -0.0181044    0.9941106  
   0.363000000    -0.0137275    0.9939567  
   0.364000000    -0.0097494    0.9940974  
   0.365000000    -0.0055040    0.9937776  
   0.366000000    -0.0017002    0.9941909  
   0.367000000     0.0026415    0.9939465  
   0.368000000     0.0067695    0.9941826  
   0.369000000     0.0108485    0.9934932  
   0.370000000     0.0148831    0.9937599  
   0.371000000     0.0189849    0.9936974  
   0.372000000     0.0226406    0.9932975  
   0.373000000     0.0269218    0.9933313  
   0.374000000     0.0310961    0.9930874  
   0.375000000     0.0356651    0.9928071  
   0.376000000     0.0396984    0.9923117  
   0.377000000     0.0441886    0.9926553  
   0.378000000     0.0481647    0.9921893  
   0.379000000     0.0519806    0.9918278  
   0.380000000     0.0565385    0.9918015  
   0.381000000     0.0602103    0.9909247  
   0.382000000     0.0642774    0.9906572  
   0.383000000     0.0683884    0.9904155  
   0.384000000     0.0728440    0.9904430  
   0.385000000     0.0774770    0.9900376  
   0.386000000     0.0815949    0.9893501  
   0.387000000     0.0856837    0.9888916  
   0.388000000     0.0897849    0.9886171  
   0.389000000     0.0943145    0.9883650  
   0.390000000     0.0982078    0.9876382  
   0.391000000     0.1025483    0.9872734  
   0.392000000     0.1065978    0.9866412  
   0.393000000     0.1106489    0.9864637  
   0.394000000     0.1147694    0.9853659  
   0.395000000     0.1189234    0.9849190  
   0.396000000     0.1234252    0.9845243  
   0.397000000     0.1275910    0.9843165  
   0.398000000     0.1318507    0.9833943  
   0.399000000     0.1356858    0.9827596  
   0.400000000     0.1396374    0.9823517  
   0.401000000     0.1436884    0.9813089  
   0.402000000     0.1487149    0.9805996  
   0.403000000     0.1523437    0.9803125  
   0.404000000     0.1566865    0.9793748  
   0.405000000     0.1609150    0.9780348  
   0.406000000     0.1652927    0.9780830  
   0.407000000     0.1693965    0.9769382  
   0.408000000     0.1733879    0.9763396  
   0.409000000     0.1777902    0.9754571  
   0.410000000     0.1819879    0.9750499  
   0.411000000     0.1862379    0.9739780  
   0.412000000     0.1900672    0.9731976  
   0.413000000     0.1945319    0.9723692  
   0.414000000     0.1984183    0.9712843  
   0.415000000     0.2027231    0.9703001  
   0.416000000     0.2071088    0.9693357  
   0.417000000     0.2115738    0.9688651  
   0.418000000     0.2157056    0.9679443  
   0.419000000     0.2197598    0.9669299  
   0.420000000     0.2241109    0.9660563  
   0.421000000     0.2281864    0.9651296  
   0.422000000     0.2321390    0.9641662  
   0.423000000     0.2363099    0.9629220  
   0.424000000     0.2402521    0.9620613  
   0.425000000     0.2449153    0.9606553  
   0.426000000     0.2490400    0.9600236  
   0.427000000     0.2525225    0.9584669  
   0.428000000     0.2572862    0.9578612  
   0.429000000     0.2613443    0.9561825  
   0.430000000     0.2654883    0.9554659  
   0.431000000     0.2694834    0.9544730  
   0.432000000     0.2730740    0.9530171  
   0.433000000     0.2775669    0.9513783  
   0.434000000     0.2813820    0.9505684  
   0.435000000     0.2852663    0.9492818  
   0.436000000     0.2893621    0.9480597  
   0.437000000     0.2936908    0.9465028  
   0.438000000     0.2978086    0.9455869  
   0.439000000     0.3011999    0.9442839  
   0.440000000     0.3054658    0.9433386  
   0.441000000     0.3093811    0.9419752  
   0.442000000     0.3134609    0.9404417  
   0.443000000     0.3174700    0.9393231  
   0.444000000     0.3213317    0.9379944  
   0.445000000     0.3249733    0.9365881  
   0.446000000     0.3286304    0.9351835  
   0.447000000     0.3324146    0.9341822  
   0.448000000     0.3360068    0.9325009  
   0.449000000     0.3397929    0.9314952  
