! 2/19/2018 12:32:11 PM
! E:\STEPPED_EXPERIMENT_2018-02-19\P1-MSL_THRU_100-P2.S2P
! CHANNEL.1
! TR.MEASUREMENT
! CORRECTED.DATA
# GHZ S RI R 50.0
! FREQ.GHZ         S11RE         S11IM         S21RE         S21IM         S12RE         S12IM         S22RE         S22IM         
!; PortSelection: Port_12
   0.001000000     0.0021559    0.0015463     0.9936956   -0.0032486     1.0005950   -0.0042492    -0.0006809    0.0007896 
   0.002000000     0.0017862    0.0009431     0.9942982   -0.0088485     1.0004750   -0.0091058    -0.0001404    0.0013491 
   0.003000000     0.0001758   -0.0045218     0.9958797   -0.0246256     1.0014370   -0.0299789    -0.0014625   -0.0036457 
   0.004000000     0.0023911   -0.0037129     0.9995747   -0.0299371     1.0031410   -0.0258538     0.0004051   -0.0028049 
   0.005000000     0.0018789   -0.0002302     0.9964191   -0.0241402     0.9994302   -0.0235376     0.0005262   -0.0002408 
   0.006000000     0.0023874   -0.0004380     0.9973866   -0.0288872     0.9992307   -0.0287990     0.0008883   -0.0004593 
   0.007000000     0.0020666   -0.0005536     0.9979549   -0.0341983     0.9993840   -0.0331940     0.0009603   -0.0006707 
   0.008000000     0.0020225   -0.0010964     0.9988523   -0.0389560     0.9985025   -0.0382871     0.0011232   -0.0013705 
   0.009000000     0.0013987   -0.0015256     0.9991266   -0.0440175     0.9983277   -0.0427010     0.0014321   -0.0015180 
   0.010000000     0.0013039   -0.0013351     0.9990380   -0.0483465     0.9980460   -0.0469360     0.0009415   -0.0017938 
   0.011000000     0.0014887   -0.0017460     0.9992887   -0.0527120     0.9979268   -0.0517221     0.0012966   -0.0016917 
   0.012000000     0.0011263   -0.0016074     0.9988930   -0.0569858     0.9974945   -0.0559347     0.0011184   -0.0018412 
   0.013000000     0.0011527   -0.0018096     0.9984984   -0.0610428     0.9971004   -0.0598441     0.0010811   -0.0018894 
   0.014000000     0.0011500   -0.0016434     0.9985101   -0.0650548     0.9968377   -0.0644270     0.0010180   -0.0019579 
   0.015000000     0.0009364   -0.0019811     0.9981403   -0.0694307     0.9967707   -0.0688473     0.0009220   -0.0019000 
   0.016000000     0.0010689   -0.0019863     0.9977664   -0.0736120     0.9962394   -0.0731169     0.0007125   -0.0021254 
   0.017000000     0.0008742   -0.0021268     0.9974008   -0.0777448     0.9958825   -0.0774386     0.0008069   -0.0020610 
   0.018000000     0.0006038   -0.0018847     0.9970480   -0.0821495     0.9954520   -0.0817116     0.0006084   -0.0020193 
   0.019000000     0.0006025   -0.0022299     0.9967410   -0.0864249     0.9949788   -0.0858363     0.0006904   -0.0020429 
   0.020000000     0.0005091   -0.0022577     0.9964297   -0.0909699     0.9948244   -0.0902273     0.0003853   -0.0025406 
   0.021000000     0.0005000   -0.0024323     0.9963191   -0.0954823     0.9937936   -0.0943390     0.0005814   -0.0025174 
   0.022000000     0.0006546   -0.0025581     0.9960235   -0.0996822     0.9930028   -0.0988612     0.0005311   -0.0024974 
   0.023000000     0.0003710   -0.0027438     0.9954625   -0.1042732     0.9925465   -0.1032347     0.0004317   -0.0026141 
   0.024000000     0.0001676   -0.0028307     0.9950050   -0.1085820     0.9924809   -0.1074795     0.0003763   -0.0028350 
   0.025000000     0.0002192   -0.0026447     0.9945153   -0.1127737     0.9918638   -0.1120291     0.0002410   -0.0028145 
   0.026000000     0.0003171   -0.0029161     0.9939559   -0.1171130     0.9909895   -0.1157471     0.0003392   -0.0028043 
   0.027000000    -0.0000497   -0.0030456     0.9934380   -0.1215909     0.9905014   -0.1203376     0.0003539   -0.0032356 
   0.028000000    -0.0000850   -0.0032167     0.9930139   -0.1258354     0.9899688   -0.1245202     0.0002542   -0.0034065 
   0.029000000    -0.0001847   -0.0033254     0.9920438   -0.1302848     0.9891738   -0.1290879     0.0004277   -0.0035578 
   0.030000000    -0.0001945   -0.0034478     0.9914175   -0.1344546     0.9885227   -0.1335862     0.0002017   -0.0038797 
   0.031000000    -0.0001672   -0.0041060     0.9906593   -0.1388035     0.9879225   -0.1379017     0.0002589   -0.0041104 
   0.032000000    -0.0003282   -0.0038197     0.9900853   -0.1434566     0.9870680   -0.1420653     0.0004794   -0.0041517 
   0.033000000    -0.0002228   -0.0039933     0.9898469   -0.1474115     0.9864564   -0.1462988     0.0002951   -0.0044372 
   0.034000000    -0.0004629   -0.0042438     0.9887818   -0.1520124     0.9858243   -0.1503632     0.0000345   -0.0044372 
   0.035000000    -0.0006041   -0.0043291     0.9880968   -0.1563230     0.9851533   -0.1551112     0.0001919   -0.0046737 
   0.036000000    -0.0005966   -0.0044695     0.9875473   -0.1606039     0.9841572   -0.1596547     0.0000694   -0.0047335 
   0.037000000    -0.0005813   -0.0048823     0.9863383   -0.1649411     0.9838246   -0.1636315    -0.0001191   -0.0049103 
   0.038000000    -0.0006328   -0.0048458     0.9858798   -0.1690912     0.9828835   -0.1675502    -0.0001756   -0.0050939 
   0.039000000    -0.0007344   -0.0049378     0.9848306   -0.1736197     0.9818823   -0.1718940    -0.0003768   -0.0050266 
   0.040000000    -0.0009815   -0.0051966     0.9838507   -0.1776618     0.9812737   -0.1763670    -0.0005207   -0.0051320 
   0.041000000    -0.0008278   -0.0050872     0.9833161   -0.1819773     0.9800919   -0.1803351    -0.0006603   -0.0050412 
   0.042000000    -0.0011314   -0.0054385     0.9821416   -0.1867368     0.9794176   -0.1845595    -0.0003091   -0.0052816 
   0.043000000    -0.0011157   -0.0053688     0.9813030   -0.1904051     0.9786106   -0.1890042    -0.0007268   -0.0053497 
   0.044000000    -0.0013557   -0.0056097     0.9803993   -0.1948084     0.9779091   -0.1935190    -0.0008917   -0.0053636 
   0.045000000    -0.0013709   -0.0057771     0.9796189   -0.1990574     0.9769717   -0.1975132    -0.0007785   -0.0054551 
   0.046000000    -0.0013033   -0.0058563     0.9783373   -0.2034651     0.9759119   -0.2021383    -0.0010288   -0.0054801 
   0.047000000    -0.0013710   -0.0058003     0.9777373   -0.2078466     0.9751521   -0.2063687    -0.0007618   -0.0057586 
   0.048000000    -0.0011306   -0.0059772     0.9768352   -0.2118995     0.9740423   -0.2102843    -0.0007668   -0.0058630 
   0.049000000    -0.0014368   -0.0061144     0.9752041   -0.2160474     0.9731807   -0.2152047    -0.0008049   -0.0057443 
   0.050000000    -0.0011755   -0.0061809     0.9745986   -0.2204448     0.9723917   -0.2193666    -0.0007901   -0.0059552 
   0.051000000    -0.0013930   -0.0062447     0.9732932   -0.2246245     0.9711356   -0.2237001    -0.0008967   -0.0058055 
   0.052000000    -0.0013624   -0.0062190     0.9722680   -0.2286310     0.9701825   -0.2280851    -0.0009627   -0.0061410 
   0.053000000    -0.0013234   -0.0063588     0.9710901   -0.2334552     0.9691808   -0.2323169    -0.0009117   -0.0062585 
   0.054000000    -0.0014270   -0.0063705     0.9701844   -0.2375669     0.9679405   -0.2365124    -0.0010036   -0.0063430 
   0.055000000    -0.0013335   -0.0065874     0.9687791   -0.2419679     0.9668736   -0.2404866    -0.0012174   -0.0063249 
   0.056000000    -0.0012955   -0.0065349     0.9680308   -0.2461890     0.9660130   -0.2449837    -0.0011059   -0.0062572 
   0.057000000    -0.0013797   -0.0067612     0.9667003   -0.2504587     0.9646037   -0.2491386    -0.0011231   -0.0063507 
   0.058000000    -0.0014489   -0.0068603     0.9652987   -0.2547377     0.9636182   -0.2532579    -0.0012097   -0.0066252 
   0.059000000    -0.0015895   -0.0069378     0.9640953   -0.2589473     0.9623389   -0.2576198    -0.0013370   -0.0065730 
   0.060000000    -0.0015963   -0.0069484     0.9631931   -0.2630822     0.9613019   -0.2618101    -0.0013221   -0.0067854 
   0.061000000    -0.0016001   -0.0071620     0.9619709   -0.2673014     0.9601724   -0.2659315    -0.0012043   -0.0069268 
   0.062000000    -0.0018382   -0.0071704     0.9605504   -0.2717688     0.9592309   -0.2701654    -0.0015181   -0.0070782 
   0.063000000    -0.0017810   -0.0073213     0.9590807   -0.2759293     0.9573052   -0.2748244    -0.0014916   -0.0071656 
   0.064000000    -0.0020526   -0.0072459     0.9582301   -0.2798169     0.9565303   -0.2788198    -0.0014938   -0.0072503 
   0.065000000    -0.0019132   -0.0072808     0.9567991   -0.2843470     0.9554366   -0.2825572    -0.0015834   -0.0073793 
   0.066000000    -0.0020538   -0.0074128     0.9558420   -0.2883618     0.9536387   -0.2868289    -0.0017439   -0.0075256 
   0.067000000    -0.0022247   -0.0074405     0.9539793   -0.2925381     0.9526660   -0.2910315    -0.0018226   -0.0075984 
   0.068000000    -0.0027197   -0.0080024     0.9529351   -0.2968619     0.9513920   -0.2950470    -0.0022891   -0.0079969 
   0.069000000    -0.0025627   -0.0076473     0.9518710   -0.3009948     0.9503457   -0.2994426    -0.0018525   -0.0077572 
   0.070000000    -0.0026610   -0.0077649     0.9504418   -0.3050695     0.9486609   -0.3034063    -0.0019307   -0.0079658 
   0.071000000    -0.0027689   -0.0079447     0.9490513   -0.3093188     0.9474282   -0.3074919    -0.0021219   -0.0081120 
   0.072000000    -0.0029138   -0.0079330     0.9478625   -0.3135215     0.9458922   -0.3113609    -0.0020292   -0.0081848 
   0.073000000    -0.0031038   -0.0081208     0.9461163   -0.3173106     0.9444624   -0.3158366    -0.0022159   -0.0083202 
   0.074000000    -0.0032053   -0.0080272     0.9449554   -0.3215826     0.9430929   -0.3198047    -0.0023692   -0.0083674 
   0.075000000    -0.0031544   -0.0081636     0.9434466   -0.3255176     0.9412473   -0.3233984    -0.0022332   -0.0085256 
   0.076000000    -0.0031601   -0.0085139     0.9417534   -0.3295011     0.9400806   -0.3278232    -0.0025937   -0.0085173 
   0.077000000    -0.0033264   -0.0084946     0.9401314   -0.3336950     0.9386011   -0.3317766    -0.0027993   -0.0085834 
   0.078000000    -0.0032271   -0.0086466     0.9384525   -0.3378828     0.9370813   -0.3361148    -0.0030163   -0.0087015 
   0.079000000    -0.0034173   -0.0088157     0.9367135   -0.3410742     0.9353507   -0.3401189    -0.0033941   -0.0087361 
   0.080000000    -0.0033768   -0.0088614     0.9356245   -0.3451351     0.9338882   -0.3440763    -0.0037232   -0.0089904 
   0.081000000    -0.0031281   -0.0089667     0.9338486   -0.3497249     0.9325383   -0.3481430    -0.0036979   -0.0086973 
   0.082000000    -0.0029250   -0.0090181     0.9324874   -0.3538507     0.9307501   -0.3522007    -0.0035965   -0.0089212 
   0.083000000    -0.0030401   -0.0092351     0.9305509   -0.3579814     0.9293796   -0.3564963    -0.0040084   -0.0088750 
   0.084000000    -0.0031411   -0.0093295     0.9288182   -0.3616976     0.9275875   -0.3603075    -0.0040026   -0.0089201 
   0.085000000    -0.0033471   -0.0093642     0.9272674   -0.3657637     0.9260426   -0.3643987    -0.0043826   -0.0088645 
   0.086000000    -0.0035842   -0.0094043     0.9252946   -0.3693125     0.9241742   -0.3680146    -0.0050296   -0.0098536 
   0.087000000    -0.0036429   -0.0093904     0.9236932   -0.3735252     0.9229389   -0.3723939    -0.0047163   -0.0091582 
   0.088000000    -0.0038177   -0.0093189     0.9219455   -0.3776933     0.9207493   -0.3763545    -0.0049583   -0.0092673 
   0.089000000    -0.0038747   -0.0095995     0.9202438   -0.3814390     0.9191982   -0.3802213    -0.0052002   -0.0092897 
   0.090000000    -0.0043010   -0.0097471     0.9182638   -0.3857255     0.9176568   -0.3841957    -0.0053784   -0.0093499 
   0.091000000    -0.0042854   -0.0095657     0.9170477   -0.3896444     0.9158990   -0.3879466    -0.0056308   -0.0095204 
   0.092000000    -0.0046210   -0.0095924     0.9147058   -0.3935309     0.9136642   -0.3921440    -0.0054842   -0.0095116 
   0.093000000    -0.0043609   -0.0099922     0.9132118   -0.3974651     0.9121000   -0.3960882    -0.0058722   -0.0095116 
   0.094000000    -0.0047617   -0.0098974     0.9114102   -0.4015229     0.9103520   -0.4002598    -0.0059052   -0.0093952 
   0.095000000    -0.0048968   -0.0100789     0.9096832   -0.4056439     0.9085473   -0.4042334    -0.0059885   -0.0097459 
   0.096000000    -0.0050484   -0.0101639     0.9075387   -0.4088629     0.9069227   -0.4079850    -0.0065752   -0.0100569 
   0.097000000    -0.0048272   -0.0104699     0.9055536   -0.4133057     0.9047590   -0.4123935    -0.0062280   -0.0095837 
   0.098000000    -0.0050125   -0.0103867     0.9038744   -0.4173047     0.9027392   -0.4164202    -0.0062902   -0.0095570 
   0.099000000    -0.0048857   -0.0103900     0.9020577   -0.4209663     0.9007310   -0.4207280    -0.0062233   -0.0097933 
   0.100000000    -0.0052040   -0.0106645     0.9003080   -0.4249114     0.8990148   -0.4246627    -0.0066458   -0.0098939 
   0.101000000    -0.0053258   -0.0108201     0.8979341   -0.4290155     0.8970073   -0.4285700    -0.0063466   -0.0096860 
   0.102000000    -0.0054844   -0.0108844     0.8960376   -0.4329898     0.8952907   -0.4321585    -0.0062849   -0.0096995 
   0.103000000    -0.0054087   -0.0112310     0.8941405   -0.4365692     0.8935658   -0.4359065    -0.0063318   -0.0096867 
   0.104000000    -0.0056425   -0.0111537     0.8925588   -0.4409099     0.8914976   -0.4399057    -0.0069902   -0.0102814 
   0.105000000    -0.0059639   -0.0112177     0.8904226   -0.4445549     0.8897786   -0.4434510    -0.0064616   -0.0099466 
   0.106000000    -0.0058295   -0.0112546     0.8885032   -0.4484637     0.8878449   -0.4474590    -0.0067660   -0.0102445 
   0.107000000    -0.0061396   -0.0114031     0.8865218   -0.4522545     0.8857073   -0.4509303    -0.0065609   -0.0102582 
   0.108000000    -0.0065233   -0.0115423     0.8846093   -0.4563024     0.8839585   -0.4547721    -0.0065720   -0.0104159 
   0.109000000    -0.0065305   -0.0115236     0.8822795   -0.4601245     0.8820728   -0.4585560    -0.0068513   -0.0104372 
   0.110000000    -0.0066468   -0.0112601     0.8804021   -0.4640283     0.8801962   -0.4622856    -0.0065642   -0.0105062 
   0.111000000    -0.0069828   -0.0112108     0.8781708   -0.4677107     0.8779212   -0.4661752    -0.0068686   -0.0108452 
   0.112000000    -0.0070716   -0.0112208     0.8762721   -0.4716317     0.8756599   -0.4700342    -0.0069941   -0.0107256 
   0.113000000    -0.0071974   -0.0112735     0.8743722   -0.4755231     0.8738115   -0.4740030    -0.0070946   -0.0109763 
   0.114000000    -0.0071623   -0.0112119     0.8724321   -0.4792639     0.8717889   -0.4774992    -0.0071801   -0.0108392 
   0.115000000    -0.0070852   -0.0111988     0.8700625   -0.4830977     0.8693714   -0.4815272    -0.0073929   -0.0111809 
   0.116000000    -0.0071175   -0.0111805     0.8680232   -0.4869795     0.8676207   -0.4852208    -0.0073733   -0.0110596 
   0.117000000    -0.0071515   -0.0112829     0.8656744   -0.4903968     0.8652163   -0.4891586    -0.0075552   -0.0111408 
   0.118000000    -0.0069686   -0.0113293     0.8638713   -0.4941730     0.8632510   -0.4926146    -0.0075325   -0.0111568 
   0.119000000    -0.0071225   -0.0112783     0.8614762   -0.4983050     0.8610857   -0.4962856    -0.0076930   -0.0115154 
   0.120000000    -0.0071396   -0.0113290     0.8594989   -0.5020554     0.8590158   -0.5001814    -0.0075332   -0.0113906 
   0.121000000    -0.0071118   -0.0114416     0.8572052   -0.5057169     0.8568312   -0.5038516    -0.0078908   -0.0115029 
   0.122000000    -0.0073066   -0.0116353     0.8551717   -0.5094295     0.8546798   -0.5076844    -0.0077825   -0.0116182 
   0.123000000    -0.0073512   -0.0120428     0.8523852   -0.5135636     0.8523253   -0.5118462    -0.0079802   -0.0116485 
   0.124000000    -0.0074732   -0.0119375     0.8505506   -0.5168445     0.8501933   -0.5148628    -0.0081995   -0.0116873 
   0.125000000    -0.0074729   -0.0119413     0.8483230   -0.5208833     0.8477590   -0.5190076    -0.0082247   -0.0117909 
   0.126000000    -0.0076606   -0.0122527     0.8457728   -0.5240022     0.8456325   -0.5227895    -0.0084387   -0.0118472 
   0.127000000    -0.0080283   -0.0123387     0.8435361   -0.5277929     0.8429802   -0.5263918    -0.0086538   -0.0117021 
   0.128000000    -0.0082025   -0.0123475     0.8411161   -0.5312840     0.8404770   -0.5299164    -0.0084897   -0.0117738 
   0.129000000    -0.0081901   -0.0125088     0.8387626   -0.5350526     0.8384540   -0.5332195    -0.0087346   -0.0118742 
   0.130000000    -0.0086803   -0.0125382     0.8364974   -0.5387028     0.8357720   -0.5371790    -0.0088436   -0.0117014 
   0.131000000    -0.0089141   -0.0126263     0.8339939   -0.5422595     0.8336564   -0.5406935    -0.0089457   -0.0116496 
   0.132000000    -0.0090383   -0.0125588     0.8314710   -0.5456582     0.8313537   -0.5444133    -0.0088375   -0.0114282 
   0.133000000    -0.0096050   -0.0124534     0.8289368   -0.5494639     0.8284300   -0.5477544    -0.0090131   -0.0116278 
   0.134000000    -0.0096265   -0.0124051     0.8262250   -0.5527645     0.8257976   -0.5514584    -0.0090713   -0.0115316 
   0.135000000    -0.0098369   -0.0124089     0.8234347   -0.5567508     0.8233727   -0.5547004    -0.0093639   -0.0117194 
   0.136000000    -0.0098982   -0.0124240     0.8214179   -0.5601231     0.8206562   -0.5586183    -0.0093374   -0.0118897 
   0.137000000    -0.0099192   -0.0122425     0.8188444   -0.5637382     0.8180572   -0.5620456    -0.0093605   -0.0117892 
   0.138000000    -0.0102005   -0.0123395     0.8161757   -0.5668885     0.8154848   -0.5658787    -0.0094111   -0.0119155 
   0.139000000    -0.0101608   -0.0123175     0.8135000   -0.5706744     0.8127261   -0.5691096    -0.0096220   -0.0119198 
   0.140000000    -0.0103113   -0.0122677     0.8110577   -0.5738203     0.8101493   -0.5726075    -0.0096823   -0.0120586 
   0.141000000    -0.0104326   -0.0123395     0.8087150   -0.5775263     0.8074847   -0.5759975    -0.0098373   -0.0121312 
   0.142000000    -0.0103958   -0.0121948     0.8060365   -0.5808019     0.8051916   -0.5796570    -0.0100348   -0.0121689 
   0.143000000    -0.0102872   -0.0122151     0.8031057   -0.5841486     0.8024113   -0.5830683    -0.0101925   -0.0119720 
   0.144000000    -0.0106913   -0.0121619     0.8008170   -0.5877518     0.8001652   -0.5868902    -0.0104198   -0.0120003 
   0.145000000    -0.0107877   -0.0122940     0.7982531   -0.5916212     0.7976781   -0.5903152    -0.0106370   -0.0120383 
   0.146000000    -0.0107843   -0.0121374     0.7954568   -0.5949982     0.7951194   -0.5936669    -0.0107458   -0.0116067 
   0.147000000    -0.0106926   -0.0121864     0.7926747   -0.5982363     0.7925019   -0.5972328    -0.0112135   -0.0118494 
   0.148000000    -0.0106122   -0.0122953     0.7901476   -0.6017722     0.7901675   -0.6009272    -0.0114343   -0.0117246 
   0.149000000    -0.0109032   -0.0122525     0.7874291   -0.6051384     0.7877727   -0.6043890    -0.0115290   -0.0116560 
   0.150000000    -0.0108919   -0.0122267     0.7850290   -0.6086561     0.7848879   -0.6077716    -0.0113199   -0.0116222 
   0.151000000    -0.0112322   -0.0122860     0.7824036   -0.6119531     0.7826032   -0.6109912    -0.0117848   -0.0115842 
   0.152000000    -0.0111096   -0.0123206     0.7797213   -0.6151652     0.7797476   -0.6141465    -0.0120238   -0.0116014 
   0.153000000    -0.0114360   -0.0123537     0.7768953   -0.6186141     0.7772821   -0.6172481    -0.0120963   -0.0113356 
   0.154000000    -0.0114742   -0.0120463     0.7744926   -0.6219118     0.7744058   -0.6207782    -0.0124760   -0.0111862 
   0.155000000    -0.0117893   -0.0121492     0.7719769   -0.6251462     0.7719678   -0.6239417    -0.0125496   -0.0111254 
   0.156000000    -0.0119872   -0.0121327     0.7691773   -0.6282678     0.7692276   -0.6270064    -0.0127876   -0.0111165 
   0.157000000    -0.0121656   -0.0123273     0.7667228   -0.6315889     0.7665762   -0.6302191    -0.0130168   -0.0111841 
   0.158000000    -0.0123294   -0.0121832     0.7636881   -0.6348230     0.7639757   -0.6337756    -0.0131408   -0.0108714 
