! 2/19/2018 12:52:16 PM
! E:\STEPPED_EXPERIMENT_2018-02-19\P1-MSL_LOAD_50.S1P
! CHANNEL.1
! TR.MEASUREMENT
! CORRECTED.DATA
# GHZ S RI R 50.0
! FREQ.GHZ         S11RE         S11IM
!; PortSelection: Port_1
   0.001000000     0.0009942   -0.0017290
   0.002000000     0.0004792   -0.0020139
   0.003000000     0.0006772   -0.0017601
   0.004000000     0.0007723   -0.0015451
   0.005000000     0.0010888   -0.0013025
   0.006000000     0.0011031   -0.0011380
   0.007000000     0.0011099   -0.0010538
   0.008000000     0.0012060   -0.0007151
   0.009000000     0.0011663   -0.0006064
   0.010000000     0.0009133   -0.0004080
   0.011000000     0.0008899   -0.0004190
   0.012000000     0.0009859   -0.0004154
   0.013000000     0.0005460   -0.0003380
   0.014000000     0.0004864   -0.0003902
   0.015000000     0.0003577   -0.0003419
   0.016000000     0.0002511   -0.0003687
   0.017000000     0.0003089   -0.0005144
   0.018000000     0.0000214   -0.0004295
   0.019000000     0.0000375   -0.0004195
   0.020000000    -0.0001170   -0.0004415
   0.021000000    -0.0001824   -0.0004847
   0.022000000    -0.0003747   -0.0005982
   0.023000000    -0.0004468   -0.0007715
   0.024000000    -0.0004055   -0.0007410
   0.025000000    -0.0005471   -0.0007998
   0.026000000    -0.0006619   -0.0007912
   0.027000000    -0.0006912   -0.0007908
   0.028000000    -0.0009365   -0.0009685
   0.029000000    -0.0008053   -0.0010709
   0.030000000    -0.0010835   -0.0011755
   0.031000000    -0.0009795   -0.0012188
   0.032000000    -0.0011580   -0.0012583
   0.033000000    -0.0011991   -0.0014424
   0.034000000    -0.0013181   -0.0014982
   0.035000000    -0.0011410   -0.0013284
   0.036000000    -0.0012675   -0.0015384
   0.037000000    -0.0012613   -0.0016271
   0.038000000    -0.0012707   -0.0016524
   0.039000000    -0.0012804   -0.0018654
   0.040000000    -0.0014241   -0.0017025
   0.041000000    -0.0013228   -0.0017741
   0.042000000    -0.0014240   -0.0019941
   0.043000000    -0.0012687   -0.0019335
   0.044000000    -0.0013574   -0.0019534
   0.045000000    -0.0013205   -0.0020255
   0.046000000    -0.0013394   -0.0020745
   0.047000000    -0.0012470   -0.0020678
   0.048000000    -0.0013358   -0.0022806
   0.049000000    -0.0013815   -0.0020579
   0.050000000    -0.0011608   -0.0022144
   0.051000000    -0.0011183   -0.0022793
   0.052000000    -0.0013044   -0.0022746
   0.053000000    -0.0012633   -0.0024517
   0.054000000    -0.0011505   -0.0024430
   0.055000000    -0.0012404   -0.0025152
   0.056000000    -0.0011140   -0.0024085
   0.057000000    -0.0011274   -0.0024970
   0.058000000    -0.0010606   -0.0024402
   0.059000000    -0.0009925   -0.0025157
   0.060000000    -0.0010116   -0.0025735
   0.061000000    -0.0011777   -0.0023832
   0.062000000    -0.0009797   -0.0024480
   0.063000000    -0.0008975   -0.0024620
   0.064000000    -0.0008111   -0.0023904
   0.065000000    -0.0009059   -0.0024728
   0.066000000    -0.0007909   -0.0024069
   0.067000000    -0.0008301   -0.0025548
   0.068000000    -0.0006775   -0.0026120
   0.069000000    -0.0007194   -0.0024140
   0.070000000    -0.0007159   -0.0023293
   0.071000000    -0.0008931   -0.0022526
   0.072000000    -0.0008939   -0.0023414
   0.073000000    -0.0008246   -0.0021542
   0.074000000    -0.0008026   -0.0021309
   0.075000000    -0.0007634   -0.0020232
   0.076000000    -0.0008570   -0.0019964
   0.077000000    -0.0008007   -0.0020330
   0.078000000    -0.0009569   -0.0020403
   0.079000000    -0.0009003   -0.0018319
   0.080000000    -0.0008818   -0.0018029
   0.081000000    -0.0012337   -0.0017645
   0.082000000    -0.0011196   -0.0019096
   0.083000000    -0.0013005   -0.0017621
   0.084000000    -0.0013331   -0.0018731
   0.085000000    -0.0014446   -0.0017758
   0.086000000    -0.0013847   -0.0015936
   0.087000000    -0.0015680   -0.0017256
   0.088000000    -0.0016531   -0.0018673
   0.089000000    -0.0017903   -0.0017257
   0.090000000    -0.0017397   -0.0017925
   0.091000000    -0.0018604   -0.0017694
   0.092000000    -0.0018782   -0.0017190
   0.093000000    -0.0019673   -0.0017702
   0.094000000    -0.0021393   -0.0016313
   0.095000000    -0.0022311   -0.0019148
   0.096000000    -0.0024276   -0.0017375
   0.097000000    -0.0023348   -0.0019625
   0.098000000    -0.0025104   -0.0019950
   0.099000000    -0.0026147   -0.0019343
   0.100000000    -0.0029709   -0.0021643
   0.101000000    -0.0027504   -0.0022050
   0.102000000    -0.0027865   -0.0022096
   0.103000000    -0.0029184   -0.0022733
   0.104000000    -0.0030979   -0.0024859
   0.105000000    -0.0031089   -0.0024552
   0.106000000    -0.0033801   -0.0026632
   0.107000000    -0.0031767   -0.0027126
   0.108000000    -0.0031792   -0.0026337
   0.109000000    -0.0033914   -0.0027390
   0.110000000    -0.0033305   -0.0029652
   0.111000000    -0.0033248   -0.0029857
   0.112000000    -0.0034127   -0.0030865
   0.113000000    -0.0032850   -0.0030938
   0.114000000    -0.0034383   -0.0031054
   0.115000000    -0.0034741   -0.0031639
   0.116000000    -0.0032038   -0.0032901
   0.117000000    -0.0033533   -0.0033308
   0.118000000    -0.0034553   -0.0033239
   0.119000000    -0.0033217   -0.0034748
   0.120000000    -0.0033303   -0.0035735
   0.121000000    -0.0032790   -0.0035874
   0.122000000    -0.0032663   -0.0036476
   0.123000000    -0.0031890   -0.0037341
   0.124000000    -0.0031803   -0.0037014
   0.125000000    -0.0029485   -0.0038200
   0.126000000    -0.0031532   -0.0039529
   0.127000000    -0.0031321   -0.0036596
   0.128000000    -0.0030146   -0.0037821
   0.129000000    -0.0028718   -0.0039604
   0.130000000    -0.0028259   -0.0038647
   0.131000000    -0.0027119   -0.0038715
   0.132000000    -0.0028567   -0.0038538
   0.133000000    -0.0028013   -0.0037460
   0.134000000    -0.0028354   -0.0038650
   0.135000000    -0.0028969   -0.0038602
   0.136000000    -0.0028044   -0.0037999
   0.137000000    -0.0027390   -0.0038484
   0.138000000    -0.0028884   -0.0037521
   0.139000000    -0.0027799   -0.0037127
   0.140000000    -0.0027161   -0.0037055
   0.141000000    -0.0027637   -0.0036740
   0.142000000    -0.0026594   -0.0037026
   0.143000000    -0.0026788   -0.0035896
   0.144000000    -0.0026853   -0.0035954
   0.145000000    -0.0025764   -0.0034618
   0.146000000    -0.0025154   -0.0034677
   0.147000000    -0.0027244   -0.0033356
   0.148000000    -0.0027309   -0.0034156
   0.149000000    -0.0026854   -0.0033246
   0.150000000    -0.0028064   -0.0031244
   0.151000000    -0.0027665   -0.0030772
   0.152000000    -0.0028677   -0.0031821
   0.153000000    -0.0030107   -0.0030019
   0.154000000    -0.0029132   -0.0030300
   0.155000000    -0.0028677   -0.0029162
   0.156000000    -0.0029837   -0.0030146
   0.157000000    -0.0030205   -0.0029351
   0.158000000    -0.0032245   -0.0029334
   0.159000000    -0.0032466   -0.0029065
   0.160000000    -0.0033686   -0.0028685
   0.161000000    -0.0034125   -0.0027973
   0.162000000    -0.0033981   -0.0028207
   0.163000000    -0.0035107   -0.0028055
   0.164000000    -0.0035155   -0.0027874
   0.165000000    -0.0037171   -0.0027256
   0.166000000    -0.0037093   -0.0027909
   0.167000000    -0.0037846   -0.0028416
   0.168000000    -0.0039787   -0.0026811
   0.169000000    -0.0039009   -0.0027158
   0.170000000    -0.0040688   -0.0027703
   0.171000000    -0.0041595   -0.0029377
   0.172000000    -0.0041012   -0.0028731
   0.173000000    -0.0043593   -0.0029849
   0.174000000    -0.0042676   -0.0030975
   0.175000000    -0.0043242   -0.0030556
   0.176000000    -0.0044858   -0.0030793
   0.177000000    -0.0044778   -0.0031320
   0.178000000    -0.0046423   -0.0031695
   0.179000000    -0.0045470   -0.0031174
   0.180000000    -0.0047307   -0.0031332
   0.181000000    -0.0046909   -0.0032215
   0.182000000    -0.0047347   -0.0032228
   0.183000000    -0.0047885   -0.0033088
   0.184000000    -0.0049325   -0.0033517
   0.185000000    -0.0049885   -0.0034176
   0.186000000    -0.0050618   -0.0034052
   0.187000000    -0.0050077   -0.0034267
   0.188000000    -0.0049576   -0.0033341
   0.189000000    -0.0051509   -0.0034391
   0.190000000    -0.0051316   -0.0035718
   0.191000000    -0.0049688   -0.0035453
   0.192000000    -0.0050633   -0.0036473
   0.193000000    -0.0051017   -0.0034615
   0.194000000    -0.0051203   -0.0034736
   0.195000000    -0.0050155   -0.0036121
   0.196000000    -0.0050504   -0.0035848
   0.197000000    -0.0051067   -0.0035380
   0.198000000    -0.0050337   -0.0035606
   0.199000000    -0.0050459   -0.0036397
   0.200000000    -0.0052008   -0.0036087
   0.201000000    -0.0050336   -0.0036062
   0.202000000    -0.0048476   -0.0034855
   0.203000000    -0.0050747   -0.0036947
   0.204000000    -0.0051113   -0.0035698
   0.205000000    -0.0049108   -0.0034809
   0.206000000    -0.0048986   -0.0035192
   0.207000000    -0.0049092   -0.0035622
   0.208000000    -0.0048492   -0.0035619
   0.209000000    -0.0048243   -0.0035686
   0.210000000    -0.0049060   -0.0033401
   0.211000000    -0.0049505   -0.0034841
   0.212000000    -0.0049419   -0.0033483
   0.213000000    -0.0048368   -0.0033274
   0.214000000    -0.0047633   -0.0031594
   0.215000000    -0.0049169   -0.0031496
   0.216000000    -0.0048364   -0.0030425
   0.217000000    -0.0049565   -0.0029303
   0.218000000    -0.0049236   -0.0028011
   0.219000000    -0.0049227   -0.0028173
   0.220000000    -0.0048563   -0.0027768
   0.221000000    -0.0048935   -0.0026380
   0.222000000    -0.0050172   -0.0027446
   0.223000000    -0.0050052   -0.0026306
   0.224000000    -0.0050998   -0.0024836
   0.225000000    -0.0051290   -0.0025645
   0.226000000    -0.0051094   -0.0025105
   0.227000000    -0.0053093   -0.0023777
   0.228000000    -0.0052701   -0.0022274
   0.229000000    -0.0054536   -0.0022290
   0.230000000    -0.0054435   -0.0021661
   0.231000000    -0.0054268   -0.0020623
   0.232000000    -0.0054730   -0.0019971
   0.233000000    -0.0055672   -0.0019507
   0.234000000    -0.0056673   -0.0018996
   0.235000000    -0.0057871   -0.0020848
   0.236000000    -0.0057668   -0.0019321
   0.237000000    -0.0059685   -0.0019396
   0.238000000    -0.0060862   -0.0017587
   0.239000000    -0.0060913   -0.0020127
   0.240000000    -0.0062336   -0.0020009
   0.241000000    -0.0062541   -0.0019486
   0.242000000    -0.0063316   -0.0019233
   0.243000000    -0.0063379   -0.0018863
   0.244000000    -0.0065865   -0.0018234
   0.245000000    -0.0066641   -0.0018806
   0.246000000    -0.0066238   -0.0019701
   0.247000000    -0.0067187   -0.0019795
   0.248000000    -0.0066953   -0.0020115
   0.249000000    -0.0067622   -0.0020563
   0.250000000    -0.0068406   -0.0020971
   0.251000000    -0.0068070   -0.0021522
   0.252000000    -0.0069297   -0.0020536
   0.253000000    -0.0069836   -0.0021600
   0.254000000    -0.0071869   -0.0022080
   0.255000000    -0.0071233   -0.0021424
   0.256000000    -0.0071802   -0.0022571
   0.257000000    -0.0072819   -0.0021385
   0.258000000    -0.0072596   -0.0022925
   0.259000000    -0.0073287   -0.0023033
   0.260000000    -0.0072866   -0.0022053
   0.261000000    -0.0073466   -0.0021908
   0.262000000    -0.0074000   -0.0023812
   0.263000000    -0.0074595   -0.0024516
   0.264000000    -0.0074306   -0.0023081
   0.265000000    -0.0074521   -0.0023234
   0.266000000    -0.0074137   -0.0022803
   0.267000000    -0.0074353   -0.0023860
   0.268000000    -0.0074694   -0.0023018
   0.269000000    -0.0074516   -0.0023186
   0.270000000    -0.0074700   -0.0024239
   0.271000000    -0.0075069   -0.0024292
   0.272000000    -0.0075289   -0.0022090
   0.273000000    -0.0075673   -0.0021993
   0.274000000    -0.0074895   -0.0021483
   0.275000000    -0.0074491   -0.0023275
   0.276000000    -0.0074866   -0.0021271
   0.277000000    -0.0075790   -0.0022011
   0.278000000    -0.0076133   -0.0021297
   0.279000000    -0.0077032   -0.0020623
   0.280000000    -0.0076574   -0.0019992
   0.281000000    -0.0077402   -0.0019566
   0.282000000    -0.0078089   -0.0020095
   0.283000000    -0.0077260   -0.0019147
   0.284000000    -0.0077740   -0.0017866
   0.285000000    -0.0077503   -0.0018827
   0.286000000    -0.0076761   -0.0017750
   0.287000000    -0.0079149   -0.0019222
   0.288000000    -0.0079689   -0.0019512
   0.289000000    -0.0078408   -0.0018216
   0.290000000    -0.0080215   -0.0018706
   0.291000000    -0.0080031   -0.0018735
   0.292000000    -0.0081236   -0.0017903
   0.293000000    -0.0080967   -0.0016819
   0.294000000    -0.0081792   -0.0016668
   0.295000000    -0.0082386   -0.0016065
   0.296000000    -0.0083258   -0.0016761
   0.297000000    -0.0083973   -0.0016939
   0.298000000    -0.0086451   -0.0017217
   0.299000000    -0.0086733   -0.0014931
   0.300000000    -0.0087579   -0.0017440
   0.301000000    -0.0088861   -0.0016207
   0.302000000    -0.0087449   -0.0015165
   0.303000000    -0.0088250   -0.0016492
   0.304000000    -0.0088981   -0.0015395
   0.305000000    -0.0089500   -0.0015296
   0.306000000    -0.0088091   -0.0016498
   0.307000000    -0.0090687   -0.0015290
   0.308000000    -0.0091062   -0.0016535
   0.309000000    -0.0091831   -0.0015256
   0.310000000    -0.0091842   -0.0017105
   0.311000000    -0.0092209   -0.0015130
   0.312000000    -0.0093233   -0.0015402
   0.313000000    -0.0094241   -0.0016387
   0.314000000    -0.0094017   -0.0016787
   0.315000000    -0.0094023   -0.0015599
   0.316000000    -0.0095415   -0.0016861
   0.317000000    -0.0096881   -0.0016956
   0.318000000    -0.0096015   -0.0017109
   0.319000000    -0.0096159   -0.0017966
   0.320000000    -0.0096814   -0.0016727
   0.321000000    -0.0097657   -0.0016460
   0.322000000    -0.0097717   -0.0015733
   0.323000000    -0.0097618   -0.0016524
   0.324000000    -0.0098215   -0.0017550
   0.325000000    -0.0098188   -0.0017492
   0.326000000    -0.0098474   -0.0017339
   0.327000000    -0.0098444   -0.0016038
   0.328000000    -0.0098386   -0.0018015
   0.329000000    -0.0098233   -0.0017855
   0.330000000    -0.0098337   -0.0017644
   0.331000000    -0.0098566   -0.0015944
   0.332000000    -0.0098980   -0.0017543
   0.333000000    -0.0097043   -0.0016515
   0.334000000    -0.0098328   -0.0017250
   0.335000000    -0.0097310   -0.0016971
   0.336000000    -0.0097554   -0.0016770
   0.337000000    -0.0097115   -0.0016244
   0.338000000    -0.0097450   -0.0016501
   0.339000000    -0.0095900   -0.0015471
   0.340000000    -0.0096521   -0.0015419
   0.341000000    -0.0095924   -0.0016155
   0.342000000    -0.0095925   -0.0013495
   0.343000000    -0.0095226   -0.0014400
   0.344000000    -0.0095450   -0.0012964
   0.345000000    -0.0095187   -0.0012637
   0.346000000    -0.0093927   -0.0010968
   0.347000000    -0.0092868   -0.0010176
   0.348000000    -0.0093899   -0.0009875
   0.349000000    -0.0092554   -0.0010176
   0.350000000    -0.0094318   -0.0008799
   0.351000000    -0.0092075   -0.0008114
   0.352000000    -0.0093483   -0.0007956
   0.353000000    -0.0092519   -0.0006523
   0.354000000    -0.0091913   -0.0004566
   0.355000000    -0.0092773   -0.0004524
   0.356000000    -0.0093832   -0.0002906
   0.357000000    -0.0093158   -0.0002393
   0.358000000    -0.0093151   -0.0001184
   0.359000000    -0.0093808   -0.0001086
   0.360000000    -0.0094368   -0.0000195
   0.361000000    -0.0095518    0.0001111
   0.362000000    -0.0097675    0.0001428
   0.363000000    -0.0097075    0.0001987
   0.364000000    -0.0097381    0.0002958
   0.365000000    -0.0098066    0.0003919
   0.366000000    -0.0099386    0.0004641
   0.367000000    -0.0099831    0.0006864
   0.368000000    -0.0101129    0.0007123
   0.369000000    -0.0102949    0.0007871
   0.370000000    -0.0102166    0.0009659
   0.371000000    -0.0104040    0.0009732
   0.372000000    -0.0106402    0.0008252
   0.373000000    -0.0106802    0.0011064
   0.374000000    -0.0109153    0.0011123
   0.375000000    -0.0108628    0.0010740
   0.376000000    -0.0110653    0.0009529
   0.377000000    -0.0109615    0.0010411
   0.378000000    -0.0111783    0.0010145
   0.379000000    -0.0112314    0.0010273
   0.380000000    -0.0113134    0.0009906
   0.381000000    -0.0115019    0.0008465
   0.382000000    -0.0115175    0.0009727
   0.383000000    -0.0116129    0.0008428
   0.384000000    -0.0116024    0.0008679
   0.385000000    -0.0117466    0.0007710
   0.386000000    -0.0117037    0.0006319
   0.387000000    -0.0118758    0.0006768
   0.388000000    -0.0118343    0.0006536
   0.389000000    -0.0118490    0.0005305
   0.390000000    -0.0119315    0.0003989
   0.391000000    -0.0119175    0.0004397
   0.392000000    -0.0119102    0.0002343
   0.393000000    -0.0120163    0.0001816
   0.394000000    -0.0120470    0.0000636
   0.395000000    -0.0120963    0.0001533
   0.396000000    -0.0118841    0.0001614
   0.397000000    -0.0120255    0.0001473
   0.398000000    -0.0120224   -0.0000043
   0.399000000    -0.0120828   -0.0000543
   0.400000000    -0.0119879   -0.0000357
   0.401000000    -0.0120074   -0.0000083
   0.402000000    -0.0117195   -0.0002532
   0.403000000    -0.0118346   -0.0001431
   0.404000000    -0.0119180   -0.0001125
   0.405000000    -0.0117954   -0.0001440
   0.406000000    -0.0116795   -0.0001258
   0.407000000    -0.0117028    0.0000290
   0.408000000    -0.0116927   -0.0000080
   0.409000000    -0.0116512   -0.0001325
   0.410000000    -0.0115467    0.0000042
   0.411000000    -0.0114395   -0.0000487
   0.412000000    -0.0114840   -0.0000068
   0.413000000    -0.0114320    0.0001217
   0.414000000    -0.0114488    0.0002118
   0.415000000    -0.0112899    0.0005196
   0.416000000    -0.0111743    0.0003290
   0.417000000    -0.0110827    0.0002358
   0.418000000    -0.0110743    0.0003876
   0.419000000    -0.0111061    0.0005169
   0.420000000    -0.0109853    0.0006185
   0.421000000    -0.0110662    0.0007643
   0.422000000    -0.0110546    0.0008897
   0.423000000    -0.0109791    0.0009346
   0.424000000    -0.0109377    0.0010561
   0.425000000    -0.0108324    0.0010618
   0.426000000    -0.0107463    0.0011868
   0.427000000    -0.0108867    0.0011724
   0.428000000    -0.0107727    0.0014933
   0.429000000    -0.0107723    0.0014311
   0.430000000    -0.0107778    0.0017179
   0.431000000    -0.0108533    0.0017000
   0.432000000    -0.0108419    0.0018119
   0.433000000    -0.0108361    0.0019001
   0.434000000    -0.0108924    0.0019017
   0.435000000    -0.0108500    0.0021011
   0.436000000    -0.0107805    0.0021827
   0.437000000    -0.0107575    0.0021610
   0.438000000    -0.0108050    0.0023880
   0.439000000    -0.0109151    0.0025044
   0.440000000    -0.0109313    0.0025128
   0.441000000    -0.0108730    0.0027374
   0.442000000    -0.0108055    0.0026553
   0.443000000    -0.0108373    0.0028732
   0.444000000    -0.0109503    0.0030737
   0.445000000    -0.0110656    0.0031105
   0.446000000    -0.0112100    0.0033925
   0.447000000    -0.0113405    0.0033593
   0.448000000    -0.0113808    0.0034949
   0.449000000    -0.0114514    0.0036748
   0.450000000    -0.0116645    0.0037468
   0.451000000    -0.0117666    0.0035783
   0.452000000    -0.0118638    0.0037032
   0.453000000    -0.0120515    0.0038593
   0.454000000    -0.0121925    0.0038175
   0.455000000    -0.0123608    0.0039012
   0.456000000    -0.0124281    0.0038952
   0.457000000    -0.0126499    0.0038165
   0.458000000    -0.0127220    0.0038453
   0.459000000    -0.0127730    0.0039400
   0.460000000    -0.0129240    0.0040054
   0.461000000    -0.0129769    0.0038561
   0.462000000    -0.0130174    0.0039482
   0.463000000    -0.0130905    0.0038234
   0.464000000    -0.0131272    0.0037701
   0.465000000    -0.0133036    0.0037038
   0.466000000    -0.0131800    0.0036120
   0.467000000    -0.0132771    0.0036041
   0.468000000    -0.0133384    0.0035860
   0.469000000    -0.0133549    0.0034707
   0.470000000    -0.0133952    0.0033953
   0.471000000    -0.0134232    0.0033035
