! 2/19/2018 12:59:11 PM
! E:\STEPPED_EXPERIMENT_2018-02-19\P2-MSL_LOAD_50.S1P
! CHANNEL.1
! TR.MEASUREMENT
! CORRECTED.DATA
# GHZ S RI R 50.0
! FREQ.GHZ         S22RE         S22IM         
!; PortSelection: Port_2
   0.001000000    -0.0012342   -0.0039334  
   0.002000000    -0.0012983   -0.0037149  
   0.003000000    -0.0009233   -0.0032442  
   0.004000000    -0.0004320   -0.0026785  
   0.005000000    -0.0003799   -0.0022040  
   0.006000000    -0.0001917   -0.0022679  
   0.007000000     0.0000363   -0.0017326  
   0.008000000     0.0001998   -0.0012183  
   0.009000000     0.0005326   -0.0010158  
   0.010000000     0.0004769   -0.0008281  
   0.011000000     0.0005106   -0.0011384  
   0.012000000     0.0004260   -0.0009944  
   0.013000000     0.0005746   -0.0008706  
   0.014000000     0.0006050   -0.0009330  
   0.015000000     0.0005242   -0.0009556  
   0.016000000     0.0005024   -0.0008951  
   0.017000000     0.0005972   -0.0008794  
   0.018000000     0.0005719   -0.0007135  
   0.019000000     0.0005485   -0.0009861  
   0.020000000     0.0005155   -0.0008846  
   0.021000000     0.0003257   -0.0008326  
   0.022000000     0.0003590   -0.0009476  
   0.023000000     0.0002494   -0.0010299  
   0.024000000     0.0001759   -0.0010758  
   0.025000000     0.0002165   -0.0009781  
   0.026000000     0.0001512   -0.0009817  
   0.027000000     0.0000234   -0.0010234  
   0.028000000    -0.0000245   -0.0009758  
   0.029000000    -0.0000537   -0.0010748  
   0.030000000    -0.0001606   -0.0010491  
   0.031000000    -0.0001733   -0.0010937  
   0.032000000    -0.0001383   -0.0013379  
   0.033000000    -0.0004662   -0.0009526  
   0.034000000    -0.0003611   -0.0012219  
   0.035000000    -0.0003201   -0.0013824  
   0.036000000    -0.0004048   -0.0013476  
   0.037000000    -0.0004594   -0.0014087  
   0.038000000    -0.0003661   -0.0014492  
   0.039000000    -0.0005496   -0.0014905  
   0.040000000    -0.0003408   -0.0015327  
   0.041000000    -0.0003401   -0.0015598  
   0.042000000    -0.0003351   -0.0016661  
   0.043000000    -0.0003256   -0.0016785  
   0.044000000    -0.0001929   -0.0015782  
   0.045000000    -0.0003445   -0.0017488  
   0.046000000    -0.0001972   -0.0018194  
   0.047000000    -0.0003397   -0.0018760  
   0.048000000    -0.0003360   -0.0019312  
   0.049000000    -0.0002803   -0.0020882  
   0.050000000    -0.0004126   -0.0020547  
   0.051000000    -0.0003811   -0.0020677  
   0.052000000    -0.0004780   -0.0019409  
   0.053000000    -0.0005499   -0.0020383  
   0.054000000    -0.0005310   -0.0020320  
   0.055000000    -0.0006021   -0.0021788  
   0.056000000    -0.0005906   -0.0022768  
   0.057000000    -0.0005957   -0.0022569  
   0.058000000    -0.0005233   -0.0021582  
   0.059000000    -0.0006242   -0.0022532  
   0.060000000    -0.0006158   -0.0023430  
   0.061000000    -0.0006778   -0.0022304  
   0.062000000    -0.0006860   -0.0022710  
   0.063000000    -0.0007741   -0.0022958  
   0.064000000    -0.0007534   -0.0022720  
   0.065000000    -0.0008171   -0.0022522  
   0.066000000    -0.0008907   -0.0022364  
   0.067000000    -0.0008324   -0.0022851  
   0.068000000    -0.0001752   -0.0022008  
   0.069000000    -0.0007877   -0.0022155  
   0.070000000    -0.0008999   -0.0022488  
   0.071000000    -0.0009867   -0.0022288  
   0.072000000    -0.0010692   -0.0022521  
   0.073000000    -0.0008285   -0.0021881  
   0.074000000    -0.0009387   -0.0022021  
   0.075000000    -0.0010844   -0.0021014  
   0.076000000    -0.0011550   -0.0020906  
   0.077000000    -0.0010565   -0.0020071  
   0.078000000    -0.0011222   -0.0020537  
   0.079000000    -0.0009895   -0.0017282  
   0.080000000    -0.0009377   -0.0016270  
   0.081000000    -0.0013636   -0.0021753  
   0.082000000    -0.0013957   -0.0020546  
   0.083000000    -0.0012809   -0.0020323  
   0.084000000    -0.0014312   -0.0020666  
   0.085000000    -0.0013889   -0.0020710  
   0.086000000    -0.0014358   -0.0014734  
   0.087000000    -0.0015209   -0.0021429  
   0.088000000    -0.0015763   -0.0020979  
   0.089000000    -0.0017033   -0.0020705  
   0.090000000    -0.0017901   -0.0021524  
   0.091000000    -0.0018640   -0.0021371  
   0.092000000    -0.0018316   -0.0022359  
   0.093000000    -0.0019050   -0.0023281  
   0.094000000    -0.0020010   -0.0023208  
   0.095000000    -0.0021319   -0.0023478  
   0.096000000    -0.0025539   -0.0016851  
   0.097000000    -0.0021566   -0.0025615  
   0.098000000    -0.0021473   -0.0025021  
   0.099000000    -0.0024116   -0.0026737  
   0.100000000    -0.0031769   -0.0022405  
   0.101000000    -0.0024502   -0.0027216  
   0.102000000    -0.0025420   -0.0028191  
   0.103000000    -0.0025322   -0.0027480  
   0.104000000    -0.0033238   -0.0025903  
   0.105000000    -0.0024937   -0.0030163  
   0.106000000    -0.0033147   -0.0029230  
   0.107000000    -0.0026397   -0.0030248  
   0.108000000    -0.0025388   -0.0030913  
   0.109000000    -0.0025806   -0.0030226  
   0.110000000    -0.0026446   -0.0031994  
   0.111000000    -0.0026861   -0.0031311  
   0.112000000    -0.0025408   -0.0032129  
   0.113000000    -0.0026763   -0.0032422  
   0.114000000    -0.0026939   -0.0033752  
   0.115000000    -0.0026635   -0.0033445  
   0.116000000    -0.0025510   -0.0033859  
   0.117000000    -0.0025049   -0.0034442  
   0.118000000    -0.0026323   -0.0034716  
   0.119000000    -0.0025743   -0.0036052  
   0.120000000    -0.0024592   -0.0035981  
   0.121000000    -0.0024180   -0.0034630  
   0.122000000    -0.0025057   -0.0036609  
   0.123000000    -0.0024236   -0.0036471  
   0.124000000    -0.0023541   -0.0036019  
   0.125000000    -0.0022664   -0.0037175  
   0.126000000    -0.0023787   -0.0036259  
   0.127000000    -0.0022688   -0.0036727  
   0.128000000    -0.0022370   -0.0037107  
   0.129000000    -0.0022618   -0.0036886  
   0.130000000    -0.0022193   -0.0035730  
   0.131000000    -0.0023997   -0.0035879  
   0.132000000    -0.0023313   -0.0035374  
   0.133000000    -0.0024513   -0.0034237  
   0.134000000    -0.0022245   -0.0034175  
   0.135000000    -0.0021892   -0.0033735  
   0.136000000    -0.0023269   -0.0035078  
   0.137000000    -0.0024551   -0.0033914  
   0.138000000    -0.0023052   -0.0034054  
   0.139000000    -0.0022880   -0.0033867  
   0.140000000    -0.0023286   -0.0034225  
   0.141000000    -0.0024002   -0.0033317  
   0.142000000    -0.0024628   -0.0033212  
   0.143000000    -0.0023797   -0.0031668  
   0.144000000    -0.0025673   -0.0031352  
   0.145000000    -0.0026096   -0.0031082  
   0.146000000    -0.0027296   -0.0031713  
   0.147000000    -0.0026525   -0.0031619  
   0.148000000    -0.0027743   -0.0030989  
   0.149000000    -0.0028192   -0.0030340  
   0.150000000    -0.0031201   -0.0031111  
   0.151000000    -0.0029555   -0.0030134  
   0.152000000    -0.0030142   -0.0028046  
   0.153000000    -0.0030951   -0.0029651  
   0.154000000    -0.0032357   -0.0030630  
   0.155000000    -0.0032109   -0.0031416  
   0.156000000    -0.0033530   -0.0029805  
   0.157000000    -0.0033704   -0.0029723  
   0.158000000    -0.0034864   -0.0029169  
   0.159000000    -0.0035677   -0.0030143  
   0.160000000    -0.0035890   -0.0029297  
   0.161000000    -0.0035496   -0.0031170  
   0.162000000    -0.0037068   -0.0031285  
   0.163000000    -0.0038332   -0.0029998  
   0.164000000    -0.0038853   -0.0031324  
   0.165000000    -0.0039696   -0.0030925  
   0.166000000    -0.0038753   -0.0029926  
   0.167000000    -0.0041243   -0.0033498  
   0.168000000    -0.0040674   -0.0032719  
   0.169000000    -0.0042538   -0.0032834  
   0.170000000    -0.0042218   -0.0032684  
   0.171000000    -0.0043238   -0.0030361  
   0.172000000    -0.0045529   -0.0032313  
   0.173000000    -0.0045575   -0.0033191  
   0.174000000    -0.0045872   -0.0033621  
   0.175000000    -0.0046988   -0.0033251  
   0.176000000    -0.0047561   -0.0034490  
   0.177000000    -0.0048065   -0.0034408  
   0.178000000    -0.0047848   -0.0037322  
   0.179000000    -0.0047801   -0.0036680  
   0.180000000    -0.0048493   -0.0035999  
   0.181000000    -0.0049241   -0.0036458  
   0.182000000    -0.0049130   -0.0037147  
   0.183000000    -0.0048334   -0.0038871  
   0.184000000    -0.0049467   -0.0037355  
   0.185000000    -0.0049426   -0.0037445  
   0.186000000    -0.0050576   -0.0038132  
   0.187000000    -0.0050751   -0.0038345  
   0.188000000    -0.0051311   -0.0039347  
   0.189000000    -0.0049775   -0.0038875  
   0.190000000    -0.0050148   -0.0039798  
   0.191000000    -0.0050352   -0.0040582  
   0.192000000    -0.0048624   -0.0041074  
   0.193000000    -0.0049182   -0.0041497  
   0.194000000    -0.0050608   -0.0040951  
   0.195000000    -0.0047467   -0.0042359  
   0.196000000    -0.0048946   -0.0041297  
   0.197000000    -0.0048675   -0.0041402  
   0.198000000    -0.0047589   -0.0042187  
   0.199000000    -0.0047758   -0.0041470  
   0.200000000    -0.0051303   -0.0043331  
   0.201000000    -0.0046693   -0.0041910  
   0.202000000    -0.0046950   -0.0041473  
   0.203000000    -0.0046339   -0.0041638  
   0.204000000    -0.0046641   -0.0040095  
   0.205000000    -0.0045201   -0.0041440  
   0.206000000    -0.0044696   -0.0040954  
   0.207000000    -0.0044418   -0.0039875  
   0.208000000    -0.0044824   -0.0040186  
   0.209000000    -0.0044971   -0.0038244  
   0.210000000    -0.0044792   -0.0039398  
   0.211000000    -0.0043603   -0.0038563  
   0.212000000    -0.0044502   -0.0038342  
   0.213000000    -0.0044992   -0.0038776  
   0.214000000    -0.0044440   -0.0036974  
   0.215000000    -0.0043784   -0.0036977  
   0.216000000    -0.0044257   -0.0035854  
   0.217000000    -0.0044140   -0.0035351  
   0.218000000    -0.0045003   -0.0036233  
   0.219000000    -0.0044681   -0.0035443  
   0.220000000    -0.0044334   -0.0033534  
   0.221000000    -0.0044762   -0.0034447  
   0.222000000    -0.0045204   -0.0033106  
   0.223000000    -0.0044779   -0.0032267  
   0.224000000    -0.0044397   -0.0031407  
   0.225000000    -0.0046100   -0.0029989  
   0.226000000    -0.0045662   -0.0029436  
   0.227000000    -0.0047089   -0.0030442  
   0.228000000    -0.0047304   -0.0029502  
   0.229000000    -0.0048193   -0.0028839  
   0.230000000    -0.0049755   -0.0028941  
   0.231000000    -0.0049670   -0.0028206  
   0.232000000    -0.0049869   -0.0026364  
   0.233000000    -0.0050699   -0.0027413  
   0.234000000    -0.0053073   -0.0027151  
   0.235000000    -0.0052113   -0.0026273  
   0.236000000    -0.0053423   -0.0025717  
   0.237000000    -0.0052701   -0.0023748  
   0.238000000    -0.0054269   -0.0024567  
   0.239000000    -0.0054213   -0.0025227  
   0.240000000    -0.0056206   -0.0025798  
   0.241000000    -0.0056653   -0.0024254  
   0.242000000    -0.0056764   -0.0023393  
   0.243000000    -0.0058027   -0.0023185  
   0.244000000    -0.0058308   -0.0023458  
   0.245000000    -0.0058887   -0.0023021  
   0.246000000    -0.0061350   -0.0023739  
   0.247000000    -0.0060349   -0.0022937  
   0.248000000    -0.0062689   -0.0022415  
   0.249000000    -0.0062271   -0.0023159  
   0.250000000    -0.0063359   -0.0022768  
   0.251000000    -0.0063389   -0.0023301  
   0.252000000    -0.0064175   -0.0023930  
   0.253000000    -0.0066382   -0.0024391  
   0.254000000    -0.0066028   -0.0023156  
   0.255000000    -0.0066012   -0.0023055  
   0.256000000    -0.0067225   -0.0024829  
   0.257000000    -0.0066037   -0.0025272  
   0.258000000    -0.0067641   -0.0023330  
   0.259000000    -0.0067892   -0.0025624  
   0.260000000    -0.0068992   -0.0024747  
   0.261000000    -0.0067826   -0.0025175  
   0.262000000    -0.0069723   -0.0025258  
   0.263000000    -0.0070563   -0.0025645  
   0.264000000    -0.0069013   -0.0025172  
   0.265000000    -0.0071137   -0.0025525  
   0.266000000    -0.0070731   -0.0025679  
   0.267000000    -0.0072827   -0.0025754  
   0.268000000    -0.0072237   -0.0025931  
   0.269000000    -0.0071472   -0.0024263  
   0.270000000    -0.0072328   -0.0025351  
   0.271000000    -0.0073274   -0.0024757  
   0.272000000    -0.0073564   -0.0025585  
   0.273000000    -0.0073358   -0.0025019  
   0.274000000    -0.0073916   -0.0025308  
   0.275000000    -0.0073602   -0.0024775  
   0.276000000    -0.0074616   -0.0025308  
   0.277000000    -0.0074964   -0.0024264  
   0.278000000    -0.0075778   -0.0023650  
   0.279000000    -0.0075565   -0.0025344  
   0.280000000    -0.0076478   -0.0023727  
   0.281000000    -0.0075779   -0.0023437  
   0.282000000    -0.0077365   -0.0022850  
   0.283000000    -0.0077162   -0.0022646  
   0.284000000    -0.0077154   -0.0023257  
   0.285000000    -0.0079701   -0.0023013  
   0.286000000    -0.0078688   -0.0022516  
   0.287000000    -0.0078997   -0.0022497  
   0.288000000    -0.0080557   -0.0023111  
   0.289000000    -0.0081168   -0.0023083  
   0.290000000    -0.0081181   -0.0023534  
   0.291000000    -0.0082947   -0.0024138  
   0.292000000    -0.0082285   -0.0023358  
   0.293000000    -0.0083676   -0.0023270  
   0.294000000    -0.0084712   -0.0023341  
   0.295000000    -0.0084634   -0.0023481  
   0.296000000    -0.0085244   -0.0025265  
   0.297000000    -0.0085407   -0.0025906  
   0.298000000    -0.0085438   -0.0025134  
   0.299000000    -0.0086514   -0.0025400  
   0.300000000    -0.0104038   -0.0024798  
   0.301000000    -0.0087617   -0.0025617  
   0.302000000    -0.0088202   -0.0025461  
   0.303000000    -0.0086207   -0.0024505  
   0.304000000    -0.0088167   -0.0025486  
   0.305000000    -0.0088243   -0.0024822  
   0.306000000    -0.0089339   -0.0024603  
   0.307000000    -0.0089568   -0.0025470  
   0.308000000    -0.0089376   -0.0024868  
   0.309000000    -0.0089256   -0.0025493  
   0.310000000    -0.0090931   -0.0025417  
   0.311000000    -0.0090722   -0.0026106  
   0.312000000    -0.0091713   -0.0026293  
   0.313000000    -0.0090248   -0.0026658  
   0.314000000    -0.0091133   -0.0026726  
   0.315000000    -0.0091076   -0.0025617  
   0.316000000    -0.0090800   -0.0025985  
   0.317000000    -0.0091433   -0.0026740  
   0.318000000    -0.0091481   -0.0027523  
   0.319000000    -0.0089854   -0.0027766  
   0.320000000    -0.0092620   -0.0026712  
   0.321000000    -0.0091522   -0.0027342  
   0.322000000    -0.0091047   -0.0027374  
   0.323000000    -0.0090891   -0.0027337  
   0.324000000    -0.0091598   -0.0027618  
   0.325000000    -0.0089506   -0.0027196  
   0.326000000    -0.0090952   -0.0028352  
   0.327000000    -0.0090629   -0.0026771  
   0.328000000    -0.0090331   -0.0027478  
   0.329000000    -0.0089402   -0.0026657  
   0.330000000    -0.0088510   -0.0026307  
   0.331000000    -0.0088869   -0.0025164  
   0.332000000    -0.0088599   -0.0025585  
   0.333000000    -0.0088387   -0.0026085  
   0.334000000    -0.0089309   -0.0023391  
   0.335000000    -0.0087888   -0.0024534  
   0.336000000    -0.0087086   -0.0022426  
   0.337000000    -0.0085992   -0.0020957  
   0.338000000    -0.0086717   -0.0020815  
   0.339000000    -0.0086427   -0.0020495  
   0.340000000    -0.0085100   -0.0020368  
   0.341000000    -0.0084999   -0.0018543  
   0.342000000    -0.0083934   -0.0017902  
   0.343000000    -0.0084431   -0.0017290  
   0.344000000    -0.0082730   -0.0015689  
   0.345000000    -0.0082687   -0.0013897  
   0.346000000    -0.0083232   -0.0013444  
   0.347000000    -0.0084273   -0.0011453  
   0.348000000    -0.0084773   -0.0011956  
   0.349000000    -0.0084536   -0.0009940  
   0.350000000    -0.0083108   -0.0009949  
   0.351000000    -0.0084359   -0.0008489  
   0.352000000    -0.0083485   -0.0008021  
   0.353000000    -0.0084161   -0.0007137  
   0.354000000    -0.0084875   -0.0006160  
   0.355000000    -0.0084506   -0.0006240  
   0.356000000    -0.0084671   -0.0004305  
   0.357000000    -0.0085634   -0.0003475  
   0.358000000    -0.0085712   -0.0001410  
   0.359000000    -0.0087160   -0.0001291  
   0.360000000    -0.0088218   -0.0000020  
   0.361000000    -0.0088936    0.0000957  
   0.362000000    -0.0090310    0.0003925  
   0.363000000    -0.0091916    0.0003672  
   0.364000000    -0.0092957    0.0004590  
   0.365000000    -0.0092935    0.0004470  
   0.366000000    -0.0093832    0.0003667  
   0.367000000    -0.0095284    0.0008921  
   0.368000000    -0.0097894    0.0008224  
   0.369000000    -0.0098733    0.0008791  
   0.370000000    -0.0100537    0.0010224  
   0.371000000    -0.0101343    0.0011320  
   0.372000000    -0.0103943    0.0010699  
   0.373000000    -0.0104718    0.0011113  
   0.374000000    -0.0106152    0.0012541  
   0.375000000    -0.0109490    0.0011027  
   0.376000000    -0.0109025    0.0010324  
   0.377000000    -0.0110328    0.0010368  
   0.378000000    -0.0112491    0.0010741  
   0.379000000    -0.0112745    0.0011533  
   0.380000000    -0.0112460    0.0010506  
   0.381000000    -0.0114826    0.0008956  
   0.382000000    -0.0116134    0.0010194  
   0.383000000    -0.0117925    0.0009914  
   0.384000000    -0.0120055    0.0009080  
   0.385000000    -0.0120230    0.0010657  
   0.386000000    -0.0120391    0.0008748  
   0.387000000    -0.0121303    0.0007993  
   0.388000000    -0.0122412    0.0009261  
   0.389000000    -0.0122655    0.0006234  
   0.390000000    -0.0124153    0.0005462  
   0.391000000    -0.0122929    0.0006078  
   0.392000000    -0.0124575    0.0006000  
   0.393000000    -0.0124654    0.0004406  
   0.394000000    -0.0123975    0.0003356  
   0.395000000    -0.0125853    0.0003699  
   0.396000000    -0.0126106    0.0003113  
   0.397000000    -0.0126481    0.0001278  
   0.398000000    -0.0126413   -0.0000773  
   0.399000000    -0.0126765   -0.0001305  
   0.400000000    -0.0124035   -0.0001011  
   0.401000000    -0.0125467   -0.0002612  
   0.402000000    -0.0125103   -0.0002918  
   0.403000000    -0.0125106   -0.0002771  
   0.404000000    -0.0125257   -0.0004155  
   0.405000000    -0.0125167   -0.0004591  
   0.406000000    -0.0122727   -0.0004859  
   0.407000000    -0.0124868   -0.0003985  
   0.408000000    -0.0123631   -0.0004359  
   0.409000000    -0.0122159   -0.0004129  
   0.410000000    -0.0120346   -0.0004484  
   0.411000000    -0.0122058   -0.0004890  
   0.412000000    -0.0119160   -0.0004454  
   0.413000000    -0.0119010   -0.0004910  
   0.414000000    -0.0116972   -0.0005866  
   0.415000000    -0.0115999   -0.0005204  
   0.416000000    -0.0117612   -0.0004598  
   0.417000000    -0.0114253   -0.0004007  
   0.418000000    -0.0114580   -0.0003722  
   0.419000000    -0.0111515   -0.0003518  
   0.420000000    -0.0111061   -0.0003918  
   0.421000000    -0.0110193   -0.0000892  
   0.422000000    -0.0111415   -0.0000127  
   0.423000000    -0.0111458   -0.0000126  
   0.424000000    -0.0109910    0.0001784  
   0.425000000    -0.0108875    0.0002442  
   0.426000000    -0.0108419    0.0004606  
   0.427000000    -0.0109724    0.0003448  
   0.428000000    -0.0108878    0.0004409  
   0.429000000    -0.0109484    0.0006240  
   0.430000000    -0.0107036    0.0007806  
   0.431000000    -0.0106824    0.0009219  
   0.432000000    -0.0107725    0.0011011  
   0.433000000    -0.0108064    0.0010484  
   0.434000000    -0.0106679    0.0010383  
   0.435000000    -0.0106996    0.0012360  
   0.436000000    -0.0107628    0.0013110  
   0.437000000    -0.0108688    0.0014569  
   0.438000000    -0.0107203    0.0015777  
   0.439000000    -0.0107492    0.0016415  
   0.440000000    -0.0107241    0.0017411  
   0.441000000    -0.0107846    0.0019225  
   0.442000000    -0.0108269    0.0018611  
   0.443000000    -0.0108399    0.0020211  
   0.444000000    -0.0108220    0.0020216  
   0.445000000    -0.0108647    0.0023497  
   0.446000000    -0.0110316    0.0024082  
   0.447000000    -0.0111600    0.0025403  
   0.448000000    -0.0112506    0.0026176  
   0.449000000    -0.0111968    0.0027355  
