! 2/19/2018 12:57:58 PM
! E:\STEPPED_EXPERIMENT_2018-02-19\P2-MSL_SHORT_50.S1P
! CHANNEL.1
! TR.MEASUREMENT
! CORRECTED.DATA
# GHZ S RI R 50.0
! FREQ.GHZ         S22RE         S22IM         
!; PortSelection: Port_2
   0.001000000    -0.9982539    0.0106170  
   0.002000000    -0.9995713    0.0152921  
   0.003000000    -0.9997950    0.0186961  
   0.004000000    -0.9992900    0.0233767  
   0.005000000    -0.9995292    0.0276544  
   0.006000000    -0.9991151    0.0322792  
   0.007000000    -0.9994450    0.0362292  
   0.008000000    -0.9993641    0.0404706  
   0.009000000    -0.9991582    0.0448786  
   0.010000000    -0.9991034    0.0485900  
   0.011000000    -0.9991754    0.0530962  
   0.012000000    -0.9989972    0.0571955  
   0.013000000    -0.9984131    0.0612049  
   0.014000000    -0.9981831    0.0653583  
   0.015000000    -0.9979542    0.0695772  
   0.016000000    -0.9978010    0.0736613  
   0.017000000    -0.9974159    0.0777459  
   0.018000000    -0.9977893    0.0821269  
   0.019000000    -0.9971064    0.0863837  
   0.020000000    -0.9966094    0.0905415  
   0.021000000    -0.9966447    0.0946794  
   0.022000000    -0.9956759    0.0989897  
   0.023000000    -0.9953027    0.1034874  
   0.024000000    -0.9951285    0.1080096  
   0.025000000    -0.9945115    0.1118922  
   0.026000000    -0.9940670    0.1158418  
   0.027000000    -0.9935374    0.1204616  
   0.028000000    -0.9929672    0.1243875  
   0.029000000    -0.9918473    0.1290641  
   0.030000000    -0.9913599    0.1328066  
   0.031000000    -0.9909406    0.1370578  
   0.032000000    -0.9904857    0.1413287  
   0.033000000    -0.9897747    0.1455721  
   0.034000000    -0.9893764    0.1499200  
   0.035000000    -0.9886314    0.1539053  
   0.036000000    -0.9881300    0.1583809  
   0.037000000    -0.9872559    0.1622540  
   0.038000000    -0.9864650    0.1663505  
   0.039000000    -0.9856617    0.1708593  
   0.040000000    -0.9852587    0.1750989  
   0.041000000    -0.9841411    0.1792087  
   0.042000000    -0.9810216    0.1824642  
   0.043000000    -0.9825032    0.1873899  
   0.044000000    -0.9816086    0.1917465  
   0.045000000    -0.9810952    0.1960514  
   0.046000000    -0.9803118    0.2003315  
   0.047000000    -0.9793848    0.2045279  
   0.048000000    -0.9783978    0.2091987  
   0.049000000    -0.9775955    0.2132396  
   0.050000000    -0.9761161    0.2172117  
   0.051000000    -0.9755908    0.2216327  
   0.052000000    -0.9743044    0.2258626  
   0.053000000    -0.9733945    0.2299261  
   0.054000000    -0.9721277    0.2345372  
   0.055000000    -0.9711470    0.2387391  
   0.056000000    -0.9699267    0.2426772  
   0.057000000    -0.9691334    0.2470986  
   0.058000000    -0.9681906    0.2512527  
   0.059000000    -0.9667516    0.2555596  
   0.060000000    -0.9654635    0.2597948  
   0.061000000    -0.9643256    0.2642158  
   0.062000000    -0.9631056    0.2683004  
   0.063000000    -0.9620746    0.2726226  
   0.064000000    -0.9608049    0.2766998  
   0.065000000    -0.9596805    0.2807620  
   0.066000000    -0.9585086    0.2849474  
   0.067000000    -0.9570095    0.2887967  
   0.068000000    -0.9555165    0.2930687  
   0.069000000    -0.9543412    0.2974153  
   0.070000000    -0.9524820    0.3011915  
   0.071000000    -0.9514093    0.3058917  
   0.072000000    -0.9501073    0.3098092  
   0.073000000    -0.9483082    0.3142270  
   0.074000000    -0.9476268    0.3181203  
   0.075000000    -0.9460741    0.3222099  
   0.076000000    -0.9441932    0.3261541  
   0.077000000    -0.9429536    0.3304518  
   0.078000000    -0.9412721    0.3344306  
   0.079000000    -0.9402137    0.3381084  
   0.080000000    -0.9385169    0.3419501  
   0.081000000    -0.9370398    0.3466394  
   0.082000000    -0.9354219    0.3504085  
   0.083000000    -0.9339648    0.3548009  
   0.084000000    -0.9320503    0.3586885  
   0.085000000    -0.9309599    0.3627081  
   0.086000000    -0.9293683    0.3665314  
   0.087000000    -0.9278449    0.3703910  
   0.088000000    -0.9267167    0.3744872  
   0.089000000    -0.9245149    0.3782013  
   0.090000000    -0.9230750    0.3820750  
   0.091000000    -0.9216828    0.3859991  
   0.092000000    -0.9197526    0.3897119  
   0.093000000    -0.9183104    0.3935826  
   0.094000000    -0.9164568    0.3975972  
   0.095000000    -0.9146735    0.4012815  
   0.096000000    -0.9130129    0.4047924  
   0.097000000    -0.9114771    0.4090452  
   0.098000000    -0.9097100    0.4129022  
   0.099000000    -0.9075444    0.4162787  
   0.100000000    -0.9054376    0.4207111  
   0.101000000    -0.9042147    0.4242361  
   0.102000000    -0.9025078    0.4279114  
   0.103000000    -0.9004368    0.4318810  
   0.104000000    -0.8983105    0.4355376  
   0.105000000    -0.8966118    0.4392691  
   0.106000000    -0.8945029    0.4435326  
   0.107000000    -0.8927676    0.4465770  
   0.108000000    -0.8911720    0.4505881  
   0.109000000    -0.8892609    0.4541533  
   0.110000000    -0.8874140    0.4575574  
   0.111000000    -0.8854074    0.4614522  
   0.112000000    -0.8834351    0.4651086  
   0.113000000    -0.8813250    0.4687847  
   0.114000000    -0.8791593    0.4722978  
   0.115000000    -0.8772473    0.4762109  
   0.116000000    -0.8750326    0.4797898  
   0.117000000    -0.8727325    0.4839444  
   0.118000000    -0.8709046    0.4869969  
   0.119000000    -0.8685979    0.4910514  
   0.120000000    -0.8662886    0.4946035  
   0.121000000    -0.8642579    0.4984678  
   0.122000000    -0.8619674    0.5021904  
   0.123000000    -0.8593283    0.5056824  
   0.124000000    -0.8575889    0.5095840  
   0.125000000    -0.8549543    0.5135781  
   0.126000000    -0.8528588    0.5170946  
   0.127000000    -0.8505171    0.5207075  
   0.128000000    -0.8477404    0.5241585  
   0.129000000    -0.8454610    0.5283846  
   0.130000000    -0.8427143    0.5319307  
   0.131000000    -0.8404900    0.5353820  
   0.132000000    -0.8379924    0.5390288  
   0.133000000    -0.8359952    0.5425695  
   0.134000000    -0.8332065    0.5463346  
   0.135000000    -0.8308246    0.5503399  
   0.136000000    -0.8284080    0.5540660  
   0.137000000    -0.8259069    0.5574747  
   0.138000000    -0.8234916    0.5607980  
   0.139000000    -0.8213707    0.5646273  
   0.140000000    -0.8187048    0.5681593  
   0.141000000    -0.8162149    0.5715017  
   0.142000000    -0.8137292    0.5754725  
   0.143000000    -0.8116361    0.5790371  
   0.144000000    -0.8091344    0.5824046  
   0.145000000    -0.8061430    0.5858552  
   0.146000000    -0.8038082    0.5896829  
   0.147000000    -0.8013636    0.5927957  
   0.148000000    -0.7984455    0.5962110  
   0.149000000    -0.7963790    0.5996845  
   0.150000000    -0.7936072    0.6036283  
   0.151000000    -0.7911476    0.6065985  
   0.152000000    -0.7882038    0.6100878  
   0.153000000    -0.7861419    0.6134258  
   0.154000000    -0.7830565    0.6169572  
   0.155000000    -0.7803798    0.6201421  
   0.156000000    -0.7782405    0.6230958  
   0.157000000    -0.7753081    0.6267904  
   0.158000000    -0.7728739    0.6301959  
   0.159000000    -0.7697508    0.6330873  
   0.160000000    -0.7670000    0.6363583  
   0.161000000    -0.7645552    0.6398843  
   0.162000000    -0.7619491    0.6429210  
   0.163000000    -0.7590739    0.6459219  
   0.164000000    -0.7561049    0.6494841  
   0.165000000    -0.7535236    0.6522348  
   0.166000000    -0.7507102    0.6554201  
   0.167000000    -0.7477724    0.6587232  
   0.168000000    -0.7450262    0.6617433  
   0.169000000    -0.7423102    0.6653064  
   0.170000000    -0.7396436    0.6683706  
   0.171000000    -0.7371311    0.6711828  
   0.172000000    -0.7343176    0.6743689  
   0.173000000    -0.7307669    0.6772000  
   0.174000000    -0.7281958    0.6806322  
   0.175000000    -0.7253942    0.6835958  
   0.176000000    -0.7228402    0.6867015  
   0.177000000    -0.7198122    0.6893678  
   0.178000000    -0.7165164    0.6927700  
   0.179000000    -0.7135987    0.6955518  
   0.180000000    -0.7108905    0.6988574  
   0.181000000    -0.7075674    0.7016424  
   0.182000000    -0.7048203    0.7046690  
   0.183000000    -0.7018586    0.7074541  
   0.184000000    -0.6992043    0.7106017  
   0.185000000    -0.6961028    0.7135985  
   0.186000000    -0.6929591    0.7161210  
   0.187000000    -0.6898537    0.7190898  
   0.188000000    -0.6866569    0.7222217  
   0.189000000    -0.6837668    0.7251765  
   0.190000000    -0.6804767    0.7279048  
   0.191000000    -0.6771373    0.7304251  
   0.192000000    -0.6739351    0.7338002  
   0.193000000    -0.6708310    0.7363780  
   0.194000000    -0.6679065    0.7391139  
   0.195000000    -0.6641526    0.7422667  
   0.196000000    -0.6609672    0.7447832  
   0.197000000    -0.6579426    0.7478415  
   0.198000000    -0.6547161    0.7506356  
   0.199000000    -0.6513636    0.7532152  
   0.200000000    -0.6475874    0.7554978  
   0.201000000    -0.6446700    0.7589735  
   0.202000000    -0.6413048    0.7616484  
   0.203000000    -0.6375993    0.7642362  
   0.204000000    -0.6346312    0.7672220  
   0.205000000    -0.6311570    0.7701347  
   0.206000000    -0.6275149    0.7731947  
   0.207000000    -0.6239730    0.7756131  
   0.208000000    -0.6205487    0.7780741  
   0.209000000    -0.6172906    0.7809787  
   0.210000000    -0.6139122    0.7832318  
   0.211000000    -0.6103810    0.7863415  
   0.212000000    -0.6068312    0.7892540  
   0.213000000    -0.6033121    0.7915245  
   0.214000000    -0.6003134    0.7943078  
   0.215000000    -0.5964317    0.7964451  
   0.216000000    -0.5931943    0.7989358  
   0.217000000    -0.5898451    0.8013099  
   0.218000000    -0.5859277    0.8040154  
   0.219000000    -0.5823273    0.8062149  
   0.220000000    -0.5787881    0.8089015  
   0.221000000    -0.5757512    0.8117440  
   0.222000000    -0.5722235    0.8136942  
   0.223000000    -0.5683443    0.8167702  
   0.224000000    -0.5649424    0.8190655  
   0.225000000    -0.5617889    0.8215008  
   0.226000000    -0.5582761    0.8238782  
   0.227000000    -0.5547823    0.8257999  
   0.228000000    -0.5509752    0.8284602  
   0.229000000    -0.5475871    0.8307074  
   0.230000000    -0.5440787    0.8332542  
   0.231000000    -0.5408958    0.8354179  
   0.232000000    -0.5370933    0.8379574  
   0.233000000    -0.5335544    0.8402361  
   0.234000000    -0.5300909    0.8418130  
   0.235000000    -0.5267196    0.8445181  
   0.236000000    -0.5230420    0.8466434  
   0.237000000    -0.5196841    0.8488315  
   0.238000000    -0.5160005    0.8511461  
   0.239000000    -0.5121720    0.8532984  
   0.240000000    -0.5087147    0.8554099  
   0.241000000    -0.5049230    0.8572555  
   0.242000000    -0.5016114    0.8594820  
   0.243000000    -0.4981365    0.8617243  
   0.244000000    -0.4940414    0.8637961  
   0.245000000    -0.4904629    0.8657527  
   0.246000000    -0.4870244    0.8676853  
   0.247000000    -0.4832132    0.8700994  
   0.248000000    -0.4797055    0.8722576  
   0.249000000    -0.4757293    0.8738005  
   0.250000000    -0.4719840    0.8760785  
   0.251000000    -0.4682134    0.8781062  
   0.252000000    -0.4645303    0.8801729  
   0.253000000    -0.4606749    0.8817654  
   0.254000000    -0.4570161    0.8838146  
   0.255000000    -0.4531398    0.8859307  
   0.256000000    -0.4493617    0.8875713  
   0.257000000    -0.4455421    0.8894940  
   0.258000000    -0.4419486    0.8914471  
   0.259000000    -0.4380815    0.8930345  
   0.260000000    -0.4341503    0.8953833  
   0.261000000    -0.4303178    0.8968496  
   0.262000000    -0.4263824    0.8986964  
   0.263000000    -0.4226685    0.9002019  
   0.264000000    -0.4191110    0.9020134  
   0.265000000    -0.4147745    0.9038204  
   0.266000000    -0.4111715    0.9051285  
   0.267000000    -0.4074577    0.9070081  
   0.268000000    -0.4034260    0.9088143  
   0.269000000    -0.3997079    0.9106470  
   0.270000000    -0.3956532    0.9120421  
   0.271000000    -0.3918368    0.9140340  
   0.272000000    -0.3875172    0.9156511  
   0.273000000    -0.3834961    0.9170442  
   0.274000000    -0.3794408    0.9190995  
   0.275000000    -0.3758326    0.9205079  
   0.276000000    -0.3715736    0.9222434  
   0.277000000    -0.3675807    0.9238448  
   0.278000000    -0.3637289    0.9254891  
   0.279000000    -0.3600390    0.9270365  
   0.280000000    -0.3559066    0.9289052  
   0.281000000    -0.3518344    0.9301800  
   0.282000000    -0.3476686    0.9315898  
   0.283000000    -0.3436712    0.9332436  
   0.284000000    -0.3398739    0.9349723  
   0.285000000    -0.3357653    0.9357658  
   0.286000000    -0.3320449    0.9370258  
   0.287000000    -0.3277823    0.9388304  
   0.288000000    -0.3242170    0.9399712  
   0.289000000    -0.3200998    0.9407824  
   0.290000000    -0.3161599    0.9424080  
   0.291000000    -0.3122227    0.9434291  
   0.292000000    -0.3080015    0.9448876  
   0.293000000    -0.3041229    0.9460866  
   0.294000000    -0.2997441    0.9474637  
   0.295000000    -0.2957431    0.9481711  
   0.296000000    -0.2916714    0.9500667  
   0.297000000    -0.2877558    0.9508653  
   0.298000000    -0.2835829    0.9524162  
   0.299000000    -0.2796312    0.9535063  
   0.300000000    -0.2757797    0.9516703  
   0.301000000    -0.2713621    0.9555427  
   0.302000000    -0.2673002    0.9567963  
   0.303000000    -0.2632936    0.9578040  
   0.304000000    -0.2591814    0.9585207  
   0.305000000    -0.2552537    0.9599822  
   0.306000000    -0.2513252    0.9609281  
   0.307000000    -0.2472468    0.9616511  
   0.308000000    -0.2431528    0.9633580  
   0.309000000    -0.2392180    0.9645234  
   0.310000000    -0.2350361    0.9648509  
   0.311000000    -0.2309776    0.9659916  
   0.312000000    -0.2266518    0.9670770  
   0.313000000    -0.2223777    0.9683933  
   0.314000000    -0.2186151    0.9687478  
   0.315000000    -0.2145009    0.9697473  
   0.316000000    -0.2105798    0.9707912  
   0.317000000    -0.2062604    0.9708865  
   0.318000000    -0.2023230    0.9721423  
   0.319000000    -0.1976259    0.9726251  
   0.320000000    -0.1939645    0.9736730  
   0.321000000    -0.1900140    0.9742483  
   0.322000000    -0.1852340    0.9752529  
   0.323000000    -0.1813669    0.9758924  
   0.324000000    -0.1772951    0.9765004  
   0.325000000    -0.1729276    0.9771541  
   0.326000000    -0.1687755    0.9773904  
   0.327000000    -0.1649543    0.9784932  
   0.328000000    -0.1604365    0.9792821  
   0.329000000    -0.1565026    0.9799373  
   0.330000000    -0.1520347    0.9803689  
   0.331000000    -0.1481072    0.9805498  
   0.332000000    -0.1436740    0.9813070  
   0.333000000    -0.1394999    0.9818206  
   0.334000000    -0.1353924    0.9826118  
   0.335000000    -0.1313990    0.9829082  
   0.336000000    -0.1272948    0.9837565  
   0.337000000    -0.1229109    0.9844164  
   0.338000000    -0.1187075    0.9851766  
   0.339000000    -0.1144003    0.9856169  
   0.340000000    -0.1099309    0.9862769  
   0.341000000    -0.1059084    0.9870268  
   0.342000000    -0.1014440    0.9873386  
   0.343000000    -0.0972219    0.9876943  
   0.344000000    -0.0932110    0.9882107  
   0.345000000    -0.0889266    0.9886494  
   0.346000000    -0.0844478    0.9890976  
   0.347000000    -0.0806172    0.9892489  
   0.348000000    -0.0760390    0.9888055  
   0.349000000    -0.0716743    0.9896986  
   0.350000000    -0.0674703    0.9901374  
   0.351000000    -0.0635295    0.9900779  
   0.352000000    -0.0586716    0.9903747  
   0.353000000    -0.0546599    0.9905266  
   0.354000000    -0.0505505    0.9906592  
   0.355000000    -0.0460662    0.9910675  
   0.356000000    -0.0415032    0.9906697  
   0.357000000    -0.0375836    0.9912948  
   0.358000000    -0.0335197    0.9913673  
   0.359000000    -0.0295306    0.9915152  
   0.360000000    -0.0251678    0.9917343  
   0.361000000    -0.0211165    0.9919358  
   0.362000000    -0.0168393    0.9920412  
   0.363000000    -0.0127914    0.9918777  
   0.364000000    -0.0085527    0.9922541  
   0.365000000    -0.0041914    0.9920790  
   0.366000000     0.0000682    0.9923322  
   0.367000000     0.0040530    0.9924185  
   0.368000000     0.0079975    0.9917890  
   0.369000000     0.0123226    0.9916358  
   0.370000000     0.0161688    0.9916360  
   0.371000000     0.0201844    0.9914884  
   0.372000000     0.0245004    0.9911832  
   0.373000000     0.0280587    0.9910334  
   0.374000000     0.0326476    0.9910556  
   0.375000000     0.0364132    0.9904651  
   0.376000000     0.0413364    0.9902154  
   0.377000000     0.0452400    0.9899505  
   0.378000000     0.0494845    0.9901651  
   0.379000000     0.0533235    0.9899820  
   0.380000000     0.0575958    0.9895775  
   0.381000000     0.0616537    0.9891406  
   0.382000000     0.0656447    0.9888927  
   0.383000000     0.0694703    0.9884973  
   0.384000000     0.0735759    0.9881425  
   0.385000000     0.0778616    0.9879428  
   0.386000000     0.0820716    0.9874063  
   0.387000000     0.0863819    0.9870592  
   0.388000000     0.0901851    0.9869137  
   0.389000000     0.0949678    0.9864787  
   0.390000000     0.0991178    0.9856570  
   0.391000000     0.1026409    0.9854916  
   0.392000000     0.1069860    0.9848651  
   0.393000000     0.1110650    0.9847148  
   0.394000000     0.1158611    0.9841307  
   0.395000000     0.1195324    0.9830909  
   0.396000000     0.1237609    0.9827334  
   0.397000000     0.1276835    0.9822519  
   0.398000000     0.1321013    0.9817522  
   0.399000000     0.1364721    0.9807003  
   0.400000000     0.1408948    0.9802423  
   0.401000000     0.1447213    0.9794688  
   0.402000000     0.1488720    0.9788161  
   0.403000000     0.1531484    0.9780080  
   0.404000000     0.1575006    0.9776814  
   0.405000000     0.1615702    0.9770953  
   0.406000000     0.1656076    0.9762710  
   0.407000000     0.1698928    0.9754885  
   0.408000000     0.1744868    0.9745539  
   0.409000000     0.1786024    0.9742978  
   0.410000000     0.1826935    0.9733437  
   0.411000000     0.1868905    0.9721173  
   0.412000000     0.1910394    0.9715008  
   0.413000000     0.1952978    0.9708377  
   0.414000000     0.1996559    0.9700451  
   0.415000000     0.2030667    0.9687855  
   0.416000000     0.2074583    0.9676340  
   0.417000000     0.2123433    0.9673463  
   0.418000000     0.2161701    0.9659759  
   0.419000000     0.2203220    0.9650443  
   0.420000000     0.2250227    0.9639742  
   0.421000000     0.2284338    0.9634703  
   0.422000000     0.2325868    0.9625778  
   0.423000000     0.2365388    0.9613023  
   0.424000000     0.2406126    0.9605469  
   0.425000000     0.2446280    0.9593982  
   0.426000000     0.2490345    0.9579253  
   0.427000000     0.2528017    0.9564857  
   0.428000000     0.2568647    0.9552189  
   0.429000000     0.2611135    0.9540999  
   0.430000000     0.2649628    0.9532873  
   0.431000000     0.2687825    0.9523196  
   0.432000000     0.2727136    0.9511309  
   0.433000000     0.2769827    0.9495693  
   0.434000000     0.2809043    0.9479907  
   0.435000000     0.2846463    0.9470999  
   0.436000000     0.2880832    0.9454390  
   0.437000000     0.2917713    0.9438950  
   0.438000000     0.2961953    0.9428295  
   0.439000000     0.2998936    0.9411383  
   0.440000000     0.3040587    0.9394771  
   0.441000000     0.3077313    0.9383364  
   0.442000000     0.3117326    0.9371246  
   0.443000000     0.3155436    0.9357374  
   0.444000000     0.3193150    0.9341169  
   0.445000000     0.3234017    0.9330854  
   0.446000000     0.3272418    0.9315827  
   0.447000000     0.3309892    0.9296456  
   0.448000000     0.3346096    0.9283278  
   0.449000000     0.3388517    0.9272219  
