! 2/19/2018 12:56:37 PM
! E:\STEPPED_EXPERIMENT_2018-02-19\P2-MSL_OPEN_50.S1P
! CHANNEL.1
! TR.MEASUREMENT
! CORRECTED.DATA
# GHZ S RI R 50.0
! FREQ.GHZ         S22RE         S22IM         
!; PortSelection: Port_2
   0.001000000     0.9981188   -0.0046223  
   0.002000000     0.9982339   -0.0100396  
   0.003000000     0.9983935   -0.0144243  
   0.004000000     0.9982333   -0.0193281  
   0.005000000     0.9982771   -0.0242011  
   0.006000000     0.9982916   -0.0282997  
   0.007000000     0.9984943   -0.0335790  
   0.008000000     0.9984339   -0.0381732  
   0.009000000     0.9986253   -0.0428014  
   0.010000000     0.9983481   -0.0474063  
   0.011000000     0.9979890   -0.0517402  
   0.012000000     0.9979864   -0.0558128  
   0.013000000     0.9976221   -0.0607717  
   0.014000000     0.9973281   -0.0652504  
   0.015000000     0.9977428   -0.0696670  
   0.016000000     0.9969102   -0.0737875  
   0.017000000     0.9974694   -0.0785101  
   0.018000000     0.9969124   -0.0830301  
   0.019000000     0.9961395   -0.0872233  
   0.020000000     0.9956701   -0.0918023  
   0.021000000     0.9950052   -0.0962774  
   0.022000000     0.9946312   -0.1007678  
   0.023000000     0.9941683   -0.1050307  
   0.024000000     0.9934946   -0.1094131  
   0.025000000     0.9927482   -0.1139918  
   0.026000000     0.9925341   -0.1179666  
   0.027000000     0.9918506   -0.1228383  
   0.028000000     0.9909881   -0.1269102  
   0.029000000     0.9903635   -0.1312157  
   0.030000000     0.9900966   -0.1356972  
   0.031000000     0.9894546   -0.1405791  
   0.032000000     0.9883417   -0.1447142  
   0.033000000     0.9875697   -0.1489759  
   0.034000000     0.9868917   -0.1532178  
   0.035000000     0.9861852   -0.1577143  
   0.036000000     0.9852701   -0.1621264  
   0.037000000     0.9843783   -0.1665861  
   0.038000000     0.9835524   -0.1708502  
   0.039000000     0.9826921   -0.1753901  
   0.040000000     0.9821824   -0.1792717  
   0.041000000     0.9812178   -0.1840989  
   0.042000000     0.9801554   -0.1882303  
   0.043000000     0.9795043   -0.1926085  
   0.044000000     0.9787129   -0.1969090  
   0.045000000     0.9777601   -0.2010690  
   0.046000000     0.9768959   -0.2054666  
   0.047000000     0.9758077   -0.2098404  
   0.048000000     0.9749013   -0.2139231  
   0.049000000     0.9738158   -0.2183703  
   0.050000000     0.9726808   -0.2225463  
   0.051000000     0.9720703   -0.2266620  
   0.052000000     0.9708278   -0.2310357  
   0.053000000     0.9696893   -0.2351866  
   0.054000000     0.9685583   -0.2395653  
   0.055000000     0.9675886   -0.2439127  
   0.056000000     0.9665163   -0.2480258  
   0.057000000     0.9654649   -0.2521882  
   0.058000000     0.9645038   -0.2564690  
   0.059000000     0.9633066   -0.2603720  
   0.060000000     0.9618462   -0.2649628  
   0.061000000     0.9605526   -0.2688654  
   0.062000000     0.9592949   -0.2730292  
   0.063000000     0.9583905   -0.2773086  
   0.064000000     0.9570650   -0.2815756  
   0.065000000     0.9556251   -0.2856123  
   0.066000000     0.9543732   -0.2898922  
   0.067000000     0.9530496   -0.2944511  
   0.068000000     0.9518066   -0.2985610  
   0.069000000     0.9505145   -0.3021120  
   0.070000000     0.9487788   -0.3061890  
   0.071000000     0.9478360   -0.3105341  
   0.072000000     0.9460123   -0.3144874  
   0.073000000     0.9445478   -0.3184540  
   0.074000000     0.9430101   -0.3224436  
   0.075000000     0.9418214   -0.3269249  
   0.076000000     0.9401347   -0.3309659  
   0.077000000     0.9383602   -0.3347439  
   0.078000000     0.9370621   -0.3387993  
   0.079000000     0.9350395   -0.3433565  
   0.080000000     0.9336248   -0.3474551  
   0.081000000     0.9320108   -0.3511087  
   0.082000000     0.9304788   -0.3551270  
   0.083000000     0.9285576   -0.3591790  
   0.084000000     0.9271342   -0.3634329  
   0.085000000     0.9252352   -0.3672956  
   0.086000000     0.9234548   -0.3713944  
   0.087000000     0.9219885   -0.3756502  
   0.088000000     0.9202517   -0.3793707  
   0.089000000     0.9183890   -0.3833279  
   0.090000000     0.9167081   -0.3874237  
   0.091000000     0.9145788   -0.3915414  
   0.092000000     0.9129287   -0.3952299  
   0.093000000     0.9109700   -0.3993859  
   0.094000000     0.9089458   -0.4032587  
   0.095000000     0.9071665   -0.4072446  
   0.096000000     0.9050208   -0.4119404  
   0.097000000     0.9030119   -0.4154448  
   0.098000000     0.9012987   -0.4194234  
   0.099000000     0.8993329   -0.4235408  
   0.100000000     0.8972414   -0.4276290  
   0.101000000     0.8953865   -0.4315666  
   0.102000000     0.8933075   -0.4354208  
   0.103000000     0.8910486   -0.4392979  
   0.104000000     0.8894826   -0.4436834  
   0.105000000     0.8870838   -0.4473451  
   0.106000000     0.8850192   -0.4515890  
   0.107000000     0.8828508   -0.4551963  
   0.108000000     0.8808286   -0.4590365  
   0.109000000     0.8787345   -0.4627925  
   0.110000000     0.8765199   -0.4670492  
   0.111000000     0.8746075   -0.4708492  
   0.112000000     0.8723139   -0.4741303  
   0.113000000     0.8700383   -0.4782374  
   0.114000000     0.8681000   -0.4821428  
   0.115000000     0.8656051   -0.4858701  
   0.116000000     0.8636799   -0.4893988  
   0.117000000     0.8614087   -0.4933091  
   0.118000000     0.8591336   -0.4973866  
   0.119000000     0.8565622   -0.5009130  
   0.120000000     0.8547624   -0.5048845  
   0.121000000     0.8525825   -0.5083768  
   0.122000000     0.8503871   -0.5120060  
   0.123000000     0.8480583   -0.5155967  
   0.124000000     0.8460634   -0.5195256  
   0.125000000     0.8438444   -0.5229580  
   0.126000000     0.8412960   -0.5266839  
   0.127000000     0.8390911   -0.5301502  
   0.128000000     0.8367269   -0.5339822  
   0.129000000     0.8343423   -0.5373160  
   0.130000000     0.8322143   -0.5411431  
   0.131000000     0.8299164   -0.5446963  
   0.132000000     0.8274934   -0.5485941  
   0.133000000     0.8247734   -0.5522116  
   0.134000000     0.8225534   -0.5555995  
   0.135000000     0.8202335   -0.5589921  
   0.136000000     0.8180695   -0.5624526  
   0.137000000     0.8154822   -0.5657325  
   0.138000000     0.8128795   -0.5690943  
   0.139000000     0.8104935   -0.5724557  
   0.140000000     0.8083462   -0.5762008  
   0.141000000     0.8056306   -0.5794822  
   0.142000000     0.8032359   -0.5828113  
   0.143000000     0.8006341   -0.5864150  
   0.144000000     0.7980356   -0.5897094  
   0.145000000     0.7952694   -0.5933750  
   0.146000000     0.7929390   -0.5967126  
   0.147000000     0.7901968   -0.5997008  
   0.148000000     0.7875191   -0.6035684  
   0.149000000     0.7848738   -0.6067971  
   0.150000000     0.7822723   -0.6099302  
   0.151000000     0.7792751   -0.6132548  
   0.152000000     0.7766112   -0.6164863  
   0.153000000     0.7740638   -0.6201091  
   0.154000000     0.7712262   -0.6234260  
   0.155000000     0.7685614   -0.6266826  
   0.156000000     0.7656574   -0.6297415  
   0.157000000     0.7627416   -0.6330858  
   0.158000000     0.7601163   -0.6366957  
   0.159000000     0.7573931   -0.6401263  
   0.160000000     0.7542199   -0.6431364  
   0.161000000     0.7512348   -0.6462489  
   0.162000000     0.7485747   -0.6494105  
   0.163000000     0.7453345   -0.6529360  
   0.164000000     0.7425340   -0.6562921  
   0.165000000     0.7394722   -0.6595808  
   0.166000000     0.7364577   -0.6625393  
   0.167000000     0.7334151   -0.6658198  
   0.168000000     0.7306420   -0.6687307  
   0.169000000     0.7274739   -0.6721466  
   0.170000000     0.7244287   -0.6751049  
   0.171000000     0.7210631   -0.6781773  
   0.172000000     0.7180166   -0.6815538  
   0.173000000     0.7149143   -0.6844980  
   0.174000000     0.7115550   -0.6876682  
   0.175000000     0.7087349   -0.6911176  
   0.176000000     0.7054409   -0.6938395  
   0.177000000     0.7023414   -0.6971531  
   0.178000000     0.6992080   -0.7001262  
   0.179000000     0.6959486   -0.7032102  
   0.180000000     0.6931178   -0.7060793  
   0.181000000     0.6896870   -0.7093863  
   0.182000000     0.6866466   -0.7121022  
   0.183000000     0.6836393   -0.7152178  
   0.184000000     0.6800809   -0.7180545  
   0.185000000     0.6772337   -0.7208089  
   0.186000000     0.6738112   -0.7233853  
   0.187000000     0.6708481   -0.7269414  
   0.188000000     0.6676375   -0.7294914  
   0.189000000     0.6646143   -0.7322564  
   0.190000000     0.6614707   -0.7353376  
   0.191000000     0.6581032   -0.7382789  
   0.192000000     0.6549227   -0.7412599  
   0.193000000     0.6517974   -0.7438822  
   0.194000000     0.6485934   -0.7465482  
   0.195000000     0.6452529   -0.7492442  
   0.196000000     0.6418719   -0.7521607  
   0.197000000     0.6386243   -0.7553032  
   0.198000000     0.6354890   -0.7576165  
   0.199000000     0.6317762   -0.7608451  
   0.200000000     0.6288129   -0.7633388  
   0.201000000     0.6254795   -0.7653105  
   0.202000000     0.6218752   -0.7682678  
   0.203000000     0.6190407   -0.7710284  
   0.204000000     0.6156974   -0.7739286  
   0.205000000     0.6123851   -0.7763646  
   0.206000000     0.6091806   -0.7789478  
   0.207000000     0.6055225   -0.7812712  
   0.208000000     0.6020194   -0.7841151  
   0.209000000     0.5982839   -0.7868238  
   0.210000000     0.5953455   -0.7895143  
   0.211000000     0.5920461   -0.7916126  
   0.212000000     0.5886772   -0.7941071  
   0.213000000     0.5853482   -0.7970858  
   0.214000000     0.5816399   -0.7992427  
   0.215000000     0.5782634   -0.8015145  
   0.216000000     0.5745915   -0.8040366  
   0.217000000     0.5710845   -0.8064082  
   0.218000000     0.5677918   -0.8091021  
   0.219000000     0.5642565   -0.8114868  
   0.220000000     0.5607752   -0.8137870  
   0.221000000     0.5570533   -0.8162364  
   0.222000000     0.5534604   -0.8188027  
   0.223000000     0.5500752   -0.8209068  
   0.224000000     0.5464839   -0.8232892  
   0.225000000     0.5424407   -0.8257464  
   0.226000000     0.5388931   -0.8279155  
   0.227000000     0.5353162   -0.8303212  
   0.228000000     0.5315918   -0.8325805  
   0.229000000     0.5276809   -0.8350195  
   0.230000000     0.5241799   -0.8372241  
   0.231000000     0.5202646   -0.8395090  
   0.232000000     0.5167347   -0.8414517  
   0.233000000     0.5129634   -0.8437777  
   0.234000000     0.5090717   -0.8460672  
   0.235000000     0.5055733   -0.8482705  
   0.236000000     0.5016803   -0.8504943  
   0.237000000     0.4979663   -0.8524667  
   0.238000000     0.4939159   -0.8546583  
   0.239000000     0.4902464   -0.8568584  
   0.240000000     0.4866889   -0.8588513  
   0.241000000     0.4825642   -0.8611344  
   0.242000000     0.4789283   -0.8628153  
   0.243000000     0.4749930   -0.8650332  
   0.244000000     0.4712516   -0.8673353  
   0.245000000     0.4672127   -0.8694466  
   0.246000000     0.4632020   -0.8714754  
   0.247000000     0.4595538   -0.8732163  
   0.248000000     0.4556932   -0.8754314  
   0.249000000     0.4516856   -0.8772142  
   0.250000000     0.4480575   -0.8793293  
   0.251000000     0.4438863   -0.8811060  
   0.252000000     0.4402044   -0.8831015  
   0.253000000     0.4364004   -0.8852431  
   0.254000000     0.4323627   -0.8869538  
   0.255000000     0.4282418   -0.8888717  
   0.256000000     0.4246979   -0.8906088  
   0.257000000     0.4206680   -0.8924876  
   0.258000000     0.4165791   -0.8939741  
   0.259000000     0.4126910   -0.8960413  
   0.260000000     0.4090016   -0.8974910  
   0.261000000     0.4049894   -0.8991570  
   0.262000000     0.4009672   -0.9012288  
   0.263000000     0.3971444   -0.9029731  
   0.264000000     0.3933719   -0.9044855  
   0.265000000     0.3892713   -0.9059786  
   0.266000000     0.3853418   -0.9077673  
   0.267000000     0.3812863   -0.9096437  
   0.268000000     0.3774112   -0.9110488  
   0.269000000     0.3735281   -0.9126117  
   0.270000000     0.3694905   -0.9142163  
   0.271000000     0.3654523   -0.9156632  
   0.272000000     0.3614409   -0.9170954  
   0.273000000     0.3575837   -0.9188036  
   0.274000000     0.3534186   -0.9201797  
   0.275000000     0.3494837   -0.9217740  
   0.276000000     0.3456146   -0.9233528  
   0.277000000     0.3416627   -0.9245325  
   0.278000000     0.3373136   -0.9263502  
   0.279000000     0.3333758   -0.9274624  
   0.280000000     0.3293501   -0.9288748  
   0.281000000     0.3256066   -0.9299390  
   0.282000000     0.3212307   -0.9316172  
   0.283000000     0.3170588   -0.9327220  
   0.284000000     0.3130544   -0.9338887  
   0.285000000     0.3089789   -0.9352955  
   0.286000000     0.3046292   -0.9368317  
   0.287000000     0.3005568   -0.9380923  
   0.288000000     0.2964871   -0.9393584  
   0.289000000     0.2920295   -0.9406292  
   0.290000000     0.2882259   -0.9417825  
   0.291000000     0.2836211   -0.9432719  
   0.292000000     0.2795778   -0.9442656  
   0.293000000     0.2753286   -0.9452855  
   0.294000000     0.2710922   -0.9462963  
   0.295000000     0.2669161   -0.9476960  
   0.296000000     0.2630514   -0.9484809  
   0.297000000     0.2589349   -0.9499481  
   0.298000000     0.2544616   -0.9510377  
   0.299000000     0.2503949   -0.9520084  
   0.300000000     0.2438504   -0.9534951  
   0.301000000     0.2417676   -0.9541916  
   0.302000000     0.2373768   -0.9550672  
   0.303000000     0.2336067   -0.9560657  
   0.304000000     0.2291512   -0.9570502  
   0.305000000     0.2249763   -0.9583133  
   0.306000000     0.2203205   -0.9589301  
   0.307000000     0.2163179   -0.9597541  
   0.308000000     0.2118941   -0.9608056  
   0.309000000     0.2075306   -0.9616755  
   0.310000000     0.2033406   -0.9627498  
   0.311000000     0.1992452   -0.9636374  
   0.312000000     0.1949949   -0.9643649  
   0.313000000     0.1906833   -0.9649504  
   0.314000000     0.1864513   -0.9660011  
   0.315000000     0.1818435   -0.9667270  
   0.316000000     0.1779167   -0.9674473  
   0.317000000     0.1732851   -0.9685155  
   0.318000000     0.1694081   -0.9690922  
   0.319000000     0.1650192   -0.9697673  
   0.320000000     0.1609580   -0.9702383  
   0.321000000     0.1566909   -0.9707666  
   0.322000000     0.1524208   -0.9715408  
   0.323000000     0.1482081   -0.9720144  
   0.324000000     0.1440706   -0.9726328  
   0.325000000     0.1399435   -0.9731776  
   0.326000000     0.1351849   -0.9740675  
   0.327000000     0.1312038   -0.9748805  
   0.328000000     0.1271810   -0.9751462  
   0.329000000     0.1229248   -0.9757624  
   0.330000000     0.1188386   -0.9764026  
   0.331000000     0.1144027   -0.9770517  
   0.332000000     0.1104108   -0.9772747  
   0.333000000     0.1063254   -0.9782197  
   0.334000000     0.1019094   -0.9787233  
   0.335000000     0.0977523   -0.9789790  
   0.336000000     0.0937000   -0.9791732  
   0.337000000     0.0893949   -0.9797155  
   0.338000000     0.0853791   -0.9801727  
   0.339000000     0.0812021   -0.9802399  
   0.340000000     0.0772091   -0.9805246  
   0.341000000     0.0731735   -0.9805757  
   0.342000000     0.0690915   -0.9809107  
   0.343000000     0.0645825   -0.9812004  
   0.344000000     0.0603314   -0.9812644  
   0.345000000     0.0558487   -0.9814882  
   0.346000000     0.0518419   -0.9817134  
   0.347000000     0.0472498   -0.9818795  
   0.348000000     0.0429273   -0.9824654  
   0.349000000     0.0390090   -0.9825459  
   0.350000000     0.0346880   -0.9825994  
   0.351000000     0.0305790   -0.9826089  
   0.352000000     0.0262839   -0.9828709  
   0.353000000     0.0218203   -0.9827480  
   0.354000000     0.0176599   -0.9827707  
   0.355000000     0.0133252   -0.9829907  
   0.356000000     0.0089951   -0.9824729  
   0.357000000     0.0046384   -0.9824862  
   0.358000000     0.0006840   -0.9823681  
   0.359000000    -0.0036490   -0.9822387  
   0.360000000    -0.0081124   -0.9822230  
   0.361000000    -0.0124309   -0.9817657  
   0.362000000    -0.0168400   -0.9818289  
   0.363000000    -0.0218228   -0.9820112  
   0.364000000    -0.0257011   -0.9819778  
   0.365000000    -0.0296411   -0.9816210  
   0.366000000    -0.0337873   -0.9815854  
   0.367000000    -0.0384423   -0.9810182  
   0.368000000    -0.0432253   -0.9809839  
   0.369000000    -0.0475472   -0.9806582  
   0.370000000    -0.0519977   -0.9805384  
   0.371000000    -0.0565810   -0.9800586  
   0.372000000    -0.0599359   -0.9799779  
   0.373000000    -0.0651458   -0.9796544  
   0.374000000    -0.0695836   -0.9789650  
   0.375000000    -0.0741341   -0.9792080  
   0.376000000    -0.0780850   -0.9789048  
   0.377000000    -0.0825829   -0.9786363  
   0.378000000    -0.0870281   -0.9779589  
   0.379000000    -0.0914286   -0.9774952  
   0.380000000    -0.0954774   -0.9770147  
   0.381000000    -0.1002590   -0.9768526  
   0.382000000    -0.1043103   -0.9762799  
   0.383000000    -0.1087355   -0.9758998  
   0.384000000    -0.1131608   -0.9753581  
   0.385000000    -0.1172253   -0.9745703  
   0.386000000    -0.1217663   -0.9738206  
   0.387000000    -0.1255593   -0.9735132  
   0.388000000    -0.1304116   -0.9727048  
   0.389000000    -0.1344522   -0.9719669  
   0.390000000    -0.1384167   -0.9717479  
   0.391000000    -0.1425502   -0.9705884  
   0.392000000    -0.1471949   -0.9704605  
   0.393000000    -0.1512485   -0.9696226  
   0.394000000    -0.1554467   -0.9690726  
   0.395000000    -0.1595948   -0.9686977  
   0.396000000    -0.1639057   -0.9679610  
   0.397000000    -0.1680672   -0.9667460  
   0.398000000    -0.1721108   -0.9660116  
   0.399000000    -0.1766394   -0.9657264  
   0.400000000    -0.1809426   -0.9646261  
   0.401000000    -0.1848903   -0.9639262  
   0.402000000    -0.1890641   -0.9627132  
   0.403000000    -0.1930938   -0.9620427  
   0.404000000    -0.1972142   -0.9613242  
   0.405000000    -0.2014592   -0.9600665  
   0.406000000    -0.2057881   -0.9588450  
   0.407000000    -0.2098930   -0.9580591  
   0.408000000    -0.2139747   -0.9571190  
   0.409000000    -0.2182454   -0.9558188  
   0.410000000    -0.2219958   -0.9552590  
   0.411000000    -0.2266319   -0.9542406  
   0.412000000    -0.2303564   -0.9529915  
   0.413000000    -0.2346825   -0.9517818  
   0.414000000    -0.2385479   -0.9510854  
   0.415000000    -0.2429188   -0.9499609  
   0.416000000    -0.2471619   -0.9488531  
   0.417000000    -0.2510397   -0.9476709  
   0.418000000    -0.2549801   -0.9464439  
   0.419000000    -0.2591953   -0.9451407  
   0.420000000    -0.2632997   -0.9443851  
   0.421000000    -0.2677067   -0.9428715  
   0.422000000    -0.2716962   -0.9412596  
   0.423000000    -0.2760101   -0.9400914  
   0.424000000    -0.2797741   -0.9387656  
   0.425000000    -0.2840679   -0.9374968  
   0.426000000    -0.2884386   -0.9362583  
   0.427000000    -0.2924614   -0.9347371  
   0.428000000    -0.2966860   -0.9336571  
   0.429000000    -0.3008633   -0.9323416  
   0.430000000    -0.3047003   -0.9307749  
   0.431000000    -0.3087596   -0.9293281  
   0.432000000    -0.3130295   -0.9278738  
   0.433000000    -0.3171850   -0.9268485  
   0.434000000    -0.3212697   -0.9254346  
   0.435000000    -0.3252805   -0.9238703  
   0.436000000    -0.3293632   -0.9224503  
   0.437000000    -0.3336468   -0.9210361  
   0.438000000    -0.3376023   -0.9197181  
   0.439000000    -0.3414592   -0.9182032  
   0.440000000    -0.3455299   -0.9170871  
   0.441000000    -0.3495449   -0.9153651  
   0.442000000    -0.3534809   -0.9141013  
   0.443000000    -0.3574541   -0.9126040  
   0.444000000    -0.3612843   -0.9110897  
   0.445000000    -0.3654570   -0.9092323  
   0.446000000    -0.3695600   -0.9078020  
   0.447000000    -0.3735316   -0.9064989  
   0.448000000    -0.3779088   -0.9047563  
   0.449000000    -0.3815377   -0.9027953  
