!Created with skrf (http://scikit-rf.org).
# GHz S RI R 50.0 
!freq ReS11 ImS11
500.0 0.544076697495 -0.74869151073
500.625 0.540382221703 -0.750854040968
501.25 0.536675369495 -0.753012712596
501.875 0.532956118622 -0.755167222181
502.5 0.529224449631 -0.757317266906
503.125 0.525480345882 -0.759462544609
503.75 0.521723793574 -0.761602753825
504.375 0.517954781764 -0.763737593835
505.0 0.514173302388 -0.765866764706
505.625 0.510379350277 -0.767989967339
506.25 0.506572923179 -0.770106903513
506.875 0.502754021767 -0.772217275933
507.5 0.498922649661 -0.774320788274
508.125 0.495078813438 -0.77641714523
508.75 0.491222522644 -0.77850605256
509.375 0.487353789805 -0.780587217135
510.0 0.483472630437 -0.78266034699
510.625 0.479579063052 -0.784725151365
511.25 0.475673109167 -0.78678134076
511.875 0.47175479331 -0.788828626982
512.5 0.46782414302 -0.790866723189
513.125 0.463881188853 -0.792895343948
513.75 0.459925964382 -0.794914205277
514.375 0.4559585062 -0.796923024695
515.0 0.451978853912 -0.798921521274
515.625 0.447987050137 -0.80090941569
516.25 0.443983140506 -0.802886430264
516.875 0.439967173648 -0.804852289023
517.5 0.435939201191 -0.806806717738
518.125 0.431899277751 -0.808749443982
518.75 0.42784746092 -0.810680197175
519.375 0.423783811259 -0.812598708633
520.0 0.419708392281 -0.814504711616
520.625 0.41562127044 -0.816397941381
521.25 0.411522515116 -0.818278135225
521.875 0.407412198595 -0.820145032536
522.5 0.403290396055 -0.821998374838
523.125 0.399157185545 -0.823837905843
523.75 0.395012647962 -0.825663371493
524.375 0.390856867033 -0.82747452001
525.0 0.386689929289 -0.829271101938
525.625 0.382511924041 -0.831052870194
526.25 0.378322943354 -0.83281958011
526.875 0.374123082019 -0.834570989474
527.5 0.369912437526 -0.836306858583
528.125 0.365691110033 -0.838026950275
528.75 0.361459202335 -0.839731029983
529.375 0.357216819831 -0.841418865767
530.0 0.352964070495 -0.843090228361
530.625 0.348701064833 -0.844744891213
531.25 0.344427915856 -0.846382630521
531.875 0.340144739036 -0.848003225277
532.5 0.335851652273 -0.849606457302
533.125 0.331548775854 -0.851192111282
533.75 0.32723623241 -0.852759974809
534.375 0.322914146879 -0.85430983841
535.0 0.318582646463 -0.855841495586
535.625 0.31424186058 -0.857354742845
536.25 0.309891920827 -0.858849379733
536.875 0.305532960928 -0.860325208866
537.5 0.301165116694 -0.86178203596
538.125 0.296788525968 -0.863219669861
538.75 0.292403328587 -0.864637922572
539.375 0.288009666325 -0.866036609282
540.0 0.283607682847 -0.86741554839
540.625 0.279197523659 -0.868774561532
541.25 0.274779336057 -0.8701134736
541.875 0.270353269073 -0.871432112772
542.5 0.265919473425 -0.872730310524
543.125 0.261478101463 -0.874007901659
543.75 0.257029307116 -0.875264724319
544.375 0.252573245838 -0.876500620005
545.0 0.248110074552 -0.877715433594
545.625 0.243639951596 -0.878909013353
546.25 0.239163036666 -0.880081210952
546.875 0.234679490764 -0.881231881477
547.5 0.230189476135 -0.882360883442
548.125 0.225693156217 -0.883468078795
548.75 0.221190695578 -0.884553332933
549.375 0.216682259863 -0.885616514702
550.0 0.212168015734 -0.886657496406
550.625 0.207648130816 -0.887676153811
551.25 0.203122773631 -0.888672366149
551.875 0.198592113551 -0.889646016117
552.5 0.194056320729 -0.89059698988
553.125 0.189515566049 -0.891525177068
553.75 0.184970021063 -0.892430470776
554.375 0.180419857936 -0.893312767555
555.0 0.175865249384 -0.894171967414
555.625 0.171306368622 -0.895007973808
556.25 0.166743389299 -0.895820693632
556.875 0.162176485446 -0.896610037215
557.5 0.157605831416 -0.897375918302
558.125 0.153031601826 -0.89811825405
558.75 0.148453971504 -0.898836965012
559.375 0.143873115426 -0.89953197512
560.0 0.139289208666 -0.900203211675
560.625 0.134702426336 -0.900850605324
561.25 0.130112943534 -0.901474090047
561.875 0.125520935283 -0.902073603134
562.5 0.120926576484 -0.902649085167
563.125 0.116330041856 -0.903200479997
563.75 0.111731505887 -0.903727734719
564.375 0.107131142776 -0.904230799653
565.0 0.102529126386 -0.904709628312
565.625 0.0979256301892 -0.905164177383
566.25 0.0933208272154 -0.905594406691
566.875 0.0887148900043 -0.906000279179
567.5 0.084107990554 -0.90638176087
568.125 0.0795003002728 -0.906738820843
568.75 0.0748919899309 -0.907071431196
569.375 0.0702832296131 -0.907379567018
570.0 0.0656741886727 -0.907663206351
570.625 0.0610650356853 -0.907922330155
571.25 0.0564559384046 -0.908156922278
571.875 0.051847063718 -0.908366969411
572.5 0.0472385776044 -0.908552461058
573.125 0.0426306450913 -0.908713389492
573.75 0.0380234302145 -0.90884974972
574.375 0.0334170959776 -0.90896153944
575.0 0.0288118043131 -0.909048759002
575.625 0.0242077160441 -0.909111411363
576.25 0.0196049908473 -0.909149502051
576.875 0.0150037872173 -0.909163039117
577.5 0.0104042624312 -0.909152033092
578.125 0.00580657251478 -0.909116496944
578.75 0.0012108722099 -0.909056446033
579.375 -0.00338268505748 -0.908971898063
580.0 -0.00797394720781 -0.908862873042
580.625 -0.0125627635375 -0.908729393228
581.25 -0.0171489847473 -0.908571483088
581.875 -0.0217324629697 -0.908389169245
582.5 -0.0263130517947 -0.908182480436
583.125 -0.0308906062953 -0.90795144746
583.75 -0.0354649830508 -0.907696103129
584.375 -0.0400360401699 -0.907416482223
585.0 -0.044603637312 -0.907112621434
585.625 -0.0491676357077 -0.906784559324
586.25 -0.0537278981775 -0.906432336268
586.875 -0.0582842891507 -0.906055994409
587.5 -0.0628366746813 -0.905655577607
588.125 -0.0673849224642 -0.905231131385
588.75 -0.0719289018497 -0.904782702883
589.375 -0.0764684838565 -0.904310340805
590.0 -0.0810035411843 -0.903814095369
590.625 -0.0855339482242 -0.903294018253
591.25 -0.0900595810692 -0.902750162551
591.875 -0.0945803175224 -0.902182582715
592.5 -0.0990960371048 -0.901591334509
593.125 -0.103606621061 -0.900976474957
593.75 -0.108111952366 -0.90033806229
594.375 -0.112611915727 -0.899676155899
595.0 -0.117106397588 -0.898990816284
595.625 -0.121595286132 -0.898282105
596.25 -0.126078471281 -0.897550084613
596.875 -0.130555844692 -0.896794818646
597.5 -0.135027299765 -0.896016371528
598.125 -0.139492731629 -0.895214808552
598.75 -0.143952037148 -0.894390195817
599.375 -0.148405114909 -0.893542600185
600.0 -0.152851865221 -0.892672089232
600.625 -0.157292190106 -0.891778731198
601.25 -0.161725993292 -0.89086259494
601.875 -0.166153180203 -0.889923749887
602.5 -0.170573657951 -0.888962265989
603.125 -0.174987335323 -0.887978213676
603.75 -0.179394122772 -0.886971663806
604.375 -0.183793932399 -0.885942687624
605.0 -0.188186677947 -0.884891356717
605.625 -0.192572274778 -0.883817742967
606.25 -0.196950639863 -0.882721918508
606.875 -0.201321691766 -0.881603955684
607.5 -0.205685350619 -0.880463927004
608.125 -0.210041538115 -0.879301905104
608.75 -0.214390177479 -0.8781179627
609.375 -0.218731193452 -0.87691217255
610.0 -0.223064512272 -0.875684607415
610.625 -0.22739006165 -0.874435340016
611.25 -0.231707770747 -0.873164442998
611.875 -0.236017570152 -0.871871988889
612.5 -0.240319391859 -0.870558050065
613.125 -0.244613169239 -0.869222698712
613.75 -0.248898837018 -0.867866006788
614.375 -0.25317633125 -0.866488045992
615.0 -0.257445589289 -0.865088887724
615.625 -0.26170654976 -0.863668603054
616.25 -0.265959152537 -0.862227262691
616.875 -0.270203338707 -0.860764936944
617.5 -0.274439050544 -0.859281695698
618.125 -0.27866623148 -0.857777608375
618.75 -0.282884826072 -0.856252743913
619.375 -0.28709477997 -0.854707170731
620.0 -0.291296039891 -0.853140956699
620.625 -0.295488553578 -0.851554169116
621.25 -0.299672269775 -0.84994687468
621.875 -0.30384713819 -0.848319139462
622.5 -0.308013109459 -0.846671028882
623.125 -0.312170135119 -0.845002607685
623.75 -0.316318167565 -0.843313939917
624.375 -0.320457160019 -0.8416050889
625.0 -0.324587066496 -0.839876117217
625.625 -0.328707841763 -0.838127086684
626.25 -0.332819441309 -0.836358058338
626.875 -0.336921821303 -0.834569092408
627.5 -0.341014938558 -0.832760248308
628.125 -0.345098750497 -0.830931584612
628.75 -0.349173215112 -0.829083159041
629.375 -0.353238290926 -0.827215028448
630.0 -0.357293936957 -0.825327248802
630.625 -0.361340112677 -0.823419875175
631.25 -0.365376777976 -0.821492961732
631.875 -0.369403893121 -0.819546561716
632.5 -0.373421418716 -0.817580727439
633.125 -0.377429315666 -0.815595510272
633.75 -0.381427545136 -0.813590960636
634.375 -0.385416068507 -0.811567127996
635.0 -0.389394847345 -0.80952406085
635.625 -0.393363843353 -0.807461806727
636.25 -0.397323018335 -0.80538041218
636.875 -0.401272334155 -0.803279922783
637.5 -0.405211752696 -0.801160383127
638.125 -0.409141235822 -0.799021836818
638.75 -0.413060745335 -0.796864326475
639.375 -0.416970242935 -0.794687893732
640.0 -0.420869690183 -0.792492579235
640.625 -0.424759048456 -0.790278422647
641.25 -0.42863827891 -0.78804546265
641.875 -0.432507342439 -0.785793736946
642.5 -0.436366199633 -0.783523282264
643.125 -0.44021481074 -0.781234134363
643.75 -0.444053135627 -0.778926328042
644.375 -0.447881133736 -0.776599897144
645.0 -0.451698764047 -0.774254874564
645.625 -0.45550598504 -0.771891292261
646.25 -0.459302754651 -0.769509181266
646.875 -0.463089030236 -0.767108571693
647.5 -0.466864768532 -0.764689492752
648.125 -0.470629925615 -0.762251972761
648.75 -0.474384456866 -0.75979603916
649.375 -0.478128316927 -0.757321718526
650.0 -0.481861459668 -0.754829036591
650.625 -0.485583838146 -0.752318018252
651.25 -0.489295404567 -0.749788687597
651.875 -0.492996110251 -0.747241067918
652.5 -0.496685905594 -0.744675181731
653.125 -0.500364740031 -0.7420910508
653.75 -0.504032561998 -0.739488696152
654.375 -0.507689318899 -0.736868138107
655.0 -0.511334957071 -0.734229396293
655.625 -0.514969421743 -0.731572489677
656.25 -0.51859265701 -0.728897436586
656.875 -0.522204605791 -0.726204254734
657.5 -0.525805209798 -0.723492961248
658.125 -0.529394409507 -0.720763572697
658.75 -0.532972144115 -0.71801610512
659.375 -0.53653835152 -0.715250574055
660.0 -0.540092968279 -0.71246699457
660.625 -0.543635929581 -0.709665381293
661.25 -0.547167169219 -0.706845748447
661.875 -0.550686619555 -0.704008109877
662.5 -0.554194211493 -0.701152479093
663.125 -0.55768987445 -0.698278869295
663.75 -0.561173536327 -0.695387293415
664.375 -0.564645123484 -0.69247776415
665.0 -0.568104560709 -0.689550294004
665.625 -0.571551771197 -0.686604895317
666.25 -0.574986676518 -0.683641580314
666.875 -0.578409196601 -0.680660361139
667.5 -0.581819249701 -0.677661249894
668.125 -0.585216752384 -0.674644258687
668.75 -0.588601619498 -0.671609399666
669.375 -0.591973764155 -0.668556685068
670.0 -0.595333097712 -0.66548612726
670.625 -0.598679529747 -0.662397738783
671.25 -0.602012968044 -0.659291532397
671.875 -0.605333318571 -0.65616752113
672.5 -0.608640485467 -0.65302571832
673.125 -0.611934371025 -0.649866137665
673.75 -0.615214875674 -0.646688793271
674.375 -0.618481897968 -0.643493699698
675.0 -0.621735334574 -0.640280872013
675.625 -0.624975080254 -0.637050325838
676.25 -0.62820102786 -0.633802077399
676.875 -0.631413068323 -0.630536143582
677.5 -0.634611090641 -0.62725254198
678.125 -0.637794981875 -0.623951290945
678.75 -0.640964627139 -0.620632409648
679.375 -0.644119909599 -0.617295918123
680.0 -0.647260710463 -0.613941837328
680.625 -0.650386908984 -0.610570189198
681.25 -0.653498382454 -0.607180996696
681.875 -0.656595006204 -0.603774283874
682.5 -0.659676653607 -0.600350075927
683.125 -0.662743196077 -0.596908399249
683.75 -0.665794503074 -0.593449281488
684.375 -0.66883044211 -0.589972751608
685.0 -0.671850878751 -0.58647883994
685.625 -0.674855676626 -0.582967578245
686.25 -0.67784469744 -0.579438999773
686.875 -0.680817800976 -0.575893139314
687.5 -0.683774845113 -0.572330033265
688.125 -0.686715685837 -0.568749719685
688.75 -0.689640177253 -0.565152238352
689.375 -0.692548171607 -0.561537630829
690.0 -0.695439519296 -0.557905940514
690.625 -0.69831406889 -0.554257212708
691.25 -0.701171667156 -0.550591494669
691.875 -0.704012159072 -0.546908835675
692.5 -0.70683538786 -0.54320928708
693.125 -0.709641195002 -0.539492902376
693.75 -0.712429420273 -0.535759737252
694.375 -0.715199901765 -0.532009849653
695.0 -0.717952475921 -0.528243299838
695.625 -0.720686977562 -0.52446015044
696.25 -0.723403239923 -0.520660466527
696.875 -0.726101094687 -0.516844315654
697.5 -0.72878037202 -0.513011767928
698.125 -0.731440900612 -0.509162896061
698.75 -0.734082507714 -0.505297775431
699.375 -0.736705019178 -0.501416484136
700.0 -0.739308259504 -0.49751910305
700.625 -0.741892051881 -0.493605715882
701.25 -0.744456218237 -0.489676409228
701.875 -0.747000579284 -0.48573127263
702.5 -0.749524954565 -0.481770398624
703.125 -0.752029162514 -0.477793882798
703.75 -0.7545130205 -0.473801823844
704.375 -0.756976344886 -0.469794323607
705.0 -0.759418951085 -0.465771487138
705.625 -0.761840653618 -0.461733422745
706.25 -0.764241266173 -0.457680242039
706.875 -0.766620601664 -0.453612059985
707.5 -0.7689784723 -0.449528994948
708.125 -0.771314689644 -0.445431168736
708.75 -0.77362906468 -0.44131870665
709.375 -0.775921407883 -0.437191737523
710.0 -0.778191529286 -0.433050393766
710.625 -0.780439238552 -0.428894811404
711.25 -0.782664345045 -0.424725130121
711.875 -0.784866657906 -0.420541493295
712.5 -0.787045986128 -0.416344048035
713.125 -0.789202138629 -0.412132945217
713.75 -0.791334924336 -0.407908339517
714.375 -0.793444152261 -0.403670389443
715.0 -0.795529631581 -0.399419257367
715.625 -0.797591171727 -0.395155109551
716.25 -0.799628582458 -0.390878116175
716.875 -0.801641673953 -0.386588451365
717.5 -0.803630256897 -0.382286293209
718.125 -0.805594142564 -0.377971823786
718.75 -0.807533142909 -0.373645229183
719.375 -0.809447070658 -0.369306699509
720.0 -0.811335739397 -0.364956428914
720.625 -0.813198963663 -0.360594615602
721.25 -0.815036559042 -0.35622146184
721.875 -0.816848342254 -0.351837173968
722.5 -0.818634131258 -0.347441962407
723.125 -0.820393745338 -0.343036041661
723.75 -0.822127005205 -0.338619630321
724.375 -0.823833733092 -0.334192951064
725.0 -0.825513752852 -0.32975623065
725.625 -0.827166890054 -0.325309699919
726.25 -0.828792972086 -0.32085359378
726.875 -0.830391828251 -0.316388151204
727.5 -0.831963289866 -0.311913615211
728.125 -0.833507190363 -0.307430232855
728.75 -0.835023365393 -0.302938255204
729.375 -0.836511652917 -0.298437937325
730.0 -0.837971893316 -0.293929538255
730.625 -0.839403929488 -0.289413320982
731.25 -0.840807606945 -0.284889552412
731.875 -0.842182773919 -0.280358503339
732.5 -0.84352928146 -0.275820448415
733.125 -0.844846983535 -0.27127566611
733.75 -0.846135737129 -0.266724438675
734.375 -0.847395402344 -0.2621670521
735.0 -0.848625842498 -0.257603796071
735.625 -0.849826924223 -0.25303496392
736.25 -0.850998517562 -0.248460852579
736.875 -0.852140496066 -0.243881762525
737.5 -0.853252736894 -0.239297997725
738.125 -0.8543351209 -0.23470986558
738.75 -0.855387532737 -0.230117676862
739.375 -0.856409860942 -0.225521745653
740.0 -0.857401998032 -0.220922389278
740.625 -0.858363840594 -0.216319928236
741.25 -0.859295289377 -0.211714686128
741.875 -0.860196249375 -0.207106989586
742.5 -0.861066629918 -0.202497168194
743.125 -0.861906344756 -0.197885554412
743.75 -0.86271531214 -0.19327248349
744.375 -0.863493454909 -0.188658293388
745.0 -0.864240700566 -0.184043324687
745.625 -0.864956981355 -0.179427920503
746.25 -0.865642234343 -0.174812426393
746.875 -0.866296401487 -0.170197190264
747.5 -0.866919429712 -0.165582562273
748.125 -0.867511270977 -0.160968894735
748.75 -0.868071882344 -0.156356542019
749.375 -0.868601226044 -0.151745860446
750.0 -0.86909926954 -0.147137208187
