!Created with mwavepy.
# GHz S RI R 50.0 
!freq	ReS11	ImS11	
75.0	0.45345337996	0.891279996524	
! Port Impedance	50.00000000000000	0.00000000000000	
75.175	0.464543921496	0.885550080459	
! Port Impedance	50.00000000000000	0.00000000000000	
75.35	0.475521092896	0.879704319764	
! Port Impedance	50.00000000000000	0.00000000000000	
75.525	0.486384743723	0.873744745949	
! Port Impedance	50.00000000000000	0.00000000000000	
75.7	0.497134729488	0.867673360624	
! Port Impedance	50.00000000000000	0.00000000000000	
75.875	0.507770911649	0.861492136519	
! Port Impedance	50.00000000000000	0.00000000000000	
76.05	0.518293157611	0.855203018454	
! Port Impedance	50.00000000000000	0.00000000000000	
76.225	0.52870134073	0.848807924274	
! Port Impedance	50.00000000000000	0.00000000000000	
76.4	0.538995340308	0.842308745726	
! Port Impedance	50.00000000000000	0.00000000000000	
76.575	0.549175041594	0.83570734931	
! Port Impedance	50.00000000000000	0.00000000000000	
76.75	0.559240335785	0.82900557708	
! Port Impedance	50.00000000000000	0.00000000000000	
76.925	0.569191120024	0.822205247421	
! Port Impedance	50.00000000000000	0.00000000000000	
77.1	0.579027297394	0.815308155775	
! Port Impedance	50.00000000000000	0.00000000000000	
77.275	0.588748776925	0.80831607535	
! Port Impedance	50.00000000000000	0.00000000000000	
77.45	0.598355473584	0.801230757792	
! Port Impedance	50.00000000000000	0.00000000000000	
77.625	0.607847308275	0.794053933825	
! Port Impedance	50.00000000000000	0.00000000000000	
77.8	0.617224207839	0.786787313864	
! Port Impedance	50.00000000000000	0.00000000000000	
77.975	0.626486105048	0.779432588607	
! Port Impedance	50.00000000000000	0.00000000000000	
78.15	0.6356329386	0.771991429594	
! Port Impedance	50.00000000000000	0.00000000000000	
78.325	0.64466465312	0.764465489749	
! Port Impedance	50.00000000000000	0.00000000000000	
78.5	0.653581199152	0.756856403893	
! Port Impedance	50.00000000000000	0.00000000000000	
78.675	0.662382533158	0.74916578924	
! Port Impedance	50.00000000000000	0.00000000000000	
78.85	0.671068617509	0.741395245867	
! Port Impedance	50.00000000000000	0.00000000000000	
79.025	0.679639420485	0.733546357174	
! Port Impedance	50.00000000000000	0.00000000000000	
79.2	0.688094916264	0.725620690314	
! Port Impedance	50.00000000000000	0.00000000000000	
79.375	0.696435084923	0.717619796611	
! Port Impedance	50.00000000000000	0.00000000000000	
79.55	0.704659912427	0.709545211962	
! Port Impedance	50.00000000000000	0.00000000000000	
79.725	0.712769390625	0.701398457218	
! Port Impedance	50.00000000000000	0.00000000000000	
79.9	0.720763517242	0.693181038555	
! Port Impedance	50.00000000000000	0.00000000000000	
80.075	0.728642295875	0.684894447825	
! Port Impedance	50.00000000000000	0.00000000000000	
80.25	0.736405735983	0.676540162896	
! Port Impedance	50.00000000000000	0.00000000000000	
80.425	0.744053852879	0.668119647979	
! Port Impedance	50.00000000000000	0.00000000000000	
80.6	0.751586667727	0.659634353938	
! Port Impedance	50.00000000000000	0.00000000000000	
80.775	0.759004207528	0.651085718592	
! Port Impedance	50.00000000000000	0.00000000000000	
80.95	0.766306505116	0.642475167004	
! Port Impedance	50.00000000000000	0.00000000000000	
81.125	0.773493599147	0.633804111756	
! Port Impedance	50.00000000000000	0.00000000000000	
81.3	0.78056553409	0.625073953218	
! Port Impedance	50.00000000000000	0.00000000000000	
81.475	0.787522360219	0.6162860798	
! Port Impedance	50.00000000000000	0.00000000000000	
81.65	0.794364133603	0.607441868202	
! Port Impedance	50.00000000000000	0.00000000000000	
81.825	0.801090916097	0.598542683647	
! Port Impedance	50.00000000000000	0.00000000000000	
82.0	0.807702775327	0.589589880111	
! Port Impedance	50.00000000000000	0.00000000000000	
82.175	0.814199784686	0.580584800539	
! Port Impedance	50.00000000000000	0.00000000000000	
82.35	0.820582023321	0.571528777055	
! Port Impedance	50.00000000000000	0.00000000000000	
82.525	0.826849576119	0.562423131167	
! Port Impedance	50.00000000000000	0.00000000000000	
82.7	0.833002533698	0.553269173958	
! Port Impedance	50.00000000000000	0.00000000000000	
82.875	0.839040992398	0.544068206272	
! Port Impedance	50.00000000000000	0.00000000000000	
83.05	0.844965054262	0.534821518898	
! Port Impedance	50.00000000000000	0.00000000000000	
83.225	0.850774827029	0.525530392739	
! Port Impedance	50.00000000000000	0.00000000000000	
83.4	0.856470424123	0.51619609898	
! Port Impedance	50.00000000000000	0.00000000000000	
83.575	0.862051964634	0.506819899244	
! Port Impedance	50.00000000000000	0.00000000000000	
83.75	0.86751957331	0.497403045753	
! Port Impedance	50.00000000000000	0.00000000000000	
83.925	0.872873380539	0.48794678147	
! Port Impedance	50.00000000000000	0.00000000000000	
84.1	0.87811352234	0.478452340243	
! Port Impedance	50.00000000000000	0.00000000000000	
84.275	0.883240140346	0.468920946942	
! Port Impedance	50.00000000000000	0.00000000000000	
84.45	0.888253381792	0.459353817591	
! Port Impedance	50.00000000000000	0.00000000000000	
84.625	0.893153399496	0.449752159494	
! Port Impedance	50.00000000000000	0.00000000000000	
84.8	0.897940351847	0.440117171358	
! Port Impedance	50.00000000000000	0.00000000000000	
84.975	0.902614402792	0.430450043411	
! Port Impedance	50.00000000000000	0.00000000000000	
85.15	0.907175721816	0.42075195751	
! Port Impedance	50.00000000000000	0.00000000000000	
85.325	0.911624483928	0.411024087255	
! Port Impedance	50.00000000000000	0.00000000000000	
85.5	0.915960869645	0.401267598093	
! Port Impedance	50.00000000000000	0.00000000000000	
85.675	0.920185064978	0.391483647414	
! Port Impedance	50.00000000000000	0.00000000000000	
85.85	0.924297261409	0.381673384652	
! Port Impedance	50.00000000000000	0.00000000000000	
86.025	0.928297655882	0.371837951376	
! Port Impedance	50.00000000000000	0.00000000000000	
86.2	0.93218645078	0.36197848138	
! Port Impedance	50.00000000000000	0.00000000000000	
86.375	0.935963853909	0.352096100768	
! Port Impedance	50.00000000000000	0.00000000000000	
86.55	0.939630078481	0.342191928038	
! Port Impedance	50.00000000000000	0.00000000000000	
86.725	0.943185343095	0.332267074159	
! Port Impedance	50.00000000000000	0.00000000000000	
86.9	0.946629871721	0.32232264265	
! Port Impedance	50.00000000000000	0.00000000000000	
87.075	0.949963893677	0.312359729654	
! Port Impedance	50.00000000000000	0.00000000000000	
87.25	0.953187643614	0.302379424003	
! Port Impedance	50.00000000000000	0.00000000000000	
87.425	0.956301361496	0.292382807293	
! Port Impedance	50.00000000000000	0.00000000000000	
87.6	0.959305292578	0.282370953944	
! Port Impedance	50.00000000000000	0.00000000000000	
87.775	0.962199687391	0.272344931264	
! Port Impedance	50.00000000000000	0.00000000000000	
87.95	0.964984801716	0.26230579951	
! Port Impedance	50.00000000000000	0.00000000000000	
88.125	0.967660896571	0.252254611944	
! Port Impedance	50.00000000000000	0.00000000000000	
88.3	0.970228238184	0.24219241489	
! Port Impedance	50.00000000000000	0.00000000000000	
88.475	0.972687097975	0.232120247788	
! Port Impedance	50.00000000000000	0.00000000000000	
88.65	0.975037752536	0.222039143239	
! Port Impedance	50.00000000000000	0.00000000000000	
88.825	0.977280483607	0.211950127062	
! Port Impedance	50.00000000000000	0.00000000000000	
89.0	0.979415578056	0.201854218337	
! Port Impedance	50.00000000000000	0.00000000000000	
89.175	0.98144332786	0.191752429448	
! Port Impedance	50.00000000000000	0.00000000000000	
89.35	0.983364030076	0.18164576613	
! Port Impedance	50.00000000000000	0.00000000000000	
89.525	0.985177986824	0.171535227509	
! Port Impedance	50.00000000000000	0.00000000000000	
89.7	0.986885505265	0.161421806139	
! Port Impedance	50.00000000000000	0.00000000000000	
89.875	0.988486897574	0.151306488044	
! Port Impedance	50.00000000000000	0.00000000000000	
90.05	0.98998248092	0.141190252753	
! Port Impedance	50.00000000000000	0.00000000000000	
90.225	0.99137257744	0.131074073331	
! Port Impedance	50.00000000000000	0.00000000000000	
90.4	0.992657514221	0.120958916419	
! Port Impedance	50.00000000000000	0.00000000000000	
90.575	0.993837623268	0.110845742259	
! Port Impedance	50.00000000000000	0.00000000000000	
90.75	0.994913241487	0.100735504729	
! Port Impedance	50.00000000000000	0.00000000000000	
90.925	0.995884710658	0.0906291513708	
! Port Impedance	50.00000000000000	0.00000000000000	
91.1	0.996752377407	0.0805276234157	
! Port Impedance	50.00000000000000	0.00000000000000	
91.275	0.997516593189	0.0704318558134	
! Port Impedance	50.00000000000000	0.00000000000000	
91.45	0.998177714254	0.0603427772561	
! Port Impedance	50.00000000000000	0.00000000000000	
91.625	0.998736101629	0.0502613102025	
! Port Impedance	50.00000000000000	0.00000000000000	
91.8	0.999192121088	0.0401883709008	
! Port Impedance	50.00000000000000	0.00000000000000	
91.975	0.999546143128	0.0301248694106	
! Port Impedance	50.00000000000000	0.00000000000000	
92.15	0.999798542944	0.0200717096233	
! Port Impedance	50.00000000000000	0.00000000000000	
92.325	0.999949700398	0.0100297892819	
! Port Impedance	50.00000000000000	0.00000000000000	
92.5	1.0	1.22460635382e-16	
! Port Impedance	50.00000000000000	0.00000000000000	
92.675	0.999949830874	-0.0100167727211	
! Port Impedance	50.00000000000000	0.00000000000000	
92.85	0.999799586735	-0.0200196494749	
! Port Impedance	50.00000000000000	0.00000000000000	
93.025	0.999549665861	-0.0300077569342	
! Port Impedance	50.00000000000000	0.00000000000000	
93.2	0.999200471068	-0.0399802278361	
! Port Impedance	50.00000000000000	0.00000000000000	
93.375	0.998752409676	-0.0499362009671	
! Port Impedance	50.00000000000000	0.00000000000000	
93.55	0.998205893487	-0.0598748211504	
! Port Impedance	50.00000000000000	0.00000000000000	
93.725	0.997561338756	-0.0697952392327	
! Port Impedance	50.00000000000000	0.00000000000000	
93.9	0.99681916616	-0.0796966120726	
! Port Impedance	50.00000000000000	0.00000000000000	
94.075	0.995979800773	-0.089578102529	
! Port Impedance	50.00000000000000	0.00000000000000	
94.25	0.995043672033	-0.0994388794506	
! Port Impedance	50.00000000000000	0.00000000000000	
94.425	0.994011213719	-0.109278117666	
! Port Impedance	50.00000000000000	0.00000000000000	
94.6	0.992882863916	-0.119094997975	
! Port Impedance	50.00000000000000	0.00000000000000	
94.775	0.991659064988	-0.12888870714	
! Port Impedance	50.00000000000000	0.00000000000000	
94.95	0.990340263549	-0.138658437874	
! Port Impedance	50.00000000000000	0.00000000000000	
95.125	0.988926910434	-0.148403388841	
! Port Impedance	50.00000000000000	0.00000000000000	
95.3	0.987419460666	-0.158122764642	
! Port Impedance	50.00000000000000	0.00000000000000	
95.475	0.985818373429	-0.16781577581	
! Port Impedance	50.00000000000000	0.00000000000000	
95.65	0.984124112034	-0.177481638807	
! Port Impedance	50.00000000000000	0.00000000000000	
95.825	0.982337143893	-0.187119576017	
! Port Impedance	50.00000000000000	0.00000000000000	
96.0	0.980457940484	-0.196728815738	
! Port Impedance	50.00000000000000	0.00000000000000	
96.175	0.978486977324	-0.206308592182	
! Port Impedance	50.00000000000000	0.00000000000000	
96.35	0.976424733933	-0.215858145467	
! Port Impedance	50.00000000000000	0.00000000000000	
96.525	0.974271693807	-0.225376721617	
! Port Impedance	50.00000000000000	0.00000000000000	
96.7	0.972028344384	-0.234863572556	
! Port Impedance	50.00000000000000	0.00000000000000	
96.875	0.969695177014	-0.244317956105	
! Port Impedance	50.00000000000000	0.00000000000000	
97.05	0.967272686925	-0.253739135981	
! Port Impedance	50.00000000000000	0.00000000000000	
97.225	0.964761373193	-0.263126381792	
! Port Impedance	50.00000000000000	0.00000000000000	
97.4	0.962161738707	-0.272478969039	
! Port Impedance	50.00000000000000	0.00000000000000	
97.575	0.959474290139	-0.281796179111	
! Port Impedance	50.00000000000000	0.00000000000000	
97.75	0.956699537912	-0.291077299284	
! Port Impedance	50.00000000000000	0.00000000000000	
97.925	0.953837996164	-0.300321622722	
! Port Impedance	50.00000000000000	0.00000000000000	
98.1	0.950890182716	-0.309528448473	
! Port Impedance	50.00000000000000	0.00000000000000	
98.275	0.947856619042	-0.318697081472	
! Port Impedance	50.00000000000000	0.00000000000000	
98.45	0.94473783023	-0.327826832537	
! Port Impedance	50.00000000000000	0.00000000000000	
98.625	0.941534344956	-0.336917018373	
! Port Impedance	50.00000000000000	0.00000000000000	
98.8	0.93824669544	-0.345966961566	
! Port Impedance	50.00000000000000	0.00000000000000	
98.975	0.934875417424	-0.354975990591	
! Port Impedance	50.00000000000000	0.00000000000000	
99.15	0.931421050128	-0.363943439806	
! Port Impedance	50.00000000000000	0.00000000000000	
99.325	0.927884136222	-0.372868649456	
! Port Impedance	50.00000000000000	0.00000000000000	
99.5	0.924265221789	-0.381750965673	
! Port Impedance	50.00000000000000	0.00000000000000	
99.675	0.920564856289	-0.390589740475	
! Port Impedance	50.00000000000000	0.00000000000000	
99.85	0.916783592531	-0.399384331773	
! Port Impedance	50.00000000000000	0.00000000000000	
100.025	0.912921986629	-0.408134103365	
! Port Impedance	50.00000000000000	0.00000000000000	
100.2	0.908980597974	-0.41683842494	
! Port Impedance	50.00000000000000	0.00000000000000	
100.375	0.904959989196	-0.425496672083	
! Port Impedance	50.00000000000000	0.00000000000000	
100.55	0.90086072613	-0.434108226272	
! Port Impedance	50.00000000000000	0.00000000000000	
100.725	0.896683377778	-0.442672474881	
! Port Impedance	50.00000000000000	0.00000000000000	
100.9	0.892428516277	-0.451188811182	
! Port Impedance	50.00000000000000	0.00000000000000	
101.075	0.888096716861	-0.459656634348	
! Port Impedance	50.00000000000000	0.00000000000000	
101.25	0.883688557827	-0.468075349453	
! Port Impedance	50.00000000000000	0.00000000000000	
101.425	0.879204620496	-0.476444367475	
! Port Impedance	50.00000000000000	0.00000000000000	
101.6	0.87464548918	-0.484763105297	
! Port Impedance	50.00000000000000	0.00000000000000	
101.775	0.870011751144	-0.493030985711	
! Port Impedance	50.00000000000000	0.00000000000000	
101.95	0.865303996571	-0.501247437418	
! Port Impedance	50.00000000000000	0.00000000000000	
102.125	0.860522818524	-0.509411895031	
! Port Impedance	50.00000000000000	0.00000000000000	
102.3	0.855668812911	-0.517523799078	
! Port Impedance	50.00000000000000	0.00000000000000	
102.475	0.850742578446	-0.525582596001	
! Port Impedance	50.00000000000000	0.00000000000000	
102.65	0.845744716615	-0.533587738164	
! Port Impedance	50.00000000000000	0.00000000000000	
102.825	0.840675831636	-0.541538683847	
! Port Impedance	50.00000000000000	0.00000000000000	
103.0	0.835536530425	-0.549434897258	
! Port Impedance	50.00000000000000	0.00000000000000	
103.175	0.830327422558	-0.557275848525	
! Port Impedance	50.00000000000000	0.00000000000000	
103.35	0.825049120229	-0.565061013705	
! Port Impedance	50.00000000000000	0.00000000000000	
103.525	0.819702238222	-0.572789874783	
! Port Impedance	50.00000000000000	0.00000000000000	
103.7	0.814287393863	-0.580461919678	
! Port Impedance	50.00000000000000	0.00000000000000	
103.875	0.808805206991	-0.588076642237	
! Port Impedance	50.00000000000000	0.00000000000000	
104.05	0.803256299914	-0.595633542246	
! Port Impedance	50.00000000000000	0.00000000000000	
104.225	0.797641297376	-0.603132125426	
! Port Impedance	50.00000000000000	0.00000000000000	
104.4	0.791960826515	-0.610571903436	
! Port Impedance	50.00000000000000	0.00000000000000	
104.575	0.786215516827	-0.617952393878	
! Port Impedance	50.00000000000000	0.00000000000000	
104.75	0.780406000129	-0.625273120294	
! Port Impedance	50.00000000000000	0.00000000000000	
104.925	0.774532910518	-0.632533612169	
! Port Impedance	50.00000000000000	0.00000000000000	
105.1	0.768596884335	-0.639733404936	
! Port Impedance	50.00000000000000	0.00000000000000	
105.275	0.762598560123	-0.646872039972	
! Port Impedance	50.00000000000000	0.00000000000000	
105.45	0.756538578595	-0.653949064605	
! Port Impedance	50.00000000000000	0.00000000000000	
105.625	0.750417582589	-0.660964032109	
! Port Impedance	50.00000000000000	0.00000000000000	
105.8	0.744236217032	-0.667916501711	
! Port Impedance	50.00000000000000	0.00000000000000	
105.975	0.737995128901	-0.674806038591	
! Port Impedance	50.00000000000000	0.00000000000000	
106.15	0.731694967186	-0.681632213877	
! Port Impedance	50.00000000000000	0.00000000000000	
106.325	0.725336382847	-0.688394604656	
! Port Impedance	50.00000000000000	0.00000000000000	
106.5	0.718920028778	-0.695092793965	
! Port Impedance	50.00000000000000	0.00000000000000	
106.675	0.712446559768	-0.701726370799	
! Port Impedance	50.00000000000000	0.00000000000000	
106.85	0.705916632461	-0.708294930106	
! Port Impedance	50.00000000000000	0.00000000000000	
107.025	0.699330905317	-0.714798072793	
! Port Impedance	50.00000000000000	0.00000000000000	
107.2	0.692690038571	-0.72123540572	
! Port Impedance	50.00000000000000	0.00000000000000	
107.375	0.685994694197	-0.727606541706	
! Port Impedance	50.00000000000000	0.00000000000000	
107.55	0.679245535868	-0.733911099523	
! Port Impedance	50.00000000000000	0.00000000000000	
107.725	0.672443228913	-0.740148703903	
! Port Impedance	50.00000000000000	0.00000000000000	
107.9	0.665588440282	-0.74631898553	
! Port Impedance	50.00000000000000	0.00000000000000	
108.075	0.658681838503	-0.752421581047	
! Port Impedance	50.00000000000000	0.00000000000000	
108.25	0.651724093646	-0.75845613305	
! Port Impedance	50.00000000000000	0.00000000000000	
108.425	0.644715877279	-0.764422290089	
! Port Impedance	50.00000000000000	0.00000000000000	
108.6	0.637657862432	-0.770319706666	
! Port Impedance	50.00000000000000	0.00000000000000	
108.775	0.630550723556	-0.776148043239	
! Port Impedance	50.00000000000000	0.00000000000000	
108.95	0.623395136481	-0.781906966212	
! Port Impedance	50.00000000000000	0.00000000000000	
109.125	0.616191778382	-0.787596147943	
! Port Impedance	50.00000000000000	0.00000000000000	
109.3	0.608941327731	-0.793215266735	
! Port Impedance	50.00000000000000	0.00000000000000	
109.475	0.601644464264	-0.798764006838	
! Port Impedance	50.00000000000000	0.00000000000000	
109.65	0.594301868939	-0.804242058447	
! Port Impedance	50.00000000000000	0.00000000000000	
109.825	0.586914223895	-0.809649117699	
! Port Impedance	50.00000000000000	0.00000000000000	
110.0	0.579482212411	-0.814984886669	
! Port Impedance	50.00000000000000	0.00000000000000	
