!Created with skrf (http://scikit-rf.org).
# GHz S RI R 50.0 
!freq ReS11 ImS11
500.0 0.09021006 -0.1217317
500.625 0.01105908 0.08595198
501.25 -0.09878279 -0.203343
501.875 0.1314102 0.1047298
502.5 -0.07383654 -0.2347235
503.125 0.1197 -0.07828797
503.75 -0.195275 0.02626103
504.375 0.009412941 -0.172388
505.0 -0.1182204 0.2170509
505.625 -0.08663581 -0.1279502
506.25 -0.06283003 0.2482939
506.875 -0.1167861 -0.1247845
507.5 0.1485172 0.2538639
508.125 -0.1802425 -0.2813787
508.75 0.1612065 0.2215371
509.375 -0.3440947 0.02139934
510.0 0.1972419 0.2725738
510.625 -0.01549202 0.197124
511.25 0.08868197 -0.1455834
511.875 0.1923153 0.107394
512.5 -0.1273358 -0.1599776
513.125 0.1100793 -0.1086744
513.75 -0.2364711 0.2240665
514.375 0.08675434 -0.206556
515.0 0.1423519 0.1225285
515.625 -0.08813 -0.4291874
516.25 0.1221328 0.1707623
516.875 -0.0847671 -0.4211558
517.5 0.07926529 0.1799123
518.125 -0.1003285 -0.513791
518.75 0.01468612 0.1752067
519.375 -0.2716887 -0.07378391
520.0 0.2538271 0.03507853
520.625 -0.246138 0.01693886
521.25 0.1509351 -0.1380094
521.875 -0.2276536 0.06562444
522.5 0.03942505 -0.06999828
523.125 -0.03764682 0.4480924
523.75 -0.06590112 -0.2449562
524.375 0.04806191 0.7328157
525.0 0.08041651 -0.1346468
525.625 0.06274714 0.288269
526.25 0.1325157 -0.1728748
526.875 0.09748781 0.1161593
527.5 -0.1494867 -0.09352846
528.125 0.2350539 -0.009757976
528.75 -0.1557844 0.01757127
529.375 0.1821704 -0.296827
530.0 -0.1400697 0.1899595
530.625 -0.204254 -0.1469736
531.25 0.1023845 0.2907294
531.875 -0.3598523 -0.05129174
532.5 0.3711667 0.1680428
533.125 -0.2251953 0.02741073
533.75 0.3411781 -0.01702839
534.375 -0.2265003 -0.04790867
535.0 0.1570346 -0.03949929
535.625 -0.1935536 0.09867632
536.25 0.201657 -0.09887107
536.875 -0.08812067 0.1750243
537.5 0.3313277 -0.104576
538.125 -0.1844079 0.05728361
538.75 0.2010626 -0.1567796
539.375 -0.179754 0.08819038
540.0 0.1450315 -0.2643217
540.625 -0.2445206 0.2694254
541.25 0.1794849 -0.1421589
541.875 -0.1275636 0.2885137
542.5 0.3060458 -0.0936344
543.125 -0.008813814 0.0915644
543.75 -0.04025697 -0.2839568
544.375 0.03836643 0.1051689
545.0 -0.2840959 -0.06467868
545.625 0.1942405 0.05757833
546.25 -0.2361308 0.1270012
546.875 0.2385435 -0.03403541
547.5 -0.2238502 0.06760854
548.125 0.1676963 -0.07177414
548.75 -0.3315485 0.09719029
549.375 0.2072363 0.07387678
550.0 -0.3419203 -0.01838291
550.625 0.1836654 0.2902893
551.25 -0.1134284 -0.129709
551.875 0.0997843 0.2697651
552.5 -0.09169011 -0.06432824
553.125 0.2657218 0.1039166
553.75 -0.1582153 -0.1106548
554.375 0.2253148 0.05206248
555.0 -0.2133478 -0.06840409
555.625 0.2293281 0.1160371
556.25 -0.08646169 -0.05596791
556.875 0.2660674 0.03638642
557.5 -0.1190845 -0.1521856
558.125 0.2113603 0.01660525
558.75 -0.09182996 -0.2805845
559.375 0.03598667 0.1427453
560.0 -0.09177543 -0.207943
560.625 0.04088846 0.1857072
561.25 -0.1219149 -0.09951353
561.875 0.2184535 0.08959021
562.5 -0.2056717 -0.07435791
563.125 0.1866054 -0.07519137
563.75 -0.3109613 0.08066393
564.375 0.1911503 0.02681713
565.0 -0.1888309 0.1232386
565.625 0.257926 -0.01990074
566.25 -0.1609308 0.02638763
566.875 0.2671053 -0.02150574
567.5 -0.1864371 -0.1823877
568.125 0.1166767 0.1679632
568.75 -0.08796439 -0.2563645
569.375 -0.01867563 0.1710517
570.0 -0.1081217 -0.1852963
570.625 0.03914068 0.2552202
571.25 -0.09944537 -0.1150811
571.875 0.180988 0.2358854
572.5 -0.1100993 -0.2116348
573.125 0.1794862 0.1562734
573.75 -0.1973843 -0.1156771
574.375 0.2400394 0.02429583
575.0 -0.2180291 -0.04091138
575.625 0.2224709 -0.05925206
576.25 -0.27402 -0.01955596
576.875 0.2190085 0.01816177
577.5 -0.2583536 -0.09033433
578.125 0.1117796 0.1009702
578.75 -0.2428393 -0.05345974
579.375 0.1825852 0.1638315
580.0 -0.1633396 -0.0478837
580.625 0.2500426 0.1409195
581.25 -0.1842156 -0.1591522
581.875 0.1452757 0.2081942
582.5 -0.06364654 -0.207979
583.125 0.06783371 0.2088195
583.75 -0.06867506 -0.194511
584.375 0.06223764 0.2431097
585.0 -0.0009922649 -0.2101741
585.625 0.02594197 0.2666746
586.25 0.1668695 -0.2499226
586.875 -0.07539876 0.1276945
587.5 0.05399834 -0.248552
588.125 -0.1027823 0.1858203
588.75 0.009641995 -0.2014693
589.375 0.000573758 0.2383042
590.0 -0.007040477 -0.2640121
590.625 -0.05029498 0.2619193
591.25 0.02850082 -0.2428052
591.875 -0.1224 0.1737598
592.5 0.07029446 -0.1805953
593.125 -0.1632045 0.1986091
593.75 0.1369646 -0.08608679
594.375 -0.2064864 0.1575199
595.0 0.2861781 0.0514797
595.625 -0.1435061 -0.1426274
596.25 0.1403411 0.1225503
596.875 -0.1443852 -0.2172125
597.5 0.014297 0.1755819
598.125 -0.1497525 -0.1350912
598.75 0.07272721 0.2540324
599.375 -0.05766387 -0.1741999
600.0 -0.008956617 0.2945086
600.625 0.1248455 -0.1539373
601.25 -0.008506534 0.1953951
601.875 0.1510335 -0.2095693
602.5 -0.08019423 0.1016347
603.125 0.1234009 -0.1994466
603.75 -0.2014265 0.1251746
604.375 0.2311091 -0.04104608
605.0 -0.1827643 -0.04879929
605.625 0.1772516 0.08395644
606.25 -0.122563 -0.1430218
606.875 0.1195242 0.1439129
607.5 -0.09018931 -0.1566108
608.125 0.1442647 0.1523049
608.75 -0.03821702 -0.265834
609.375 -0.01713051 0.174151
610.0 0.05020433 -0.2168713
610.625 -0.1052117 0.1489591
611.25 0.08175381 -0.1757862
611.875 -0.1399548 0.09422677
612.5 0.09591524 -0.1827742
613.125 -0.2894342 0.08575738
613.75 0.1596239 0.03040227
614.375 -0.2237823 0.01179492
615.0 0.1741948 0.07905246
615.625 -0.1854484 -0.01630196
616.25 0.1751603 0.1038574
616.875 -0.1489616 -0.003037598
617.5 0.2671305 0.1342953
618.125 -0.09161933 -0.2265583
618.75 0.08036563 0.1403177
619.375 -0.06748115 -0.2002669
620.0 -0.03412737 0.2207164
620.625 0.02401125 -0.1463553
621.25 0.02138936 0.1987167
621.875 0.07382672 -0.2178006
622.5 -0.09572893 0.2027011
623.125 0.2011279 -0.1588759
623.75 -0.1464742 0.05465933
624.375 0.1887244 -0.1277629
625.0 -0.224679 -0.02257961
625.625 0.1371903 -0.02991578
626.25 -0.2249514 0.06792078
626.875 0.2468269 0.05464789
627.5 -0.1719239 -0.193059
628.125 0.1085289 0.1441081
628.75 -0.1139063 -0.2251014
629.375 -0.05878451 0.2181226
630.0 0.04611835 -0.1461083
630.625 -0.1192392 0.1871483
631.25 0.1515583 -0.1510828
631.875 -0.2625464 0.09704658
632.5 0.2084848 0.01547764
633.125 -0.2193533 -0.01598712
633.75 0.2246884 0.1240306
634.375 -0.1573495 -0.09277684
635.0 0.1919871 0.1064648
635.625 -0.1812197 -0.0562276
636.25 0.2650554 0.1461445
636.875 -0.06565979 -0.2625514
637.5 0.05668366 0.1866901
638.125 -0.01189331 -0.2669599
638.75 -0.09005205 0.1923016
639.375 0.1682803 -0.1323215
640.0 -0.1324206 0.05802493
640.625 0.2580245 -0.07580922
641.25 -0.2106429 -0.1928282
641.875 0.1014236 0.1458444
642.5 -0.09847322 -0.2375589
643.125 -0.05939638 0.2036659
643.75 0.0808489 -0.2179425
644.375 -0.1243443 0.1446655
645.0 0.06425392 -0.1968116
645.625 -0.1981788 0.2031486
646.25 0.1935428 -0.1323222
646.875 -0.2449228 0.08131326
647.5 0.2040491 0.0117972
648.125 -0.2491436 -0.03758606
648.75 0.1430191 0.201169
649.375 -0.07557496 -0.09735336
650.0 0.1062697 0.2250209
650.625 0.1206738 -0.2301136
651.25 -0.1931784 0.09636297
651.875 0.2107673 -0.01824004
652.5 -0.2243648 -0.08706476
653.125 0.104098 0.1855168
653.75 -0.04666139 -0.1818377
654.375 -0.01453504 0.2131127
655.0 0.05505933 -0.203623
655.625 -0.1633207 0.2286223
656.25 0.2215618 -0.1265104
656.875 -0.178401 0.1095517
657.5 0.2227245 -0.1371812
658.125 -0.2460186 0.02605244
658.75 0.1958525 0.01471874
659.375 -0.1635289 0.07032629
660.0 0.280692 -0.06856564
660.625 -0.2620837 -0.05065677
661.25 0.1932068 -0.01348743
661.875 -0.2806843 0.02096031
662.5 0.2318993 0.06094924
663.125 -0.2004312 -0.1037179
663.75 0.09791344 0.1798025
664.375 -0.05731933 -0.194729
665.0 -0.2060783 0.2356599
665.625 0.2323274 0.03449666
666.25 -0.2088401 -0.08995111
666.875 0.1573913 0.1991648
667.5 -0.08464636 -0.2213044
668.125 -0.04701006 0.2444564
668.75 0.01664444 -0.1170187
669.375 0.001020279 0.2753718
670.0 0.2135147 -0.1817077
670.625 -0.1484605 0.1045365
671.25 0.2181172 -0.1400363
671.875 -0.2151753 0.0716116
672.5 0.1962135 -0.1383441
673.125 -0.1906469 0.08873015
673.75 0.1084122 -0.1269852
674.375 -0.2671025 0.07236666
675.0 0.1972988 0.1568289
675.625 -0.09074259 -0.1998419
676.25 -0.001811602 0.2191146
676.875 0.11717 -0.2404688
677.5 -0.2277068 0.08548528
678.125 0.1281751 -0.03976814
678.75 -0.1854974 0.09506889
679.375 0.2430491 0.006243719
680.0 -0.2235085 -0.08254442
680.625 0.1788679 0.1203749
681.25 -0.1940368 -0.1116434
681.875 0.2021463 0.1503638
682.5 -0.1499998 -0.1723951
683.125 0.0804823 0.128927
683.75 -0.1542216 -0.1373647
684.375 -0.1203534 0.2960223
685.0 0.2260484 0.0241384
685.625 -0.1867477 -0.06524438
686.25 0.07571405 0.2837862
686.875 0.1226003 -0.1958376
687.5 -0.1745368 0.1198954
688.125 0.1336368 -0.06221831
688.75 -0.1864653 0.1286754
689.375 0.2832989 0.09736151
690.0 -0.1253464 -0.1493771
690.625 0.1585204 0.1800513
691.25 -0.1321202 -0.2296723
691.875 0.1766372 0.1470543
692.5 -0.2183108 -0.09796086
693.125 0.1301153 -0.07698449
693.75 -0.1570565 0.2631476
694.375 0.2913291 -0.1289372
695.0 -0.2105814 -0.009522909
695.625 0.1669296 0.2308847
696.25 0.2143013 -0.1653361
696.875 -0.2078289 -0.1530735
697.5 -0.02806566 0.1955385
698.125 -0.004494178 -0.171177
698.75 -0.1564231 0.2481139
699.375 0.2392697 -0.09205585
700.0 -0.2329396 0.01132748
700.625 0.199643 0.09925918
701.25 -0.2050541 -0.1431312
701.875 0.1465094 0.2663283
702.5 -0.07365445 -0.1337446
703.125 0.2422691 -0.08249479
703.75 -0.3310418 0.08835038
704.375 0.2879939 -0.07456984
705.0 -0.2970487 -0.0463725
705.625 0.1737877 0.1570928
706.25 -0.008720587 -0.3242877
706.875 -0.3181099 0.005452784
707.5 0.1219023 0.09967334
708.125 -0.1517628 -0.2103879
708.75 -0.1150338 0.2757354
709.375 0.2703238 -0.08782318
710.0 -0.2153091 -0.09260423
710.625 0.1677116 0.1934891
711.25 0.006305039 -0.2976433
711.875 -0.1212731 0.2136101
712.5 0.04423044 -0.2044282
713.125 0.1175627 0.2089737
713.75 -0.2748604 -0.205036
714.375 0.2819336 0.2297639
715.0 -0.2346899 -0.1577691
715.625 0.2399207 0.243151
716.25 0.03802817 -0.3623214
716.875 -0.2669191 0.1345635
717.5 0.2054049 0.02200661
718.125 -0.2761452 -0.03925001
718.75 0.2255286 0.2906389
719.375 0.07793823 -0.2894434
720.0 -0.245811 0.112972
720.625 0.1933804 0.2181726
721.25 0.2050714 -0.2157605
721.875 -0.2472943 -0.1615851
722.5 0.09213322 0.1752988
723.125 -0.2764548 -0.1163168
723.75 0.4051407 0.1431438
724.375 -0.3419498 -0.02312702
725.0 0.2237446 -0.1345566
725.625 -0.2389067 0.1883458
726.25 0.3147446 -0.0696975
726.875 -0.2109896 -0.1728995
727.5 0.1159404 0.1712901
728.125 -0.04441905 -0.3162352
728.75 -0.1466579 0.2967065
729.375 0.1405948 -0.2965221
730.0 -0.2543177 0.2403428
730.625 0.2116267 -0.0620199
731.25 -0.2850907 -0.05097974
731.875 -0.07605545 0.3163974
732.5 0.1123286 -0.02087894
733.125 -0.2515005 0.1102984
733.75 0.3113742 0.1768793
734.375 -0.2014181 -0.2230726
735.0 0.2727315 0.1466008
735.625 -0.2776856 -0.08504817
736.25 0.314319 0.1156508
736.875 -0.132106 -0.226701
737.5 0.07318193 0.1400867
738.125 -0.01199372 -0.2692896
738.75 -0.173164 0.2033357
739.375 0.2833557 -0.1888844
740.0 -0.3316024 0.05433707
740.625 0.1965054 -0.09646057
741.25 -0.3359896 0.06247957
741.875 0.03246018 0.3085796
742.5 0.09485376 -0.03220041
743.125 -0.267078 -0.001546817
743.75 0.02855822 0.3840418
744.375 0.1830878 -0.2149278
745.0 -0.08710492 0.221205
745.625 0.1335278 -0.3472021
746.25 -0.1778067 0.2218724
746.875 0.08616167 -0.1735366
747.5 -0.0622055 0.1556539
748.125 0.01004892 -0.1466544
748.75 0.04234001 0.2429518
749.375 -0.08455959 -0.2937119
750.0 0.1816039 0.1569885
