!Created with skrf (http://scikit-rf.org).
# GHz S RI R 50.0 
!freq ReS11 ImS11
500.0 0.01736845 -0.1524102
500.625 0.1044276 0.01891731
501.25 -0.1814811 -0.07637756
501.875 0.1998004 -0.1043648
502.5 -0.1472822 -0.03316669
503.125 0.07762913 -0.230226
503.75 -0.09221438 0.1168505
504.375 -0.123062 -0.2026531
505.0 0.01577369 0.1607685
505.625 -0.237883 -0.04128141
506.25 0.07517236 0.1366154
506.875 -0.3190306 0.01989379
507.5 0.2706079 0.06284437
508.125 -0.33733 -0.1165401
508.75 0.1811645 -0.01771347
509.375 -0.2830554 0.2498737
510.0 0.1388586 -0.002757895
510.625 0.1725701 0.2039345
511.25 -0.06908973 -0.08649551
511.875 0.2698053 -0.01154774
512.5 -0.1339056 -0.03554341
513.125 -0.03081444 -0.1953083
513.75 -0.006405674 0.2633825
514.375 -0.1347985 -0.0990645
515.0 0.2748542 -0.09298664
515.625 -0.3006715 -0.2695446
516.25 0.1959559 -0.06647542
516.875 -0.3024645 -0.2633563
517.5 0.1218602 -0.05059633
518.125 -0.4121451 -0.2847407
518.75 0.1009055 -0.05661092
519.375 -0.3038199 0.144838
520.0 0.1660478 -0.1468777
520.625 -0.1259073 0.177426
521.25 -0.03348982 -0.2164304
521.875 -0.08607986 0.1448725
522.5 -0.1411405 -0.0284934
523.125 0.2678163 0.3199756
523.75 -0.3773378 0.007555344
524.375 0.4211775 0.5323046
525.0 -0.1075506 -0.04273131
525.625 0.2279273 0.1902275
526.25 -0.04943542 -0.06042635
526.875 0.2035885 -0.03071551
527.5 -0.1650544 0.08436875
528.125 0.145211 -0.1652019
528.75 -0.029721 0.1645121
529.375 -0.0352043 -0.3392895
530.0 0.059488 0.08680117
530.625 -0.2858479 0.1142148
531.25 0.2218902 -0.04700714
531.875 -0.3959217 0.2635857
532.5 0.2840911 -0.1130205
533.125 -0.111391 0.2652542
533.75 0.204929 -0.2260962
534.375 -0.09852728 0.1419668
535.0 -0.03443542 -0.1748516
535.625 -0.06879173 0.2554149
536.25 0.02567608 -0.1748914
536.875 0.1154946 0.2431163
537.5 0.1625485 -0.2544357
538.125 0.001305731 0.1650095
538.75 -0.03043834 -0.2323804
539.375 0.07389803 0.2025599
540.0 -0.1394638 -0.3503638
540.625 0.03152735 0.3428756
541.25 -0.06173144 -0.2110178
541.875 0.1030117 0.3471593
542.5 0.09989893 -0.1658382
543.125 0.2077 0.0748518
543.75 -0.2050713 -0.1570474
544.375 0.1681496 -0.05478302
545.0 -0.2791395 0.1306978
545.625 0.114729 -0.1276993
546.25 -0.08609588 0.2684209
546.875 0.06645747 -0.1711017
547.5 -0.02552471 0.2268317
548.125 -0.02741646 -0.2579766
548.75 -0.1973152 0.3044494
549.375 0.09499989 -0.152259
550.0 -0.3465764 0.2187079
550.625 0.2134443 0.05492831
551.25 -0.2581705 0.04576545
551.875 0.2042246 0.07875161
552.5 -0.1573365 0.144728
553.125 0.2772863 -0.1039046
553.75 -0.1762702 0.08886638
554.375 0.2060808 -0.1282594
555.0 -0.1819379 0.117225
555.625 0.1791719 -0.08270246
556.25 -0.06232345 0.1560781
556.875 0.2603608 -0.1575441
557.5 -0.1226666 0.03966088
558.125 0.2440019 -0.1719503
558.75 -0.206796 -0.1413438
559.375 0.1528317 0.006007713
560.0 -0.2181503 -0.0715508
560.625 0.1509752 0.02107854
561.25 -0.1951399 0.08337814
561.875 0.2363631 -0.1013826
562.5 -0.1588493 0.1099725
563.125 0.08638655 -0.2437132
563.75 -0.1826844 0.2234345
564.375 0.02578064 -0.115056
565.0 -0.03067266 0.2913586
565.625 0.1151179 -0.1829908
566.25 -0.05536832 0.2109268
566.875 0.201478 -0.2122211
567.5 -0.2268302 0.0156152
568.125 0.2142767 -0.002808855
568.75 -0.2239458 -0.09185944
569.375 0.1323295 0.03025751
570.0 -0.2707058 -0.05048208
570.625 0.1753255 0.1008553
571.25 -0.2209852 0.05045666
571.875 0.2883362 0.07824475
572.5 -0.1789562 -0.02438772
573.125 0.2221637 -0.07371799
573.75 -0.1642317 0.1262648
574.375 0.1563767 -0.1990383
575.0 -0.1102014 0.169901
575.625 0.1110671 -0.2536215
576.25 -0.1805293 0.1664022
576.875 0.1375625 -0.1740789
577.5 -0.1843117 0.1105032
578.125 0.08164331 -0.1212131
578.75 -0.226229 0.1665838
579.375 0.1550737 -0.06001861
580.0 -0.1670267 0.1750012
580.625 0.2666557 -0.07349577
581.25 -0.2023802 0.05376673
581.875 0.2128546 -0.006119427
582.5 -0.1749157 0.009677008
583.125 0.2129678 0.004964006
583.75 -0.2133827 0.003393079
584.375 0.2334035 0.06933121
585.0 -0.1940512 -0.06859031
585.625 0.2240584 0.1761536
586.25 -0.05394716 -0.1901512
586.875 0.1487894 0.06208762
587.5 -0.1719468 -0.1661965
588.125 0.1246413 0.08480228
588.75 -0.2160854 -0.08237106
589.375 0.2147062 0.1036898
590.0 -0.2081057 -0.131653
590.625 0.1648056 0.1272439
591.25 -0.1773074 -0.08098308
591.875 0.1244964 0.09298677
592.5 -0.1903801 -0.1202822
593.125 0.09876128 0.1732872
593.75 -0.119078 -0.1492406
594.375 0.007644032 0.284961
595.0 0.1432334 -0.147458
595.625 -0.07808975 0.1086839
596.25 0.1599082 -0.1412809
596.875 -0.1935657 0.05071483
597.5 0.1167926 -0.08263869
598.125 -0.245851 0.1189291
598.75 0.1981849 0.02345753
599.375 -0.2124022 0.03772653
600.0 0.1948301 0.1176684
600.625 -0.1176912 -0.001423479
601.25 0.2498879 0.0767357
601.875 -0.1150373 -0.1117891
602.5 0.1946711 0.05794228
603.125 -0.1530247 -0.2137903
603.75 0.04635093 0.2037188
604.375 -0.00553386 -0.1771567
605.0 -0.0008867932 0.1710512
605.625 0.08298226 -0.1811045
606.25 -0.1136104 0.1426361
606.875 0.1575437 -0.1424023
607.5 -0.1709219 0.1143171
608.125 0.2376616 -0.0984118
608.75 -0.197298 -0.03306641
609.375 0.1681935 -0.04465472
610.0 -0.2118135 -0.06380834
610.625 0.1800092 0.04541269
611.25 -0.20117 -0.1041226
611.875 0.1530707 0.1184726
612.5 -0.1771618 -0.2387158
613.125 -0.0417858 0.2292681
613.75 -0.06519774 -0.1600494
614.375 -0.03929009 0.2414869
615.0 0.005526136 -0.1684726
615.625 -0.04705698 0.2525575
616.25 0.05884928 -0.1733658
616.875 -0.08872256 0.2760577
617.5 0.2714612 -0.141475
618.125 -0.1415185 0.061698
618.75 0.1749217 -0.1410622
619.375 -0.2366687 0.04287646
620.0 0.2069845 0.02499517
620.625 -0.2139871 0.0300944
621.25 0.2751371 0.07445169
621.875 -0.1837991 -0.149704
622.5 0.1867066 0.1729672
623.125 -0.08393043 -0.193409
623.75 0.1257173 0.1521936
624.375 -0.06598847 -0.2684024
625.0 -0.008887127 0.1748981
625.625 -0.06239985 -0.2512065
626.25 -0.05389554 0.2879881
626.875 0.1730536 -0.207056
627.5 -0.1945515 0.09385035
628.125 0.1707189 -0.1427235
628.75 -0.2763878 0.01689424
629.375 0.1676404 0.03869133
630.0 -0.2382803 -0.07827914
630.625 0.1530719 0.2100854
631.25 -0.08800442 -0.2491344
631.875 -0.04550954 0.2584619
632.5 0.01230071 -0.1817195
633.125 -0.1122793 0.246624
633.75 0.1427232 -0.1591461
634.375 -0.113967 0.1985355
635.0 0.1583128 -0.1857192
635.625 -0.1586755 0.220264
636.25 0.3011335 -0.1173397
636.875 -0.1908756 -0.0109057
637.5 0.2526133 -0.02288809
638.125 -0.2315243 -0.09251858
638.75 0.1778451 0.101162
639.375 -0.1152004 -0.1739957
640.0 0.08489584 0.2142551
640.625 0.1382616 -0.289889
641.25 -0.2006863 0.06659576
641.875 0.190422 -0.1011196
642.5 -0.2439545 -0.02017556
643.125 0.1821084 0.06787008
643.75 -0.1848386 -0.1384718
644.375 0.1566019 0.0973721
645.0 -0.2088367 -0.2044577
645.625 0.05661357 0.2598912
646.25 -0.07067978 -0.2102376
646.875 -0.008682354 0.2329662
647.5 0.0235452 -0.2060851
648.125 -0.1456417 0.2158578
648.75 0.1320829 -0.07993781
649.375 -0.1678718 0.1580435
650.0 0.2826168 0.05713867
650.625 -0.1224205 -0.1803939
651.25 0.05251652 0.1845702
651.875 0.03452258 -0.213511
652.5 -0.134344 0.1707597
653.125 0.151129 -0.08706628
653.75 -0.2181379 0.05302827
654.375 0.2203076 0.06104992
655.0 -0.2072591 -0.1439788
655.625 0.1096893 0.2420603
656.25 -0.05813795 -0.1759188
656.875 0.1044902 0.2086961
657.5 -0.06017738 -0.2354136
658.125 0.00171532 0.1966834
658.75 -0.04093145 -0.1840727
659.375 0.05343178 0.2658559
660.0 0.09783175 -0.2790777
660.625 -0.0681117 0.1636599
661.25 -0.007609949 -0.2347228
661.875 -0.06895332 0.2412195
662.5 0.02261661 -0.1824023
663.125 -0.1007856 0.2101841
663.75 0.1477159 -0.1426632
664.375 -0.2977074 -0.007058559
665.0 0.1010196 0.2626338
665.625 0.01295943 -0.1789672
666.25 -0.1271614 0.2140402
666.875 0.1770029 -0.1237906
667.5 -0.2180375 0.07383654
668.125 0.1659329 -0.01039389
668.75 -0.2424626 0.0710028
669.375 0.2808032 0.1667546
670.0 -0.08860593 -0.1631866
670.625 0.1518261 0.1623404
671.25 -0.08380927 -0.2207149
671.875 0.1028286 0.1623164
672.5 -0.1468757 -0.1723976
673.125 0.1675159 0.08356172
673.75 -0.2278439 -0.1975425
674.375 -0.01523742 0.2852615
675.0 0.1221194 -0.1739713
675.625 -0.1909113 0.1218352
676.25 0.2444468 -0.01520988
676.875 -0.2043969 -0.115093
677.5 0.1271393 0.09156633
678.125 -0.2136189 -0.1373581
678.75 0.09437791 0.27512
679.375 0.03721299 -0.2530296
680.0 -0.07065031 0.2099924
680.625 0.07939365 -0.2044445
681.25 -0.09898337 0.2257488
681.875 0.1021419 -0.1937137
682.5 -0.05050345 0.1932729
683.125 0.06445425 -0.2532773
683.75 -0.2891255 0.1984805
684.375 0.2265008 0.1804013
685.0 -0.08953361 -0.1698321
685.625 -0.1028954 0.2960042
686.25 0.2560854 -0.04221583
686.875 -0.2082341 -0.01740482
687.5 0.2137731 0.09187268
688.125 -0.2430754 -0.1317072
688.75 0.1066823 0.3412498
689.375 0.1203826 -0.2320202
690.0 -0.1036561 0.2102371
690.625 0.2348221 -0.1870364
691.25 -0.1780959 0.1593035
691.875 0.1020507 -0.2503202
692.5 0.03443435 0.2464729
693.125 -0.262317 -0.2339988
693.75 0.2502221 0.3215798
694.375 -0.113412 -0.2432057
695.0 0.05603528 0.3166036
695.625 0.3007358 -0.1538577
696.25 -0.1852786 -0.2040277
696.875 -0.1222007 0.2388524
697.5 0.203954 -0.1286828
698.125 -0.3551405 -0.04757514
698.75 0.1968854 0.2815417
699.375 -0.08132958 -0.2399117
700.0 0.000337979 0.2734176
700.625 0.09751368 -0.2379521
701.25 -0.2210453 0.21233
701.875 0.2064446 -0.1057341
702.5 -0.0315752 0.2676816
703.125 0.0540484 -0.4262367
703.75 -0.05295025 0.3560024
704.375 -0.03866368 -0.3170354
705.0 -0.07249271 0.2981666
705.625 0.2074626 -0.237747
706.25 -0.336924 -0.1265629
706.875 0.01458279 0.2192383
707.5 0.05261196 -0.2924754
708.125 -0.3681756 0.08688133
708.75 0.2323382 0.2339841
709.375 -0.01972044 -0.2724303
710.0 -0.1148885 0.2342478
710.625 0.2784891 -0.1262954
711.25 -0.2495828 -0.08049686
711.875 0.2162986 0.06593767
712.5 -0.280092 -0.004995747
713.125 0.3391433 -0.1010311
713.75 -0.3634182 0.1725465
714.375 0.263757 -0.1721293
715.0 -0.1997962 0.2495321
715.625 0.3382828 -0.1553756
716.25 -0.2820716 -0.1060712
716.875 0.1565272 0.1893876
717.5 -0.0654651 -0.2919106
718.125 -0.2026998 0.3436681
718.75 0.3563947 -0.06857253
719.375 -0.2354252 -0.109082
720.0 0.0838978 0.2789969
720.625 0.2467908 -0.1358
721.25 -0.155821 -0.2121012
721.875 -0.08875035 0.2018685
722.5 0.1513276 -0.2355182
723.125 -0.3063931 0.307005
723.75 0.2846343 -0.2825297
724.375 -0.02183161 0.2671399
725.0 -0.1499629 -0.2704013
725.625 0.114462 0.2795494
726.25 -0.02079242 -0.2409565
726.875 -0.04408319 0.2030691
727.5 0.1961796 -0.2523264
728.125 -0.3840021 -0.02159491
728.75 0.2860602 0.1799266
729.375 -0.2747584 -0.2183897
730.0 0.1600095 0.2179952
730.625 -0.1437999 -0.1933226
731.25 -0.1359907 0.2726321
731.875 0.1470752 0.01406003
732.5 -0.2697048 -0.03523244
733.125 -0.006788243 0.4044456
733.75 0.2216019 -0.2119591
734.375 -0.1749185 0.2173906
735.0 0.1269178 -0.2979314
735.625 -0.08420143 0.3177894
736.25 0.1246625 -0.2561586
736.875 -0.06508715 0.1755976
737.5 0.1946973 -0.2354511
738.125 -0.3375007 -0.02190088
738.75 0.2383666 0.2182096
739.375 -0.124128 -0.3294804
740.0 0.08523475 0.2457343
740.625 -0.2002676 -0.259966
741.25 -0.03625277 0.3398385
741.875 0.1355839 -0.0737666
742.5 -0.2847259 -0.04633764
743.125 -0.2222479 0.3684838
743.75 0.3113193 0.1353436
744.375 -0.1947042 -0.0722189
745.0 0.3470813 0.1683172
745.625 -0.2611391 -0.2350078
746.25 0.1790104 0.11019
746.875 -0.2239277 -0.03582256
747.5 0.1936142 0.02620872
748.125 -0.2396112 -0.04380579
748.75 0.2684758 0.1008919
749.375 -0.2335588 -0.02009114
750.0 0.1049346 -0.1939556
