!Created with skrf (http://scikit-rf.org).
# GHz S RI R 50.0 
!freq ReS11 ImS11
500.0 -0.05207549 -0.1077778
500.625 0.09636972 -0.1033303
501.25 -0.1106277 0.07146475
501.875 0.04459408 -0.2686348
502.5 -0.007518444 0.1246167
503.125 -0.06731448 -0.270245
503.75 0.03994828 0.0824808
504.375 -0.2288205 -0.1055762
505.0 0.04159305 0.00818108
505.625 -0.2410717 0.139979
506.25 0.04392182 -0.03972108
506.875 -0.3033296 0.2550211
507.5 0.1823731 -0.1465928
508.125 -0.2938967 0.1215808
508.75 -0.02222713 -0.1768201
509.375 -0.04309554 0.3266304
510.0 -0.1460299 -0.08741851
510.625 0.2726521 0.04525166
511.25 -0.1079768 0.07701588
511.875 0.2188302 -0.1509603
512.5 -0.02386011 0.04624674
513.125 -0.1916847 -0.1178938
513.75 0.1524769 0.06575973
514.375 -0.149383 0.1544685
515.0 0.1657858 -0.3175965
515.625 -0.297063 0.001607791
516.25 0.02836429 -0.2714401
516.875 -0.278691 0.02789813
517.5 -0.07224108 -0.2208473
518.125 -0.3667863 0.1145859
518.75 -0.05634788 -0.2448105
519.375 -0.1426159 0.2941846
520.0 -0.04830823 -0.1757406
520.625 0.09239992 0.1657257
521.25 -0.2126542 -0.0899641
521.875 0.06162088 0.05653993
522.5 -0.1892143 0.1531176
523.125 0.3192908 -0.005633847
523.75 -0.3492341 0.4195029
524.375 0.4649975 0.08267774
525.0 -0.1315952 0.1785238
525.625 0.2272911 -0.02174926
526.25 -0.03156284 0.1660098
526.875 0.1333861 -0.1956654
527.5 -0.0263435 0.1961358
528.125 -0.04027995 -0.1763295
528.75 0.176411 0.1379444
529.375 -0.2071963 -0.1631638
530.0 0.06936373 -0.1547727
530.625 -0.08725362 0.3124066
531.25 -0.004075171 -0.3231721
531.875 -0.1500915 0.4788132
532.5 -0.0173106 -0.2013525
533.125 0.1660545 0.3062896
533.75 -0.07500289 -0.2131089
534.375 0.1514646 0.1209702
535.0 -0.2499343 -0.07201005
535.625 0.129728 0.2378608
536.25 -0.1411089 -0.06190548
536.875 0.2976586 0.1042306
537.5 -0.08092014 -0.1908111
538.125 0.2088606 0.04464322
538.75 -0.2198621 -0.04944044
539.375 0.3020099 0.03650223
540.0 -0.3818209 -0.1530551
540.625 0.2571265 0.1391257
541.25 -0.2710609 -0.03462063
541.875 0.2980277 0.1572497
542.5 -0.09081748 -0.002552588
543.125 0.3001191 -0.1341153
543.75 -0.1800384 0.05636232
544.375 0.09785284 -0.2623091
545.0 -0.1014797 0.244173
545.625 -0.1094307 -0.1668935
546.25 0.1425439 0.2085237
546.875 -0.167627 -0.06943861
547.5 0.2298623 0.1198066
548.125 -0.3005705 -0.1834727
548.75 0.06783416 0.3015423
549.375 -0.1845351 -0.1831487
550.0 -0.1203297 0.3752855
550.625 -0.003054043 -0.114206
551.25 -0.1556856 0.2915286
551.875 0.06966662 -0.1245681
552.5 0.004777488 0.3195579
553.125 0.08886333 -0.2365312
553.75 0.005875759 0.2244862
554.375 0.01168977 -0.2225012
555.0 0.03277997 0.1973449
555.625 -0.05645319 -0.1350388
556.25 0.1608719 0.2361217
556.875 0.06669556 -0.2621882
557.5 0.06099827 0.1496931
558.125 0.07685524 -0.3165023
558.75 -0.130949 0.06442664
559.375 0.07425278 -0.1976431
560.0 -0.1388132 0.1376577
560.625 0.03560596 -0.1746708
561.25 -0.04578801 0.2565359
561.875 0.05671374 -0.2275992
562.5 0.05875064 0.1706117
563.125 -0.1518286 -0.2339795
563.75 0.05805957 0.1650746
564.375 -0.2112095 0.001411581
565.0 0.2237013 0.2052192
565.625 -0.1355105 -0.1133064
566.25 0.1901809 0.1997951
566.875 -0.04088858 -0.2531411
567.5 -0.02887294 0.1716147
568.125 0.06655014 -0.213185
568.75 -0.09852239 0.1414682
569.375 0.04527345 -0.2010835
570.0 -0.1969961 0.1911708
570.625 0.07674755 -0.1262801
571.25 -0.1056769 0.2658713
571.875 0.1642465 -0.1313371
572.5 0.01371543 0.1570019
573.125 -0.03569269 -0.2201631
573.75 0.1235724 0.1877621
574.375 -0.1339347 -0.1967094
575.0 0.1736687 0.1436466
575.625 -0.1543155 -0.2237715
576.25 0.08403227 0.1499855
576.875 -0.1345523 -0.1627342
577.5 0.08442856 0.09619462
578.125 -0.1831198 -0.15859
578.75 0.03573749 0.2325199
579.375 -0.109823 -0.1171917
580.0 0.08284634 0.267981
580.625 0.02080829 -0.1847174
581.25 0.05536277 0.1670032
581.875 -0.03515198 -0.1608717
582.5 0.04814764 0.1964624
583.125 0.02003133 -0.2219869
583.75 -0.03803128 0.2301515
584.375 0.09832519 -0.1811307
585.0 -0.09653802 0.2038275
585.625 0.1916934 -0.1037332
586.25 -0.03528842 0.1009563
586.875 0.122513 -0.2186837
587.5 -0.1324508 0.1126666
588.125 0.06717949 -0.1948004
588.75 -0.1457304 0.1991999
589.375 0.1254486 -0.1776601
590.0 -0.1227643 0.1483936
590.625 0.04637022 -0.1664254
591.25 -0.02499537 0.187664
591.875 0.07502712 -0.2026475
592.5 -0.1729478 0.1699317
593.125 0.1238288 -0.119183
593.75 -0.2486277 0.1146089
594.375 0.2070287 0.08380963
595.0 -0.1238438 -0.01364127
595.625 0.2177586 0.06633952
596.25 -0.1219623 -0.2036108
596.875 0.0876739 0.1411319
597.5 -0.1389077 -0.2265159
598.125 -0.004174082 0.2708806
598.75 -0.01526993 -0.1631571
599.375 0.002113409 0.2495205
600.0 0.02976406 -0.1374444
600.625 0.01752077 0.2697055
601.25 0.1556628 -0.2067197
601.875 -0.0536644 0.1711956
602.5 0.1945412 -0.2250725
603.125 -0.221279 0.05610374
603.75 0.184115 -0.05214538
604.375 -0.1820123 0.05696863
605.0 0.2398811 -0.0001066179
605.625 -0.1955984 -0.118256
606.25 0.1661424 0.1677306
606.875 -0.1126982 -0.2182792
607.5 0.07487953 0.2372234
608.125 0.007604298 -0.2484254
608.75 0.02109001 0.1585926
609.375 -0.03390247 -0.2632688
610.0 -0.09278237 0.2100077
610.625 0.1120017 -0.2336616
611.25 -0.1741837 0.1697655
611.875 0.2171185 -0.1482447
612.5 -0.2936773 0.0003641928
613.125 0.1448305 0.0002379505
613.75 -0.2823841 0.03870214
614.375 0.2009705 0.1017386
615.0 -0.2486224 -0.0381235
615.625 0.2161343 0.1695036
616.25 -0.2055443 -0.1147288
616.875 0.1711905 0.2844084
617.5 0.001747497 -0.2109817
618.125 0.1280832 0.1570205
618.75 -0.07691807 -0.2664083
619.375 -0.0357112 0.2413295
620.0 0.07058217 -0.2189716
620.625 -0.09601225 0.2753571
621.25 0.220074 -0.1707261
621.875 -0.1937392 0.1062892
622.5 0.2166096 -0.1029611
623.125 -0.1697041 0.07521938
623.75 0.2668863 -0.08179067
624.375 -0.2410695 -0.06054692
625.0 0.2105017 0.01455991
625.625 -0.2943927 -0.1216955
626.25 0.1840399 0.1973286
626.875 -0.1015873 -0.2054591
627.5 0.07106944 0.1807523
628.125 -0.08969522 -0.2584151
628.75 -0.07863819 0.2217871
629.375 0.04854266 -0.2052178
630.0 -0.2309479 0.1902373
630.625 0.2447123 -0.02372911
631.25 -0.2543466 -0.05541915
631.875 0.165451 0.08681658
632.5 -0.221185 -0.0365014
633.125 0.1670527 0.2041678
633.75 -0.1394086 -0.1363522
634.375 0.1669318 0.2182055
635.0 -0.1086777 -0.2204552
635.625 0.1014784 0.276917
636.25 0.05075968 -0.2315918
636.875 0.02791084 0.1757156
637.5 0.08722909 -0.2609707
638.125 -0.1046786 0.1662354
638.75 0.1441552 -0.1774308
639.375 -0.202701 0.08549171
640.0 0.2772143 0.05782096
640.625 -0.1081078 -0.2416523
641.25 0.06405362 0.121119
641.875 -0.03697457 -0.2464054
642.5 -0.05450829 0.1771786
643.125 0.08811846 -0.1992588
643.75 -0.1598209 0.1407131
644.375 0.1630596 -0.1781317
645.0 -0.2845755 0.05125304
645.625 0.1860694 0.0162587
646.25 -0.2093112 0.04359428
646.875 0.1971975 0.01725489
647.5 -0.2327187 -0.0631898
648.125 0.1333114 0.1602633
648.75 -0.1523196 -0.1069004
649.375 0.05697368 0.2933261
650.0 0.1646829 -0.1641566
650.625 -0.1233326 0.08988825
651.25 0.1930169 -0.05655643
651.875 -0.206717 -0.06009176
652.5 0.148175 0.1111946
653.125 -0.1209002 -0.1783444
653.75 -0.007028128 0.2521763
654.375 0.1145448 -0.2000622
655.0 -0.2041433 0.1415257
655.625 0.1765898 -0.04743883
656.25 -0.1532458 0.1208164
656.875 0.2471873 -0.08383319
657.5 -0.1998304 0.04709604
658.125 0.207541 -0.05246034
658.75 -0.2593187 0.03042116
659.375 0.2831053 0.08289108
660.0 -0.1598137 -0.1181748
660.625 0.1850533 -0.01729722
661.25 -0.2643773 -0.03962934
661.875 0.1872718 0.02976782
662.5 -0.2444348 0.02142077
663.125 0.2237893 0.1172247
663.75 -0.1642696 -0.2135366
664.375 -0.1409011 0.2640538
665.0 0.1576336 -0.06268364
665.625 -0.232143 0.04005998
666.25 0.1962436 0.1401866
666.875 -0.1588307 -0.152982
667.5 0.08752529 0.2188311
668.125 -0.09111902 -0.2150087
668.75 -0.07641679 0.3280322
669.375 0.2004349 -0.1266117
670.0 -0.07810377 0.1532623
670.625 0.2181427 -0.1487859
671.25 -0.1658417 0.09488384
671.875 0.1868347 -0.1581636
672.5 -0.1648037 0.1731276
673.125 0.1511606 -0.2494736
673.75 -0.303335 0.1159389
674.375 0.2068771 0.04493658
675.0 -0.2049166 -0.0987279
675.625 0.1295359 0.2174629
676.25 0.01042285 -0.2506917
676.875 -0.072773 0.190504
677.5 0.101973 -0.2456885
678.125 -0.2854371 0.1613696
678.75 0.2701716 0.03145767
679.375 -0.2119992 -0.05962535
680.0 0.2092898 0.06551363
680.625 -0.2261914 -0.1023955
681.25 0.2114161 0.124541
681.875 -0.2111833 -0.08845916
682.5 0.2667179 0.07407986
683.125 -0.2519764 -0.2313101
683.75 -0.004848835 0.3304904
684.375 0.124419 -0.1380448
685.0 -0.2621518 0.1181127
685.625 0.2190718 0.2196603
686.25 -0.03765514 -0.1994638
686.875 -0.03054116 0.2757623
687.5 0.1687483 -0.2300021
688.125 -0.3014198 0.1661668
688.75 0.305228 0.1052762
689.375 -0.1687472 -0.09564449
690.0 0.2136751 0.1992524
690.625 -0.08438773 -0.2529572
691.25 0.1517268 0.1980688
691.875 -0.2427945 -0.1788839
692.5 0.3057196 0.03682391
693.125 -0.4003359 0.06959891
693.75 0.3291407 -0.0149568
694.375 -0.2297201 0.09950323
695.0 0.3427475 0.1018617
695.625 -0.0205611 -0.2878467
696.25 -0.2312672 0.1356771
696.875 0.2186183 0.1644833
697.5 -0.04644223 -0.3163338
698.125 -0.2847337 0.2381414
698.75 0.2605119 -0.01619729
699.375 -0.2365198 0.02117439
700.0 0.241258 0.08574114
700.625 -0.196146 -0.1713788
701.25 0.08307156 0.2496376
701.875 -0.1199894 -0.1660032
702.5 0.287043 0.2478517
703.125 -0.2401813 -0.3138539
703.75 0.2178579 0.1430079
704.375 -0.2798757 -0.05704211
705.0 0.2422882 0.1245553
705.625 -0.1291836 -0.3015039
706.25 -0.1892947 0.1814439
706.875 0.2108638 -0.0725951
707.5 -0.2702968 -0.2563941
708.125 -0.1464894 0.2981087
708.75 0.2328022 -0.08182357
709.375 -0.2153383 -0.03706488
710.0 0.1894052 0.1675016
710.625 -0.0006555599 -0.2507044
711.25 -0.07110021 0.1737184
711.875 0.08172344 -0.2365861
712.5 -0.132396 0.2748505
713.125 0.1032988 -0.3204317
713.75 -0.02789896 0.2939214
714.375 -0.1028279 -0.1982363
715.0 0.1831592 0.2445015
715.625 -0.03192132 -0.2735401
716.25 -0.05797163 0.2069179
716.875 0.1939553 -0.1965449
717.5 -0.3447388 -0.07949875
718.125 0.1410698 0.315004
718.75 0.03308379 -0.2164413
719.375 -0.09027345 0.2028513
720.0 0.2437565 -0.02841124
720.625 -0.08437759 -0.1998128
721.25 -0.1592231 0.1321658
721.875 0.2320832 0.03630409
722.5 -0.1988996 -0.2956856
723.125 0.06910466 0.3633229
723.75 -0.1224081 -0.1824959
724.375 0.2642274 -0.02149784
725.0 -0.2704952 0.08320201
725.625 0.2052274 -0.05970269
726.25 -0.1705874 0.07797821
726.875 0.2807707 0.01857588
727.5 -0.1709242 -0.3166519
728.125 -0.1332519 0.2740079
728.75 0.1809068 -0.2153784
729.375 -0.2104418 0.1707824
730.0 0.1127582 -0.1620446
730.625 -0.2525231 0.133254
731.25 0.1586116 0.1251447
731.875 -0.1464487 -0.1434707
732.5 -0.2685632 0.279397
733.125 0.240837 0.206461
733.75 -0.1333515 -0.1194134
734.375 0.2154234 0.187464
735.0 -0.2597845 -0.1389089
735.625 0.2642758 0.1270312
736.25 -0.1911023 -0.071235
736.875 0.275541 0.06761882
737.5 -0.1093555 -0.3192174
738.125 -0.1296445 0.2388308
738.75 0.2446438 -0.1434142
739.375 -0.2442674 0.02525858
740.0 0.2189581 -0.1272893
740.625 -0.3296252 0.08615817
741.25 0.1877382 0.06749943
741.875 -0.1970508 -0.1154524
742.5 -0.288776 0.2401773
743.125 0.07831155 0.3361578
743.75 0.09220564 -0.1109897
744.375 -0.07037568 0.2488551
745.0 0.2745994 -0.1996272
745.625 -0.1610666 0.104639
746.25 0.05978468 -0.1913404
746.875 -0.07665048 0.2123497
747.5 0.08827431 -0.1697474
748.125 -0.1515595 0.1578206
748.75 0.1475086 -0.09811914
749.375 0.0062989 0.1050027
750.0 -0.1962669 -0.09852142
