!Created with skrf (http://scikit-rf.org).
# GHz S RI R 50.0 
!freq ReS11 ImS11
500.0 0.02073857 0.01654253
500.625 -0.1089344 -0.09055968
501.25 0.1317133 -0.05154557
501.875 -0.2209041 -0.03090984
502.5 0.2541477 -0.07449163
503.125 -0.1606338 -0.04224534
503.75 -0.004202779 -0.1539058
504.375 -0.05352086 0.0834468
505.0 -0.2209168 -0.03260823
505.625 0.06041089 0.1475173
506.25 -0.2388417 0.001757368
506.875 0.09657308 0.268498
507.5 -0.2008389 -0.007395459
508.125 0.1459627 0.03238284
508.75 -0.2855904 0.1907351
509.375 0.07669131 -0.09147291
510.0 -0.2709025 0.3681469
510.625 0.01941492 -0.1327966
511.25 0.1775834 0.1588251
511.875 -0.04534723 -0.05409698
512.5 0.1063421 -0.1562452
513.125 -0.04268124 0.1561545
513.75 -0.1858505 -0.1705388
514.375 0.2647717 0.1737527
515.0 -0.2319068 -0.1453508
515.625 0.211143 -0.006318257
516.25 -0.3201818 0.04941058
516.875 0.2146237 -0.04953181
517.5 -0.3276103 0.131866
518.125 0.2943268 0.01983628
518.75 -0.3728789 0.009210562
519.375 0.1376351 0.00757504
520.0 -0.07498216 0.2088196
520.625 0.03450792 -0.2240897
521.25 0.03668774 0.1973878
521.875 -0.100643 -0.1792169
522.5 0.1043253 0.2249402
523.125 -0.2465744 -0.09641007
523.75 0.4149346 0.3358802
524.375 -0.3521389 0.0687179
525.0 0.2603506 0.1883323
525.625 -0.1317427 0.02223907
526.25 0.3249784 0.1101236
526.875 -0.1503231 -0.07503757
527.5 0.1738281 -0.06054054
528.125 -0.03907433 0.1608993
528.75 0.08795691 -0.2267365
529.375 0.1510795 0.09675554
530.0 -0.3354707 -0.1263587
530.625 0.2157787 -0.0257971
531.25 -0.4728034 0.07949036
531.875 0.2209112 -0.00599024
532.5 -0.1150319 0.3612533
533.125 0.1855834 -0.2093241
533.75 0.02415663 0.2528676
534.375 0.060478 -0.2863527
535.0 -0.05473105 0.2780345
535.625 0.08259127 -0.1246728
536.25 0.09124619 0.2136519
536.875 -0.002680499 -0.1985605
537.5 0.1125566 0.2279052
538.125 -0.05056052 -0.2674486
538.75 0.1176632 0.2187413
539.375 -0.007568332 -0.3317755
540.0 0.03487988 0.250939
540.625 -0.1621574 -0.2210648
541.25 0.1120617 0.2944799
541.875 -0.09969509 -0.1082787
542.5 0.2490608 0.2557473
543.125 -0.06264912 -0.2451161
543.75 0.1858248 -0.02712338
544.375 -0.2536436 -0.08200864
545.0 0.05417142 -0.1171358
545.625 -0.09366773 0.2463417
546.25 -0.05230222 -0.1636198
546.875 0.0860144 0.2657803
547.5 -0.02001873 -0.2717293
548.125 -0.1044132 0.2756239
548.75 -0.01804695 -0.1703977
549.375 -0.130929 0.3236566
550.0 0.04908556 -0.1001473
550.625 -0.1933436 0.3241499
551.25 0.192009 0.024842
551.875 -0.2124734 0.1641614
552.5 0.2472747 -0.01118791
553.125 -0.0724609 0.1432263
553.75 0.162422 -0.1472395
554.375 -0.04728624 0.1556273
555.0 0.04896682 -0.1929145
555.625 -0.03553011 0.2542931
556.25 0.2099553 -0.144385
556.875 -0.02670483 0.1077693
557.5 0.1732181 -0.203448
558.125 -0.08721678 0.03661574
558.75 0.1609751 -0.1732667
559.375 -0.2045934 0.03453374
560.0 0.1428278 -0.08688082
560.625 -0.2195647 0.08434766
561.25 0.1603661 -0.05861386
561.875 -0.06912543 0.1293897
562.5 0.04228356 -0.2157366
563.125 -0.004654714 0.1359947
563.75 -0.1839715 -0.1616529
564.375 0.07119547 0.2871422
565.0 -0.01843552 -0.1398373
565.625 0.09656101 0.230555
566.25 0.05491034 -0.1817755
566.875 0.03530513 0.1503677
567.5 0.08944565 -0.2166562
568.125 -0.1405995 0.1290089
568.75 0.1635048 -0.155137
569.375 -0.2439237 0.0332094
570.0 0.115833 -0.03165293
570.625 -0.2110488 0.1397543
571.25 0.1594852 -0.02054715
571.875 -0.06199534 0.1745923
572.5 0.1404248 -0.218739
573.125 -0.09402637 0.1964902
573.75 0.07070307 -0.235274
574.375 0.01122967 0.199398
575.0 -0.005582585 -0.2444022
575.625 0.02600064 0.147363
576.25 -0.09639959 -0.2102024
576.875 0.04851686 0.1891566
577.5 -0.07239755 -0.2451338
578.125 -0.1171046 0.2032467
578.75 -0.007179473 -0.1466558
579.375 -0.05811597 0.2686837
580.0 0.08761348 -0.1199673
580.625 0.007625388 0.2079257
581.25 0.04451088 -0.2304133
581.875 -0.09246235 0.219186
582.5 0.184733 -0.160153
583.125 -0.1816888 0.1224821
583.75 0.1817748 -0.09888007
584.375 -0.1758301 0.1138232
585.0 0.2098736 -0.05654741
585.625 -0.1465034 0.09986524
586.25 0.2990102 -0.06184794
586.875 -0.2003969 -0.06308605
587.5 0.1935468 -0.05413693
588.125 -0.2590642 -0.01172748
588.75 0.1858203 -0.003781826
589.375 -0.196587 0.06094602
590.0 0.1941411 -0.1073807
590.625 -0.2378277 0.1074156
591.25 0.2258714 -0.09796189
591.875 -0.2564062 -0.0292666
592.5 0.1787268 0.05298083
593.125 -0.2441855 -0.04152643
593.75 0.135262 0.1756417
594.375 -0.141071 -0.0857773
595.0 0.1518537 0.2349467
595.625 0.0582565 -0.2555968
596.25 -0.1023037 0.156026
596.875 0.1026393 -0.2219741
597.5 -0.235662 0.1269269
598.125 0.109963 -0.08785003
598.75 -0.174554 0.182276
599.375 0.1660058 -0.08948145
600.0 -0.210153 0.1551534
600.625 0.2940255 0.03023449
601.25 -0.1514151 -0.01049453
601.875 0.2763075 0.01453302
602.5 -0.1584667 -0.1445014
603.125 0.1494391 0.06500452
603.75 -0.1878425 -0.1161238
604.375 0.1582246 0.1892238
605.0 -0.02422737 -0.2336818
605.625 -0.04086049 0.205385
606.25 0.1284348 -0.1863946
606.875 -0.1433932 0.1413521
607.5 0.1701215 -0.1154698
608.125 -0.1074436 0.1122209
608.75 0.1867868 -0.166811
609.375 -0.2336053 0.04850217
610.0 0.2147814 -0.008174957
610.625 -0.220654 -0.08760738
611.25 0.174707 0.0722832
611.875 -0.1467058 -0.1722763
612.5 0.07654395 0.09174245
613.125 -0.2074486 -0.1535831
613.75 0.02855786 0.2501332
614.375 -0.03896298 -0.1768069
615.0 -0.0204333 0.2496477
615.625 0.04345324 -0.1642555
616.25 -0.06801457 0.2291933
616.875 0.115536 -0.09207333
617.5 0.01232508 0.1847428
618.125 0.1660143 -0.2263605
618.75 -0.1729281 0.09251559
619.375 0.1674681 -0.08361921
620.0 -0.2283753 0.02371298
620.625 0.2064911 0.05050313
621.25 -0.1210846 -0.03121777
621.875 0.1857201 0.01784881
622.5 -0.1676599 -0.04162496
623.125 0.2172252 0.09104221
623.75 -0.09633159 -0.1984635
624.375 0.09550904 0.1106287
625.0 -0.0784727 -0.2359165
625.625 -0.04511178 0.1735125
626.25 -0.03550387 -0.1283758
626.875 0.02930843 0.1761335
627.5 0.08376539 -0.2234392
628.125 -0.1473881 0.1369608
628.75 0.1222771 -0.1247726
629.375 -0.2450285 0.04748241
630.0 0.1370803 0.0904415
630.625 -0.136512 -0.07261989
631.25 0.114793 0.08900307
631.875 -0.1701441 -0.1196949
632.5 0.08033755 0.218436
633.125 -0.01816042 -0.1574248
633.75 0.002706168 0.2366016
634.375 0.07772022 -0.176518
635.0 -0.05678127 0.1789656
635.625 0.06415536 -0.1295002
636.25 0.0319923 0.1825288
636.875 0.1664533 -0.2179281
637.5 -0.1509438 0.07157028
638.125 0.1768492 -0.1290016
638.75 -0.2132817 -0.003783936
639.375 0.1804378 0.09601504
640.0 -0.03493072 -0.1549403
640.625 0.1088505 0.08126745
641.25 -0.01225922 -0.2616381
641.875 -0.1081283 0.1336929
642.5 0.1008667 -0.176889
643.125 -0.2083553 0.0514619
643.75 0.1937802 -0.03326405
644.375 -0.2089475 -0.06101139
645.0 0.1137829 0.02467708
645.625 -0.2208381 -0.005819398
646.25 0.1975815 0.07861359
646.875 -0.1904271 -0.1219078
647.5 0.08497407 0.1874014
648.125 -0.09075444 -0.1657249
648.75 -0.04763678 0.259503
649.375 0.1305448 -0.07296089
650.0 -0.06376251 0.1308969
650.625 0.2137232 -0.07539918
651.25 -0.1882893 -0.09116825
651.875 0.1190092 0.1454161
652.5 -0.07238584 -0.1985666
653.125 -0.08845107 0.2081375
653.75 0.1401814 -0.1071536
654.375 -0.1683599 0.07735011
655.0 0.1563993 -0.03578415
655.625 -0.2162783 0.04759446
656.25 0.2510718 0.06124426
656.875 -0.174996 -0.08976705
657.5 0.2145209 0.06235148
658.125 -0.1900254 -0.156519
658.75 0.1051229 0.196641
659.375 -0.07504714 -0.1107012
660.0 0.1901717 0.09217191
660.625 -0.1712914 -0.2122038
661.25 0.100305 0.1487712
661.875 -0.1925031 -0.1460336
662.5 0.1258821 0.2244364
663.125 -0.03602858 -0.2085954
663.75 -0.105432 0.1969657
664.375 0.1050904 -0.080888
665.0 -0.2484104 0.05384541
665.625 0.1523339 0.199976
666.25 -0.05136052 -0.1874264
666.875 -0.02312838 0.2398685
667.5 0.098242 -0.1959777
668.125 -0.2127808 0.159852
668.75 0.160809 0.01100574
669.375 -0.1105692 0.1316933
670.0 0.2724703 -0.02225741
670.625 -0.1649093 -0.06764849
671.25 0.2212897 0.03080499
671.875 -0.208831 -0.106218
672.5 0.2217685 0.04167052
673.125 -0.2280457 -0.1051182
673.75 0.1088462 0.06965224
674.375 -0.1876741 -0.09544099
675.0 0.03285066 0.2399205
675.625 0.08955105 -0.1898056
676.25 -0.1507648 0.1220094
676.875 0.2168643 -0.09352322
677.5 -0.2576231 -0.08883236
678.125 0.09847686 0.1487319
678.75 -0.1148287 -0.07976478
679.375 0.1325834 0.1451788
680.0 -0.09020541 -0.1965296
680.625 0.02552246 0.2060208
681.25 -0.03728486 -0.1914619
681.875 0.04141217 0.2312581
682.5 0.02070423 -0.2459587
683.125 -0.1184779 0.157945
683.75 0.03888413 -0.09606098
684.375 -0.2145981 0.1317323
685.0 0.1572887 0.2016642
685.625 -0.01172568 -0.1389659
686.25 -0.1020137 0.2243901
686.875 0.2371006 -0.05166741
687.5 -0.206802 -0.07025446
688.125 0.1148686 0.1380613
688.75 -0.1021094 -0.04466536
689.375 0.1309264 0.2075325
690.0 0.0525656 -0.1936996
690.625 -0.0248743 0.1732727
691.25 0.06216407 -0.2345242
691.875 -0.009138302 0.2133645
692.5 -0.06019326 -0.2389282
693.125 0.07130188 0.1359339
693.75 -0.1660543 0.0461714
694.375 0.2694611 0.08519267
695.0 -0.07281513 -0.1682151
695.625 -0.03322762 0.200986
696.25 0.2304584 0.03113235
696.875 -0.03187733 -0.2264324
697.5 -0.199853 0.09782427
698.125 0.08616312 -0.0007036637
698.75 -0.1775775 0.06727828
699.375 0.2004562 0.08146154
700.0 -0.1349709 -0.1226355
700.625 0.05063359 0.1781489
701.25 -0.03543105 -0.1702567
701.875 -0.02437185 0.2739186
702.5 0.1126302 -0.1765393
703.125 0.08653317 0.04202155
703.75 -0.2405274 -0.07582471
704.375 0.2124353 0.1001578
705.0 -0.1689625 -0.1791551
705.625 -0.006025464 0.182833
706.25 0.1138908 -0.2015681
706.875 -0.2596337 -0.1508438
707.5 -0.04631628 0.1599723
708.125 0.006388315 -0.1399897
708.75 -0.1743628 0.1313007
709.375 0.224364 0.05725173
710.0 -0.09438279 -0.168895
710.625 0.02394352 0.1824669
711.25 0.1228094 -0.2201827
711.875 -0.2049596 0.09924935
712.5 0.1519076 -0.08618243
713.125 -0.03549208 0.1455481
713.75 -0.1153986 -0.2138348
714.375 0.1269753 0.2807105
715.0 -0.08483087 -0.2145134
715.625 0.08124861 0.2486426
716.25 0.1646634 -0.2715884
716.875 -0.2793849 -0.01588472
717.5 0.106045 0.1504006
718.125 -0.1363938 -0.1045878
718.75 0.08356803 0.2798165
719.375 0.1740972 -0.199891
720.0 -0.2183587 -0.01355688
720.625 0.06817047 0.2318771
721.25 0.238604 -0.09915482
721.875 -0.1415637 -0.2335966
722.5 -0.05499604 0.1816995
723.125 -0.1263361 -0.1420189
723.75 0.2783231 0.2196436
724.375 -0.276431 -0.1540655
725.0 0.2100079 -0.006399642
725.625 -0.2407287 0.07156982
726.25 0.28676 0.04336822
726.875 -0.1100119 -0.2421788
727.5 -0.02224604 0.1713116
728.125 0.0682037 -0.2287975
728.75 -0.2116707 0.1761588
729.375 0.1955308 -0.1792593
730.0 -0.2852222 0.1257075
730.625 0.1958235 0.04590899
731.25 -0.2043739 -0.1113903
731.875 -0.1641166 0.2675152
732.5 0.1216192 0.09100069
733.125 -0.1755319 0.02368016
733.75 0.2108236 0.224742
734.375 -0.08163656 -0.2532167
735.0 0.1623798 0.2048205
735.625 -0.1814775 -0.1551607
736.25 0.224837 0.182174
736.875 -0.03480818 -0.2554354
737.5 -0.0324577 0.1178
738.125 0.06487295 -0.1900615
738.75 -0.1877676 0.09774105
739.375 0.2654522 -0.07889591
740.0 -0.2987965 -0.05107758
740.625 0.1713821 0.00769348
741.25 -0.2788839 -0.02011176
741.875 -0.05629927 0.2911407
742.5 0.09525988 0.06430972
743.125 -0.1754369 -0.02256284
743.75 -0.03845041 0.3257262
744.375 0.2288242 -0.1281767
745.0 -0.1089209 0.125668
745.625 0.1723526 -0.2579199
746.25 -0.2109993 0.1458412
746.875 0.1188551 -0.1098462
747.5 -0.09486908 0.09877076
748.125 0.03674771 -0.093034
748.75 0.003704487 0.1975345
749.375 -0.02139049 -0.2707469
750.0 0.1137073 0.1770746
