!Created with skrf (http://scikit-rf.org).
# GHz S RI R 50.0 
!freq ReS11 ImS11 ReS21 ImS21 ReS12 ImS12 ReS22 ImS22
75.0041666667 -0.0120443054512 -0.0248502221293 1.00061191827 -0.44675665184 1.00061191827 -0.44675665184 -0.010008530626 -0.0134593047126
75.0583333333 -0.016704164547 -0.0237503446436 0.920509188183 -0.594239494192 0.920509188183 -0.594239494192 -0.0114774300241 -0.0121857065211
75.1125 -0.0211021840803 -0.0216478802248 0.822939573781 -0.726988425332 0.822939573781 -0.726988425332 -0.0136879444606 -0.0111694667686
75.1666666667 -0.0241315510439 -0.01879575143 0.709470224709 -0.840820540164 0.709470224709 -0.840820540164 -0.0154569582842 -0.00927385449857
75.2208333333 -0.0272240415825 -0.0154565498041 0.574914459115 -0.939783625514 0.574914459115 -0.939783625514 -0.017079020289 -0.0071022460606
75.275 -0.030009558457 -0.0111915346613 0.43477384353 -1.01580993113 0.43477384353 -1.01580993113 -0.0178038657464 -0.00376791905454
75.3291666667 -0.0304536572251 -0.00546661920462 0.280004788095 -1.06827859941 0.280004788095 -1.06827859941 -0.017446333661 -0.00083191207959
75.3833333333 -0.030083841478 -0.000518153776259 0.117600586356 -1.09292887774 0.117600586356 -1.09292887774 -0.0166341518583 0.00168704050179
75.4375 -0.0290261890904 0.00280419351929 -0.0355942269331 -1.10492281235 -0.0355942269331 -1.10492281235 -0.0152765680046 0.00426551908384
75.4916666667 -0.0273037850489 0.00641308470874 -0.19738699017 -1.09258525878 -0.19738699017 -1.09258525878 -0.0134973407806 0.00645732611221
75.5458333333 -0.025091339918 0.0103477240187 -0.370227121027 -1.04986154731 -0.370227121027 -1.04986154731 -0.0112054182743 0.00756123839696
75.6 -0.0211635490101 0.0126942631871 -0.51781184994 -0.97797181049 -0.51781184994 -0.97797181049 -0.00953568089431 0.0086769765372
75.6541666667 -0.0200787265173 0.014172266543 -0.653245565789 -0.899480342745 -0.653245565789 -0.899480342745 -0.00701520527361 0.00880187862063
75.7083333333 -0.0167182270437 0.0161801259629 -0.786846433542 -0.790250980385 -0.786846433542 -0.790250980385 -0.00486403475065 0.00855801833265
75.7625 -0.013142220015 0.0172833743211 -0.894711839795 -0.672205841884 -0.894711839795 -0.672205841884 -0.00303904321722 0.00857494157565
75.8166666667 -0.0102022522926 0.0168320209208 -0.978520458629 -0.529020456156 -0.978520458629 -0.529020456156 -0.0011837636486 0.00790205988654
75.8708333333 -0.00775234717578 0.015034495673 -1.0402629411 -0.383524020896 -1.0402629411 -0.383524020896 0.000503737025473 0.00668062522457
75.925 -0.00559211908422 0.0138845601495 -1.08822992973 -0.229154456049 -1.08822992973 -0.229154456049 0.00164131277572 0.00549439909437
75.9791666667 -0.00405320557049 0.0128255184589 -1.10545006077 -0.0707876408068 -1.10545006077 -0.0707876408068 0.0029742665395 0.00443874688587
76.0333333333 -0.00346424195445 0.0113314210572 -1.10182457889 0.091289905968 -1.10182457889 0.091289905968 0.00407045270542 0.00283143609739
76.0875 -0.00338751338621 0.0112436499079 -1.08382074269 0.251455383123 -1.08382074269 0.251455383123 0.00455833640043 0.000998017271469
76.1416666667 -0.0027511814744 0.0110668067533 -1.03191702066 0.412003156128 -1.03191702066 0.412003156128 0.00493605285858 -0.000730307694467
76.1958333333 -0.0024668313878 0.0107476576462 -0.95738301376 0.559621065705 -0.95738301376 0.559621065705 0.00518544736864 -0.00240741327671
76.25 -0.00230524030004 0.010999299628 -0.869000928105 0.702967086237 -0.869000928105 0.702967086237 0.00443470945848 -0.00423905097173
76.3041666667 -0.00195898119494 0.0111211148034 -0.752116388969 0.822141780661 -0.752116388969 0.822141780661 0.00364046058854 -0.00559335306808
76.3583333333 -0.00157278722133 0.0115117799223 -0.62253342475 0.923930037997 -0.62253342475 0.923930037997 0.00264579502569 -0.00637220713242
76.4125 -0.00154368780863 0.0120973314143 -0.468466195805 0.995643165024 -0.468466195805 0.995643165024 0.00246795494288 -0.00710405585649
76.4666666667 -0.000477363324142 0.0128578098319 -0.300342183098 1.04357100474 -0.300342183098 1.04357100474 0.0020572348243 -0.00840926495819
76.5208333333 0.000696965420505 0.013475464615 -0.155193802213 1.06656042154 -0.155193802213 1.06656042154 0.000853662414371 -0.00923817017422
76.575 0.000279801812626 0.0150859097899 -0.0552470056287 1.08318797416 -0.0552470056287 1.08318797416 0.0001799872195 -0.0102814426372
76.6291666667 0.00196794809476 0.016832219978 0.0912609390069 1.09556993385 0.0912609390069 1.09556993385 -0.000817915847022 -0.011329855542
76.6833333333 0.00612998518149 0.0190314733673 0.281210108004 1.10727706834 0.281210108004 1.10727706834 -0.00299237601918 -0.0130110234485
76.7375 0.0100456937248 0.0192155222719 0.444130127636 1.03527761108 0.444130127636 1.03527761108 -0.0055426017324 -0.0136139307919
76.7916666667 0.0143057865254 0.0180401445624 0.577137057221 0.9480772098 0.577137057221 0.9480772098 -0.0084483267653 -0.0126953595894
76.8458333333 0.0187013098111 0.0157509554886 0.702570639804 0.855860504926 0.702570639804 0.855860504926 -0.0106835164672 -0.0111144525441
76.9 0.0215586135843 0.0118341873384 0.818419403618 0.748927062806 0.818419403618 0.748927062806 -0.0111650395593 -0.00948264251266
76.9541666667 0.0233099770828 0.00824252377914 0.917692968957 0.638198644488 0.917692968957 0.638198644488 -0.0120165481166 -0.00913898249019
77.0083333333 0.0255502862509 0.00334328712835 1.01832828395 0.496828553791 1.01832828395 0.496828553791 -0.0140602304884 -0.00867730271871
77.0625 0.0250368357312 -0.00131910467517 1.06671621508 0.326921568474 1.06671621508 0.326921568474 -0.0154230582919 -0.00630484013956
77.1166666667 0.0231612387908 -0.00314351960785 1.1077055216 0.182312635011 1.1077055216 0.182312635011 -0.01527570673 -0.0041570627755
77.1708333333 0.022993883155 -0.00680608689075 1.12661466207 0.0260115817145 1.12661466207 0.0260115817145 -0.0161314063735 -0.0011468302563
77.225 0.0226583004054 -0.0112214178761 1.12340836612 -0.134629467945 1.12340836612 -0.134629467945 -0.0160877898585 0.00185895076993
77.2791666667 0.0211824075232 -0.014404728287 1.0934321989 -0.29548786188 1.0934321989 -0.29548786188 -0.0154781155007 0.00341172090695
77.3333333333 0.0197514897208 -0.0172663681253 1.04049337506 -0.446261148799 1.04049337506 -0.446261148799 -0.0153610712414 0.00577524759966
77.3875 0.0179695489433 -0.0201006525745 0.965391214655 -0.583947768031 0.965391214655 -0.583947768031 -0.013266947341 0.00925340524155
77.4416666667 0.0112059975077 -0.0251726178929 0.876478561194 -0.710021859541 0.876478561194 -0.710021859541 -0.012251001155 0.00723801174131
77.4958333333 0.00588437167281 -0.0263415907809 0.763798193578 -0.824202536761 0.763798193578 -0.824202536761 -0.00951130144729 0.00751212012758
77.55 0.00504394162342 -0.02637422503 0.644222442657 -0.926011070008 0.644222442657 -0.926011070008 -0.00738358650407 0.0111005943855
77.6041666667 0.00157920904283 -0.0255095271519 0.511787798233 -1.00094320692 0.511787798233 -1.00094320692 -0.00548204304411 0.0141804761373
77.6583333333 -0.00556307687178 -0.0218299346744 0.371094407509 -1.06351451976 0.371094407509 -1.06351451976 -0.00279765630577 0.0114950780157
77.7125 -0.00589658113598 -0.0189768423649 0.216852224866 -1.10204810052 0.216852224866 -1.10204810052 0.00146177708473 0.01011987978
77.7666666667 -0.00451823936103 -0.020472801212 0.0653586570336 -1.12731646799 0.0653586570336 -1.12731646799 0.00535061170379 0.0108978603713
77.8208333333 -0.00544851847957 -0.0195228108835 -0.0965241629362 -1.13439665083 -0.0965241629362 -1.13439665083 0.00669884447292 0.00925338502236
77.875 -0.00665208811907 -0.0193633301742 -0.263864975885 -1.12129050112 -0.263864975885 -1.12129050112 0.00816218406461 0.00784356218355
77.9291666667 -0.00532830435821 -0.0139696555677 -0.398713990133 -1.06764012159 -0.398713990133 -1.06764012159 0.00742258528856 0.00195409074937
77.9833333333 -0.0046417618411 -0.0129208505569 -0.529605008992 -0.994622904384 -0.529605008992 -0.994622904384 0.00904379174792 -0.000569706516826
78.0375 -0.00382492974323 -0.01304307761 -0.657360874852 -0.913350999905 -0.657360874852 -0.913350999905 0.00936642635777 -0.00282665285261
78.0916666667 -0.00319323603223 -0.0134912627526 -0.775509187703 -0.815139729278 -0.775509187703 -0.815139729278 0.00870638186308 -0.00531512825439
78.1458333333 -0.00260649332079 -0.0144237896433 -0.878527070067 -0.700340532433 -0.878527070067 -0.700340532433 0.00801648143211 -0.00809053451684
78.2 -0.00261733265598 -0.0152489801219 -0.96273677018 -0.574128418925 -0.96273677018 -0.574128418925 0.00676566858003 -0.0105345344448
78.2541666667 -0.00258420082372 -0.0165347291593 -1.02912038853 -0.441134144708 -1.02912038853 -0.441134144708 0.00536337695873 -0.0122982950548
78.3083333333 -0.00383461202842 -0.017658753227 -1.0851322185 -0.298000407841 -1.0851322185 -0.298000407841 0.00303128062462 -0.0137726679992
78.3625 -0.00572027946897 -0.0190622272617 -1.11714357456 -0.142338167318 -1.11714357456 -0.142338167318 0.000294389859057 -0.0142670082778
78.4166666667 -0.00741275259903 -0.020582171553 -1.12390514226 0.0136619160228 -1.12390514226 0.0136619160228 -0.00182975939454 -0.0149236010208
78.4708333333 -0.0096180605375 -0.0212003730125 -1.11058912768 0.169640680784 -1.11058912768 0.169640680784 -0.00365049515856 -0.0149681085832
78.525 -0.0132881324692 -0.0208719569755 -1.07265287437 0.318464841995 -1.07265287437 0.318464841995 -0.00572596899045 -0.0142727418736
78.5791666667 -0.0173072966784 -0.0200433606481 -1.02383397096 0.462613311696 -1.02383397096 0.462613311696 -0.00831009210056 -0.0125570965877
78.6333333333 -0.020005454957 -0.0187677418551 -0.965359757331 0.591862089333 -0.965359757331 0.591862089333 -0.0094733902047 -0.0105150782277
78.6875 -0.0243261598899 -0.0182020787647 -0.889368820883 0.720044997832 -0.889368820883 0.720044997832 -0.0108995759326 -0.0103039262484
78.7416666667 -0.0266144233954 -0.0150014535034 -0.779220531041 0.833753109716 -0.779220531041 0.833753109716 -0.0111920110354 -0.00891191710761
78.7958333333 -0.0276577367255 -0.0111551970633 -0.659269160173 0.915799744822 -0.659269160173 0.915799744822 -0.0111915547129 -0.00656230108734
78.85 -0.0279029556635 -0.00739628931951 -0.531579662959 0.980739686642 -0.531579662959 0.980739686642 -0.011206765547 -0.00514697945125
78.9041666667 -0.0285939829797 -0.00205187078955 -0.38618359848 1.03934204874 -0.38618359848 1.03934204874 -0.0120416321515 -0.00405900529916
78.9583333333 -0.0275941105874 0.00288604364436 -0.236654796606 1.07625105999 -0.236654796606 1.07625105999 -0.0125568815704 -0.00315124519953
79.0125 -0.0260727461745 0.00709239858501 -0.0820549572065 1.09871134955 -0.0820549572065 1.09871134955 -0.0126701926428 -0.00210028898546
79.0666666667 -0.0246803947883 0.0103535666264 0.070003452995 1.10458781393 0.070003452995 1.10458781393 -0.0117815323799 -0.000549108029432
79.1208333333 -0.0219085143536 0.0135984902764 0.228926123052 1.07913752826 0.228926123052 1.07913752826 -0.0109324137143 0.00123078653777
79.175 -0.0178324250732 0.0168620821841 0.378927923859 1.0374011968 0.378927923859 1.0374011968 -0.0102278065816 0.00228292057955
79.2291666667 -0.0140592209982 0.0188691370261 0.523243543112 0.972884614755 0.523243543112 0.972884614755 -0.00954037168272 0.0026361559044
79.2833333333 -0.0108712925983 0.0204813197687 0.663117195295 0.89737617117 0.663117195295 0.89737617117 -0.00898353011806 0.00304764426599
79.3375 -0.00702223845932 0.0228529048866 0.779729512587 0.808382457403 0.779729512587 0.808382457403 -0.00819924982294 0.00345809030085
79.3916666667 -0.00185136251435 0.0230647763259 0.876954331005 0.700228714584 0.876954331005 0.700228714584 -0.00729478520774 0.0041042114089
79.4458333333 0.0019530902651 0.0202031821564 0.951148798528 0.569109145529 0.951148798528 0.569109145529 -0.00616398057305 0.00531916600809
79.5 0.00456140509711 0.0182831759371 1.01864469388 0.422530708563 1.01864469388 0.422530708563 -0.0041720348895 0.00641896463604
79.5541666667 0.0072565571427 0.0168296827565 1.07922644531 0.277114680418 1.07922644531 0.277114680418 -0.0030415930056 0.00663932174296
79.6083333333 0.00920698550402 0.0142278489025 1.1047585559 0.128216959229 1.1047585559 0.128216959229 -0.001830714441 0.00654178375202
79.6625 0.0106732299196 0.0109592820163 1.10668499761 -0.0226923618172 1.10668499761 -0.0226923618172 0.000244432102623 0.00558651665894
79.7166666667 0.0100098168986 0.00969300043416 1.09302103287 -0.176332381227 1.09302103287 -0.176332381227 0.00190921513328 0.00580355656539
79.7708333333 0.00931488925624 0.00804477107938 1.0652969109 -0.329952486357 1.0652969109 -0.329952486357 0.00202016724388 0.00476710212748
79.825 0.0104666590972 0.00639315911469 1.0145910488 -0.476002356499 1.0145910488 -0.476002356499 0.00348909324434 0.0028843693218
79.8791666667 0.0108673874089 0.00563594677231 0.939157004267 -0.603517383084 0.939157004267 -0.603517383084 0.00529912456516 0.00263054812493
79.9333333333 0.0113841143513 0.00472514162404 0.847061806718 -0.722408482471 0.847061806718 -0.722408482471 0.00690468906858 0.00150707509717
79.9875 0.0112040792745 0.00572091772069 0.734338392113 -0.828565796582 0.734338392113 -0.828565796582 0.00634797966075 -0.000302096042712
80.0416666667 0.0103558328464 0.00488378040532 0.612503285028 -0.922299119773 0.612503285028 -0.922299119773 0.00586194614609 -0.00367766052556
80.0958333333 0.00777706143605 0.00351929335015 0.480432814088 -0.996876752514 0.480432814088 -0.996876752514 0.00622906647984 -0.00473882878012
80.15 0.00726814759992 0.00482653092716 0.340452869833 -1.05424308014 0.340452869833 -1.05424308014 0.00853937298533 -0.00481447752675
80.2041666667 0.0103346260331 0.00637974915861 0.199514762152 -1.08445643024 0.199514762152 -1.08445643024 0.00853778629157 -0.00677283373822
80.2583333333 0.0128651538737 0.00692380817574 0.0513344912125 -1.10707843825 0.0513344912125 -1.10707843825 0.00535589343453 -0.00824142914841
80.3125 0.0144734810789 0.00862024964492 -0.104136460062 -1.10006823569 -0.104136460062 -1.10006823569 0.00281066284305 -0.010407801298
80.3666666667 0.0144952457607 0.00832608120375 -0.253400422156 -1.07301354477 -0.253400422156 -1.07301354477 0.00369128725573 -0.0130125848262
80.4208333333 0.0166439106094 0.00515336577961 -0.397170694945 -1.03578443772 -0.397170694945 -1.03578443772 0.00358000121138 -0.0118094147192
80.475 0.0211755279164 0.00501577915429 -0.525799549869 -0.976270825548 -0.525799549869 -0.976270825548 0.00038987092184 -0.0137596705922
80.5291666667 0.0251769668136 0.00256384393654 -0.665799161805 -0.904234196847 -0.665799161805 -0.904234196847 -0.00373904108894 -0.0148896944255
80.5833333333 0.0258461982608 0.000448664293944 -0.776844671868 -0.806088911532 -0.776844671868 -0.806088911532 -0.00566656635901 -0.0144156472476
80.6375 0.0270591515715 -0.00284375431134 -0.884802754579 -0.689166481788 -0.884802754579 -0.689166481788 -0.00716418802159 -0.0127916707738
80.6916666667 0.0292170276267 -0.00682241746485 -0.965779457562 -0.570229089099 -0.965779457562 -0.570229089099 -0.00743411153995 -0.0116125128016
80.7458333333 0.0292171381874 -0.0132282330042 -1.02880058699 -0.42943738739 -1.02880058699 -0.42943738739 -0.00913572181061 -0.0127796436857
80.8 0.0248847904536 -0.0171730840001 -1.08316639904 -0.279484472876 -1.08316639904 -0.279484472876 -0.0127149661365 -0.0117669945315
80.8541666667 0.0253549696851 -0.0152868709771 -1.088112805 -0.133428947486 -1.088112805 -0.133428947486 -0.0136561635438 -0.00830162725723
80.9083333333 0.0258187052948 -0.0193587915624 -1.08828703852 0.0105308732083 -1.08828703852 0.0105308732083 -0.0138849090467 -0.00553382843949
80.9625 0.0229551639457 -0.0246703711484 -1.07202818932 0.152740668411 -1.07202818932 0.152740668411 -0.01431971076 -0.0032777951983
81.0166666667 0.0179780152253 -0.0263006733031 -1.03869439507 0.288228767563 -1.03869439507 0.288228767563 -0.013598494874 -0.000982519108606
81.0708333333 0.0173986151838 -0.0283193335683 -1.00470846184 0.417302168245 -1.00470846184 0.417302168245 -0.0112859952842 0.00165777574328
81.125 0.0120965216631 -0.0315055213675 -0.950247722042 0.553480286734 -0.950247722042 0.553480286734 -0.0113917601231 0.00241346097872
81.1791666667 0.00763296179078 -0.0315649693828 -0.86287112388 0.682218814725 -0.86287112388 0.682218814725 -0.011295767443 0.00381772091666
81.2333333333 0.00529918423301 -0.0322951633016 -0.771647201408 0.774100035222 -0.771647201408 0.774100035222 -0.00988826854669 0.00515245118228
81.2875 -0.000277518321751 -0.0330332631986 -0.671914401801 0.881184940064 -0.671914401801 0.881184940064 -0.00832739765545 0.00768306208805
81.3416666667 0.000417380586522 -0.0291310316677 -0.540490472698 0.95394242661 -0.540490472698 0.95394242661 -0.00636309126573 0.011145348364
81.3958333333 -0.00612297913896 -0.029613603448 -0.409945294274 1.01208827014 -0.409945294274 1.01208827014 -0.00358623137769 0.00963338685132
81.45 -0.00927391991285 -0.0239025992937 -0.266522893846 1.06116531378 -0.266522893846 1.06116531378 -0.00259510557264 0.00965215498744
81.5041666667 -0.0067419836549 -0.0197445788003 -0.120512334461 1.09135253409 -0.120512334461 1.09135253409 -0.00267033225126 0.0106928186744
81.5583333333 -0.0128124942116 -0.0192088549365 0.0125838171238 1.10545901905 0.0125838171238 1.10545901905 0.0019930717214 0.00822355263816
81.6125 -0.0118813298024 -0.0191227576382 0.15122272393 1.09016317656 0.15122272393 1.09016317656 0.00556442037828 0.00938160103328
81.6666666667 -0.0116367152708 -0.0156208921368 0.284018425045 1.06022992909 0.284018425045 1.06022992909 0.00583638340951 0.00675661414205
81.7208333333 -0.00970815836236 -0.0110117624112 0.42497966241 1.02057195318 0.42497966241 1.02057195318 0.00403279649378 0.00441950244682
81.775 -0.0084768915439 -0.0105427085007 0.543863534788 0.956633718884 0.543863534788 0.956633718884 0.00435539936975 0.00367303570482
81.8291666667 -0.0096250890852 -0.00914913374822 0.677011460277 0.889145155776 0.677011460277 0.889145155776 0.0045838175071 0.0052062772643
81.8833333333 -0.011977784425 -0.00810869764932 0.792404166279 0.783600913867 0.792404166279 0.783600913867 0.0083416238045 0.00721454258806
81.9375 -0.01063021968 -0.00684658854384 0.886992514864 0.669248455364 0.886992514864 0.669248455364 0.0100382843545 0.00590499937415
81.9916666667 -0.00805261426647 -0.00891172436341 0.968170071821 0.551539333555 0.968170071821 0.551539333555 0.0103641640146 0.000772197532493
82.0458333333 -0.0103783319036 -0.00756190994747 1.03229544309 0.422948485716 1.03229544309 0.422948485716 0.00986291444109 -0.00225472973624
82.1 -0.00859758549015 -0.00698034574517 1.08087985029 0.291396628015 1.08087985029 0.291396628015 0.0103310850415 -0.00506989755719
82.1541666667 -0.0100562398903 -0.0052867986965 1.10433493493 0.146798452379 1.10433493493 0.146798452379 0.00926902638641 -0.00425464130984
82.2083333333 -0.00901523783595 -0.00571608599247 1.11264106357 0.0127140955746 1.11264106357 0.0127140955746 0.00656596466824 -0.00776644658526
82.2625 -0.00921008537851 -0.00854714757977 1.10717100515 -0.127721922136 1.10717100515 -0.127721922136 0.00676468506197 -0.00778175289694
82.3166666667 -0.0104736671434 -0.00711037478354 1.09183401368 -0.269208902861 1.09183401368 -0.269208902861 0.00680942435677 -0.00997316527965
82.3708333333 -0.0107876148841 -0.00793196437944 1.04654941404 -0.414641671447 1.04654941404 -0.414641671447 0.00661936619338 -0.0120994407847
82.425 -0.0159351898559 -0.00904910703746 0.97717001274 -0.547541267549 0.97717001274 -0.547541267549 0.00461088093309 -0.0139886605996
82.4791666667 -0.0208934743026 -0.00273260070908 0.903252979867 -0.671911527142 0.903252979867 -0.671911527142 0.000780860400032 -0.014528074872
82.5333333333 -0.018208454477 0.0055709949919 0.813696856058 -0.785281548207 0.813696856058 -0.785281548207 0.000655852224454 -0.00974870111747
82.5875 -0.015975549433 0.000177798351487 0.692610836462 -0.876697690906 0.692610836462 -0.876697690906 0.000269821177535 -0.0153254315587
