!Created with skrf (http://scikit-rf.org).
# GHz S RI R 50.0 
!freq ReS11 ImS11 ReS21 ImS21 ReS12 ImS12 ReS22 ImS22
75.0041666667 -0.00671138820976 0.0146132587183 0.00243161368985 0.850968358915 0.00243161368985 0.850968358915 -0.0118135715912 -0.0108544007819
75.0583333333 -0.00433416520771 0.0159710903845 0.132624049 0.84346130081 0.132624049 0.84346130081 -0.0132485970446 -0.00901265062223
75.1125 -0.00265519203296 0.0168801673439 0.254411998496 0.813389479707 0.254411998496 0.813389479707 -0.0140947935755 -0.0076221636127
75.1666666667 -0.000542843306164 0.0178308205476 0.366501206978 0.766750554668 0.366501206978 0.766750554668 -0.0147262220889 -0.00610100924331
75.2208333333 0.00191159003235 0.0189714970446 0.475634155538 0.712967751302 0.475634155538 0.712967751302 -0.0151486469384 -0.0045011794259
75.275 0.0050193955036 0.0187304857591 0.577701546735 0.631274553584 0.577701546735 0.631274553584 -0.014999142628 -0.0026770370333
75.3291666667 0.00774759515179 0.0179793601875 0.663541131278 0.541461386291 0.663541131278 0.541461386291 -0.0150159085059 -0.000665204691629
75.3833333333 0.0097419270656 0.0160326905497 0.723251538937 0.441454524848 0.723251538937 0.441454524848 -0.0145145246704 0.0012555913803
75.4375 0.0120778066558 0.0141504784835 0.792464912904 0.332724719315 0.792464912904 0.332724719315 -0.0131979977497 0.00273331385626
75.4916666667 0.0133392261157 0.0114921374185 0.827416120968 0.211740207491 0.827416120968 0.211740207491 -0.0121749604925 0.00419694267309
75.5458333333 0.0137232836808 0.00932111589458 0.851593503525 0.0941244384937 0.851593503525 0.0941244384937 -0.0113874766035 0.00577894175645
75.6 0.0145989636338 0.00726189738607 0.856363446531 -0.0350022632267 0.856363446531 -0.0350022632267 -0.0102698127555 0.00694980460463
75.6541666667 0.0143972844338 0.0047595095747 0.833365559095 -0.159318825287 0.833365559095 -0.159318825287 -0.00848768652253 0.00875078582713
75.7083333333 0.0143408887208 0.00312298400017 0.805890068866 -0.275005891956 0.805890068866 -0.275005891956 -0.00629274716969 0.0100439622865
75.7625 0.0132570220087 0.00173053793706 0.755652991203 -0.383073327833 0.755652991203 -0.383073327833 -0.00449244054368 0.0107924287932
75.8166666667 0.0126145007627 0.000233537137969 0.699235150715 -0.488044799716 0.699235150715 -0.488044799716 -0.0022591185111 0.0111439148994
75.8708333333 0.0115083475616 -0.00109487921544 0.620426549947 -0.579547459018 0.620426549947 -0.579547459018 0.000492792238753 0.0115890481919
75.925 0.00993046204113 -0.00154298846894 0.530029115676 -0.656620890493 0.530029115676 -0.656620890493 0.00308621485526 0.0110285835007
75.9791666667 0.00864185171586 -0.00143971626436 0.433099742528 -0.724571463398 0.433099742528 -0.724571463398 0.00547859527836 0.0097541669251
76.0333333333 0.00781165109126 -0.00109192346874 0.329337337882 -0.776483618153 0.329337337882 -0.776483618153 0.00762374841357 0.00811736903653
76.0875 0.00732231810705 -0.000937509913301 0.21207675546 -0.810775022442 0.21207675546 -0.810775022442 0.0098034351515 0.00583641837979
76.1416666667 0.00682865570621 -0.000510428719482 0.0984800871928 -0.829326602201 0.0984800871928 -0.829326602201 0.0111857967193 0.00269749105068
76.1958333333 0.00675126958321 -4.75391738512e-06 -0.014935612238 -0.838293396588 -0.014935612238 -0.838293396588 0.0115828524002 0.000150693536151
76.25 0.0071107370153 0.000464561688565 -0.137108644525 -0.825539617684 -0.137108644525 -0.825539617684 0.0118202153714 -0.00252515708793
76.3041666667 0.00771064348127 0.000323969576854 -0.249867788706 -0.791604050686 -0.249867788706 -0.791604050686 0.0115558586431 -0.00594195832959
76.3583333333 0.0086573322584 0.00035006138636 -0.355033372844 -0.746521012189 -0.355033372844 -0.746521012189 0.0102012817112 -0.0090607470645
76.4125 0.00954286251861 -0.000113883606685 -0.443800612604 -0.697873003424 -0.443800612604 -0.697873003424 0.0078973158668 -0.0117331228687
76.4666666667 0.0107509010529 -0.00027424660977 -0.518105158138 -0.659887738514 -0.518105158138 -0.659887738514 0.00534161867356 -0.0138159605657
76.5208333333 0.0123526901915 -0.000806796502958 -0.596890361454 -0.619125527535 -0.596890361454 -0.619125527535 0.00291978161895 -0.0149943859564
76.575 0.0130237777981 -0.00256842479562 -0.697095153242 -0.522980162164 -0.697095153242 -0.522980162164 0.000198839348835 -0.0159027548866
76.6291666667 0.0127489329206 -0.00556269192831 -0.767322840424 -0.386163539928 -0.767322840424 -0.386163539928 -0.00301736201468 -0.0160589188153
76.6833333333 0.012023324579 -0.00716606365506 -0.785993040807 -0.261776004197 -0.785993040807 -0.261776004197 -0.00612344726154 -0.0157659878585
76.7375 0.011811358787 -0.00899405380028 -0.829341183305 -0.150135356647 -0.829341183305 -0.150135356647 -0.00948577715122 -0.0151331093003
76.7916666667 0.0106183648153 -0.0119005809732 -0.84813051821 -0.0310898480688 -0.84813051821 -0.0310898480688 -0.0123068825829 -0.012960590872
76.8458333333 0.00851661566579 -0.0141512608875 -0.844310910748 0.089146554724 -0.844310910748 0.089146554724 -0.0139208479038 -0.0102881166093
76.9 0.00567860250888 -0.015258859943 -0.824612626551 0.205268055154 -0.824612626551 0.205268055154 -0.0147445899999 -0.00831117673783
76.9541666667 0.00273689178557 -0.0159558875022 -0.781807209906 0.321509997198 -0.781807209906 0.321509997198 -0.0152754264231 -0.00639005660789
77.0083333333 0.000498663694794 -0.016193581084 -0.731336440721 0.401066889191 -0.731336440721 0.401066889191 -0.0156848355965 -0.00398868009171
77.0625 -0.002064969082 -0.0162647306191 -0.689453983049 0.506553679276 -0.689453983049 0.506553679276 -0.0155189817712 -0.00169848173821
77.1166666667 -0.00443217183199 -0.0150849699261 -0.604100813312 0.625104639429 -0.604100813312 0.625104639429 -0.0133586407098 0.000484037295492
77.1708333333 -0.00620910297914 -0.0138127161511 -0.50659733197 0.698478806967 -0.50659733197 0.698478806967 -0.0139120598373 0.00135943237634
77.225 -0.00739417329695 -0.0129953562075 -0.404657533781 0.759069954399 -0.404657533781 0.759069954399 -0.0148385322125 0.00372905549594
77.2791666667 -0.0092797058422 -0.012486066635 -0.295899860089 0.807947072886 -0.295899860089 0.807947072886 -0.0138876946675 0.0077188405424
77.3333333333 -0.0119412493291 -0.0111813370115 -0.181111895182 0.840260569094 -0.181111895182 0.840260569094 -0.010545083297 0.0104009764425
77.3875 -0.0136593387391 -0.00877842357278 -0.0598410380196 0.856270981176 -0.0598410380196 0.856270981176 -0.00650300021284 0.0108564537415
77.4416666667 -0.0150386035209 -0.0031061434369 0.0628372839981 0.852214787823 0.0628372839981 0.852214787823 -0.00641368142479 0.00742886214546
77.4958333333 -0.01543886739 -0.000374055434309 0.189229324243 0.841632664906 0.189229324243 0.841632664906 -0.00565121326012 0.00780729468306
77.55 -0.0148840743958 0.000264333812454 0.298015055667 0.797784110059 0.298015055667 0.797784110059 -0.00285182672664 0.011380690206
77.6041666667 -0.0134247903515 0.00243692961006 0.416035028967 0.754090423243 0.416035028967 0.754090423243 -0.00020406728187 0.0120121944812
77.6583333333 -0.00893904899242 0.00499904098471 0.510871193243 0.686686135456 0.510871193243 0.686686135456 0.000820385968906 0.00802743306193
77.7125 -0.00737701704769 0.0040320641001 0.596732102405 0.608352799726 0.596732102405 0.608352799726 0.0028324788104 0.00776216550635
77.7666666667 -0.00924257069082 0.00359994201387 0.689919479734 0.52718608611 0.689919479734 0.52718608611 0.00631296056484 0.00951128448436
77.8208333333 -0.00759634640161 0.00314248890127 0.725434448932 0.412731258717 0.725434448932 0.412731258717 0.00839415572627 0.00846300264707
77.875 -0.0071243965103 0.0025716049941 0.772087852769 0.312663995705 0.772087852769 0.312663995705 0.0100745442867 0.00654811189469
77.9291666667 -0.00505669607725 0.000758352652626 0.820472603209 0.200794386444 0.820472603209 0.200794386444 0.00902778511969 0.00156183240019
77.9833333333 -0.00601626719684 0.000856343728509 0.860810850372 0.0797568309599 0.860810850372 0.0797568309599 0.00920594788618 1.41089833646e-05
78.0375 -0.00684245328198 0.000776413525405 0.869114856332 -0.0427691627351 0.869114856332 -0.0427691627351 0.010092812474 -0.0013986613534
78.0916666667 -0.0078920794249 0.000354132499656 0.855124438485 -0.163344576252 0.855124438485 -0.163344576252 0.0108428876959 -0.00383131019961
78.1458333333 -0.00938983263805 0.00076137188088 0.822552691336 -0.287961782014 0.822552691336 -0.287961782014 0.0104764035938 -0.00668502677397
78.2 -0.0102276687865 0.00166909282888 0.77396244363 -0.397951319089 0.77396244363 -0.397951319089 0.00975929929102 -0.00919590472725
78.2541666667 -0.0111205345535 0.00312859867265 0.708921406126 -0.507591485523 0.708921406126 -0.507591485523 0.00855440533434 -0.0113661435565
78.3083333333 -0.0117342031448 0.00465525474722 0.627698760869 -0.602087675578 0.627698760869 -0.602087675578 0.00735066589534 -0.0136438619808
78.3625 -0.01267768282 0.00665476617463 0.538617437608 -0.686689192665 0.538617437608 -0.686689192665 0.00515126340343 -0.0156619634527
78.4166666667 -0.0131843294613 0.00893511774925 0.435191981282 -0.758204824244 0.435191981282 -0.758204824244 0.00298631656478 -0.0176697755458
78.4708333333 -0.0129588041813 0.0115764046701 0.323459701275 -0.811466648201 0.323459701275 -0.811466648201 0.000527118821308 -0.018703236219
78.525 -0.0112156421807 0.0145435373605 0.206178021808 -0.848942763625 0.206178021808 -0.848942763625 -0.00241823720884 -0.0188527418417
78.5791666667 -0.00949236679469 0.0167814364017 0.0885426625828 -0.872081665868 0.0885426625828 -0.872081665868 -0.00591906178877 -0.0192716174
78.6333333333 -0.00692875353855 0.0187986257643 -0.0317964564394 -0.884964354022 -0.0317964564394 -0.884964354022 -0.00953119733976 -0.0182105299901
78.6875 -0.00432000437404 0.0207898662497 -0.144685771941 -0.879462794924 -0.144685771941 -0.879462794924 -0.0121536863936 -0.0174619261495
78.7416666667 -0.00166427974053 0.020839830028 -0.269564170959 -0.857428168367 -0.269564170959 -0.857428168367 -0.0137804392281 -0.0156230493268
78.7958333333 0.0013231695972 0.0203172635557 -0.395185162594 -0.803903464335 -0.395185162594 -0.803903464335 -0.0158213843037 -0.0125295734405
78.85 0.00445196922301 0.0195225670363 -0.50488661559 -0.737805572927 -0.50488661559 -0.737805572927 -0.0172528280047 -0.00960714348587
78.9041666667 0.0073767406259 0.0182931202459 -0.593290282493 -0.662098514608 -0.593290282493 -0.662098514608 -0.0183654966978 -0.00694785269602
78.9583333333 0.0101374083585 0.0161793879581 -0.680545695812 -0.563880235031 -0.680545695812 -0.563880235031 -0.0189373566591 -0.00384599715264
79.0125 0.012294650417 0.0143599952352 -0.753583014081 -0.462310012755 -0.753583014081 -0.462310012755 -0.018297640211 -0.00098478264565
79.0666666667 0.0140950216319 0.0131904797549 -0.815847722925 -0.366594828851 -0.815847722925 -0.366594828851 -0.0169489613953 0.00183515252047
79.1208333333 0.0154688034317 0.0104617429052 -0.848927734717 -0.252277409377 -0.848927734717 -0.252277409377 -0.0153761896999 0.00504304865593
79.175 0.015895290441 0.00678069515071 -0.871354254365 -0.131286939591 -0.871354254365 -0.131286939591 -0.0132672097066 0.00743617443959
79.2291666667 0.0154717509201 0.0037877796764 -0.872394100142 -0.0123794171169 -0.872394100142 -0.0123794171169 -0.0105842698588 0.0089017639287
79.2833333333 0.0149263418124 0.0010320437721 -0.862658689307 0.110880397042 -0.862658689307 0.110880397042 -0.00764698250769 0.00977004319877
79.3375 0.0145895060539 -0.00212744652989 -0.846954902955 0.230721922238 -0.846954902955 0.230721922238 -0.00501232781753 0.00925555848407
79.3916666667 0.0123965757964 -0.004536443397 -0.807057455855 0.334049701766 -0.807057455855 0.334049701766 -0.00270440788958 0.00844231413269
79.4458333333 0.0100575654609 -0.00529849129943 -0.749623490199 0.436701247304 -0.749623490199 0.436701247304 -0.000689074085464 0.00864772615423
79.5 0.00863591176032 -0.00544726132702 -0.681451182182 0.529756318222 -0.681451182182 0.529756318222 0.00208517314145 0.00874896078155
79.5541666667 0.00657709352856 -0.00530264362074 -0.601232877338 0.605010889096 -0.601232877338 0.605010889096 0.00420808054559 0.00761803544773
79.6083333333 0.00455705017595 -0.00499823021918 -0.51305138883 0.689176257195 -0.51305138883 0.689176257195 0.00565656586079 0.00546996956078
79.6625 0.00339638590906 -0.00461949670414 -0.423389359259 0.750049196503 -0.423389359259 0.750049196503 0.00718224293603 0.00297260729554
79.7166666667 0.00410890743083 -0.00399010913085 -0.323486829131 0.801576028564 -0.323486829131 0.801576028564 0.00827701792956 0.00205771435004
79.7708333333 0.00412685105508 -0.00273541504157 -0.217336516894 0.831226518673 -0.217336516894 0.831226518673 0.00739526589326 -0.000289706830099
79.825 0.00328612902549 -0.00277336833883 -0.103001183488 0.850799848818 -0.103001183488 0.850799848818 0.00744327319228 -0.00272470355223
79.8791666667 0.00355441725732 -0.0035712795959 0.00885045485367 0.859756775539 0.00885045485367 0.859756775539 0.00747395358668 -0.00350982675684
79.9333333333 0.00295396485387 -0.00442750638617 0.121378849891 0.844576136312 0.121378849891 0.844576136312 0.00763774797136 -0.00470917986487
79.9875 0.00353848680508 -0.00486408321517 0.225303322266 0.822520464155 0.225303322266 0.822520464155 0.00580276559391 -0.00503211378402
80.0416666667 0.00373363675252 -0.00384523371166 0.321284793448 0.777226588943 0.321284793448 0.777226588943 0.00534614566419 -0.00695412986718
80.0958333333 0.00459602116502 -0.00292226284612 0.424973125758 0.729912317654 0.424973125758 0.729912317654 0.00464347261841 -0.00936556368939
80.15 0.00520293480531 -0.00384339711655 0.514948364183 0.673255749503 0.514948364183 0.673255749503 0.00397790222456 -0.00923788251308
80.2041666667 0.00529677920062 -0.00545013424411 0.598007600443 0.600105561191 0.598007600443 0.600105561191 0.00386137418494 -0.00854663283396
80.2583333333 0.00583581783125 -0.00765967382542 0.670062861438 0.516342938352 0.670062861438 0.516342938352 0.00262796986699 -0.00947622710608
80.3125 0.00618985210582 -0.0103137691765 0.728990191161 0.423862040938 0.728990191161 0.423862040938 0.000314024185196 -0.0116214970658
80.3666666667 0.00541672007406 -0.0106410743884 0.776479180726 0.322277254569 0.776479180726 0.322277254569 7.87570589098e-05 -0.013523563071
80.4208333333 0.00297318894728 -0.0111753274232 0.808581565427 0.222493372711 0.808581565427 0.222493372711 -0.00110752677007 -0.011697216247
80.475 0.00120189995047 -0.0129716975389 0.828635851921 0.117185026659 0.828635851921 0.117185026659 -0.00380337422331 -0.011954403681
80.5291666667 -0.000716581558747 -0.0144499493038 0.832565552204 0.0180188752665 0.832565552204 0.0180188752665 -0.00633614104985 -0.0122655531549
80.5833333333 -0.00276892825422 -0.0153850166288 0.839661180073 -0.0970188322784 0.839661180073 -0.0970188322784 -0.0072848706907 -0.0123957680698
80.6375 -0.00488710994578 -0.0163003272028 0.829335398248 -0.206103616973 0.829335398248 -0.206103616973 -0.00825092691154 -0.0120264333785
80.6916666667 -0.00690335388998 -0.0143685752531 0.785794515139 -0.311452272874 0.785794515139 -0.311452272874 -0.0101496109744 -0.0102132146244
80.7458333333 -0.00830836948607 -0.0147226140438 0.731687410439 -0.418731908204 0.731687410439 -0.418731908204 -0.0110222342376 -0.00887619783556
80.8 -0.011259978978 -0.0145785694864 0.680407640862 -0.510320508696 0.680407640862 -0.510320508696 -0.0116833518395 -0.00800979140672
80.8541666667 -0.0128311027314 -0.013257662403 0.609806693671 -0.599240651495 0.609806693671 -0.599240651495 -0.0117635740355 -0.0078812595174
80.9083333333 -0.0144090789596 -0.0117249633955 0.512576797821 -0.677596664642 0.512576797821 -0.677596664642 -0.0134505362747 -0.00624384916727
80.9625 -0.0174373605407 -0.00949394478446 0.409414640948 -0.739702254932 0.409414640948 -0.739702254932 -0.0149307109471 -0.00289807340985
81.0166666667 -0.018863114046 -0.00476027103267 0.296380189642 -0.789977148765 0.296380189642 -0.789977148765 -0.0137435225557 -0.000827014592043
81.0708333333 -0.0178524048543 -0.00212183754144 0.177155392209 -0.821048605703 0.177155392209 -0.821048605703 -0.0133241054603 0.00077584591579
81.125 -0.0180194832005 -0.000257101715165 0.0770410406399 -0.837150996952 0.0770410406399 -0.837150996952 -0.0127167469813 0.00243878519276
81.1791666667 -0.0180839874418 0.00112036525276 -0.0256193295086 -0.842923873134 -0.0256193295086 -0.842923873134 -0.0111142959474 0.00504297413982
81.2333333333 -0.0182450820207 0.00431035500733 -0.148309260246 -0.831944784361 -0.148309260246 -0.831944784361 -0.00881002173809 0.00545391338854
81.2875 -0.0161495688049 0.00651964199204 -0.24398264351 -0.796682529896 -0.24398264351 -0.796682529896 -0.00875176366116 0.00598952729309
81.3416666667 -0.0151833484652 0.00614558630163 -0.343434169297 -0.767774317312 -0.343434169297 -0.767774317312 -0.00537350156854 0.0104729590384
81.3958333333 -0.0136786824111 0.00832199483536 -0.445751329736 -0.709896321885 -0.445751329736 -0.709896321885 -0.00480537786593 0.00755958766495
81.45 -0.0119307898463 0.00921394260976 -0.53609669135 -0.644696720446 -0.53609669135 -0.644696720446 -0.0054933996615 0.00997502372187
81.5041666667 -0.0095054806177 0.00749198188 -0.613628850362 -0.570456136945 -0.613628850362 -0.570456136945 -0.00437470713674 0.0124432522734
81.5583333333 -0.00752846975332 0.0102727167085 -0.690091545167 -0.480649746904 -0.690091545167 -0.480649746904 0.00140449976362 0.0104008880939
81.6125 -0.00773397345272 0.0108953611234 -0.751243966965 -0.385914295451 -0.751243966965 -0.385914295451 0.00575859047597 0.0113749681822
81.6666666667 -0.00676533134371 0.0108670973862 -0.787431733344 -0.289446907746 -0.787431733344 -0.289446907746 0.00676141740962 0.00901931961995
81.7208333333 -0.00402683822066 0.00831695400381 -0.819959356829 -0.200334658982 -0.819959356829 -0.200334658982 0.00652579401859 0.00612401213499
81.775 -0.00379425468445 0.00803615695773 -0.8400688513 -0.0945589880545 -0.8400688513 -0.0945589880545 0.00943390243131 0.00518528213477
81.8291666667 -0.00320372524099 0.00796988776929 -0.848074638122 0.0188131309408 -0.848074638122 0.0188131309408 0.00992726851898 0.00215210097717
81.8833333333 -0.00322061559796 0.00976538151032 -0.849289196166 0.123211600753 -0.849289196166 0.123211600753 0.00988600517156 0.00239537251563
81.9375 -0.00259432196692 0.00981056627722 -0.81844392362 0.237711858591 -0.81844392362 0.237711858591 0.010266806327 0.00272403609806
81.9916666667 -0.00340796713186 0.00893152492553 -0.780564955396 0.337151049234 -0.780564955396 0.337151049234 0.0108371468802 -0.00106566770779
82.0458333333 -0.00305219471333 0.00945141704661 -0.735502243067 0.431557120119 -0.735502243067 0.431557120119 0.0109549832961 -0.0052687720409
82.1 -0.00112853977743 0.00876298630892 -0.673726110223 0.527150733518 -0.673726110223 0.527150733518 0.00913956186631 -0.00693658125577
82.1541666667 0.000870221597032 0.00824935613543 -0.603670330015 0.611824834572 -0.603670330015 0.611824834572 0.00821246617164 -0.00599404980613
82.2083333333 -0.00185232285829 0.0077592954934 -0.515946503134 0.686634780707 -0.515946503134 0.686634780707 0.00622232945418 -0.00988552208306
82.2625 -0.0018248732791 0.00837398864098 -0.427635413637 0.748020049545 -0.427635413637 0.748020049545 0.00342147059523 -0.0104486099592
82.3166666667 -0.00236628547138 0.00827327073567 -0.328597295616 0.782941686144 -0.328597295616 0.782941686144 0.00298107423139 -0.0106712904485
82.3708333333 -0.00257783933202 0.0108112614295 -0.237593394659 0.813867155362 -0.237593394659 0.813867155362 0.00292063731586 -0.0120892631291
82.425 0.000945025897313 0.0128300960849 -0.14058195158 0.849245805146 -0.14058195158 0.849245805146 1.56907555348e-05 -0.0134526095317
82.4791666667 0.0024854892104 0.0123525524774 -0.0278388436039 0.859904251248 -0.0278388436039 0.859904251248 -0.00127626033224 -0.0131440517118
