!Created with skrf (http://scikit-rf.org).
# GHz S RI R 50.0 
!freq ReS11 ImS11
75.0041666667 0.04770028 -0.03416439
75.0583333333 0.04408964 -0.04403259
75.1125 0.03783201 -0.05541927
75.1666666667 0.02767625 -0.06648309
75.2208333333 0.01336114 -0.07401019
75.275 -0.001761039 -0.07952746
75.3291666667 -0.02005822 -0.08070873
75.3833333333 -0.04105683 -0.07765684
75.4375 -0.05597115 -0.06599851
75.4916666667 -0.06932176 -0.05365736
75.5458333333 -0.07817515 -0.03846879
75.6 -0.08511468 -0.02378662
75.6541666667 -0.09100021 -0.007447187
75.7083333333 -0.09001995 0.01180157
75.7625 -0.08486275 0.03112994
75.8166666667 -0.07314811 0.04635169
75.8708333333 -0.05976027 0.05707683
75.925 -0.0451449 0.06348508
75.9791666667 -0.03110478 0.06442422
76.0333333333 -0.01936366 0.06158167
76.0875 -0.01275228 0.05644103
76.1416666667 -0.009521438 0.0507098
76.1958333333 -0.01073114 0.04791345
76.25 -0.009888501 0.04825955
76.3041666667 -0.01350383 0.05067924
76.3583333333 -0.01488763 0.05849919
76.4125 -0.009694913 0.06923965
76.4666666667 0.005196757 0.07803873
76.5208333333 0.02490505 0.08076447
76.575 0.03877068 0.08272529
76.6291666667 0.05402307 0.0864874
76.6833333333 0.08037636 0.0857838
76.7375 0.09827365 0.06921047
76.7916666667 0.1131982 0.04793059
76.8458333333 0.1235721 0.02285877
76.9 0.1267983 -0.004824293
76.9541666667 0.1240125 -0.03126828
77.0083333333 0.1125479 -0.06498976
77.0625 0.08761382 -0.08285489
77.1166666667 0.06883117 -0.08907508
77.1708333333 0.04670133 -0.09780867
77.225 0.02356719 -0.09985271
77.2791666667 0.003247263 -0.09530142
77.3333333333 -0.01458443 -0.08758263
77.3875 -0.02748435 -0.07697544
77.4416666667 -0.03678164 -0.06614665
77.4958333333 -0.04230066 -0.0536436
77.55 -0.04786199 -0.0426778
77.6041666667 -0.04769242 -0.03043805
77.6583333333 -0.046629 -0.01973835
77.7125 -0.04354761 -0.01007383
77.7666666667 -0.03639641 -0.00240857
77.8208333333 -0.03240856 0.002452919
77.875 -0.02575139 0.004253238
77.9291666667 -0.019753 0.002410033
77.9833333333 -0.01547818 -0.0007164156
78.0375 -0.01424507 -0.0034121
78.0916666667 -0.01521624 -0.005717187
78.1458333333 -0.01692193 -0.006900108
78.2 -0.01886246 -0.006715019
78.2541666667 -0.02107454 -0.006483634
78.3083333333 -0.02462366 -0.004876584
78.3625 -0.02683866 -0.0005436339
78.4166666667 -0.02712198 0.003066349
78.4708333333 -0.0267628 0.00835456
78.525 -0.02425077 0.01397296
78.5791666667 -0.02010101 0.01801969
78.6333333333 -0.01398959 0.02024793
78.6875 -0.006572883 0.02068008
78.7416666667 -0.001039098 0.01895222
78.7958333333 0.003192977 0.01555344
78.85 0.006897689 0.01020168
78.9041666667 0.008175405 0.003551647
78.9583333333 0.006893204 -0.002218161
79.0125 0.003377387 -0.007924395
79.0666666667 -0.00272321 -0.01182847
79.1208333333 -0.01042416 -0.01375921
79.175 -0.01915381 -0.01215225
79.2291666667 -0.0276566 -0.007065312
79.2833333333 -0.03422355 0.001272524
79.3375 -0.03646964 0.01218047
79.3916666667 -0.03545098 0.02533576
79.4458333333 -0.03000678 0.03756978
79.5 -0.02012685 0.04768974
79.5541666667 -0.00649192 0.05526206
79.6083333333 0.007657462 0.0562024
79.6625 0.02349816 0.05279469
79.7166666667 0.03742995 0.04421851
79.7708333333 0.04903864 0.03212393
79.825 0.05571459 0.01788583
79.8791666667 0.0572864 0.001504401
79.9333333333 0.05466905 -0.01505041
79.9875 0.04544102 -0.02972666
80.0416666667 0.03309037 -0.04141443
80.0958333333 0.01733709 -0.04757318
80.15 -0.0005070572 -0.04776554
80.2041666667 -0.01628849 -0.04194916
80.2583333333 -0.02895636 -0.03075405
80.3125 -0.03774279 -0.01609779
80.3666666667 -0.04080421 0.0002021619
80.4208333333 -0.03772786 0.01700561
80.475 -0.02952345 0.03234104
80.5291666667 -0.01549514 0.04443577
80.5833333333 -5.413491e-05 0.04888858
80.6375 0.01682304 0.04853987
80.6916666667 0.03319753 0.04525089
80.7458333333 0.04658125 0.03702348
80.8 0.05574293 0.02355701
80.8541666667 0.06054439 0.01024469
80.9083333333 0.06282025 -0.001843649
80.9625 0.06258139 -0.01389678
81.0166666667 0.05815007 -0.02620212
81.0708333333 0.05069502 -0.03464208
81.125 0.04089922 -0.04225452
81.1791666667 0.03059115 -0.04490746
81.2333333333 0.02487722 -0.04325543
81.2875 0.01854077 -0.04549595
81.3416666667 0.01355891 -0.04173543
81.3958333333 0.0134286 -0.03998137
81.45 0.01405571 -0.04007891
81.5041666667 0.01506675 -0.04198525
81.5583333333 0.01634447 -0.046106
81.6125 0.01429221 -0.05248104
81.6666666667 0.007958135 -0.06034331
81.7208333333 -0.003073409 -0.06486981
81.775 -0.01060117 -0.06716111
81.8291666667 -0.01778095 -0.07231364
81.8833333333 -0.03153149 -0.07490788
81.9375 -0.04727288 -0.07835857
81.9916666667 -0.06668859 -0.07446639
82.0458333333 -0.08578632 -0.06213938
82.1 -0.0992168 -0.04688195
82.1541666667 -0.1100159 -0.02598867
82.2083333333 -0.1160451 -0.004158507
82.2625 -0.1150923 0.02026256
82.3166666667 -0.1130461 0.04540464
82.3708333333 -0.1005826 0.07017519
82.425 -0.08123121 0.0853575
82.4791666667 -0.06409975 0.09867464
82.5333333333 -0.04202269 0.1065212
82.5875 -0.0221053 0.1096893
82.6416666667 -0.003382521 0.1124827
82.6958333333 0.01699588 0.1054798
82.75 0.02905601 0.09783339
82.8041666667 0.04455762 0.0902646
82.8583333333 0.05705241 0.07749092
82.9125 0.0608033 0.06095459
82.9666666667 0.06159489 0.05062744
83.0208333333 0.06834634 0.03992364
83.075 0.06189652 0.02475623
83.1291666667 0.05433252 0.02237811
83.1833333333 0.05666766 0.0175081
83.2375 0.04810936 0.01229372
83.2916666667 0.04288597 0.01412033
83.3458333333 0.04319319 0.016544
83.4 0.04858531 0.01931298
83.4541666667 0.05122226 0.01899372
83.5083333333 0.05588039 0.01786814
83.5625 0.06379569 0.0143334
83.6166666667 0.07129538 0.01121143
83.6708333333 0.07908349 0.001158432
83.725 0.08200286 -0.009862983
83.7791666667 0.08481622 -0.02031741
83.8333333333 0.08586543 -0.03412398
83.8875 0.08019428 -0.05056792
83.9416666667 0.06917719 -0.06550775
83.9958333333 0.05625971 -0.07863269
84.05 0.04319008 -0.08790433
84.1041666667 0.02427867 -0.09420589
84.1583333333 0.005276838 -0.09225621
84.2125 -0.009987936 -0.08660211
84.2666666667 -0.02601103 -0.07772914
84.3208333333 -0.03631678 -0.06333543
84.375 -0.03984003 -0.05031397
84.4291666667 -0.04037448 -0.03962936
84.4833333333 -0.03892778 -0.02944504
84.5375 -0.03560581 -0.02214306
84.5916666667 -0.03165511 -0.01679312
84.6458333333 -0.02527822 -0.01515512
84.7 -0.02123086 -0.01790059
84.7541666667 -0.02160395 -0.02573024
84.8083333333 -0.03077981 -0.03063045
84.8625 -0.03738454 -0.02873068
84.9166666667 -0.04094181 -0.02737081
84.9708333333 -0.05253512 -0.02738993
85.025 -0.06718495 -0.02282494
85.0791666667 -0.08201481 -0.006957752
85.1333333333 -0.08542279 0.01323579
85.1875 -0.08159783 0.03308676
85.2416666667 -0.07632622 0.05234189
85.2958333333 -0.06779287 0.0691797
85.35 -0.05299431 0.08435222
85.4041666667 -0.03189812 0.0967585
85.4583333333 -0.01085249 0.1032836
85.5125 0.0120154 0.1035033
85.5666666667 0.03322758 0.09859411
85.6208333333 0.05413728 0.08778099
85.675 0.07178777 0.07179228
85.7291666667 0.08451118 0.05132332
85.7833333333 0.08986315 0.02960767
85.8375 0.0887362 0.007741875
85.8916666667 0.08387889 -0.01165136
85.9458333333 0.07453673 -0.02691979
86.0 0.06291972 -0.04076099
86.0541666667 0.05021713 -0.05060577
86.1083333333 0.03507077 -0.05435359
86.1625 0.02109726 -0.05208418
86.2166666667 0.009945815 -0.0479718
86.2708333333 0.002842302 -0.04210939
86.325 -0.0002733487 -0.03656143
86.3791666667 -0.001982349 -0.0328067
86.4333333333 -0.003320655 -0.03012404
86.4875 -0.00213939 -0.0302096
86.5416666667 -0.0008808979 -0.03281876
86.5958333333 -0.00061644 -0.03650051
86.65 -0.003916516 -0.04082359
86.7041666667 -0.01083158 -0.04486879
86.7583333333 -0.02011692 -0.0485009
86.8125 -0.03304814 -0.04877206
86.8666666667 -0.04238193 -0.04886934
86.9208333333 -0.05433646 -0.04504453
86.975 -0.06548878 -0.0380283
87.0291666667 -0.07512884 -0.02658766
87.0833333333 -0.08291195 -0.00908808
87.1375 -0.09163593 0.006028925
87.1916666667 -0.09393986 0.02015422
87.2458333333 -0.0915183 0.03529749
87.3 -0.08672026 0.05167201
87.3541666667 -0.07823021 0.06631275
87.4083333333 -0.06716364 0.07969793
87.4625 -0.05199201 0.09399318
87.5166666667 -0.032665 0.1035867
87.5708333333 -0.009639977 0.1057424
87.625 0.005925023 0.1029117
87.6791666667 0.02810168 0.09449109
87.7333333333 0.03891579 0.08968955
87.7875 0.0505988 0.07925944
87.8416666667 0.05974443 0.06741627
87.8958333333 0.06507868 0.05383492
87.95 0.06818279 0.03849106
88.0041666667 0.06918675 0.02590863
88.0583333333 0.06476249 0.01476111
88.1125 0.0589127 0.005023872
88.1666666667 0.05011816 -0.002183303
88.2208333333 0.04411246 -0.005121281
88.275 0.04025593 -0.004395394
88.3291666667 0.03502852 -0.0007822678
88.3833333333 0.03610194 0.003466431
88.4375 0.03843783 0.005802448
88.4916666667 0.0442082 0.006038699
88.5458333333 0.05136554 0.004998184
88.6 0.05887491 4.520352e-05
88.6541666667 0.06675898 -0.006507446
88.7083333333 0.07443205 -0.01847932
88.7625 0.08287518 -0.03069509
88.8166666667 0.08110408 -0.05746055
88.8708333333 0.06674787 -0.07253364
88.925 0.05460847 -0.08339026
88.9791666667 0.04199168 -0.09274381
89.0333333333 0.02852716 -0.1023715
89.0875 0.01230236 -0.1142909
89.1416666667 -0.01655005 -0.1177345
89.1958333333 -0.04471405 -0.1088621
89.25 -0.06362856 -0.09272714
89.3041666667 -0.07408571 -0.07269426
89.3583333333 -0.07887418 -0.05762468
89.4125 -0.07949818 -0.04598054
89.4666666667 -0.08206438 -0.03695828
89.5208333333 -0.08354981 -0.02513595
89.575 -0.08407749 -0.01123088
89.6291666667 -0.07834511 0.002267389
89.6833333333 -0.06749561 0.005991671
89.7375 -0.06647835 0.006376075
89.7916666667 -0.06632112 0.005866543
89.8458333333 -0.06719103 0.005562471
89.9 -0.06975883 0.006353434
89.9541666667 -0.07718537 0.01058105
90.0083333333 -0.08453609 0.02055404
90.0625 -0.08836282 0.03247365
90.1166666667 -0.09037837 0.05095823
90.1708333333 -0.08994601 0.06668968
90.225 -0.090514 0.08139621
90.2791666667 -0.07925563 0.1039722
90.3333333333 -0.05935244 0.1190518
90.3875 -0.04080456 0.1298753
90.4416666667 -0.02054688 0.1403741
90.4958333333 0.004256389 0.1483129
90.55 0.03218457 0.1518474
90.6041666667 0.05738483 0.1420408
90.6583333333 0.0784514 0.1273821
90.7125 0.09798729 0.1108376
90.7666666667 0.1137191 0.09337673
90.8208333333 0.1238306 0.0719774
90.875 0.1299403 0.04791724
90.9291666667 0.1311527 0.02475616
90.9833333333 0.1297434 0.002722488
91.0375 0.1236562 -0.01979825
91.0916666667 0.1102297 -0.03664865
91.1458333333 0.09697528 -0.04867146
91.2 0.08161534 -0.05620974
91.2541666667 0.07008088 -0.06329451
91.3083333333 0.05407729 -0.06626195
91.3625 0.04041908 -0.06323968
91.4166666667 0.03067867 -0.0591438
91.4708333333 0.02331454 -0.05330654
91.525 0.01949701 -0.04804287
91.5791666667 0.01807499 -0.0442359
91.6333333333 0.01824806 -0.04081755
91.6875 0.02111551 -0.03956679
91.7416666667 0.02277829 -0.04103565
91.7958333333 0.02488677 -0.04589587
91.85 0.02479309 -0.0529327
91.9041666667 0.02091489 -0.06112939
91.9583333333 0.01500651 -0.06922504
92.0125 0.004703909 -0.076294
92.0666666667 -0.009450802 -0.08151251
92.1208333333 -0.02483971 -0.08222569
92.175 -0.04133438 -0.07878877
92.2291666667 -0.05736097 -0.07139721
92.2833333333 -0.0721871 -0.05904991
92.3375 -0.08468761 -0.04134977
92.3916666667 -0.08938711 -0.02194138
92.4458333333 -0.09028787 0.0002542747
92.5 -0.08414349 0.01684595
92.5541666667 -0.07676919 0.03597872
92.6083333333 -0.0643611 0.05387641
92.6625 -0.04591071 0.06281284
92.7166666667 -0.02628129 0.06884065
92.7708333333 -0.006463507 0.07050152
92.825 0.01180837 0.06114347
92.8791666667 0.02387642 0.05075248
92.9333333333 0.03263579 0.0385595
92.9875 0.03741365 0.02272788
93.0416666667 0.03674751 0.008208793
93.0958333333 0.03122844 -0.00532058
93.15 0.02023369 -0.01366523
93.2041666667 0.009322774 -0.0173435
93.2583333333 -0.002457584 -0.01766635
93.3125 -0.01376697 -0.012038
93.3666666667 -0.01999141 -0.001478246
93.4208333333 -0.02298701 0.0101201
93.475 -0.02206693 0.02292444
93.5291666667 -0.01315106 0.03449798
93.5833333333 -0.001874221 0.04390586
93.6375 0.01253584 0.04691265
93.6916666667 0.02874703 0.04580304
93.7458333333 0.04416853 0.03978568
93.8 0.05770324 0.02715676
93.8541666667 0.06847594 0.008024527
93.9083333333 0.07265476 -0.00575648
93.9625 0.06995664 -0.02697201
94.0166666667 0.06245338 -0.04677717
94.0708333333 0.04887827 -0.0636912
94.125 0.03180483 -0.07602895
94.1791666667 0.01188932 -0.08313894
94.2333333333 -0.007979547 -0.08639523
94.2875 -0.02873863 -0.08420317
94.3416666667 -0.04986738 -0.07606004
94.3958333333 -0.06671428 -0.06352995
94.45 -0.07970446 -0.04619852
94.5041666667 -0.08850434 -0.02767485
94.5583333333 -0.09183504 -0.006789044
94.6125 -0.08753264 0.0142665
94.6666666667 -0.07825207 0.03261107
94.7208333333 -0.0681872 0.04425157
94.775 -0.05581019 0.05217573
94.8291666667 -0.04644208 0.05668188
94.8833333333 -0.03473983 0.06074023
94.9375 -0.02496045 0.06072724
94.9916666667 -0.01603458 0.05929497
95.0458333333 -0.01031832 0.05614426
95.1 -0.007144302 0.05239139
95.1541666667 -0.006776222 0.04768251
95.2083333333 -0.007650834 0.0452701
95.2625 -0.009906488 0.04451742
95.3166666667 -0.01246815 0.04680875
95.3708333333 -0.01436105 0.0526032
95.425 -0.01218576 0.061041
95.4791666667 -0.01101868 0.06838857
95.5333333333 -0.002969098 0.07953759
95.5875 0.01032765 0.08785915
95.6416666667 0.02397969 0.09453624
95.6958333333 0.04194288 0.09755892
95.75 0.06186202 0.09571373
95.8041666667 0.08225112 0.08816957
95.8583333333 0.1007734 0.07608908
95.9125 0.1164838 0.05804094
95.9666666667 0.1280167 0.03826698
96.0208333333 0.1353633 0.01586577
96.075 0.1331966 -0.009037217
96.1291666667 0.1290425 -0.03360311
96.1833333333 0.1205072 -0.05606712
96.2375 0.1073943 -0.07669435
96.2916666667 0.0938995 -0.09365521
96.3458333333 0.07400926 -0.1048603
96.4 0.04924813 -0.1118227
96.4541666667 0.02404139 -0.114799
96.5083333333 0.001324832 -0.1095612
96.5625 -0.01963342 -0.09898932
96.6166666667 -0.03169272 -0.08810893
96.6708333333 -0.0425939 -0.0680515
96.725 -0.04609838 -0.05146528
96.7791666667 -0.04394421 -0.03596118
96.8333333333 -0.039571 -0.02533393
96.8875 -0.03192223 -0.01634925
96.9416666667 -0.02492485 -0.013516
96.9958333333 -0.01748957 -0.01243474
97.05 -0.009886852 -0.01568953
97.1041666667 -0.005587587 -0.02243634
97.1583333333 -0.004259583 -0.03052616
97.2125 -0.008178519 -0.0383357
97.2666666667 -0.01473614 -0.04574906
97.3208333333 -0.02371271 -0.0487759
97.375 -0.03533746 -0.0505995
97.4291666667 -0.04833444 -0.04620178
97.4833333333 -0.05998921 -0.04077705
97.5375 -0.07159551 -0.03392351
97.5916666667 -0.08095171 -0.02156228
97.6458333333 -0.09028297 -0.01109939
97.7 -0.09583425 0.007053083
97.7541666667 -0.0927822 0.02458512
97.8083333333 -0.08576303 0.04094588
97.8625 -0.07659906 0.05621072
97.9166666667 -0.06243592 0.06858022
97.9708333333 -0.0498287 0.07848791
98.025 -0.03151231 0.08245879
98.0791666667 -0.01559106 0.08389259
98.1333333333 0.0005969516 0.08292897
98.1875 0.01309922 0.07766116
98.2416666667 0.02752803 0.07012224
98.2958333333 0.03705387 0.0605568
98.35 0.03748123 0.04924637
98.4041666667 0.04110098 0.04301965
98.4583333333 0.04224125 0.03517574
98.5125 0.0431402 0.02741014
98.5666666667 0.04369313 0.0215216
98.6208333333 0.04223185 0.01692715
98.675 0.04142451 0.01432638
98.7291666667 0.04047139 0.01180429
98.7833333333 0.04287757 0.01143026
98.8375 0.04644204 0.009077789
98.8916666667 0.05267885 0.004023871
98.9458333333 0.05748255 -0.003652203
99.0 0.06093909 -0.01249968
99.0541666667 0.06427906 -0.02135826
99.1083333333 0.06747452 -0.03521663
99.1625 0.0655563 -0.05238608
99.2166666667 0.05750933 -0.06878251
99.2708333333 0.04635119 -0.09080969
99.325 0.02595911 -0.1052527
99.3791666667 0.002846664 -0.113605
99.4333333333 -0.02333773 -0.115841
99.4875 -0.05416133 -0.1125576
99.5416666667 -0.08300386 -0.0994255
99.5958333333 -0.103888 -0.08305713
99.65 -0.1235104 -0.06020894
99.7041666667 -0.1344635 -0.0288389
99.7583333333 -0.1368978 0.002405738
99.8125 -0.1316563 0.0325441
99.8666666667 -0.1211329 0.0576582
99.9208333333 -0.1027684 0.08009847
99.975 -0.07868119 0.09978725
100.029166667 -0.05745983 0.104821
100.083333333 -0.02971149 0.1136626
100.1375 -0.00813675 0.1138109
100.191666667 0.01085803 0.1080032
100.245833333 0.02910789 0.09921558
100.3 0.04477314 0.08344829
100.354166667 0.05510204 0.06840375
100.408333333 0.05969556 0.05170819
100.4625 0.05825892 0.03908567
100.516666667 0.0562379 0.02793721
100.570833333 0.05114044 0.01954415
100.625 0.04586559 0.01407904
100.679166667 0.04104285 0.01373589
100.733333333 0.03776541 0.01457842
100.7875 0.03544927 0.017283
100.841666667 0.03610213 0.02346312
100.895833333 0.04259135 0.03057616
100.95 0.05573869 0.03336516
101.004166667 0.07100473 0.02871949
101.058333333 0.08301874 0.0182357
101.1125 0.08972234 0.006367825
101.166666667 0.09798939 -0.007642747
101.220833333 0.1025334 -0.02543489
101.275 0.1017261 -0.04446812
101.329166667 0.09567197 -0.06292187
101.383333333 0.08528085 -0.07913166
101.4375 0.07199784 -0.09263878
101.491666667 0.0567175 -0.1026817
101.545833333 0.03961827 -0.1096457
101.6 0.02350627 -0.1127961
101.654166667 0.006105842 -0.1145135
101.708333333 -0.009686689 -0.1109369
101.7625 -0.02667895 -0.102828
101.816666667 -0.03961366 -0.09186476
101.870833333 -0.04837884 -0.07952891
101.925 -0.05282557 -0.06718624
101.979166667 -0.05522175 -0.05605975
102.033333333 -0.05541277 -0.04554066
102.0875 -0.05327991 -0.03601182
102.141666667 -0.04921076 -0.02846172
102.195833333 -0.04454181 -0.02346002
102.25 -0.03992903 -0.02034602
102.304166667 -0.03517331 -0.0198478
102.358333333 -0.03165142 -0.02183424
102.4125 -0.03126138 -0.02528875
102.466666667 -0.03329645 -0.02732818
102.520833333 -0.03615754 -0.03026492
102.575 -0.04199581 -0.03385427
102.629166667 -0.05019595 -0.03634664
102.683333333 -0.06084298 -0.03515474
102.7375 -0.07319006 -0.02957907
102.791666667 -0.08593735 -0.02093963
102.845833333 -0.09665295 -0.008104541
102.9 -0.1049304 0.006726497
102.954166667 -0.11032 0.02502887
103.008333333 -0.1123669 0.04715194
103.0625 -0.1076309 0.06929766
103.116666667 -0.09967346 0.09092754
103.170833333 -0.0859953 0.1114141
103.225 -0.06795483 0.1286388
103.279166667 -0.04689635 0.141974
103.333333333 -0.02283083 0.1516566
103.3875 0.004195328 0.1566312
103.441666667 0.029954 0.1552522
103.495833333 0.05847505 0.1467329
103.55 0.08123543 0.1363404
103.604166667 0.09981999 0.1173264
103.658333333 0.1143454 0.09701765
103.7125 0.1234667 0.07470762
103.766666667 0.1281261 0.05196356
103.820833333 0.1241624 0.03276923
103.875 0.1192904 0.01430316
103.929166667 0.1120581 0.003165693
103.983333333 0.1037784 -0.008055871
104.0375 0.09509064 -0.01422657
104.091666667 0.08925523 -0.01667537
104.145833333 0.08578939 -0.01786747
104.2 0.08586501 -0.01903959
104.254166667 0.08844285 -0.02142196
104.308333333 0.09187068 -0.02720858
104.3625 0.0971709 -0.03681775
104.416666667 0.1026735 -0.05211444
104.470833333 0.1024806 -0.07144886
104.525 0.09411326 -0.09244002
104.579166667 0.08052338 -0.1117294
104.633333333 0.06033364 -0.1289622
104.6875 0.03414435 -0.1408569
104.741666667 0.002933247 -0.1463147
104.795833333 -0.02720315 -0.1428324
104.85 -0.0575848 -0.131131
104.904166667 -0.08355512 -0.1130508
104.958333333 -0.1022018 -0.08895139
105.0125 -0.1160537 -0.05972202
105.066666667 -0.1211318 -0.03033401
105.120833333 -0.1183661 -0.00285349
105.175 -0.1093566 0.0210064
105.229166667 -0.0966918 0.04167422
105.283333333 -0.07959208 0.05795377
105.3375 -0.06027317 0.06759936
105.391666667 -0.04738647 0.07158937
105.445833333 -0.03239319 0.08008611
105.5 -0.01116683 0.08237273
105.554166667 0.006772466 0.07555375
105.608333333 0.02220234 0.06645601
105.6625 0.03207846 0.054659
105.716666667 0.03814308 0.04154842
105.770833333 0.04102496 0.02984256
105.825 0.03898126 0.01862716
105.879166667 0.03442212 0.01084849
105.933333333 0.0323679 0.006673285
105.9875 0.02601143 0.001353563
106.041666667 0.02033293 0.0001438657
