!Created with skrf (http://scikit-rf.org).
# GHz S RI R 50.0 
!freq ReS11 ImS11 ReS21 ImS21 ReS12 ImS12 ReS22 ImS22
75.0041666667 0.004597721852728291 -0.03491613201820812 0.8905043752713642 0.2776560178856795 0.893255931973781 0.27433940161938103 -0.003058256671976368 -0.018995790737683354
75.0583333333 -0.006110983520316286 -0.04011958885791351 0.9343389740452783 -0.009697002409568289 0.9339812627748052 -0.005609649717150105 -0.008686871694695683 -0.01974490094885696
75.1125 -0.01818728460618585 -0.04102514069607589 0.8901838937684534 -0.2858476613263919 0.8921566349732665 -0.2819851718994511 -0.015600718046085765 -0.021449447525283567
75.1666666667 -0.030185856414576082 -0.03990535394169877 0.7721475493809218 -0.5290004978540752 0.7703271222852813 -0.5267652509749775 -0.021141424081798317 -0.017745661047121716
75.2208333333 -0.04306295940711413 -0.03307793176692372 0.5922713584340794 -0.7341924764882015 0.5890511370782907 -0.7387411777984388 -0.026324029982761246 -0.01270676956404194
75.275 -0.05097030043304359 -0.020257491920299794 0.3421422362803965 -0.8798702645707123 0.3447855993264059 -0.8802703856667426 -0.028350171468820934 -0.004588396236943777
75.3291666667 -0.05389413737389238 -0.0045650391517459464 0.07363227092219732 -0.9428592452437707 0.0739226870292709 -0.9430226028990513 -0.027747742883288337 0.003107336196952699
75.3833333333 -0.05157471228272828 0.010502354035241529 -0.19167947597111626 -0.9104841689517251 -0.19160911395718985 -0.911573655560846 -0.022414800483180886 0.008782384197215493
75.4375 -0.04169179363868663 0.0204546661186175 -0.4524822909752353 -0.8348825828928261 -0.4564056722431333 -0.8333861383062426 -0.01845373774478842 0.014475383298102718
75.4916666667 -0.031397887872487144 0.027738603869339146 -0.6748244903861116 -0.6643325618514178 -0.6779870561954344 -0.6615712432656428 -0.010923276966468628 0.015087430013667632
75.5458333333 -0.01982707573409882 0.029672892509116283 -0.8499228635184164 -0.43400258464861574 -0.8506575397754471 -0.43562127174617676 -0.006318784079640523 0.014400486901947724
75.6 -0.008612859387004844 0.02817781882045372 -0.9335035827772042 -0.15889660240724354 -0.931865338414271 -0.17065512330617286 -0.002337381878041995 0.012215039575583274
75.6541666667 -0.0033614381913704373 0.023350607753649222 -0.9354109381019607 0.11198949094728826 -0.9384975076419168 0.10959218994872845 -0.00033985746902671275 0.008923342194184877
75.7083333333 0.001506398916436132 0.017596078272410623 -0.8691043395717496 0.3800171730944788 -0.8708288944024724 0.3816744162499261 0.00048372829276728204 0.007289439607176229
75.7625 0.002428787236806262 0.01079892207184321 -0.7284297661482564 0.607050514505276 -0.7263217928650204 0.6084027129917452 0.00019789482796839076 0.0068161886846166845
75.8166666667 0.0013652693574589337 0.006380923147769276 -0.5204165389495532 0.793984811898681 -0.518249483007688 0.7960003631268291 -0.0004859984685822262 0.005961086220186387
75.8708333333 -0.001779202386652867 0.0020200760826947334 -0.2738019145704368 0.9016501407999165 -0.27506315631981926 0.9017493575846519 -0.00036920189563407227 0.0065378602920613815
75.925 -0.005935707601317367 0.001914357343946239 -0.012483191408726852 0.9366229216559726 -0.008928245463485241 0.9376857473467004 0.0005311576491068123 0.007986188989435913
75.9791666667 -0.0062355846664741595 0.002283007758533908 0.2527318196027855 0.8996665797370055 0.2577453585794208 0.8983896324330132 0.0018642615828850474 0.008691405508772579
76.0333333333 -0.008737721067406884 0.0030958910365442684 0.49976732551942354 0.7881649708833094 0.4990302211827321 0.7880186798164821 0.0052230277664858495 0.01119985473523142
76.0875 -0.00915075108331115 0.004413519694227906 0.7013093348478945 0.6152283698879402 0.7050712415499728 0.6109430118154389 0.007911344395700477 0.008387917006422788
76.1416666667 -0.009188690925946532 0.0062147517254935065 0.8441952312635395 0.3847700934549839 0.8450226738237763 0.3815206160119782 0.010246420716506971 0.005459201104768623
76.1958333333 -0.009875071667996787 0.00775300418672021 0.9203914751539952 0.1357982053214969 0.9193918140791486 0.1294466230598671 0.015278586124318781 0.0035970808791901602
76.25 -0.00971852561429879 0.009001018880825409 0.9219638478549759 -0.15129236703149812 0.9241056966426813 -0.14946327864153974 0.017445528880321883 -0.0014668884181553417
76.3041666667 -0.01194274918805845 0.01405994395555007 0.8323058049110423 -0.40719041964794556 0.8323083179684493 -0.4015836803275344 0.015846855029398893 -0.006965393418080275
76.3583333333 -0.011559019234083449 0.01849739955427732 0.679173324776623 -0.6214480547137851 0.680635211640814 -0.6188434090595086 0.014151774201416114 -0.012458591768251637
76.4125 -0.008532912590230446 0.02113127247022667 0.4811932141624265 -0.7711338253672154 0.4762451467776758 -0.7750621245341034 0.010698327948981517 -0.016237978451112658
76.4666666667 -0.004195560819309664 0.02337629197664269 0.2592638567829514 -0.8734992708537012 0.26761271250357516 -0.8717070177816352 0.0072772143682441875 -0.020838526701155234
76.5208333333 0.0004929945783543259 0.027792469350833075 0.052698479881730126 -0.9250508704180734 0.04388059705832201 -0.9251996532515987 0.002248681540830767 -0.02192480948973353
76.575 0.004660179474036171 0.028287311342829108 -0.18563859828520432 -0.928269538522589 -0.19504868556226976 -0.9243484449152728 -0.003443961473291206 -0.022667929164009438
76.6291666667 0.014103328398583696 0.028483713353408727 -0.46246304927160664 -0.8246825302082413 -0.4691527671358333 -0.8213593929376366 -0.009062352194213232 -0.019971909205259875
76.6833333333 0.022708209719323295 0.02391252454369547 -0.6952136866323774 -0.6418767206634358 -0.6951116204765952 -0.6409404729583765 -0.015671110055076376 -0.01813689674108696
76.7375 0.02875322545185427 0.016921469136380096 -0.8587322526899601 -0.4050125918018152 -0.8584518257386108 -0.40818907415854927 -0.019168925823063464 -0.012277821232789272
76.7916666667 0.03194487170804413 0.007413257997399282 -0.9324197706214974 -0.14594265770788672 -0.9295367003050214 -0.1485711140323543 -0.020586217148533127 -0.005568281390614184
76.8458333333 0.028733991296548106 -0.0021561049825976376 -0.9308343598623278 0.128631217148213 -0.9329884998682046 0.11536686555149804 -0.017666060266810845 4.114503405461827e-05
76.9 0.02052758973522932 -0.0077032472685702735 -0.8653503005892763 0.3778268830082563 -0.8667670041755664 0.37523630476779285 -0.013504494484964285 0.0021610408052996017
76.9541666667 0.014739124953229337 -0.010044001048895789 -0.7325741190589431 0.5973504355792354 -0.7270900026081767 0.6034703358169239 -0.010518137985663048 0.0033463676764356317
77.0083333333 0.009247362869266149 -0.009584349917697714 -0.5429950769386801 0.774480841603153 -0.5458186626073013 0.7723909365185578 -0.007699451194531621 0.004470541933354465
77.0625 0.004433909963550438 -0.00499932355512403 -0.30706111572154426 0.9041305757189173 -0.3032036192263245 0.9062427395539021 -0.003888742572557282 0.003069609374923205
77.1166666667 0.002930600689940908 0.0008074317616028774 -0.024211553222624842 0.9755560680398506 -0.0172156004657957 0.9747660685147034 -0.0009323467538047266 0.00014972563341109936
77.1708333333 0.007221373376680099 0.004422560338947579 0.2516828622020237 0.9388199127117589 0.25388540770928086 0.9392157290621962 -0.0037638801283691433 -0.005013728819049636
77.225 0.012103062401953153 0.004822643563040759 0.5023050321543874 0.8339012390351531 0.5004549174057609 0.8340721097586945 -0.007812684655126023 -0.0058903452494748765
77.2791666667 0.018637853301185215 0.005458597266982177 0.7188456285079844 0.6578789011572813 0.7204686217317179 0.6588847106967295 -0.012196403955691649 -0.003992661394800807
77.3333333333 0.027714923219082276 0.002605655950245396 0.8754096035477241 0.42651662958066594 0.8718105124441169 0.43407769057329815 -0.012412962040184251 -0.001429066226155481
77.3875 0.03267556581670577 -0.005634712881788493 0.954206693788671 0.16763607606712488 0.9531378442135464 0.17074876688886442 -0.012589702326479706 0.0016930009106345665
77.4416666667 0.030960266330015994 -0.0226945230548455 0.9596084829249192 -0.10459274248857896 0.9584979884910608 -0.10610588417154661 -0.017623892883621685 0.0016948481576077189
77.4958333333 0.02438013205476568 -0.03223404708301671 0.8925801693270659 -0.37376810131974886 0.8921190245421681 -0.37938077392693775 -0.014234170624010615 0.006062801786756273
77.55 0.02017648153753042 -0.037587079678914816 0.7521859252117914 -0.5970382498630739 0.7495424849134779 -0.5972059083173223 -0.011099846670664673 0.014496867336784888
77.6041666667 0.009588420538471766 -0.0407414389051517 0.5565996707698841 -0.7904160764739978 0.5563766032020523 -0.7916440028748133 -0.007090009995179974 0.02133483384176739
77.6583333333 -0.007211105474283256 -0.03487494325815614 0.31856445928089766 -0.909758032691023 0.31786704300462554 -0.9095252113588924 -0.0012059262807272606 0.016079079221538978
77.7125 -0.010254998915390218 -0.0291493398734997 0.05836406586339919 -0.9554114932272502 0.05709330991408875 -0.953292573282589 0.006043203773204406 0.015152999051633063
77.7666666667 -0.01081296159744089 -0.030832892742343184 -0.20685117526013774 -0.957620128268727 -0.2151970846451357 -0.9551161064742585 0.013603093311408847 0.013990849744812532
77.8208333333 -0.013252565318976776 -0.025685662439042554 -0.4577289960444075 -0.8328167461440054 -0.45671018352346704 -0.8326208782071187 0.016847901790858644 0.009791164917318868
77.875 -0.01616122395637824 -0.024629302192217786 -0.6748225353901804 -0.6809516016665881 -0.6751655986086987 -0.6815737485163625 0.01705447456602234 0.003908981990746241
77.9291666667 -0.012181124105064564 -0.017784759630205454 -0.835711366889214 -0.47743465571041027 -0.8373007485861618 -0.47434209751335776 0.01146681584514296 -0.0033924328846847564
77.9833333333 -0.012342041754752658 -0.014136142820269752 -0.9488255662034706 -0.22550876242149218 -0.9464346077560817 -0.2314264339562989 0.009177978351148367 -0.007592899399986137
78.0375 -0.013304612145629653 -0.012735364721074246 -0.9787326378090133 0.04478055619657794 -0.9770037138080885 0.04396564368537011 0.0049911728379254975 -0.0066059338514617835
78.0916666667 -0.011419735679604482 -0.009421299980967034 -0.930499260225268 0.3058455708786717 -0.9296746939243062 0.31155735312133265 0.0029155325229269 -0.005227106495942189
78.1458333333 -0.013073129783124696 -0.008066153448731218 -0.8064027554211897 0.5562920112350808 -0.8058115729772635 0.5580462992185743 0.0017725102266158354 -0.004385823153594159
78.2 -0.008890213715049923 -0.0039652374891508855 -0.6252452109273526 0.7488667012646997 -0.6218679427328878 0.7511582791544101 0.001399734883182509 -0.0018026249983460639
78.2541666667 -0.006071848528293488 -0.002544833728934553 -0.3929308323439568 0.8956023421910969 -0.39119400537905435 0.8944069667605861 0.005425688235861403 -0.002571828885844113
78.3083333333 -0.000728403138498738 -0.001095936468434768 -0.12603607299914868 0.9713295319000907 -0.11936761085479952 0.9706679928537717 0.0076217308015685 -0.0028334751263686827
78.3625 0.003564565427459968 -0.00338228720473886 0.15882483739563347 0.9703273723344664 0.15239296282516354 0.9721878869939028 0.011430089441945885 -0.006709916951674884
78.4166666667 0.008018719669533169 -0.00791888784930883 0.42402682513926104 0.8876209087062394 0.4191191395374298 0.887601073565403 0.01443467369080893 -0.013063642767073058
78.4708333333 0.011319976050143643 -0.015911259550647257 0.6509284397071416 0.7350369814695092 0.6473866351183278 0.7374061964749588 0.01174408171201231 -0.016153948896744322
78.525 0.00945741011130099 -0.027752472065547422 0.8245292375547154 0.5242357492134345 0.8276499467690459 0.5236163140135812 0.008806545206101864 -0.020996009750373194
78.5791666667 0.0017288166332201816 -0.03466297440264012 0.9426196596159497 0.28278692615394974 0.9423402383804373 0.2835301174019039 0.0025351657174993263 -0.0257263067901448
78.6333333333 -0.00820572857462324 -0.04248001364477498 1.0026970568088873 0.02629294617351521 1.0019365099321988 0.027236704171582513 -0.0050035570409054505 -0.027705192332696846
78.6875 -0.022686306160992202 -0.046586646879537036 0.9924765948452358 -0.23147575081330507 0.9936205447539761 -0.23108733676087465 -0.010260540137222841 -0.027182000786970584
78.7416666667 -0.036408685551200255 -0.04172170913665321 0.8929626977309165 -0.5007568657500236 0.8922738552518223 -0.5060864947223511 -0.017418625779175197 -0.027238111290901604
78.7958333333 -0.04582851018861735 -0.030833034970779844 0.7081866417536378 -0.7221689132681769 0.7096177940846096 -0.7198481401439075 -0.02347595834266272 -0.020919773402510885
78.85 -0.05088763595116742 -0.017763113492479245 0.48102611032957343 -0.8732676877254414 0.48287203215747765 -0.8717159964510282 -0.027878061775474795 -0.01488954658350614
78.9041666667 -0.05227842746282714 -0.0014047818160537412 0.22595228172623774 -0.9599399496328994 0.2231185793167963 -0.9586797598241026 -0.027775511917213724 -0.007765226964283967
78.9583333333 -0.04790322699684956 0.013455204395514609 -0.051016904295327896 -0.9727270253524735 -0.05240961565823928 -0.9707921939565831 -0.027481508354086304 -0.0008788809456791188
79.0125 -0.03913228142122722 0.02473058977708109 -0.3230252929214816 -0.91891200514778 -0.3264274274973568 -0.9173479316412706 -0.02814886377298703 0.005772773809637108
79.0666666667 -0.03220816151440335 0.034921723927568794 -0.5616657438758502 -0.8149464482618335 -0.5645745843188007 -0.8127008379846387 -0.021016004493980757 0.00949329800361487
79.1208333333 -0.01718584205214726 0.034865236681719196 -0.7558738567029818 -0.6186319454760482 -0.7580126689890675 -0.6168024821864365 -0.018030702903282056 0.015050025600250606
79.175 -0.005088421325753035 0.03452833470747544 -0.896594571343227 -0.3806104393373991 -0.8947271215840349 -0.3840018276458813 -0.010937226882927737 0.01525998751808656
79.2291666667 0.0033141130750187313 0.027975890468286486 -0.9579961400014786 -0.11428701351394997 -0.9575117965101185 -0.11510226866525346 -0.005872877763230332 0.014072990024951803
79.2833333333 0.007956980552775328 0.020468983888026926 -0.9580161427860369 0.1603043890130326 -0.9579202809945105 0.16063593565383777 -0.0018374652654670803 0.014119132997295305
79.3375 0.009363673448033112 0.01399012596774852 -0.892052370096245 0.4200745667002644 -0.8894763284566538 0.4208543445576861 0.0014492146651104128 0.00972873910005745
79.3916666667 0.006929240327547596 0.008518101462595202 -0.7564049906167869 0.6233741830072002 -0.7503521260894852 0.6317236137172806 0.0039905768185827155 0.00861231523048197
79.4458333333 0.005033831665906329 0.006739358829351736 -0.5445909498469189 0.7914999552908989 -0.5470969643317117 0.7897586720507181 0.004314144170531622 0.0051527153811616305
79.5 0.0028173945064272304 0.006624564394540243 -0.3055533111997686 0.9016849955378624 -0.29572867920401574 0.9040333126257559 0.0027440751576438814 0.0021783341730438927
79.5541666667 0.0015175375421583634 0.007876962396882313 -0.04585096638748486 0.9512759918669993 -0.056503991636534 0.9497011142722236 0.005500007683240553 0.002880011590443413
79.6083333333 0.0025510254986241786 0.011235062122256145 0.210767074353166 0.9312623789085341 0.21424965577746083 0.9314314882436854 0.0032320749770723954 0.0007736488460874507
79.6625 0.0042975559058959405 0.010942021662549994 0.4500601962388628 0.8402866829598202 0.44891600553605293 0.8414203988928523 0.003419338222023092 0.0006067105933016975
79.7166666667 0.0030409647475000074 0.009243584353114398 0.6598581756957645 0.6931872385765075 0.6622779067861106 0.6919318569333781 0.004144384459832911 0.002074127292957177
79.7708333333 0.003313794228116527 0.008496827927581465 0.8212486212105824 0.49476195922172594 0.8207520686208417 0.492405832427691 0.004249845242834727 0.0009269967047001458
79.825 0.005421975770879117 0.008535271694883589 0.9272492105308234 0.24999647724907817 0.9285057036523193 0.24855210885658055 0.0047131804881593445 0.0001201238028064003
79.8791666667 0.00687992934322328 0.010977088109281287 0.9605613836977464 0.0028257124900524103 0.9585820142766255 0.001501101955361558 0.008253329432659662 0.0009863300130255636
79.9333333333 0.009447259475359758 0.011153965440692477 0.9168084625766288 -0.2545541773578947 0.9128971479286284 -0.2595692068707135 0.008555270039396635 -0.00018090927068042747
79.9875 0.009957889572263049 0.01250530048566448 0.812900784082279 -0.4793045150172604 0.8150782719683382 -0.4789176221607788 0.0106748141000388 -0.002751714982158573
80.0416666667 0.010095231472617802 0.010855373722308744 0.6440631897699669 -0.6714852249812607 0.645338504335745 -0.6710510939199735 0.010936579008123861 -0.008487908191927355
80.0958333333 0.008452307854111551 0.010281660150587344 0.44490572409185675 -0.8223505332860103 0.4441646237692015 -0.8222082824457229 0.00950144687670022 -0.012403145798646452
80.15 0.009567689650502536 0.010735538035601089 0.2249592026261619 -0.9132535541494322 0.21695154060922686 -0.9135101098681382 0.009661076513026608 -0.01396745665759034
80.2041666667 0.01767883747668204 0.012756343062508975 -0.02403583097461402 -0.9338174984199201 -0.03411324327800291 -0.9327007617906826 0.0070838155627338 -0.014795297659951724
80.2583333333 0.023726548782125753 0.010412621030635087 -0.2801484623272848 -0.8956782617100605 -0.26982651104060185 -0.8982177141206885 0.0016741748581075395 -0.015476619822421288
80.3125 0.029281688661281113 0.007541624674467691 -0.5033944174233715 -0.7826978880174515 -0.5008456443319058 -0.784480863982176 -0.00462714084069617 -0.01784522073872455
80.3666666667 0.027620342642934795 0.0023509106291902757 -0.6899821531613436 -0.6171334041215266 -0.6944656874740931 -0.615330085203204 -0.007703787008235129 -0.019415712853590422
80.4208333333 0.02445824784721723 -0.005886379173745266 -0.8314324595517312 -0.42230962933680516 -0.8339107235634443 -0.41480439251462126 -0.009067523916142382 -0.014703086219934993
80.475 0.025118305644011463 -0.010636416629493953 -0.9061714279993623 -0.20074581624128027 -0.9075671482914541 -0.1952309985419433 -0.01188115368311487 -0.009431075164456262
80.5291666667 0.021000991056659105 -0.014858547071383354 -0.9340585821891216 0.05043747237338714 -0.9361960765497277 0.04141257620117053 -0.016244338827620948 -0.006390898553042214
80.5833333333 0.014765060249089931 -0.015722469912068836 -0.8984854836668555 0.29607702838150757 -0.9000468530887047 0.2944439297423566 -0.013087383980486691 -0.0028571036788180744
80.6375 0.009063549066734204 -0.014544816981473096 -0.7981917636890119 0.5308164466137241 -0.7962736604468091 0.5338417508486724 -0.010715730840378372 -0.001507651526138593
80.6916666667 0.009450241956826937 -0.010175191575403995 -0.6244362911727642 0.7133652207713082 -0.6250748011165452 0.7119984010276559 -0.009518040307814547 -0.0006194552038145376
80.7458333333 0.008230290237572496 -0.009264348450117995 -0.39253950862611847 0.8539714588512384 -0.39403392084931677 0.8543544474194005 -0.005466874936013773 0.0006954663253993135
80.8 0.005946761780748341 -0.0039284177792169705 -0.15668708938150694 0.9378569880173396 -0.1634697783748841 0.9374935977225006 -0.002083552910363 -0.002220906520401703
80.8541666667 0.01206413690995079 0.002918821712561707 0.09430051625343636 0.9319236955335843 0.09182388268433887 0.9324527234257931 -0.00019446274960219069 -0.007413390725721089
80.9083333333 0.02250116280669399 0.0022597080545472114 0.3415924647226365 0.8588657603024016 0.34344671339536115 0.8595840277679696 -0.0033041202094731257 -0.010023253706912065
80.9625 0.027647649601184723 -0.0019977124924503366 0.5579962503909319 0.7272886341230277 0.5630454396713369 0.7242569056870478 -0.008103471855706158 -0.011177738316527724
81.0166666667 0.03404807976747071 -0.00988330181852663 0.7289065335785917 0.5437875571470967 0.729482752220993 0.5431426942008569 -0.01027294216854872 -0.009613844262305086
