!Created with skrf (http://scikit-rf.org).
# GHz S RI R 50.0 
!freq ReS11 ImS11 ReS21 ImS21 ReS12 ImS12 ReS22 ImS22
75.0041666667 0.5866023170306837 -0.23375894141990328 -0.7865079201690991 -0.07591832694183175 -0.7850785784718453 -0.08083982382779605 -0.33021819663007784 -0.2052032088809542
75.0583333333 0.4909111688751726 -0.40618566120668903 -0.7734939333015781 0.16927495809071041 -0.7731253132526883 0.16302355831131066 -0.38092879831581594 -0.09972219647628572
75.1125 0.34272195583441495 -0.5440344043109809 -0.6867367069577343 0.3907042026542231 -0.6858959788993245 0.3932034957307138 -0.3936983621564823 0.016521642528858793
75.1666666667 0.17259320023653404 -0.6277118882733852 -0.5467428729669276 0.5671306387790128 -0.5413433829606001 0.5733397011912701 -0.3724034299367819 0.12934474908231533
75.2208333333 -0.028331594678500556 -0.658701029761215 -0.35161845329684344 0.711632444712761 -0.35664065352585533 0.7105097168655519 -0.32606602236406357 0.23110363063362022
75.275 -0.22256728323702152 -0.6263035996434116 -0.12951523282709984 0.7837013430084071 -0.13259722462354578 0.7834034807080876 -0.24042157713250972 0.31990892733825327
75.3291666667 -0.3956915190737885 -0.5357418962214542 0.10722736248976648 0.7861176120847057 0.11006646333685427 0.7882060458606935 -0.1324948719762357 0.37801063767356496
75.3833333333 -0.529666350453286 -0.39468813828052185 0.32248354366510723 0.7133109157631771 0.3242150687886454 0.7131470782886173 -0.025434642819535155 0.3917030835560034
75.4375 -0.6251391562990283 -0.24180364058902545 0.5293870257353575 0.5962240369673224 0.529095347860181 0.5955580593446116 0.10086039600130181 0.3902673126437898
75.4916666667 -0.6754633229343232 -0.04807047813868426 0.6806783062474808 0.41403389331601187 0.6829809077575436 0.4109478511453173 0.21313139134593412 0.3321024580582129
75.5458333333 -0.6616043563785631 0.16876898045577277 0.7780648177557009 0.1883540909796639 0.7774500941599778 0.18716143513112374 0.30104072999400905 0.26236363423984116
75.6 -0.5762245137606076 0.34877806765643893 0.7957932961529266 -0.05458677191924756 0.7961894786173347 -0.05429930923186617 0.36792214382606536 0.15283550749985886
75.6541666667 -0.46603555595281276 0.4958653591956709 0.7388309142652935 -0.28773804430617533 0.7414224571105432 -0.2814127118875071 0.3877726780714303 0.03346975926738
75.7083333333 -0.2983440099610486 0.616557837425359 0.6294231170049571 -0.4937470318523379 0.626636994061758 -0.4945402691569056 0.38575028983130094 -0.07629446479681107
75.7625 -0.10679206587005508 0.6809560741909799 0.45571410334511125 -0.6532589771600082 0.4606045221219058 -0.6513792167560464 0.33975106476810724 -0.1842199009981646
75.8166666667 0.09438860046577184 0.6746917645197711 0.24521399832488433 -0.7582736958154845 0.2506623029957593 -0.7550486354855988 0.27882854842015103 -0.2764140914472611
75.8708333333 0.27892537755120456 0.6175224875924507 0.01794853832167941 -0.7912058149035132 0.022785513477610167 -0.7906324334241422 0.18595165456324508 -0.34112224915032635
75.925 0.4498629442334671 0.5069082731046991 -0.2098468810055094 -0.7623531772740638 -0.20942130254401303 -0.7588334159736297 0.07986817085541437 -0.3751302749430111
75.9791666667 0.5728704151768298 0.35508581127774425 -0.4188951837067196 -0.6645695136760168 -0.41537531829401586 -0.6661714246814792 -0.03283482727846437 -0.3815686346175066
76.0333333333 0.6487359863293197 0.16429651581347496 -0.5877420420666237 -0.5132679713489284 -0.5889952113111562 -0.5150858245909493 -0.13861740373443437 -0.3588785184084014
76.0875 0.6793090953491545 -0.03413183182794806 -0.7133231219490029 -0.32053059185873106 -0.7140880745682546 -0.3154390453685614 -0.2331924756935479 -0.30069538423606273
76.1416666667 0.6324918096253962 -0.23970692557468143 -0.7696154101649071 -0.0924111262993779 -0.7689322556398843 -0.09068774978207879 -0.3049420665842389 -0.21972657711085233
76.1958333333 0.5266627138576883 -0.4190724632297129 -0.7655078577163059 0.13033241953525634 -0.7673573385280249 0.13085771921092795 -0.3552970832767779 -0.1316247934646788
76.25 0.3764892539112913 -0.572531171505335 -0.6937167538571606 0.35697912061800063 -0.6932641963272167 0.35752104712972843 -0.377926024604416 -0.019983048545677735
76.3041666667 0.17873547860508926 -0.6568750117341403 -0.5554713939538554 0.5367652898833104 -0.5550637258272263 0.5371124956116451 -0.3607859857388147 0.08501426942765491
76.3583333333 -0.028851417060863273 -0.6780359759854279 -0.37370647776442767 0.6677930396709791 -0.37365151424651083 0.6699059022187469 -0.3233662482273921 0.18345140847143518
76.4125 -0.23126613358034384 -0.6231723413569278 -0.1743399877732425 0.7390668353704949 -0.16319140128977058 0.7397629752499653 -0.2689992376177788 0.2572033328505543
76.4666666667 -0.4140203079268773 -0.5017459866110621 0.029274921053021458 0.7593292323445551 0.025598680842161436 0.7594360055322111 -0.21649290934036786 0.31805438980232514
76.5208333333 -0.5283266813336024 -0.36170304450104895 0.22110267917260878 0.737953332142898 0.21722153531457875 0.7394636364408133 -0.15296193403083252 0.3747909033401729
76.575 -0.6002166361149138 -0.25627149803688776 0.414535223957706 0.6699029311037235 0.4087384279689772 0.6706500040370799 -0.030617943508553364 0.4145244205735498
76.6291666667 -0.6659941993624434 -0.08848596061260841 0.5987297975408724 0.5064005962116517 0.5980044177946753 0.5092315396530233 0.12036486254199989 0.3863980394032957
76.6833333333 -0.7131777652701713 0.15063346183332402 0.7283116209985849 0.2921050776248693 0.7270083568169529 0.2948751820565816 0.21670321092725076 0.30977491851395667
76.7375 -0.6150781803803921 0.3589253496151852 0.7846668521826867 0.06020516739406909 0.7810720358174078 0.05907062168365294 0.3048379232745556 0.24644623274288044
76.7916666667 -0.47726740667138007 0.5051917408566842 0.7587285991436455 -0.16770377227720815 0.7579038161397045 -0.1681951203983411 0.37421575608152086 0.1461909033765793
76.8458333333 -0.3107436670636513 0.6198657793266372 0.6766778802590662 -0.37259709022679305 0.6790672915505028 -0.371019621364839 0.40383079448197645 0.032797313916479
76.9 -0.11798791437702857 0.6945024620992638 0.5389243960056508 -0.5534563561683606 0.5464709923044255 -0.5472018820912112 0.39777245871344835 -0.08654839498560044
76.9541666667 0.062069110907325566 0.7172514090446628 0.35881812798802126 -0.685139881113662 0.3667640796892605 -0.6798923541384215 0.35375081670160774 -0.19990998566902585
77.0083333333 0.2919459061651465 0.684062338096923 0.1647928811932787 -0.7529584824870397 0.16256254231764022 -0.7523344592944787 0.2920131668891869 -0.2685930610407675
77.0625 0.47267087540183905 0.5505751567599619 -0.05897351514388889 -0.7715005177558535 -0.05818409508720565 -0.7721296747532512 0.21952520843719273 -0.36259316860397156
77.1166666667 0.6189231604760135 0.41153751973345415 -0.29143225463962263 -0.7350052704821782 -0.29287868297595887 -0.7339082304692686 0.08918416374436293 -0.4294573512952481
77.1708333333 0.7164945309239716 0.22426338025463594 -0.48600178529832916 -0.6144175666552922 -0.48833139476863646 -0.6145701296109596 -0.0358120651940348 -0.4374088739348692
77.225 0.7620576922869794 0.012127312664233007 -0.6385172264673709 -0.4535428940677501 -0.638352184402335 -0.45501085498422894 -0.15882552664377467 -0.40487130508319763
77.2791666667 0.7393771221405347 -0.20453599541651613 -0.7395710739347211 -0.2587930678597406 -0.7399978192413386 -0.2551623210027113 -0.26863716659119813 -0.34716387852347974
77.3333333333 0.6571702222908846 -0.4063086753381231 -0.7793769823378084 -0.03771430932835252 -0.7800841266191502 -0.034762591839146435 -0.35514100960545203 -0.2582617425371096
77.3875 0.520055057142726 -0.569772188806959 -0.7520243740677848 0.18416933186614307 -0.7514958299779282 0.18125278567176523 -0.41165339492103803 -0.14576422612807066
77.4416666667 0.33841550266963105 -0.6984816355159407 -0.6687205808680035 0.38363945270620914 -0.6673652326877619 0.38464333607615414 -0.4355460392463587 -0.025216952672826084
77.4958333333 0.12174518187489515 -0.7630624931627937 -0.5341468318408162 0.5624484195703884 -0.5305256095199663 0.5644876915564359 -0.4321298573178784 0.1040843309949388
77.55 -0.08985233952072418 -0.7717277970695685 -0.35332259722142245 0.6820410222646064 -0.34844933588028376 0.6823338428887962 -0.3745397217234649 0.21797896096134467
77.6041666667 -0.2911831440724141 -0.7150981787814937 -0.1466812590357308 0.760452615991235 -0.14586549667591012 0.7603154944311507 -0.299591294977 0.32638798365113414
77.6583333333 -0.48257730871219606 -0.5975010638568118 0.063109728900609 0.7716004252230826 0.06230768013313366 0.7722449815203889 -0.20183839869484707 0.38850044679915896
77.7125 -0.6244146372753968 -0.43586468038937354 0.27495870192444466 0.7209420036291261 0.28094587987631175 0.7177812622330354 -0.08805216697800732 0.42144893745621
77.7666666667 -0.7261770511898165 -0.2541915127601842 0.4796141031053947 0.6242352135643674 0.48390221381409576 0.6219390869607568 0.041010178785397346 0.44707901470227673
77.8208333333 -0.7799989270931105 -0.038825310987027614 0.6207586355840112 0.45032425881299165 0.6168244238695433 0.45078395844566627 0.15042782934995338 0.38917029149950777
77.875 -0.7713734239049467 0.19396320966710562 0.7305808370246291 0.2627134115020825 0.7289898265145269 0.26396457894960773 0.24811320115068294 0.33360857889544415
77.9291666667 -0.6712423866195996 0.38045427950399885 0.7744038073456575 0.049695699099094506 0.7757071627484109 0.052580337307415556 0.3372547684606235 0.25682854001913247
77.9833333333 -0.533768459952024 0.5325375157478932 0.7669477870948612 -0.17948406587703788 0.7669009182817947 -0.17216006004350914 0.41911360222510796 0.15272105004644607
78.0375 -0.35876082552891636 0.6582619557563772 0.6917156589137031 -0.38539541053090215 0.6935516778469848 -0.3809342855746208 0.4528266223631086 0.03007190157511072
78.0916666667 -0.16052943763845257 0.7288787550537353 0.5565184443305197 -0.5630936556880972 0.5560379479783439 -0.5606180115163742 0.4417178016881088 -0.09756928100057435
78.1458333333 0.05070197344477902 0.7418221581825448 0.37466725067997275 -0.6961343701672966 0.3715515213816369 -0.6961229417747683 0.39714101295511983 -0.22438429116283123
78.2 0.2565211666611707 0.6959464489028085 0.16373388090731686 -0.7651467224694558 0.16309634826516495 -0.7653011620727468 0.320551653406789 -0.3243353156993731
78.2541666667 0.44039734093153726 0.5964344655674232 -0.05755672342035445 -0.782171913446308 -0.06301830047491218 -0.7811926989349393 0.21556388587605 -0.4072775115525582
78.3083333333 0.5999127483084075 0.4529162606659396 -0.28600284811347354 -0.7302123083457515 -0.27676444099797043 -0.7330772495514202 0.09364804468157203 -0.4495170817746003
78.3625 0.7087823217081788 0.261097717086895 -0.4780827625533172 -0.6231866886564627 -0.4744543977193747 -0.6233665430521906 -0.036531748178741816 -0.4624104641341116
78.4166666667 0.752794508472662 0.045712023130676495 -0.6313087607462311 -0.4617265763823734 -0.632231872341542 -0.4614117361081001 -0.16539972392794178 -0.4355740592188389
78.4708333333 0.7371860392204007 -0.1744260975976305 -0.7366232554237535 -0.2634480626039396 -0.7362572551018576 -0.26009099071819997 -0.28108147392270866 -0.3724569840867431
78.525 0.6538129333850353 -0.37573537951890096 -0.7749083296314813 -0.04946904713704369 -0.7758825709905385 -0.04680878487357093 -0.3741947332805342 -0.28205039341524174
78.5791666667 0.5288092931186248 -0.5462261412279098 -0.763272154974324 0.16811633545914859 -0.7649340634722426 0.16260328464820722 -0.43839390506716325 -0.16732071383297628
78.6333333333 0.3794383090031019 -0.6768264626181347 -0.706369030882176 0.3675982107231792 -0.7066889193821938 0.3681494670119215 -0.4778940334849868 -0.0434999417534435
78.6875 0.19431422080010433 -0.7728005377772298 -0.5978372814865057 0.54869625940916 -0.595148054840022 0.5478295523115356 -0.48038898874236124 0.08050786704919831
78.7416666667 -0.0335313656964024 -0.7907918657138804 -0.4228066637669792 0.698498977480421 -0.4200270151103209 0.6961247909733012 -0.44234114945746034 0.21473978286333967
78.7958333333 -0.23082899302003207 -0.741251922525498 -0.2077668464724521 0.7750757027243785 -0.20439603016883742 0.7766625185536338 -0.3520380145397432 0.33865033716984333
78.85 -0.3928661783447997 -0.6478819242781894 0.012257406917785454 0.7957183715948702 0.01806814561354261 0.7939921750435215 -0.23563137280788798 0.42475326053432255
78.9041666667 -0.5562107720490492 -0.5016453086859235 0.22473031899282253 0.752721469003029 0.22765542654218487 0.7538096556267109 -0.11527439152356866 0.46462597689928126
78.9583333333 -0.6605285775183617 -0.32844932093754603 0.4344149923597941 0.646407610359811 0.4297035684636573 0.6480478853008517 0.028173797860804185 0.4691983797777662
79.0125 -0.7253070691095598 -0.12990989027124814 0.5968346211611277 0.501645483904544 0.5979381151018932 0.49839842479277374 0.16648662901590638 0.438824051464975
79.0666666667 -0.7403283960689305 0.07181335821189962 0.7216245136550058 0.3309134678937186 0.7220086711178956 0.324038244308668 0.2817992396791386 0.38783989316200673
79.1208333333 -0.6839978595198943 0.28020227524610114 0.7766091523902445 0.11490252136691857 0.7761274593788642 0.11070378374073946 0.3706001746250499 0.2918265826382716
79.175 -0.5804944628921852 0.45633969155350573 0.7728650026167144 -0.11536238485969232 0.7723886776850754 -0.11314299946887907 0.43375442856228397 0.1710846142988539
79.2291666667 -0.43219201002841634 0.6005734204104937 0.7041530249141196 -0.32426940978821406 0.7023105326108046 -0.327304997286114 0.45337133876152697 0.03974784050904847
79.2833333333 -0.24549440267184253 0.7122492096631696 0.5810522466724578 -0.5218663824576502 0.5829216789806028 -0.5162908049237218 0.4428338603645113 -0.09069803748452752
79.3375 -0.05228156583989378 0.7603607693874805 0.4251852676235616 -0.6664981145119429 0.4250870757036704 -0.6681881077573569 0.40567004873338514 -0.22112837558630932
79.3916666667 0.14185247175303825 0.7519697217995467 0.2385368818993266 -0.749822677152041 0.23598044120841308 -0.7529789025386815 0.3305337274257901 -0.3174949578154644
79.4458333333 0.33321746343857717 0.6681897872409182 0.020662461065542703 -0.7713413363337822 0.022656637955075616 -0.7723820803026327 0.22526586538412252 -0.3891908668614392
79.5 0.5062979820887892 0.5365950512311084 -0.1911056589018874 -0.7403980292879135 -0.19033838459490193 -0.7394936023459242 0.11273279850625902 -0.4279819046579222
79.5541666667 0.646737795634382 0.38632601429677693 -0.38663567649072145 -0.656712261985469 -0.38794451101735017 -0.6551444282069614 -0.0016173947876416863 -0.4324812849318046
79.6083333333 0.7263178701443804 0.18695674833836923 -0.5579979913382624 -0.5246816401585314 -0.5544134569308253 -0.5241176725427739 -0.12530492285032252 -0.41874734477949543
79.6625 0.74314665389524 -0.01692379679065172 -0.6779468513125152 -0.3545600388921831 -0.6753495605230626 -0.3556967064913437 -0.22889643752241678 -0.37438218067464124
79.7166666667 0.7036010210211213 -0.22424744117509743 -0.7506019932998753 -0.162888951195079 -0.749982669044709 -0.16716525967905987 -0.3188180354659565 -0.30507121701625006
79.7708333333 0.6186118496814174 -0.4212067486551096 -0.7685710635413783 0.044913523130252785 -0.7689827491211622 0.047906736912634265 -0.3861545272995118 -0.20550962682980012
79.825 0.4788618366358959 -0.5808363992782061 -0.7267246278517757 0.25401710589772686 -0.7288654596799793 0.2563632295510808 -0.4225280066552038 -0.09683028738980846
79.8791666667 0.30693486557554595 -0.6806371747674763 -0.6321580096462669 0.44201798361911393 -0.6345851681256512 0.44118977112728774 -0.4336174929339303 0.021222577633491228
79.9333333333 0.10453703050239968 -0.7328845834925874 -0.48566000232888734 0.5906564477535734 -0.4819193412004631 0.5934879636794597 -0.40515510096147705 0.13454221809865996
79.9875 -0.10572090270966976 -0.7198694705538792 -0.30424941571892283 0.6964081582743467 -0.30728071809514146 0.6947354309541148 -0.3575347132039315 0.23378389862710436
80.0416666667 -0.30879963097795377 -0.6567950776316606 -0.10477537871329169 0.7421504258620718 -0.10731033219872536 0.7423086519615565 -0.27871803288477603 0.30403612891994336
80.0958333333 -0.4780306806686145 -0.5445627209337262 0.10547610166337762 0.7445456164477845 0.10074206598812792 0.7460268474592907 -0.18827104658342456 0.36909048533130895
80.15 -0.6110803426823572 -0.3937168179149539 0.2974088261551992 0.6967096599564082 0.2973639204121385 0.6975750440790662 -0.08374036397021903 0.41017531123830775
80.2041666667 -0.6851116776326923 -0.2110989356315118 0.47219493980052996 0.5879164197387836 0.4685915722434082 0.5911836294253524 0.02785641167541458 0.4175527755177437
80.2583333333 -0.7179633632212167 -0.013564981100298943 0.6133150062175181 0.44071075584154235 0.6136961780310719 0.43676119055060797 0.13630441515250485 0.39714647712949863
80.3125 -0.6878572472505671 0.1928249445996792 0.7051955661794235 0.25364080291624136 0.7071566522910835 0.25320851549829804 0.23475724771105885 0.3449123739515248
80.3666666667 -0.6090937998722484 0.3805958074230438 0.7430867827780304 0.05167361048094525 0.7427720366119982 0.04934537271435248 0.32237443241795644 0.2615835361779911
80.4208333333 -0.49111098057544544 0.5370823235216924 0.7345695971648326 -0.14389369944819413 0.733084269899846 -0.14506785681395093 0.37504424585613305 0.17438686589198774
80.475 -0.3255318562346783 0.653003682436695 0.667963671714168 -0.3319087111328737 0.6638399542632151 -0.33394522609333827 0.4057691300175538 0.06975699569345703
80.5291666667 -0.13290906015125828 0.7397280865250299 0.5585588825726129 -0.49906690111246044 0.5556370137990785 -0.49666832096858665 0.40915340052980914 -0.02980929291894877
80.5833333333 0.068504718154609 0.7480335745919957 0.40420800523167116 -0.6356663762992503 0.4080592608972189 -0.6359553221458145 0.39661978175241247 -0.14944425456446545
80.6375 0.28398334470478837 0.7052242466616313 0.22009059705621967 -0.7304381211932718 0.2196292026598648 -0.7297956801988265 0.3553254448054017 -0.2574381229626643
80.6916666667 0.4597397809201676 0.610363616788644 0.022306595711888096 -0.7523870139778236 0.019507009896226345 -0.7525969721498524 0.2659341453125695 -0.338060184887944
80.7458333333 0.6093575872045269 0.45061847389301496 -0.19316165203640434 -0.7186637777703484 -0.19129114937962646 -0.7207411870839435 0.1608999273723355 -0.39741122210499835
80.8 0.717345336384474 0.2629925846564176 -0.38399441078040936 -0.6475444024897455 -0.3795743312737611 -0.6493128309719578 0.057734934603849535 -0.43547013582661215
80.8541666667 0.7391561495937865 0.0723688610807035 -0.5332119598388646 -0.5146313884230911 -0.5271296054450044 -0.5195581975757163 -0.061486690096654036 -0.4440472003008681
80.9083333333 0.7280243625832877 -0.12643386808840493 -0.6466225341959231 -0.33986529896053236 -0.6429546235151178 -0.34442067294347534 -0.19070398908275304 -0.40111167445072804
80.9625 0.6659693319399674 -0.3120432424655743 -0.7061383739847583 -0.15495298079366246 -0.7063635284593757 -0.15483493984660213 -0.2908356815958874 -0.32806424312250443
81.0166666667 0.556610531748399 -0.466989515593122 -0.7173637582909145 0.04337910594846721 -0.7153988780948132 0.047928091890936074 -0.370367247619299 -0.2283954630456783
81.0708333333 0.43834886449810134 -0.6038130350488211 -0.6848953680428784 0.23829522653512275 -0.6834769252755197 0.23483893689938914 -0.41692646700416625 -0.11330014599778773
81.125 0.2637926231644311 -0.7115599075876081 -0.6092126245522851 0.40598973043615827 -0.6095743789312745 0.40589365221563967 -0.432663024198693 -0.008750258156567325
81.1791666667 0.055488616003140076 -0.7546240213279226 -0.47723862200258954 0.5579376894581529 -0.47951282451012295 0.5582612084215514 -0.4208920978437525 0.09869888004315164
81.2333333333 -0.12329748746337178 -0.7356024970482461 -0.3166581736022903 0.6630127221236489 -0.3150271846710947 0.6623208967056506 -0.373451992949492 0.21715930997119523
