!Created with skrf (http://scikit-rf.org).
# GHz S RI R 50.0 
!freq ReS11 ImS11 ReS21 ImS21 ReS12 ImS12 ReS22 ImS22
75.0041666667 -0.8346427158697723 0.8698060690672529 -0.0008790966638991082 -5.996685275632729e-06 0.0005842181205038149 -1.620113707299606e-06 0.7181385978940256 -0.03125904644239303
75.0583333333 -0.5359506454424773 1.0739966933067997 0.00019575671423958154 6.334971827384501e-07 -1.2365349983681443e-05 -2.5391067960236148e-08 0.677654665768091 -0.24362769077548205
75.1125 -0.18578036419190366 1.187675535825384 0.00016982628343532532 6.731979289566926e-07 0.0004133414404341416 -3.873547964105581e-07 0.5812441905965506 -0.4281405938754096
75.1666666667 0.1735417906810378 1.194931624340381 -0.00010669838460814321 -6.154834723820274e-08 -0.001010459669411266 -2.9441655407913812e-06 0.42898396589516186 -0.5756903159198932
75.2208333333 0.5247377620947373 1.0893874331899522 0.001533518992440655 2.5929568527008225e-06 0.0006368967010740496 2.6287478666967483e-06 0.25110886209427574 -0.6881675499619223
75.275 0.8237557530330035 0.8905065768818696 0.0012741992844474174 -8.144026105011028e-06 0.0021079427621036673 3.2562021577073296e-06 0.03779935837146001 -0.7293592246226094
75.3291666667 1.0491671213064333 0.6079003857096577 -0.0015381773809756288 2.4113841377459775e-06 -0.001640487883976384 -3.2130592404781918e-06 -0.17413276097392721 -0.7099305214340221
75.3833333333 1.169988372202556 0.2614469479084891 0.0009293541925093318 -4.3084982783710874e-08 0.0015453453664908098 1.272599429302662e-06 -0.3456663032411449 -0.6271656668825379
75.4375 1.2083938329097472 -0.07967354056432545 0.002147610063362079 -1.001279926842044e-05 -3.965386349357797e-05 -2.590312464333427e-07 -0.5323796374728108 -0.5101268251197767
75.4916666667 1.1378752473898908 -0.44427703965298976 0.00021023207325241236 -8.094253798315817e-07 0.0020930897644288386 1.8019272788245731e-06 -0.6462100536545843 -0.3378871236626108
75.5458333333 0.9447990378168258 -0.7851866356342695 1.8969765506607502e-05 -4.051253554893073e-08 0.00020622432571112923 -5.872959326081218e-07 -0.7187409512199354 -0.14518826661580703
75.6 0.6618961694641634 -1.0167735805078606 0.0007891426265658129 3.2473994431707384e-06 -0.0003205216116794346 7.276117882873229e-07 -0.7332145618893015 0.07014579095361075
75.6541666667 0.35417646058430197 -1.1732066747005494 -0.00022892359876098664 8.771794577536539e-07 -0.0003701923496016611 2.403492279474136e-06 -0.6680745517800554 0.274517047397075
75.7083333333 -0.029024347999646264 -1.2331014947521073 0.00046130518208703806 -5.849568957056527e-07 -0.00033565238008844735 -3.616936622265649e-07 -0.5695536682444727 0.4487569311775873
75.7625 -0.3722806283470369 -1.1851919100851558 -0.0003625538893359477 -2.618983835234457e-06 0.0015293124687602688 -5.939545206705842e-06 -0.4204772534295604 0.5821804142114614
75.8166666667 -0.6984408313103061 -1.0130104301892864 -0.000290359775119657 -6.619654919447407e-07 -0.0007164327327833212 6.240720033284631e-07 -0.2523090193492843 0.682958052038866
75.8708333333 -0.9456358605283186 -0.7802920051016989 0.0009530407462276862 3.2064951114433975e-06 -0.00023158745772899105 -1.1595375713548332e-07 -0.044771461785346245 0.7224585013348493
75.925 -1.1346115155032253 -0.4798132977650783 -0.00015759460525466108 2.480708211862571e-07 0.0012601799720601322 -7.700777057825e-06 0.1481465611844226 0.6994170213491475
75.9791666667 -1.2166589892290331 -0.13761820478683226 0.000905440419827856 2.6655687424868596e-06 -0.0015715771940399694 -4.215714887716432e-08 0.33823873767283463 0.6349203966161032
76.0333333333 -1.2025061297696613 0.2151708635486478 0.00011380550367584857 -6.656044339183111e-07 -0.0001282848411839127 -1.2910486176042435e-09 0.49802248829827156 0.516979215985924
76.0875 -1.1097192465382133 0.5525135232113896 0.00019933454104658542 -7.933248517366127e-07 -0.0013874658639859985 -3.0286658149778832e-06 0.6179578958666441 0.3444960186520996
76.1416666667 -0.8960978558897147 0.8545144114617718 -0.0019998049966519337 -2.0824399354533997e-06 -0.0007304019779386192 1.7348596419507194e-06 0.6854707039673942 0.16600560507039128
76.1958333333 -0.6074617568477844 1.0740148382282102 0.00018761290224633407 6.281810589529834e-07 -0.0012004975729381785 -2.5905593348007543e-06 0.7090622128978019 -0.0269403913388518
76.25 -0.26917657376873283 1.226857372487867 0.0002580537571038668 -8.914950759180625e-07 -0.00017113116911597287 -7.852479216365799e-07 0.6695159119116718 -0.2273751539185159
76.3041666667 0.10034933018442581 1.2449129111333803 3.045990100364874e-05 1.2712222063240578e-07 -0.0011713960779672187 -4.116657256910079e-07 0.5700630614528613 -0.4000855355360001
76.3583333333 0.4606837786445002 1.158633632747362 3.615754941766677e-05 -1.9993165760264853e-07 -0.0006911511369178542 -1.2010524028010134e-06 0.4375882909130417 -0.5340390358693954
76.4125 0.7593144069278835 0.9508387006570079 -0.0006418360911256602 7.43109628923707e-07 0.00010673861402081554 2.7221398169282564e-07 0.29576679490855123 -0.6228269817994654
76.4666666667 0.9901400119639386 0.646833949980812 -0.000576731226249506 -2.7094638917561164e-07 -0.0012820224163678214 1.0255156547665568e-06 0.17174819913106917 -0.6899158990621003
76.5208333333 1.1105796727792518 0.3499244980755783 -0.00019466184508150382 2.5379608655297524e-08 -0.0004588567223367663 -1.8591243062865835e-07 0.025825907403294834 -0.7448940514486099
76.575 1.1675029860108928 0.14807543177986052 -0.00016567239094242707 -9.317642586269548e-07 -0.0009714072239182241 1.1851244426043644e-06 -0.20583207453434949 -0.7368934050776889
76.6291666667 1.1972106383152021 -0.16795216483786848 -0.0005102411168362446 -1.1488914949271053e-06 -0.0009429240040909542 -2.4403052503737443e-06 -0.43381655720860374 -0.6023929741397024
76.6833333333 1.1669363780070896 -0.5874446279645749 0.001413223858097765 -3.573492498805886e-06 0.0007505387101120487 1.0833386457033483e-07 -0.5446387268922127 -0.4277237343319023
76.7375 0.9008827100255734 -0.8942375265159653 -0.002055768754925233 -8.104440535228313e-06 -0.0004649159860635722 1.5821750021059494e-06 -0.6643366121359382 -0.26678487198874273
76.7916666667 0.6027246181701991 -1.077423286677658 9.677812440309663e-05 -5.912113820822445e-07 -8.629276588517255e-05 -3.703330785258072e-07 -0.7220364208703208 -0.07462032755917651
76.8458333333 0.2647246836697278 -1.1982732854802929 0.0018995828692333567 3.3796940648137065e-06 0.0019249045408569149 -3.6710800709246083e-06 -0.7139799836527546 0.13413636035035637
76.9 -0.06924103168437098 -1.2303114390016683 0.0012636340930610248 2.2195252563494623e-06 -6.651162291239933e-08 7.625458478687721e-11 -0.6542009167083405 0.32215872579350163
76.9541666667 -0.4048845641819984 -1.1804114480161778 0.0020515930200092894 1.00456414894686e-05 -0.00045196524873706526 -4.1856708959124016e-07 -0.5283698780512157 0.4875221919167341
77.0083333333 -0.7657273060630927 -1.0321328021014464 0.0004385461905643165 1.7573897063743395e-06 0.0006380863267252112 6.333766961743336e-07 -0.4026045651816603 0.5741800540418635
77.0625 -1.018525399408462 -0.7148455922393029 3.715094662468496e-05 -4.6450603969907285e-08 -0.00037183087440272457 -4.0126373753960984e-07 -0.2468371523308042 0.6937435545339351
77.1166666667 -1.1866180765387118 -0.4244231246637128 0.0011267931770804114 4.10028046556984e-06 -0.00015303246795712595 -1.2295766498857486e-07 -0.0013999972556385098 0.7589133273944179
77.1708333333 -1.2652601866530704 -0.06952783279787164 0.0003906557415779014 -8.231928697670037e-07 -9.808840723343484e-05 7.428388165485811e-08 0.2069837265736222 0.7170453860916733
77.225 -1.2426949419098712 0.2951796866491677 -5.175360808276048e-05 3.2576245487229865e-07 0.0012532200481578857 -3.994799073647895e-06 0.39286889883738224 0.6265597416503689
77.2791666667 -1.102156913034953 0.6473164657563318 0.0007444372857887388 5.496704767873585e-07 -0.0006061783182319005 1.200074552490742e-06 0.5506231652207629 0.49655438212126657
77.3333333333 -0.8696143905813555 0.9317028124540416 -0.00042051372889228883 2.0743939153029096e-06 0.0014777513293764064 5.698784599729733e-06 0.6673500733497332 0.32477277061218157
77.3875 -0.566057937717736 1.1312431787817836 -0.0029735000972348383 -1.4061912055093169e-05 -0.0005779564575792651 -1.5214592915418127e-06 0.7313313792316787 0.1255615842075759
77.4416666667 -0.2547877456746671 1.2360229619127716 0.0008818579167449564 -1.7275773640093394e-06 0.001253060851596975 1.845740006043989e-06 0.7274959609400466 -0.09553774082102903
77.4958333333 0.11530273075866279 1.2431378152179318 0.000544494782979499 -5.205373886255191e-07 0.0009366813380216229 1.0313132773478052e-06 0.6767546885465268 -0.3141810758378945
77.55 0.45752343039171756 1.1715886624224812 0.0008519557707134813 -4.6639109154412933e-07 -0.0005916445335950057 -1.957215608350848e-06 0.5540402095023349 -0.4695396588916215
77.6041666667 0.760314982503182 0.9927566171217675 0.0011821175856783857 -2.1773837176314438e-07 -0.0006044987039977439 2.8486125132659994e-06 0.4005827556385607 -0.6238812391799635
77.6583333333 1.0039703992360554 0.7514730730126222 0.0006608153037864043 1.0588336443317548e-06 0.0012454420368116213 1.4357166622636393e-07 0.21299327072301488 -0.6991369577542834
77.7125 1.1663345046204707 0.4451965592014626 0.000579309703898103 -1.045850636528058e-06 0.0004810709728003996 4.551740657706477e-07 0.012844105871218843 -0.724358359124736
77.7666666667 1.2555210106454737 0.11424647388764715 -0.0013214136836380704 -5.489571915186977e-06 -0.0025482244114993593 2.9740226696204815e-06 -0.19466806584960664 -0.7224885351260574
77.8208333333 1.264394153217273 -0.24440470731031583 0.0009972219295419154 1.512359890693498e-06 0.0005079231435274409 2.9200549977434373e-06 -0.3561481960939064 -0.5916866407852921
77.875 1.163936404616865 -0.6220902647145231 -0.0006356218370774251 1.245645139054948e-06 0.0007229571046747637 -1.1169592573650885e-06 -0.4943577652088504 -0.4783280696184252
77.9291666667 0.9583455332818653 -0.8691751059556491 -0.0008384873777842415 2.9566444746026487e-06 -0.0002146503974893286 -3.4287438737288755e-07 -0.6283665640014311 -0.3257939594745005
77.9833333333 0.6939635124958619 -1.0593577417070834 0.00046556341043090535 -2.167295822252108e-06 0.00020769964914715613 -2.3151003318403842e-07 -0.7301103935364107 -0.1364040898155765
78.0375 0.3995066096598414 -1.2030451391542099 0.0009366047334578533 1.768502633980411e-06 -0.0010461598645448542 7.980162216901736e-06 -0.7480725419587505 0.07412913006983657
78.0916666667 0.06767201376449321 -1.2663523539643708 -0.0011805789379522441 4.167120032476596e-06 0.0015745395998000126 -1.1981609691150976e-06 -0.6975891781388152 0.2780932492313692
78.1458333333 -0.27360594058875964 -1.2373781072224057 0.0006040294337100929 -2.570564310765702e-06 3.2416061433708505e-05 8.105935151288961e-08 -0.5863635479166316 0.47284920942123887
78.2 -0.5884856899246164 -1.117557732067838 -0.0004352057110038711 3.860460422709605e-07 0.0008694097757955837 2.100983068263013e-06 -0.4346095628258812 0.6137045560849129
78.2541666667 -0.8492600418277635 -0.92894497902761 -0.0004527135722670314 -2.568527163063778e-07 0.0014096247753173654 1.1844292782565797e-05 -0.2373620226825193 0.715281689288077
78.3083333333 -1.0806448317482242 -0.6779845191930426 -0.0009463928075832401 -4.8733695153307234e-06 -0.0005483691893855584 3.5883657887080562e-06 -0.021008254891379013 0.7520601976206249
78.3625 -1.2283564327269128 -0.3591812431356725 -0.002177360871934283 1.449680075963862e-05 0.00019209972167630367 6.95883699981753e-07 0.19270350897821353 0.7308470957702924
78.4166666667 -1.2752433368701372 -0.013289420302462903 0.0008522791102743152 2.866456186894691e-06 0.0006609585279765853 -4.1010911499258676e-06 0.40017419213736255 0.6484993733430501
78.4708333333 -1.2258483117715742 0.3360895964441169 0.00070694030815023 2.2939468097778254e-07 -0.0006634000445449967 5.314540633822462e-07 0.568991093078698 0.5068174009646814
78.525 -1.0779022318249583 0.6502465093742309 0.0018604301668558023 6.257440856655928e-06 0.00018342418629856589 -1.055110217872861e-07 0.6880585838233035 0.32560052128961375
78.5791666667 -0.875849074737589 0.9184878431924298 5.261198499338832e-05 8.838670985140481e-08 -0.002055812711267099 3.5029387436418913e-06 0.757583489287189 0.12189680353922641
78.6333333333 -0.6144114947535564 1.1324994213576405 0.0004955909661216089 -2.7148223765697107e-06 0.0003814970053984264 1.0000973248676485e-06 0.7790679020699259 -0.08778971832940265
78.6875 -0.3066442102604529 1.2741106051943065 0.0009304696988196733 -6.910130242769567e-07 0.00013945110312991633 6.25405284215992e-07 0.7384052446244359 -0.2874618290141477
78.7416666667 0.04931729147013016 1.3006692559793682 0.00035592591319287526 2.963023353462462e-06 -0.00015388940096471018 -3.938218022685695e-07 0.6389694519919906 -0.49427331254045914
78.7958333333 0.3686160227562143 1.2128091769799783 0.0009803993065358202 5.392087167424365e-07 -0.0008457111305263483 1.032452504486663e-06 0.4585037337661875 -0.6584251528788709
78.85 0.6544936329497024 1.0494229883772743 -0.0003838696793009923 -1.18559692298974e-06 -0.00023206405206794222 -9.692583109055531e-08 0.25718516601943414 -0.755361306002921
78.9041666667 0.9079501688498979 0.8163369140264229 -2.3239257146937186e-05 -1.5585380961931633e-07 -0.0015671263664800107 -6.258968196689259e-06 0.05154507350482 -0.7886002992846954
78.9583333333 1.0875859400003065 0.518279277140286 -0.0006027078443692184 1.0172442346431785e-06 -0.0007671459482002048 2.811642537587355e-06 -0.16973329582165714 -0.7616954483993723
79.0125 1.1880973546482367 0.1961296519586231 -0.001388645670278144 -6.6596626045915435e-06 0.0004911207046428634 3.87642502791801e-07 -0.3766093420379361 -0.6853302772296134
79.0666666667 1.2050160962731502 -0.14417185478250677 0.000513513759106661 -2.908721339258829e-07 -0.0004283996068274371 3.97258979203464e-06 -0.5494170716567619 -0.5806182732521172
79.1208333333 1.0997898753039357 -0.49200078533175545 0.002151175625875559 -2.1918360354042108e-06 -0.00014005582112557366 1.2435838006460912e-07 -0.6660527634938447 -0.4098218882833302
79.175 0.9219212616949056 -0.7791184133143699 0.0004037353007831059 2.546454174669939e-07 6.287836494761219e-05 -1.959437838455573e-07 -0.7466615877016711 -0.2127548292388371
79.2291666667 0.6583437799929585 -1.0130117620891792 -0.0013416045164595125 1.2071199709233028e-06 5.2512745313586924e-05 -2.431162157508188e-07 -0.7612581166168277 -0.010617438030229336
79.2833333333 0.35370725118705165 -1.1827511249699585 0.0019762080675151976 1.729672731983262e-05 0.001503043998891089 -3.7423380219606682e-06 -0.7290881120576336 0.2002754949256937
79.3375 0.030866046266612292 -1.248009597727328 0.002000157434446388 6.237783142496732e-06 0.00033351499818961325 9.632868898017395e-07 -0.660983926220343 0.3950494554340321
79.3916666667 -0.28773409370975206 -1.2135823315721432 0.00028375288281860003 -1.1818752454820724e-06 -4.934151081786553e-05 -7.834439233811719e-08 -0.5389069697835493 0.5394665316260113
79.4458333333 -0.5872445091817226 -1.0652655925992016 -0.0011370212046431726 -2.0063960004175456e-08 -0.0007773917351417357 -3.0632692172798624e-07 -0.36839788551458014 0.6568056921348371
79.5 -0.857723857196141 -0.8461059589845212 0.0007029147154501111 2.393544400328145e-06 -0.0002941499535578908 2.318442051814257e-07 -0.18285835259047462 0.7251832353290306
79.5541666667 -1.089882010826031 -0.5735471693114899 0.0021268060394371226 8.022931070653267e-06 -0.0016788726945503349 7.633254902182133e-07 0.001620622973980697 0.7307134059115747
79.6083333333 -1.198777298078829 -0.263876040775056 -0.00106746391101318 -1.5609730361803998e-06 -0.0011237000223111647 -7.5827422416629325e-06 0.211700575603089 0.7125212179759672
79.6625 -1.2115622648004185 0.06607811257755454 -0.0006308992323626 -1.642554158140834e-06 8.381504801683849e-06 3.3991467948817485e-08 0.38855445058592597 0.6349838136657374
79.7166666667 -1.1488612748249922 0.4032464573367874 -0.00032296088887866914 7.392513970669371e-07 -0.0002959535488051197 -1.0617041959099239e-07 0.5425041594841089 0.5184825276848493
79.7708333333 -1.0083596527810208 0.7165685752954967 0.002456221227588801 -1.0805268508632323e-05 -0.00060642059469715 4.5062443658879125e-06 0.6476583242249658 0.35898965918879666
79.825 -0.7896454039456883 0.9668429087025118 0.001405385323026028 3.0481235543133215e-06 -0.0013237774010533133 -7.20436685397965e-06 0.7191232229164464 0.170437081317436
79.8791666667 -0.4942442415800469 1.1361881831250575 -0.0020779427595478232 4.396273335921254e-06 0.00010142089574438661 -5.971752692156214e-08 0.7438287102408957 -0.017789252739561435
79.9333333333 -0.18143967304271086 1.2195332942980026 0.0008381177603451059 5.829052596333138e-07 -0.0025239343780728896 -6.216567002065524e-06 0.7070268666608123 -0.2055346672966531
79.9875 0.15190879426270662 1.2159972462828357 -0.0009248843030873146 4.703560143373501e-06 -0.0006467648646088016 1.2988279223194428e-06 0.6352635608387693 -0.36900140046089613
80.0416666667 0.4827549410951249 1.1276362686085637 6.223063258148924e-05 2.9451452911457458e-08 0.0002962278823064702 1.991969955466979e-07 0.5035883188272262 -0.5028913375211733
80.0958333333 0.7653168336242612 0.9553975480935535 -0.0019130007215253854 -5.832564987434723e-06 0.0006751520614189457 -2.023581410366968e-06 0.35386552314996794 -0.6270911163904013
80.15 0.9935728818610836 0.7191687136403941 0.0007197384148089107 3.782616755734516e-06 -0.0005056958642231563 -2.4901958088120026e-06 0.1915043353250426 -0.6994501678495003
80.2041666667 1.1343447843911867 0.44697120966165443 0.0008488808407496794 -4.113408120560188e-06 0.0004362818280655318 -5.141848009843614e-08 0.007820725443275054 -0.7239742428955791
80.2583333333 1.230149845490875 0.12879864037816247 0.0008797441431689575 -1.5387758601194735e-06 -0.00032939243106594587 3.899606338869457e-06 -0.17463011429168795 -0.6988936947837885
80.3125 1.212831733629745 -0.2098761327484503 -0.0004985403709540008 -2.4629245103622886e-06 0.00018605725096339449 1.409864079805886e-07 -0.3423816343890099 -0.6283140697042092
80.3666666667 1.1058705670195195 -0.5157079610153777 -0.0011681905009102568 -9.225972352045123e-07 -2.4230691583951338e-05 -7.15367544806045e-08 -0.4865066319771131 -0.5214726793782135
80.4208333333 0.9400294109538307 -0.8000132742841816 0.0003404491274008396 1.2475692089432854e-06 0.0017715817107458159 6.065643145221667e-07 -0.5998374061479703 -0.37716694371793363
80.475 0.7095498044392605 -1.0118079615233095 -0.0005117742430108078 1.9916950430512974e-06 0.0005030096715588017 1.287121479503795e-06 -0.6750999808762113 -0.2125856159120502
80.5291666667 0.4224588941890882 -1.202476575844194 -0.0014566242746733818 -1.1527482689391234e-06 -0.00039483440336587997 -5.380179069208068e-07 -0.6982283976480007 -0.04810053617595744
80.5833333333 0.09505500018054053 -1.2582716280187891 0.0005306377901299684 -1.3313592112805025e-07 0.0005518831019417438 7.075695255441066e-07 -0.7054340438328708 0.14086595966359747
80.6375 -0.26921586796534763 -1.2337525962712719 0.001356419466477515 -1.196096744283557e-06 -0.000293306123749467 1.7529956343078364e-07 -0.6627477348960058 0.3233132307594255
80.6916666667 -0.5684836638470321 -1.1231156235839743 -0.00012138683995604931 3.0171561830514046e-07 0.0022803466221263916 -1.4178132734350245e-06 -0.5414659883779271 0.4770610694984855
80.7458333333 -0.8394517943412787 -0.9179409410604764 0.0012562268243624056 4.306129610767832e-06 8.348761791948433e-05 -4.0383354311511297e-07 -0.38549053867060423 0.6005075222445075
80.8 -1.0783524465057195 -0.6403172908142143 -9.39833303080606e-05 3.317778112451102e-07 0.0005713229722563713 1.0855470531655614e-07 -0.226536543487893 0.6912170147972071
80.8541666667 -1.1531721647638675 -0.318532632893466 -0.001236804149430476 1.190743237180487e-06 -0.0010848450076151484 -4.638063600328743e-06 -0.03428180993429313 0.7313679034098228
