!Created with skrf (http://scikit-rf.org).
# GHz S RI R 50.0 
!freq ReS11 ImS11
75.0041666667 0.01396952 -0.05748859
75.0583333333 -0.002834094 -0.06100459
75.1125 -0.02024346 -0.0586153
75.1666666667 -0.03643068 -0.05090043
75.2208333333 -0.04901689 -0.03905144
75.275 -0.05716622 -0.02355502
75.3291666667 -0.06055481 -0.00743466
75.3833333333 -0.05961559 0.008440016
75.4375 -0.05274475 0.02338918
75.4916666667 -0.043042 0.03439578
75.5458333333 -0.03225298 0.04064541
75.6 -0.02080745 0.04473498
75.6541666667 -0.008521979 0.04430201
75.7083333333 0.0006911087 0.04071895
75.7625 0.007889721 0.03500233
75.8166666667 0.01242381 0.02907162
75.8708333333 0.01447438 0.02291886
75.925 0.01332508 0.01749106
75.9791666667 0.01053923 0.01411251
76.0333333333 0.006790342 0.01345194
76.0875 0.003643901 0.01535883
76.1416666667 0.001932386 0.01986948
76.1958333333 0.004917586 0.02394114
76.25 0.005013029 0.0284676
76.3041666667 0.01028513 0.03467084
76.3583333333 0.01861823 0.03922052
76.4125 0.02981845 0.04237556
76.4666666667 0.04269906 0.04298031
76.5208333333 0.05822184 0.03742496
76.575 0.07405808 0.01876098
76.6291666667 0.08148319 -0.001002677
76.6833333333 0.0783577 -0.01732522
76.7375 0.07763031 -0.03678603
76.7916666667 0.06967991 -0.05803235
76.8458333333 0.05370456 -0.07479646
76.9 0.03345377 -0.08471467
76.9541666667 0.009948182 -0.0873552
77.0083333333 -0.008483779 -0.08219562
77.0625 -0.02483254 -0.07715122
77.1166666667 -0.03962608 -0.06331699
77.1708333333 -0.0482723 -0.0479642
77.225 -0.05087453 -0.03274809
77.2791666667 -0.04919955 -0.01935911
77.3333333333 -0.04452665 -0.009011418
77.3875 -0.03859111 -0.002422517
77.4416666667 -0.0321724 0.002172323
77.4958333333 -0.02531041 0.00272037
77.55 -0.02014126 0.0002744543
77.6041666667 -0.01820958 -0.004107759
77.6583333333 -0.01957732 -0.008731853
77.7125 -0.02402437 -0.01184845
77.7666666667 -0.02982778 -0.01241151
77.8208333333 -0.03619567 -0.01132315
77.875 -0.04309983 -0.008312921
77.9291666667 -0.0518192 -0.0003518302
77.9833333333 -0.05813588 0.01150733
78.0375 -0.05991154 0.02504661
78.0916666667 -0.05763875 0.03879063
78.1458333333 -0.05153817 0.05199553
78.2 -0.04190541 0.06324296
78.2541666667 -0.03018921 0.07204365
78.3083333333 -0.01683002 0.07705733
78.3625 -0.003108748 0.07965793
78.4166666667 0.0110848 0.07956547
78.4708333333 0.02481511 0.07601554
78.525 0.03766144 0.06993131
78.5791666667 0.04845845 0.0594819
78.6333333333 0.05591132 0.04551183
78.6875 0.05761124 0.03199027
78.7416666667 0.0572754 0.0215416
78.7958333333 0.05620056 0.01104217
78.85 0.05252246 0.002977324
78.9041666667 0.04745192 -0.0009342404
78.9583333333 0.04315865 -0.003136197
79.0125 0.03859806 -0.002786697
79.0666666667 0.03584 -0.001198689
79.1208333333 0.0358194 0.001577186
79.175 0.03785962 0.003658613
79.2291666667 0.04197323 0.004585356
79.2833333333 0.04691944 0.003369954
79.3375 0.05238241 -0.001809642
79.3916666667 0.05761447 -0.01016705
79.4458333333 0.06261023 -0.02126144
79.5 0.0644556 -0.03296115
79.5541666667 0.06110559 -0.0452356
79.6083333333 0.05491934 -0.05941459
79.6625 0.04475969 -0.0728134
79.7166666667 0.03078899 -0.0826755
79.7708333333 0.01384373 -0.08795383
79.825 -0.00459763 -0.08917028
79.8791666667 -0.024088 -0.08662267
79.9333333333 -0.04165373 -0.07830291
79.9875 -0.05689597 -0.06688228
80.0416666667 -0.06774265 -0.0516066
80.0958333333 -0.07354306 -0.03407818
80.15 -0.07297588 -0.01641858
80.2041666667 -0.06925213 -8.340348e-05
80.2583333333 -0.06073926 0.01289151
80.3125 -0.05075631 0.02111147
80.3666666667 -0.03965099 0.02528738
80.4208333333 -0.02880497 0.02558618
80.475 -0.01979125 0.02291902
80.5291666667 -0.01440913 0.01636916
80.5833333333 -0.01300894 0.01071414
80.6375 -0.01544526 0.005021463
80.6916666667 -0.01995484 0.002375002
80.7458333333 -0.0262448 0.002384499
80.8 -0.03257438 0.00523629
80.8541666667 -0.03945716 0.01180654
80.9083333333 -0.04416474 0.02152547
80.9625 -0.04553054 0.03339346
81.0166666667 -0.04360284 0.04755332
81.0708333333 -0.03378976 0.06186029
81.125 -0.0190701 0.0718011
81.1791666667 -0.002489247 0.07708637
81.2333333333 0.01792251 0.07624995
81.2875 0.0337108 0.07131904
81.3416666667 0.05064619 0.06407285
81.3958333333 0.06481459 0.05047511
81.45 0.07286971 0.03430913
81.5041666667 0.07750367 0.01641189
81.5583333333 0.07533982 -0.003849848
81.6125 0.07001018 -0.02218284
81.6666666667 0.05902135 -0.0383735
81.7208333333 0.04389463 -0.04724313
81.775 0.02817583 -0.05414632
81.8291666667 0.01176665 -0.05302345
81.8833333333 -0.0009779667 -0.04893105
81.9375 -0.01196768 -0.04258
81.9916666667 -0.01944976 -0.03259375
82.0458333333 -0.02289694 -0.02221576
82.1 -0.02226721 -0.01202562
82.1541666667 -0.01904148 -0.004318151
82.2083333333 -0.01321521 0.001343876
82.2625 -0.007067155 0.003315415
82.3166666667 -0.0003758473 0.002388956
82.3708333333 0.00359998 -0.001516244
82.425 0.005582039 -0.006250253
82.4791666667 0.006369842 -0.01110186
82.5333333333 0.007102982 -0.01900965
82.5875 -0.002432949 -0.02662638
82.6416666667 -0.01109997 -0.02575934
82.6958333333 -0.02000547 -0.02438427
82.75 -0.02701609 -0.02057529
82.8041666667 -0.03351966 -0.01357087
82.8583333333 -0.03887807 -0.004811596
82.9125 -0.03927751 0.006036077
82.9666666667 -0.03999325 0.01397187
83.0208333333 -0.03617091 0.02856931
83.075 -0.02427861 0.0350679
83.1291666667 -0.01790255 0.04019735
83.1833333333 -0.006918936 0.04762211
83.2375 0.006755918 0.04528321
83.2916666667 0.01769001 0.04005919
83.3458333333 0.02671077 0.03442054
83.4 0.03181098 0.02634245
83.4541666667 0.03659899 0.01779066
83.5083333333 0.03818148 0.007030473
83.5625 0.03633576 -0.0006999954
83.6166666667 0.03222232 -0.008270678
83.6708333333 0.02847667 -0.0131082
83.725 0.022903 -0.01822307
83.7791666667 0.01649918 -0.01867435
83.8333333333 0.01126436 -0.01826374
83.8875 0.007617609 -0.01522262
83.9416666667 0.006643645 -0.01236748
83.9958333333 0.0061047 -0.00988926
84.05 0.006719396 -0.006256214
84.1041666667 0.0115356 -0.00303315
84.1583333333 0.01721146 -0.005465156
84.2125 0.02032915 -0.006818015
84.2666666667 0.02568864 -0.01037771
84.3208333333 0.02987706 -0.01861713
84.375 0.0302388 -0.02723151
84.4291666667 0.02888039 -0.03622008
84.4833333333 0.02511187 -0.0460401
84.5375 0.01726975 -0.05544041
84.5916666667 0.008192086 -0.06275441
84.6458333333 -0.004895214 -0.06797102
84.7 -0.01998665 -0.07003372
84.7541666667 -0.03585933 -0.06699064
84.8083333333 -0.04657212 -0.05900858
84.8625 -0.05660115 -0.0528191
84.9166666667 -0.06805564 -0.04261146
84.9708333333 -0.07756679 -0.02578092
85.025 -0.08079658 -0.006461619
85.0791666667 -0.07464089 0.01063366
85.1333333333 -0.06834561 0.02042485
85.1875 -0.06221949 0.03216214
85.2416666667 -0.05256421 0.04230271
85.2958333333 -0.03990244 0.04685976
85.35 -0.02726969 0.0471612
85.4041666667 -0.01733521 0.04390468
85.4583333333 -0.01112927 0.04023827
85.5125 -0.007406999 0.03519553
85.5666666667 -0.006810002 0.02998395
85.6208333333 -0.009341357 0.0269305
85.675 -0.01258011 0.0272123
85.7291666667 -0.01474616 0.03083946
85.7833333333 -0.01411652 0.0366211
85.8375 -0.01103105 0.04438786
85.8916666667 -0.005654513 0.05316701
85.9458333333 0.003441362 0.05959972
86.0 0.01537143 0.0632709
86.0541666667 0.02945841 0.0643179
86.1083333333 0.04487185 0.06135214
86.1625 0.05884493 0.0534317
86.2166666667 0.07100927 0.04093559
86.2708333333 0.07948533 0.0261104
86.325 0.08524727 0.009575556
86.3791666667 0.08615844 -0.00797101
86.4333333333 0.08203003 -0.02550638
86.4875 0.07355247 -0.04096526
86.5416666667 0.06223333 -0.05315689
86.5958333333 0.04853714 -0.06333745
86.65 0.03236465 -0.0698738
86.7041666667 0.0159691 -0.07154445
86.7583333333 0.0005213075 -0.06854669
86.8125 -0.0125174 -0.06130322
86.8666666667 -0.02249205 -0.052193
86.9208333333 -0.03011383 -0.04049699
86.975 -0.03351153 -0.02859038
87.0291666667 -0.03328948 -0.01578122
87.0833333333 -0.02965648 -0.004726914
87.1375 -0.02287302 0.003528869
87.1916666667 -0.01317824 0.00889349
87.2458333333 -0.002817708 0.01038031
87.3 0.007003555 0.007167624
87.3541666667 0.01486391 -9.969392e-05
87.4083333333 0.01955896 -0.01009502
87.4625 0.01965145 -0.02143477
87.5166666667 0.01443267 -0.03245109
87.5708333333 0.006635546 -0.04013507
87.625 -0.005284488 -0.04643975
87.6791666667 -0.01891566 -0.0480645
87.7333333333 -0.03252151 -0.04584391
87.7875 -0.04488555 -0.03820805
87.8416666667 -0.05497823 -0.02611658
87.8958333333 -0.06108457 -0.01181579
87.95 -0.06489248 0.001643022
88.0041666667 -0.06202086 0.01673798
88.0583333333 -0.05658827 0.0313945
88.1125 -0.04700954 0.04406662
88.1666666667 -0.03377923 0.05332667
88.2208333333 -0.01845315 0.05737831
88.275 -0.003163488 0.05766793
88.3291666667 0.009993067 0.05348293
88.3833333333 0.01985157 0.04594129
88.4375 0.02736202 0.03629635
88.4916666667 0.03103654 0.02598782
88.5458333333 0.03160974 0.01618847
88.6 0.02938989 0.00697529
88.6541666667 0.02443486 -1.699354e-07
88.7083333333 0.01777605 -0.004023794
88.7625 0.0102323 -0.004873488
88.8166666667 0.005211321 -0.002632032
88.8708333333 0.001482445 0.0006337729
88.925 0.00028381 0.0056231
88.9791666667 0.0009084759 0.01004134
89.0333333333 0.004024653 0.014632
89.0875 0.008694923 0.01738418
89.1416666667 0.01414907 0.01823827
89.1958333333 0.02102829 0.01688924
89.25 0.02705587 0.01180628
89.3041666667 0.03217808 0.005154318
89.3583333333 0.03488572 -0.003354648
89.4125 0.03416837 -0.01362981
89.4666666667 0.02930314 -0.02226465
89.5208333333 0.02395372 -0.02871897
89.575 0.01680803 -0.03562438
89.6291666667 0.005560049 -0.04042408
89.6833333333 -0.005771287 -0.04160804
89.7375 -0.01832863 -0.03878396
89.7916666667 -0.0293705 -0.032342
89.8458333333 -0.03831064 -0.02397053
89.9 -0.04499701 -0.01162092
89.9541666667 -0.04700105 0.001446598
90.0083333333 -0.04578874 0.01424581
90.0625 -0.04172959 0.02803532
90.1166666667 -0.03245512 0.03907774
90.1708333333 -0.02063414 0.04666292
90.225 -0.0072111 0.05117456
90.2791666667 0.007048937 0.05159323
90.3333333333 0.02036081 0.04783282
90.3875 0.03204006 0.03983228
90.4416666667 0.04 0.0284896
90.4958333333 0.04304894 0.01537087
90.55 0.04094898 0.003624015
90.6041666667 0.03640983 -0.005752603
90.6583333333 0.02980493 -0.01303047
90.7125 0.02181334 -0.01761605
90.7666666667 0.01169415 -0.01839494
90.8208333333 0.003128407 -0.01500648
90.875 -0.003314838 -0.009012238
90.9291666667 -0.006690452 -0.000408097
90.9833333333 -0.005878299 0.00918052
91.0375 -0.000952952 0.01809684
91.0916666667 0.007662294 0.02480054
91.1458333333 0.01898173 0.02776081
91.2 0.03138271 0.02475237
91.2541666667 0.04304154 0.02180299
91.3083333333 0.05341521 0.01281092
91.3625 0.06308858 -7.666177e-05
91.4166666667 0.06788918 -0.01787158
91.4708333333 0.06480609 -0.03604039
91.525 0.05920922 -0.05103008
91.5791666667 0.04840231 -0.06487334
91.6333333333 0.03344499 -0.07576953
91.6875 0.01535379 -0.08284038
91.7416666667 -0.002180886 -0.08520718
91.7958333333 -0.02040904 -0.08340044
91.85 -0.03690052 -0.07604625
91.9041666667 -0.05063583 -0.06527447
91.9583333333 -0.06041611 -0.05081677
92.0125 -0.06547358 -0.03616954
92.0666666667 -0.06693556 -0.02164822
92.1208333333 -0.06479977 -0.007317329
92.175 -0.05921985 0.0039808
92.2291666667 -0.05127718 0.01316913
92.2833333333 -0.04194286 0.01888215
92.3375 -0.03301759 0.0197998
92.3916666667 -0.02522778 0.01882497
92.4458333333 -0.01903111 0.01484747
92.5 -0.01632997 0.009947007
92.5541666667 -0.01664684 0.004348667
92.6083333333 -0.01993771 -0.0006266091
92.6625 -0.02524197 -0.003481228
92.7166666667 -0.03203804 -0.003055578
92.7708333333 -0.03925481 -4.985043e-05
92.825 -0.04647654 0.004668353
92.8791666667 -0.05300633 0.01248176
92.9333333333 -0.05655299 0.02350193
92.9875 -0.05699551 0.03609498
93.0416666667 -0.05408104 0.04971199
93.0958333333 -0.04674017 0.06370285
93.15 -0.03531261 0.07507139
93.2041666667 -0.02253395 0.08448876
93.2583333333 -0.003557673 0.08582345
93.3125 0.01216428 0.08581597
93.3666666667 0.02751251 0.08519919
93.4208333333 0.04259624 0.07636196
93.475 0.05168944 0.06409643
93.5291666667 0.05828114 0.05743597
93.5833333333 0.06640652 0.04686411
93.6375 0.07064056 0.02974313
93.6916666667 0.07303559 0.01667046
93.7458333333 0.06978383 0.00194946
93.8 0.06320746 -0.0104834
93.8541666667 0.05405523 -0.0179084
93.9083333333 0.04390212 -0.02542321
93.9625 0.03369636 -0.02693762
94.0166666667 0.02418637 -0.02568757
94.0708333333 0.01714551 -0.02191984
94.125 0.01310278 -0.01671989
94.1791666667 0.01175602 -0.01137717
94.2333333333 0.01335815 -0.006604715
94.2875 0.01716238 -0.003232209
94.3416666667 0.02234116 -0.002856501
94.3958333333 0.02835628 -0.004776272
94.45 0.03357246 -0.00991681
94.5041666667 0.03631215 -0.01849788
94.5583333333 0.03605253 -0.02826914
94.6125 0.03211817 -0.03894656
94.6666666667 0.02629959 -0.04780817
94.7208333333 0.01596779 -0.05508792
94.775 0.003769537 -0.05930896
94.8291666667 -0.01071838 -0.06092023
94.8833333333 -0.0247873 -0.05768029
94.9375 -0.03826793 -0.05006493
94.9916666667 -0.0487357 -0.04004942
95.0458333333 -0.05577276 -0.02594519
95.1 -0.05832174 -0.01068332
95.1541666667 -0.05758752 0.004775301
95.2083333333 -0.05302535 0.01787675
95.2625 -0.04535162 0.02928762
95.3166666667 -0.03550248 0.03754719
95.3708333333 -0.0232552 0.04250278
95.425 -0.01063523 0.0439762
95.4791666667 0.00125784 0.04096921
95.5333333333 0.01071031 0.03520362
95.5875 0.01886944 0.02591079
95.6416666667 0.02144481 0.01487584
95.6958333333 0.01881116 0.004911653
95.75 0.01296691 -0.001568982
95.8041666667 0.005503712 -0.004755712
95.8583333333 -0.002569843 -0.004332254
95.9125 -0.009433926 -0.0005182139
95.9666666667 -0.01465472 0.005994944
96.0208333333 -0.01645143 0.01475611
96.075 -0.01466078 0.02349322
96.1291666667 -0.009521515 0.0319561
96.1833333333 -0.001891303 0.03888813
96.2375 0.00784136 0.04457664
96.2916666667 0.0208173 0.04595741
96.3458333333 0.03524747 0.04263871
96.4 0.04836825 0.03544426
96.4541666667 0.05884081 0.0238568
96.5083333333 0.06496837 0.0100247
96.5625 0.0678966 -0.005038319
96.6166666667 0.06403203 -0.02243038
96.6708333333 0.05774446 -0.03545844
96.725 0.04781146 -0.04686233
96.7791666667 0.03580864 -0.05554994
96.8333333333 0.02134631 -0.06138723
96.8875 0.006072379 -0.06368518
96.9416666667 -0.007480916 -0.06090353
96.9958333333 -0.01944647 -0.05612079
97.05 -0.0295096 -0.04832083
97.1041666667 -0.03727151 -0.0389073
97.1583333333 -0.04144342 -0.02778473
97.2125 -0.0429817 -0.0181667
97.2666666667 -0.04352246 -0.008310657
97.3208333333 -0.04087325 0.000703802
97.375 -0.03498554 0.006650684
97.4291666667 -0.032982 0.01084707
97.4833333333 -0.02748643 0.01484381
97.5375 -0.02180429 0.01610767
97.5916666667 -0.01584054 0.01463863
97.6458333333 -0.01287105 0.01181834
97.7 -0.0130473 0.00856714
97.7541666667 -0.01362807 0.006517559
97.8083333333 -0.01612812 0.005019734
97.8625 -0.01832995 0.004940444
97.9166666667 -0.02227263 0.004615196
97.9708333333 -0.02776331 0.007149117
98.025 -0.03251683 0.01254234
98.0791666667 -0.0362866 0.01999931
98.1333333333 -0.03784404 0.02965019
98.1875 -0.0355386 0.03980223
98.2416666667 -0.03311851 0.05130221
98.2958333333 -0.02454644 0.06192497
98.35 -0.01364436 0.07089213
98.4041666667 0.001572135 0.07430304
98.4583333333 0.01521811 0.07605201
98.5125 0.03002027 0.07386646
98.5666666667 0.04454187 0.06896934
98.6208333333 0.0583333 0.05945048
98.675 0.06568178 0.04610238
98.7291666667 0.07563484 0.03471899
98.7833333333 0.0779973 0.02144887
98.8375 0.08287925 0.0097323
98.8916666667 0.08048314 -0.008703977
98.9458333333 0.07223926 -0.02233057
99.0 0.06691917 -0.03409115
99.0541666667 0.05750737 -0.04405226
99.1083333333 0.04336795 -0.04968419
99.1625 0.02924747 -0.05102563
99.2166666667 0.01781403 -0.04916043
99.2708333333 0.01088054 -0.04179247
99.325 0.008985784 -0.0372671
99.3791666667 0.006820117 -0.03343986
99.4333333333 0.006348437 -0.02880112
99.4875 0.00923624 -0.02485336
99.5416666667 0.0162181 -0.02540315
99.5958333333 0.02110064 -0.03316786
99.65 0.01924519 -0.0423337
99.7041666667 0.0150002 -0.05083472
99.7583333333 0.007593517 -0.05779301
99.8125 -0.0019227 -0.06363788
99.8666666667 -0.01170452 -0.06829582
99.9208333333 -0.02668097 -0.07090695
99.975 -0.04517137 -0.06947346
100.029166667 -0.06028489 -0.06000115
100.083333333 -0.07413462 -0.04599145
100.1375 -0.08281807 -0.03208536
100.191666667 -0.08722362 -0.01646982
100.245833333 -0.08952723 0.0003785584
100.3 -0.08803919 0.01995578
100.354166667 -0.08089097 0.03734815
100.408333333 -0.06682727 0.05228961
100.4625 -0.052207 0.06060208
100.516666667 -0.03820097 0.06448024
100.570833333 -0.02307909 0.06731743
100.625 -0.007715188 0.06550436
100.679166667 0.004764002 0.05932219
100.733333333 0.01319977 0.05078626
100.7875 0.01854217 0.04053006
100.841666667 0.02004516 0.03072522
100.895833333 0.01860585 0.0213094
100.95 0.01513082 0.01470692
101.004166667 0.009257784 0.01127579
101.058333333 0.004160727 0.01028899
101.1125 -0.0003409192 0.01081583
101.166666667 -0.005225617 0.01340931
101.220833333 -0.007490874 0.01962137
101.275 -0.005527481 0.02589944
101.329166667 -0.001323299 0.03006889
101.383333333 0.003605217 0.03260196
101.4375 0.008885346 0.03443121
101.491666667 0.01503835 0.03538538
101.545833333 0.0213874 0.0347705
101.6 0.02786735 0.03309333
101.654166667 0.03645476 0.03082743
101.708333333 0.04648025 0.02359011
101.7625 0.05267353 0.01452264
101.816666667 0.0559504 0.002478297
101.870833333 0.05576415 -0.01005244
101.925 0.05299256 -0.02169647
101.979166667 0.04752966 -0.03309022
102.033333333 0.03949307 -0.04213886
102.0875 0.02952366 -0.0496998
102.141666667 0.0178208 -0.05397074
102.195833333 0.005057528 -0.05547982
102.25 -0.006818385 -0.05355384
102.304166667 -0.01745667 -0.04820559
102.358333333 -0.02543848 -0.04095601
102.4125 -0.03135871 -0.03209068
102.466666667 -0.03367056 -0.02262159
102.520833333 -0.03494909 -0.01599625
102.575 -0.03516858 -0.00618972
102.629166667 -0.03087637 0.002394703
102.683333333 -0.02481986 0.007782426
102.7375 -0.01791183 0.01028813
102.791666667 -0.0112221 0.01034747
102.845833333 -0.005091959 0.008260395
102.9 -0.001598173 0.004314265
102.954166667 0.0003749984 -0.0003133479
103.008333333 0.0001538518 -0.005313095
103.0625 -0.002144017 -0.009887782
103.116666667 -0.006570056 -0.0132382
103.170833333 -0.01195525 -0.01467353
103.225 -0.01851945 -0.01406292
103.279166667 -0.02460216 -0.01074619
103.333333333 -0.02996508 -0.004737038
103.3875 -0.03300257 0.003056474
103.441666667 -0.03330526 0.012301
103.495833333 -0.03141433 0.02152942
103.55 -0.02628379 0.0306251
103.604166667 -0.01913778 0.03861634
103.658333333 -0.0094475 0.04429505
103.7125 0.001857372 0.04711416
103.766666667 0.01386868 0.04770742
103.820833333 0.02646643 0.04413671
103.875 0.03841999 0.0380759
103.929166667 0.0482621 0.02879922
103.983333333 0.05577949 0.01757025
104.0375 0.06052887 0.004669985
104.091666667 0.06172477 -0.009204579
104.145833333 0.0592705 -0.022861
104.2 0.05367936 -0.03526932
104.254166667 0.04518832 -0.04566861
104.308333333 0.03245486 -0.05390694
104.3625 0.0201222 -0.05751183
104.416666667 0.008868142 -0.05669839
104.470833333 -5.680288e-05 -0.05347203
104.525 -0.006708103 -0.0510501
104.579166667 -0.01341558 -0.04568287
104.633333333 -0.01696782 -0.03915049
104.6875 -0.01825538 -0.0327295
104.741666667 -0.01658417 -0.02763298
104.795833333 -0.01383213 -0.02479056
104.85 -0.01069765 -0.02558791
104.904166667 -0.009768745 -0.02802665
104.958333333 -0.00957048 -0.03174299
105.0125 -0.01167834 -0.03732759
105.066666667 -0.01698318 -0.04286012
105.120833333 -0.02571242 -0.04719108
105.175 -0.03704512 -0.04832676
105.229166667 -0.04910855 -0.04522638
105.283333333 -0.06114035 -0.03807259
105.3375 -0.06938215 -0.02559105
105.391666667 -0.07052754 -0.01869646
105.445833333 -0.08047947 -0.007599911
105.5 -0.08508458 0.009693966
105.554166667 -0.0835631 0.02743008
105.608333333 -0.0760437 0.04289215
105.6625 -0.06479852 0.05553756
105.716666667 -0.05339632 0.0644012
105.770833333 -0.03993475 0.07167977
105.825 -0.0241266 0.07565214
