!Created with skrf (http://scikit-rf.org).
# GHz S RI R 50.0 
!freq ReS11 ImS11 ReS21 ImS21 ReS12 ImS12 ReS22 ImS22
75.0041666667 -0.00477518353132479 -0.007896253457922007 0.38764683546322454 0.8484856431835309 0.3832859914378473 0.8504471134017388 -0.0035535823349104904 -0.0009180339963343632
75.0583333333 -0.001394087776484899 -0.011868139906834088 0.6244262199193669 0.6973638104351563 0.6225553611775798 0.6996307387271228 -0.003159346913656739 -0.003864613567736147
75.1125 -0.0012778362543354436 -0.0157020477772474 0.8012281861558599 0.4863694696736308 0.80037661323607 0.4835330709427489 -0.001406185643091142 -0.007240336357632026
75.1666666667 -0.002550464920481342 -0.020196447323207765 0.9045296891367991 0.23547779278006245 0.9048489914368505 0.23563629797193575 -0.0026071337195347883 -0.011331352449316674
75.2208333333 -0.008129815090694752 -0.029242892835821977 0.9437228687808311 -0.03738531485087302 0.9431444344015033 -0.039726997906328866 -0.005801379398211853 -0.01473350638866445
75.275 -0.01836679610928156 -0.03247159090612187 0.891313933423972 -0.3135171467421331 0.893285381491965 -0.3144920321042852 -0.010830409088582887 -0.014831117413857406
75.3291666667 -0.028002915638353106 -0.02912067025708569 0.7627400071799071 -0.5580084522913357 0.7658890471301418 -0.5514239305318299 -0.016007024856592385 -0.012527087014329748
75.3833333333 -0.036071730240432656 -0.021208249917875868 0.565013660678404 -0.7400429976365188 0.567776633210406 -0.7388329673646766 -0.02120994031736668 -0.009016914052322285
75.4375 -0.045004203970173205 -0.013489661202140638 0.3343668130201224 -0.8890238751690915 0.3373537431013016 -0.8882003745104186 -0.02339040137640161 -0.0031366017030372575
75.4916666667 -0.04908303891970186 -0.0010087397737518632 0.06873331214859568 -0.9453261522461456 0.06969405300176959 -0.9475885816057555 -0.022764396560988286 0.003601949316408823
75.5458333333 -0.04473684076828267 0.012113432844931387 -0.2171380834285077 -0.9296609117600169 -0.22128751204936886 -0.9269615068218985 -0.01960648946172732 0.008954675326585306
75.6 -0.03773148281171408 0.021879642772725087 -0.47717931575655936 -0.8207671749914858 -0.47732925600242293 -0.8199051690355282 -0.01668100564358746 0.013992584956196607
75.6541666667 -0.031540497242491736 0.02930333363389689 -0.6869241291358412 -0.6462054449331204 -0.6868989303310897 -0.645377071738795 -0.011450952536004864 0.017498674539251347
75.7083333333 -0.019950330567686456 0.03298022673100194 -0.8515242836703821 -0.4210293545608598 -0.8512531581478991 -0.418818435933106 -0.0053640932371974 0.01760452281502135
75.7625 -0.011101589435606855 0.035498030784193155 -0.9318658429739981 -0.1674155273456064 -0.9325601881916545 -0.1644099532459911 -0.0009041020420340922 0.016835330122758195
75.8166666667 -0.0018529411172290551 0.029503136983727526 -0.9429949108207178 0.10385384769240212 -0.9413699753914924 0.10730143331820075 0.0027140443455306944 0.013346847437137297
75.8708333333 0.0038257928304012974 0.023785680274737465 -0.8652731401686058 0.36944292494057396 -0.8693574528831491 0.36444848767592747 0.005291085259340795 0.011366094060898458
75.925 0.006342202921435971 0.016901380257072437 -0.7278008230720531 0.5933983135692147 -0.7277840175772058 0.5926382530750571 0.007178537635874899 0.009746714166573682
75.9791666667 0.0065630997296238286 0.012243283084055718 -0.533536091466299 0.7664580914265233 -0.529784832694717 0.7695622396719206 0.0065707516920069575 0.005769472977991981
76.0333333333 0.0052711355015682615 0.0076100112263483115 -0.2902461361760032 0.8856712934261407 -0.29617049615245833 0.8849162164515151 0.005264810169004443 0.003497818312891918
76.0875 0.004424848734628055 0.00649245283776485 -0.023653421113895734 0.9326429920512624 -0.024847948259653144 0.9323857539746686 0.006647051141627787 0.0032940882411276176
76.1416666667 0.003576575136352845 0.005895082504252637 0.2395825217091477 0.8951986702746779 0.23830236315054182 0.8944977541842077 0.008505468480960437 0.00271065253036727
76.1958333333 0.0012788585952196087 0.002795611314026062 0.4817665182863571 0.7961509427286219 0.4818295796436014 0.7957548265123254 0.006027199915877987 0.0014230179587265389
76.25 3.2864892304050624e-05 0.0007111886497216314 0.6998388089543862 0.6197648196823795 0.699159718693367 0.6220644398337275 0.010339226392469245 0.0013931163267494333
76.3041666667 -0.002886292968758481 0.0018525409926909706 0.8387059729976353 0.3925464116973788 0.8392158244299424 0.3919566577803327 0.011075940712299656 -0.001237367205437681
76.3583333333 -0.005097138227701033 0.0013309898514950913 0.910347217411131 0.13804797618335632 0.9104755056510611 0.13584533555286635 0.011609275567398263 -0.004614140490633912
76.4125 -0.00807028099262178 0.0029145699527165997 0.9034053825733046 -0.11564526863956823 0.9038864993149743 -0.11264109910042538 0.011910058885141349 -0.008313650487176942
76.4666666667 -0.011385204381832643 0.006414234254818787 0.8426404966078356 -0.3467295252712148 0.8434651582470133 -0.3429328994536081 0.010712736646688672 -0.011085647259298925
76.5208333333 -0.013241440955865989 0.010279195092810525 0.7561366685969587 -0.5358912322270266 0.7515883455888295 -0.5385985681822995 0.010567363949455318 -0.015338679950720836
76.575 -0.015539551504094924 0.0168609611950363 0.6074953261685943 -0.7241784527966963 0.602216267199369 -0.7287597706833355 0.0072731871222031915 -0.017135914851241316
76.6291666667 -0.012728912339351878 0.027085125575819637 0.3588293471518814 -0.8726163065849514 0.35101010696631263 -0.8774562834358205 0.003422270255302034 -0.021597658668696812
76.6833333333 -0.003177717359295464 0.036071592616479145 0.06711121063522452 -0.9451618633105395 0.07015428233999636 -0.9447624588866791 -0.0024775677329800486 -0.02443486854247358
76.7375 0.00814144004765778 0.03867833469055598 -0.2152732746922963 -0.9255084967232758 -0.21913953698689173 -0.9243518235772571 -0.009643859770783043 -0.025160790920648633
76.7916666667 0.021422558944806585 0.0365937670766565 -0.45981166748215446 -0.820601822966601 -0.4590061390355814 -0.8221396034242011 -0.01838332317628295 -0.023398878672631126
76.8458333333 0.03335370067283073 0.028726967952365547 -0.6685447165898153 -0.6614367445725943 -0.6688232954301573 -0.6596168498456051 -0.02319285749831699 -0.016711164649341758
76.9 0.04067261833841266 0.017180892316129563 -0.827885654094508 -0.45233174250983055 -0.8285443856157253 -0.4496499101564373 -0.025833874667321493 -0.010880769847965176
76.9541666667 0.04345300166937925 0.004518389081685141 -0.9226925207577851 -0.20426530382706568 -0.9226086945347489 -0.20207022524752294 -0.0263973157868301 -0.004993324156845982
77.0083333333 0.041674249200660346 -0.008642409376064995 -0.9427298755801575 0.04968638716860454 -0.9452993299043733 0.04548207819489825 -0.02624025832597352 0.0010626991405826862
77.0625 0.034346339959935974 -0.019652530697639985 -0.8985498789725339 0.32111947675797664 -0.9019676335977795 0.3127754987592573 -0.022940353644516038 0.007601655719590371
77.1166666667 0.024646146543381535 -0.023280933639141042 -0.7829842354679013 0.5831346163123544 -0.7855378346959774 0.5836412486662731 -0.016163977099656356 0.012078793166997453
77.1708333333 0.015369441385005721 -0.023593506611448923 -0.5889009373611858 0.7722996207227018 -0.5919258424113265 0.7719575878890527 -0.010442937299491006 0.012384286147929618
77.225 0.009589962424958763 -0.02568225888779457 -0.35376666704522275 0.9055312083436072 -0.34828634248647417 0.9084495239701805 -0.007199357889738974 0.013041508643216983
77.2791666667 0.002684077099207586 -0.021773731773004318 -0.08541150249789155 0.9706050542351011 -0.08420674328440249 0.9719260876223028 -0.003971774871382673 0.015087014336392061
77.3333333333 -0.0012432144243607367 -0.017028607770642343 0.19553941243099696 0.9546376104647036 0.18412328320706936 0.9560871197663855 0.001704307638796147 0.011579554513579856
77.3875 -5.118982387222733e-05 -0.009546806201472748 0.44349959536199884 0.8601349887962894 0.44416895020719016 0.8615107816621788 0.004179273780636089 0.005478370329414876
77.4416666667 0.0028472034219678205 -0.006161029280177967 0.6596352834935053 0.7029274654402604 0.6568634789326752 0.7067147093217245 0.0015287684407794878 0.0008132063076530968
77.4958333333 0.006098608088383406 -0.006163500898843219 0.8390422284763207 0.4887472651708721 0.8373110518046478 0.4900586999849633 -0.0024589300279149505 -0.0004224542622593279
77.55 0.01251905615042192 -0.009097762175218469 0.9310750395501551 0.2383193958464783 0.9295425326039254 0.24050898692033515 -0.0028731735840434097 0.001265858353897444
77.6041666667 0.013679219135868982 -0.013181088388777684 0.9672064114437607 -0.03169598532325687 0.968051909836925 -0.03272916847928722 -0.007818874256473467 0.0032727042465223073
77.6583333333 0.007452924664886088 -0.02039676188227608 0.9181052279069943 -0.29439876464707504 0.9204019238071763 -0.2851562919829843 -0.0068317002052077115 0.0037797737278327716
77.7125 0.004358292372233488 -0.019130217261513514 0.7972727321052289 -0.5295357788110069 0.7993041944033342 -0.525254797183554 -0.005093304247997337 0.00978539404292879
77.7666666667 0.007848734403738504 -0.023838034713626097 0.6403309491712107 -0.7415805175520285 0.6368773858185076 -0.7454828797655697 -0.0005473652466783378 0.016055585085893786
77.8208333333 0.0033318705136342157 -0.023816063078112213 0.3966317380508189 -0.8650960470558928 0.3999924593513152 -0.8618332489730686 0.005354125356363922 0.0161903312777141
77.875 0.00023815792844251578 -0.027196295125036723 0.14198336163647488 -0.9498032875627628 0.15002816835887053 -0.9490245031604264 0.011163262608035268 0.015445084310331503
77.9291666667 -0.0008736996005853656 -0.01774227884624324 -0.11485754123319333 -0.9566084101041367 -0.11313321200905127 -0.9551582019684387 0.013571136850980652 0.00543756088211299
77.9833333333 -0.0013282287289974372 -0.020253379811537027 -0.37483987009930836 -0.8990516994062533 -0.3782291744685484 -0.8965034000895682 0.015890683389779663 0.0008629488295810424
78.0375 -0.001966383339873033 -0.02022947996008675 -0.6077511923503407 -0.7676971053290398 -0.6091528431077201 -0.765116235465971 0.01888413578353665 -0.0047068631261008775
78.0916666667 -0.0033205828710685618 -0.02502037420769363 -0.7970989096231407 -0.5687193906529809 -0.7982488919841945 -0.567266096031675 0.014432954441753375 -0.00938545569299836
78.1458333333 -0.006105018210262065 -0.025938354980321408 -0.9257147891418004 -0.3198263219051518 -0.9249196238616685 -0.3234894630108391 0.011181692034049225 -0.01486838969673928
78.2 -0.010213810606301818 -0.025242196042706555 -0.9738273906557471 -0.06416287758619466 -0.9725243901083233 -0.05787122561839306 0.005698436481912497 -0.016629492126326972
78.2541666667 -0.015449488538671771 -0.02481982175846808 -0.9521438029679384 0.21208220106431422 -0.9515560608455119 0.21119708326579328 0.000901002750625038 -0.016458477640842527
78.3083333333 -0.020925391709317998 -0.02174327466748816 -0.8585488928636074 0.4667223233482783 -0.8614405721308789 0.46741538368322344 -0.0028251339440136074 -0.015929991152158297
78.3625 -0.023603508729277984 -0.014883736242252591 -0.6992551163838113 0.6927585942565423 -0.7030340494062064 0.6856412749770525 -0.005707584384548444 -0.014320739656079908
78.4166666667 -0.02499949706876525 -0.009281962966345285 -0.47818195149819986 0.858530425654192 -0.4835177635060769 0.8559258815321314 -0.006411527042246166 -0.011063520770613679
78.4708333333 -0.019819385289128733 -0.0021940177443302202 -0.21875630046976216 0.9567796368923217 -0.22082204642378878 0.957029555582914 -0.00689344071247492 -0.011145013976439713
78.525 -0.013933734964702836 0.002003286284634833 0.044236540815463514 0.9764962956045496 0.04399620938856163 0.975923430818462 -0.003560053335182595 -0.007130050570485939
78.5791666667 -0.008968734165578826 0.002810876475400356 0.31280898447254024 0.9360905864965661 0.3161672155875677 0.931892818068944 -0.0014181121101954867 -0.00756475561630776
78.6333333333 -0.003249192343499897 9.492880701541746e-05 0.5520629271856603 0.8383770566461974 0.5499755245593745 0.8363233253950065 -0.0015761185701809051 -0.011244929696013019
78.6875 0.001147728043907434 -0.007272814167980141 0.7641071209464607 0.6779247107691742 0.7635413751457021 0.6777456111149787 -0.001327020070905231 -0.012039837186960506
78.7416666667 0.0006118536094059795 -0.015377110143925342 0.9259688321474515 0.44018990897367816 0.925489069274864 0.44214682745030104 -0.002488127402115837 -0.016243221409201127
78.7958333333 -0.003422825080742146 -0.019018606734428203 0.9978335481147782 0.1686059052973389 0.9953285663227416 0.17158959803252768 -0.005870303525367145 -0.015593222915411637
78.85 -0.01028947186081125 -0.024624840258432496 0.9918030288705154 -0.10068311889325317 0.9917939280852155 -0.10274264841077432 -0.010463557928509342 -0.01698592729706497
78.9041666667 -0.0223133557247004 -0.027022380820945636 0.916821988553001 -0.3647435833398806 0.9169214499236221 -0.3627128939084395 -0.013147478013649056 -0.015009148358024358
78.9583333333 -0.030297368664262816 -0.0197862853572708 0.7672454835534619 -0.5992533934116379 0.7682770073968459 -0.5961237799890081 -0.019280201565317637 -0.014677180337874301
79.0125 -0.038285410432567085 -0.012506655247116054 0.568819052370108 -0.7891300567636734 0.5670734932283453 -0.7903330643684373 -0.01957338108088931 -0.009673983749978729
79.0666666667 -0.043746318993578004 -0.0033003102069933134 0.3430371462753982 -0.9264463041844103 0.34997156520924105 -0.9256389475951735 -0.02285317015566667 -0.005614622722496152
79.1208333333 -0.04375656852471735 0.009640008002027113 0.08010769368096886 -0.9738194733905052 0.07527549452404679 -0.9737599114396717 -0.023563424839817364 0.0011818446019648205
79.175 -0.036809966836530525 0.022219972361933394 -0.20022514128995128 -0.9521079346301415 -0.19504344777766608 -0.953282524994968 -0.02161811377348116 0.006867764331905845
79.2291666667 -0.027574472146004593 0.031169336023318714 -0.4482974927171171 -0.855142012575022 -0.44632903919356254 -0.854530596335522 -0.018022938150944846 0.01065202323689945
79.2833333333 -0.017637902525018397 0.03829285766669841 -0.6737398514326706 -0.698339203571108 -0.6696572625348953 -0.7017317897198715 -0.013997226304283244 0.014197808291943446
79.3375 -0.004949394871010177 0.042947577362602234 -0.8433410054310075 -0.5089560436642631 -0.8435195003725929 -0.5092256851103105 -0.00938733193596612 0.015213241073822036
79.3916666667 0.0072857647045835895 0.03720106274092397 -0.9405970695722294 -0.2777192648533013 -0.9427176666409551 -0.26794639527181396 -0.004188597900891984 0.013920815865340967
79.4458333333 0.013755020936400313 0.02873127016687759 -0.961753509696664 -0.015785480551472185 -0.9614747187390854 -0.01283408525972739 0.0004536230176135251 0.014451507501349567
79.5 0.016951628691539124 0.02121875615533024 -0.9160855238585882 0.2575633861395772 -0.9151421597621593 0.26115240457771866 0.006451061472937977 0.014024404234515833
79.5541666667 0.01610435959994843 0.013739280688830477 -0.8165751591279607 0.48765542882936985 -0.814602863821845 0.48829803727224036 0.00952531070362184 0.010343218206912632
79.6083333333 0.016608539709276136 0.009834593316490255 -0.650648514333369 0.6995553544272061 -0.6523184382526327 0.6981755391357364 0.009974902582624073 0.0050064631718084425
79.6625 0.01616768647346083 0.005793749489285564 -0.45187464425422746 0.839181489765492 -0.44572226807360577 0.8408998471265494 0.012097350844382257 0.0007291717670479862
79.7166666667 0.01352147944451964 0.003506496053643851 -0.21352261522960228 0.9339245838660689 -0.20541822762441356 0.934215933538174 0.009569446823834005 -0.0018899749970587153
79.7708333333 0.010884696768402194 0.002115069846266286 0.042368703705905994 0.9566485254360524 0.04250960206679164 0.958232338464342 0.007499092278763259 -0.003915701525225177
79.825 0.010576804609838984 0.0010402175178110425 0.2960863576765945 0.9143656379442048 0.29927524172366343 0.9106949673120265 0.00529556503508285 -0.00530941925979469
79.8791666667 0.008601579759004307 -0.00028146109043344843 0.5283967282870738 0.8007149175024909 0.5286192915599885 0.8033341699259435 0.002752067108764001 -0.004220278391473868
79.9333333333 0.006477809746663266 0.00021440998615665524 0.7133842586614756 0.6260972102833022 0.7098804340236475 0.629862969021455 0.00267147277987209 -0.00464287871056748
79.9875 0.0063954679267613475 0.0028881780173803497 0.8467827562579188 0.4152447644790449 0.848497578448919 0.41466187252398146 0.002316952325151551 -0.0029394164652051793
80.0416666667 0.002589234023105353 0.0015410721381906567 0.9131711163105107 0.18464442529700822 0.9147560501328708 0.17946949113909672 0.0034408588459257008 -0.001776946299049824
80.0958333333 0.00138492151493964 0.001261988904052763 0.9306033501174318 -0.07579977618237668 0.9310035753292749 -0.07461269312164659 0.0073879417387572414 -0.005232110968571065
80.15 -0.0003929983715853459 0.002898304131792447 0.8840531348607626 -0.31001997231720785 0.8829597277308645 -0.3122522610904901 0.006151145229567572 -0.0026073965249935175
80.2041666667 0.002168126951693968 0.011494453667769662 0.7690938415795086 -0.5302746926697797 0.7713164588089758 -0.5248355242546732 0.009141011413956528 -0.0024771270270532394
80.2583333333 0.004651423773061204 0.01494296850557811 0.6064397020120232 -0.7144995336601405 0.6063432372952661 -0.7135671299522426 0.010321831609561327 -0.008042266353267373
80.3125 0.008999579117795638 0.021322802544716003 0.38496876448235745 -0.8469702160702167 0.38893745001884694 -0.8467969378599571 0.00682473862400012 -0.01199870492898203
80.3666666667 0.014792545112323677 0.023584088387367322 0.14686644078747674 -0.9149893537767663 0.14942117368615093 -0.9131098676987146 0.008203780373001122 -0.0177157391844352
80.4208333333 0.02414764423863972 0.018578267167091232 -0.08932292451753805 -0.9263475985362437 -0.08870333970034573 -0.9242369040687926 0.0049390406730669524 -0.01667209303281053
80.475 0.03409874023139312 0.015158658482655874 -0.32407064579964795 -0.8680253065957746 -0.3246545512934282 -0.8709331336750297 -0.0009032963143971078 -0.021193100528356948
80.5291666667 0.04353981432761351 0.006831282064902657 -0.5426525267361857 -0.7615618850040408 -0.5363652513846411 -0.7655545565933181 -0.009017445907780232 -0.02390962127566197
80.5833333333 0.04486235695431223 -0.0020674235406110855 -0.7279728746605209 -0.6043356373316593 -0.7325640505861408 -0.6011499488011873 -0.014376093628610538 -0.022735740653631483
80.6375 0.04486560902070909 -0.01353451676580219 -0.8756226759743478 -0.38691420992111103 -0.873835013232453 -0.38894768019256043 -0.018053315646976188 -0.01870414682763538
80.6916666667 0.03995204808491652 -0.02281217617826072 -0.9366766038749632 -0.14525738320137688 -0.9360609880636535 -0.1461331381459386 -0.02054625971695226 -0.013229894179836957
80.7458333333 0.034927014508787824 -0.03330540369738326 -0.9320356445935181 0.11368222403706048 -0.9326940640625184 0.11719681139930181 -0.02110437803422851 -0.007542597738826885
80.8 0.022064070979382924 -0.04113156071120297 -0.8797441452040075 0.3631038351482668 -0.8756943010928073 0.3703299643520502 -0.022882915865410077 -0.0016200523564667212
80.8541666667 0.014545717559637976 -0.0355725318349545 -0.7414567090728823 0.5711434351786189 -0.7422099129642182 0.572076383441422 -0.018455090675766048 0.0020306771832236024
80.9083333333 0.00823618507044839 -0.03200412261783604 -0.5492444118299026 0.7451072001376686 -0.5555294667780241 0.7402518067872571 -0.01667112591444737 0.005052500620367676
80.9625 9.26637820999379e-05 -0.030556388345600063 -0.3242427666277147 0.8554545131571911 -0.3251910964942526 0.8555274192083108 -0.012155529945444754 0.007382265668726192
81.0166666667 -0.003658792774437923 -0.01974192549509354 -0.07217554074363212 0.9077092041969502 -0.08217842671080013 0.9070361565433109 -0.005968697292032734 0.005193112718361134
