# GHz S RI R 50.0 
!freq	ReS11	ImS11	ReS21	ImS21	ReS12	ImS12	ReS22	ImS22	
500.0	-0.174887467678	-0.0914437937526	0.384180666078	-0.393736096816	0.384180666078	-0.393736096816	-0.154135465737	-0.0395114250299	
500.625	-0.053689738349	-0.0633419579601	0.165061750549	-0.562994765714	0.165061750549	-0.562994765714	-0.0336845861708	0.0472221448247	
501.25	-0.0623253375538	-0.0287887449801	-0.12675200393	-0.588086337345	-0.12675200393	-0.588086337345	-0.032502705182	0.0811804000512	
501.875	-0.0368299792613	0.0415305564293	0.392414152689	0.450722312672	0.392414152689	0.450722312672	-6.10496033952e-05	0.0521849135613	
502.5	0.0461732795858	0.0539130963004	0.559704916341	0.202211804002	0.559704916341	0.202211804002	-0.00787361912313	0.0304842364702	
503.125	-0.147594558794	-0.0154773810558	0.408318343038	-0.373550541242	0.408318343038	-0.373550541242	0.463825904004	-0.00335988485561	
503.75	0.067359682417	-0.0907288512798	0.461299770284	-0.362749388678	0.461299770284	-0.362749388678	-0.0457075104665	0.05408900405	
504.375	-0.00834599173655	-0.143687384141	0.229343406292	-0.54358412858	0.229343406292	-0.54358412858	-0.0445540384663	0.0772303163306	
505.0	-0.0745548704393	-0.083212376843	0.0580070457015	0.58434325991	0.0580070457015	0.58434325991	-0.0292480217469	0.0915934799039	
505.625	-0.0746558075878	0.0200124263803	0.333204638886	0.485344024742	0.333204638886	0.485344024742	-0.0131779122329	0.0866255092025	
506.25	-0.0046685168002	0.0739739405245	0.524026589969	0.264513666253	0.524026589969	0.264513666253	-0.0117804341951	0.0640159247015	
506.875	0.0885360429833	0.0283989985563	-0.586460277209	0.0199989579572	-0.586460277209	0.0199989579572	-0.0266651675217	0.0667927703137	
507.5	0.116068995591	-0.0732937386766	-0.502519257118	0.301077179939	-0.502519257118	0.301077179939	-0.042533266727	0.071774082587	
508.125	0.057997816787	-0.144417194795	-0.297691324211	0.500569228882	-0.297691324211	0.500569228882	-0.0535829067417	0.0981171221597	
508.75	-0.0444398297877	-0.127686608398	-0.0267796488153	0.581931750572	-0.0267796488153	0.581931750572	-0.0431237685134	0.115570784394	
509.375	-0.0911823271107	-0.0311208696596	0.25061031263	0.53056042184	0.25061031263	0.53056042184	-0.0226804844046	0.123445328136	
510.0	-0.061568349175	0.067591527609	0.473311205435	0.352221909947	0.473311205435	0.352221909947	-0.00719289640109	0.10937031241	
510.625	0.0429039499426	0.0853551126816	0.585151903698	0.0849350084961	0.585151903698	0.0849350084961	-0.0132230540508	0.0923914686207	
511.25	0.114462770697	-0.00087101308316	-0.556945307945	0.206390492546	-0.556945307945	0.206390492546	-0.0313882812694	0.101567774587	
511.875	0.0945987386717	-0.103212140318	-0.386100681878	0.442595723441	-0.386100681878	0.442595723441	-0.0361897490386	0.123054406371	
512.5	0.0118871309183	-0.126887043169	0.133112646282	-0.571686057395	0.133112646282	-0.571686057395	-0.0510276479528	0.131866355318	
513.125	-0.100128235844	-0.0852748978986	-0.149696381624	-0.573019671143	-0.149696381624	-0.573019671143	-0.022434991308	0.143829138922	
513.75	-0.120430143145	0.0425590033265	-0.400504782075	-0.431476735511	-0.400504782075	-0.431476735511	0.00286498735134	0.119560233208	
514.375	-0.0214562310541	0.112522297821	0.560123964429	0.192358978013	0.560123964429	0.192358978013	-0.000895008326096	0.116969901225	
515.0	0.0871412492416	0.0748619997604	0.584232228987	-0.0974940932681	0.584232228987	-0.0974940932681	-0.0111034868965	0.109474437712	
515.625	0.132049448275	-0.0415632929471	0.470418801318	-0.359061172959	0.470418801318	-0.359061172959	-0.0270487748011	0.120405282455	
516.25	0.0622808736266	-0.135861535542	0.250426836222	-0.53470229606	0.250426836222	-0.53470229606	-0.0275105143836	0.140946486905	
516.875	-0.0580869501787	-0.130790538783	0.0254409114571	0.588233141232	0.0254409114571	0.588233141232	-0.0128216368405	0.148460806107	
517.5	-0.123344663819	-0.0319264173632	0.293179825302	0.511778562133	0.293179825302	0.511778562133	-0.00192294157701	0.145929042629	
518.125	-0.0917400904763	0.0752066319504	0.500779245639	0.31828756683	0.500779245639	0.31828756683	0.00741319780897	0.142626791296	
518.75	0.0241125361651	0.106441075461	0.590737497349	0.0442178344157	0.590737497349	0.0442178344157	0.00941400214487	0.13891182451	
519.375	0.122003277802	0.0269356902039	-0.543001040327	0.237880524586	-0.543001040327	0.237880524586	0.000789264644875	0.132916926262	
520.0	0.121817365877	-0.0964734205704	-0.365561544637	0.460719163066	-0.365561544637	0.460719163066	-0.00303703284283	0.138418443337	
520.625	0.0287779878746	-0.168029296694	-0.108447936504	0.573886373932	-0.108447936504	0.573886373932	-0.00386056016334	0.151214671208	
521.25	-0.0824555809215	-0.119843946689	0.166396985838	0.558094727447	0.166396985838	0.558094727447	0.0118684470323	0.16034559671	
521.875	-0.120134142095	0.00319070865505	-0.407749220576	-0.419112142042	-0.407749220576	-0.419112142042	0.0238239681082	0.148174818398	
522.5	-0.0535571022473	0.105196597862	-0.557333479899	-0.182344462357	-0.557333479899	-0.182344462357	0.0231042556603	0.136525324455	
523.125	0.0704801962095	0.102541088422	-0.578366190647	0.0975693614668	-0.578366190647	0.0975693614668	0.0183101020428	0.138073439997	
523.75	0.145791542997	-0.00177352932012	-0.466286606807	0.35345711272	-0.466286606807	0.35345711272	0.0124959933298	0.141559862925	
524.375	0.117212590317	-0.11552454862	-0.252629787741	0.524459152684	-0.252629787741	0.524459152684	0.0122970934724	0.149674935467	
525.0	0.00548763400716	-0.159490811444	0.0144439724896	0.584210825239	0.0144439724896	0.584210825239	0.0211085567922	0.158027773639	
525.625	-0.0978049406385	-0.0898007266697	-0.280593331048	-0.515093689094	-0.280593331048	-0.515093689094	0.036103884462	0.153265749827	
526.25	-0.107706705907	0.0288324409733	-0.486039225256	-0.329912191004	-0.486039225256	-0.329912191004	0.0430992886099	0.142876354908	
526.875	-0.0202842283954	0.100171230624	-0.584443679835	-0.0711843204865	-0.584443679835	-0.0711843204865	0.0398805943425	0.13224752371	
527.5	0.105366826412	0.0745332463638	-0.553129509738	0.206498883125	-0.553129509738	0.206498883125	0.0305109951428	0.131371191343	
528.125	0.160077102527	-0.0336127537782	0.393177590923	-0.43743528668	0.393177590923	-0.43743528668	0.0275115761456	0.141194408928	
528.75	0.104256843811	-0.135382142167	0.148712591455	-0.567854369635	0.148712591455	-0.567854369635	0.0352089189583	0.150120213502	
529.375	-0.0210748411508	-0.143068365049	-0.12729617209	-0.569369601363	-0.12729617209	-0.569369601363	0.0513708972352	0.145390227085	
530.0	-0.116318888111	-0.0547122398921	0.370399760071	0.450269862182	0.370399760071	0.450269862182	0.0625831123684	0.127821990403	
530.625	-0.0923993704235	0.0566595743819	0.535047022293	0.232347283633	0.535047022293	0.232347283633	0.0562890087703	0.111849433138	
531.25	0.025679573203	0.103509230862	0.585238554699	-0.0355972107339	0.585238554699	-0.0355972107339	0.0439054534199	0.109929291751	
531.875	0.137174294228	0.0471221824313	0.504060103068	-0.299488192308	0.504060103068	-0.299488192308	0.0301207009436	0.118133673262	
532.5	0.157641060661	-0.0695422059349	-0.311589533381	0.492486693527	-0.311589533381	0.492486693527	0.0339037279966	0.133490797709	
533.125	0.0727028741827	-0.153166116787	-0.0581187257232	0.579657877243	-0.0581187257232	0.579657877243	0.0460429115876	0.140921931324	
533.75	-0.0491606950341	-0.14211347666	0.207525613098	0.54436575738	0.207525613098	0.54436575738	0.062917815449	0.130889352061	
534.375	-0.111964349443	-0.0451216396968	0.42891313172	0.395175228784	0.42891313172	0.395175228784	0.0648419473152	0.113860398279	
535.0	-0.0655307266638	0.0619656388196	-0.564212440283	-0.161253219938	-0.564212440283	-0.161253219938	0.0504862134781	0.100716665866	
535.625	0.0586350494934	0.0972127572428	-0.571673207878	0.111866209955	-0.571673207878	0.111866209955	0.0372726148062	0.0994305113284	
536.25	0.154508146814	0.0217620673219	-0.458933862366	0.357262573818	-0.458933862366	0.357262573818	0.0265131963785	0.118948232047	
536.875	0.151375840355	-0.0945196287411	0.248357554822	-0.5223076279	0.248357554822	-0.5223076279	0.034027785497	0.131251894419	
537.5	0.0478305672088	-0.165350514964	-0.0135709125121	-0.576428905385	-0.0135709125121	-0.576428905385	0.0550764119328	0.131566031657	
538.125	-0.068153045287	-0.136176545198	-0.26597923436	-0.510879723791	-0.26597923436	-0.510879723791	0.0663291453063	0.108756615697	
538.75	-0.114413576748	-0.0350757557188	-0.470720714166	-0.339486266054	-0.470720714166	-0.339486266054	0.0621618861294	0.100174805433	
539.375	-0.0479774924872	0.0568416666536	-0.5753639475	-0.090592231603	-0.5753639475	-0.090592231603	0.0533946683803	0.0923144043075	
540.0	0.0706046665739	0.0658517018031	0.553366382092	-0.178428712609	0.553366382092	-0.178428712609	0.0387741199414	0.092767339056	
540.625	0.154124402109	-0.0183175684792	0.412248999817	-0.404313555898	0.412248999817	-0.404313555898	0.0294615129096	0.105126512422	
541.25	0.129112573168	-0.122813681992	0.191423817054	-0.542509483732	0.191423817054	-0.542509483732	0.0328042959698	0.120153455897	
541.875	0.0284669435591	-0.17263932042	-0.0659051680672	-0.571970287416	-0.0659051680672	-0.571970287416	0.046327711194	0.123932155659	
542.5	-0.0705197696215	-0.133502829596	-0.312934281559	-0.486624843904	-0.312934281559	-0.486624843904	0.065984403633	0.113685964415	
543.125	-0.0976594375767	-0.0413806079325	-0.497854106589	-0.299326204292	-0.497854106589	-0.299326204292	0.072174377248	0.0958573236605	
543.75	-0.0302183985916	0.0409714054261	-0.583729494302	-0.0459856620563	-0.583729494302	-0.0459856620563	0.0617161690141	0.0773339842089	
544.375	0.0732545314292	0.0496713822829	0.542103631226	-0.220768576552	0.542103631226	-0.220768576552	0.042973882863	0.0747492664157	
545.0	0.134485667046	-0.0255833276919	0.38530632993	-0.438488580591	0.38530632993	-0.438488580591	0.0318931879375	0.0937335008535	
545.625	0.0952804976182	-0.121044047786	0.150149277478	-0.562108214378	0.150149277478	-0.562108214378	0.0326012523521	0.102464233763	
546.25	-0.0018712038792	-0.159921869873	-0.110861321671	-0.570432322843	-0.110861321671	-0.570432322843	0.0408467286905	0.101952723221	
546.875	-0.0862367256096	-0.120083198203	0.351796975938	0.465719859096	0.351796975938	0.465719859096	0.051628249296	0.0981824633517	
547.5	-0.0960783439297	-0.0348695444618	0.522351205189	0.264087279006	0.522351205189	0.264087279006	0.0529634173758	0.0846841542723	
548.125	-0.0265411933213	0.0350101314737	0.589095860463	0.00503481419714	0.589095860463	0.00503481419714	0.0422712106739	0.0776041797519	
548.75	0.0691952619197	0.0298010542584	0.529843172363	-0.256449671108	0.529843172363	-0.256449671108	0.0293994987767	0.0796861973077	
549.375	0.114727415709	-0.0384492036202	0.362226509335	-0.463612373899	0.362226509335	-0.463612373899	0.0181062089915	0.0949875389862	
550.0	0.0794009914354	-0.114991394515	-0.121076896119	0.574573132369	-0.121076896119	0.574573132369	0.0227406575961	0.114375662994	
550.625	-0.00353071058399	-0.149649002385	0.141676170371	0.569590260172	0.141676170371	0.569590260172	0.0391284475143	0.115482718003	
551.25	-0.0791156221522	-0.110081959608	0.376149210413	0.453502502722	0.376149210413	0.453502502722	0.0509862442467	0.106282805214	
551.875	-0.0930112765409	-0.0330806532987	0.538908468591	0.244280771017	0.538908468591	0.244280771017	0.0551554303692	0.0975394548324	
552.5	-0.0379007185301	0.0353551649237	-0.592900557756	0.0166702394441	-0.592900557756	0.0166702394441	0.0489500808915	0.0824930411663	
553.125	0.0456027977134	0.0372518480419	-0.526794231093	0.277022762251	-0.526794231093	0.277022762251	0.0303335249303	0.0873505265599	
553.75	0.0918861769907	-0.0180215947476	0.350624815647	-0.481844947489	0.350624815647	-0.481844947489	0.0267133924231	0.101620774738	
554.375	0.0711819240088	-0.0998137587758	0.10030208811	-0.58368918926	0.10030208811	-0.58368918926	0.0301074514437	0.115124876313	
555.0	-0.002975436158	-0.136704621216	-0.163709618337	-0.56740120512	-0.163709618337	-0.56740120512	0.0469151892713	0.120151490395	
555.625	-0.067226540205	-0.109961907275	-0.392084197988	-0.437361718102	-0.392084197988	-0.437361718102	0.0651794114363	0.112662923114	
556.25	-0.0811575692568	-0.0398789227886	-0.542459896141	-0.226229209865	-0.542459896141	-0.226229209865	0.0746879582594	0.0938518157818	
556.875	-0.0390001076827	0.0239745627973	0.590386322892	-0.0307561067285	0.590386322892	-0.0307561067285	0.0695159059148	0.0753277223142	
557.5	0.0252430107877	0.0360567363456	0.519738757599	-0.286814329994	0.519738757599	-0.286814329994	0.0609845500647	0.0709625002529	
558.125	0.0688299140874	-0.00565864931737	0.342776407443	-0.486567687138	0.342776407443	-0.486567687138	0.0536538056046	0.0745178387722	
558.75	0.0534778936113	-0.0716077087971	0.0953438550063	-0.5862543497	0.0953438550063	-0.5862543497	0.0469394142896	0.0776943318334	
559.375	0.00202583226811	-0.102868356806	-0.166699840264	-0.569775204104	-0.166699840264	-0.569775204104	0.0471545108906	0.0841908170537	
560.0	-0.0528527673493	-0.0843531708142	0.395761952226	0.442585714968	0.395761952226	0.442585714968	0.0599145760693	0.0785847531522	
560.625	-0.0669250323432	-0.033427830901	0.550526174912	0.230421959498	0.550526174912	0.230421959498	0.0575364955046	0.0737434287241	
561.25	-0.0423092891444	0.0233737329977	0.599487759018	-0.0316721072379	0.599487759018	-0.0316721072379	0.0576962138228	0.0683402155051	
561.875	0.0157004203485	0.0421826294635	0.527213838612	-0.290792300448	0.527213838612	-0.290792300448	0.0545660130916	0.0669956979116	
562.5	0.0651241554402	0.00837004670306	0.349144402924	-0.49170543091	0.349144402924	-0.49170543091	0.0487436109886	0.0656694301208	
563.125	0.0651098220479	-0.048038571143	0.0990019485735	-0.595550756168	0.0990019485735	-0.595550756168	0.0410302287502	0.0719269310824	
563.75	0.0303324710223	-0.0908743265258	0.167501272785	0.579981383059	0.167501272785	0.579981383059	0.0489963521728	0.0771641295726	
564.375	-0.0177802092232	-0.0888651705558	0.400334018507	0.450857638931	0.400334018507	0.450857638931	0.0613404307531	0.0709259591209	
565.0	-0.0438376926743	-0.0453489182941	0.554240055419	0.233978674434	0.554240055419	0.233978674434	0.0654817435584	0.0590402444367	
565.625	-0.0260910040877	0.0120894470164	0.602534117685	-0.0251012934613	0.602534117685	-0.0251012934613	0.0600441571288	0.0492072632475	
566.25	0.0129793699406	0.0349199661537	0.533846685825	-0.284054049889	0.533846685825	-0.284054049889	0.0503845043851	0.0473145097445	
566.875	0.0503845238926	0.0193230451202	0.359782987587	-0.48823594132	0.359782987587	-0.48823594132	0.0422156335829	0.0569859124886	
567.5	0.0576866065654	-0.0303924195794	-0.113498582847	0.595366724596	-0.113498582847	0.595366724596	0.0424934412272	0.0585613573877	
568.125	0.0409162209721	-0.0776329934074	0.150670864236	0.588013552865	0.150670864236	0.588013552865	0.0485097326291	0.0556355345085	
568.75	0.00496762084022	-0.0920015379719	0.38949878203	0.466248434128	0.38949878203	0.466248434128	0.0540846643435	0.0510535249274	
569.375	-0.0221218141237	-0.0724507861041	0.551356500949	0.253855727039	0.551356500949	0.253855727039	0.0554636063906	0.0437541690842	
570.0	-0.0254352346647	-0.0230476951384	0.607621629111	-0.00494201968606	0.607621629111	-0.00494201968606	0.0522021900455	0.0368361086167	
570.625	-0.00530914138129	0.013559599131	0.548434223906	-0.264510638418	0.548434223906	-0.264510638418	0.0413213500337	0.0377238258662	
571.25	0.034322637112	0.0202454221503	-0.383257950098	0.476470220768	-0.383257950098	0.476470220768	0.0380032523488	0.0455531677322	
571.875	0.0615738515328	-0.0136743407614	-0.140434384448	0.595852234533	-0.140434384448	0.595852234533	0.0423573171594	0.0448713008865	
572.5	0.0649412682876	-0.059342027694	0.127255882152	0.59779681933	0.127255882152	0.59779681933	0.0511536354378	0.0381252649054	
573.125	0.0402238888641	-0.0818083951105	-0.368655084663	-0.486532661797	-0.368655084663	-0.486532661797	0.0517050380415	0.0254343406723	
573.75	0.0124884314442	-0.0749785403123	-0.542455481066	-0.284592609505	-0.542455481066	-0.284592609505	0.046801489023	0.0131660623093	
574.375	-0.00594110789844	-0.0461023198631	-0.613095661257	-0.0246983504064	-0.613095661257	-0.0246983504064	0.0317093050368	0.0085960233822	
575.0	-0.00468029328899	-0.0216058455065	-0.566218824287	0.240351894657	-0.566218824287	0.240351894657	0.0158671120176	0.0122129543847	
575.625	0.0128585639415	-0.0146366591944	-0.410397353849	0.461083761748	-0.410397353849	0.461083761748	0.00726007679238	0.0251309602805	
576.25	0.0312416932625	-0.0230036938611	0.173074294094	-0.593323241364	0.173074294094	-0.593323241364	0.00764676358465	0.0334360776473	
576.875	0.0507108547858	-0.0485751745315	-0.0976827966627	-0.609864305195	-0.0976827966627	-0.609864305195	0.0185723869143	0.0350630274397	
577.5	0.0492831273428	-0.0675146303519	-0.34755902739	-0.508081142777	-0.34755902739	-0.508081142777	0.026320671758	0.0233740668486	
578.125	0.035800788799	-0.0821583269059	-0.529820293415	-0.31132335394	-0.529820293415	-0.31132335394	0.0186837642921	0.0135770259967	
578.75	0.0199868122974	-0.0735732233287	-0.610558451321	-0.0554896349022	-0.610558451321	-0.0554896349022	0.00747556990181	0.00442921145786	
579.375	0.00260208543677	-0.0570866693385	0.574048590015	-0.207589126948	0.574048590015	-0.207589126948	-0.013959705083	0.00682435324286	
580.0	0.00742280482786	-0.0410208554774	0.431891306567	-0.429986265458	0.431891306567	-0.429986265458	-0.0248723180866	0.0279467313482	
580.625	0.0155912598189	-0.0342617630798	0.208955667209	-0.5718292281	0.208955667209	-0.5718292281	-0.0210591899239	0.04125976959	
581.25	0.0299890224089	-0.0447675075034	-0.0519511054866	-0.606409880707	-0.0519511054866	-0.606409880707	-0.0133949982237	0.0430026883409	
581.875	0.0394781594206	-0.0584378728949	-0.304041514113	-0.525075743344	-0.304041514113	-0.525075743344	-0.00288109410951	0.038232155094	
582.5	0.0361978918889	-0.0792392513901	-0.496534629246	-0.347911029741	-0.496534629246	-0.347911029741	-0.00109190058413	0.0267883983502	
583.125	0.0285054313553	-0.0837811969986	0.594196870504	0.105030695356	0.594196870504	0.105030695356	-0.014010074614	0.016589257691	
583.75	0.00619930892001	-0.078080652764	0.580563412813	-0.152464547555	0.580563412813	-0.152464547555	-0.0292221760457	0.0238932500773	
584.375	-0.00430605794784	-0.0648230709811	0.463346863704	-0.3810888971	0.463346863704	-0.3810888971	-0.0385568309937	0.0351645972355	
585.0	-0.00379173900102	-0.0499310270397	0.260091760004	-0.539242495512	0.260091760004	-0.539242495512	-0.0425841481217	0.0518040595761	
585.625	0.0134560434347	-0.0529582203301	0.0115735681366	-0.598647238907	0.0115735681366	-0.598647238907	-0.0315674419355	0.0630889489382	
586.25	0.0372681239641	-0.0599740868803	0.2393354729	0.547741318122	0.2393354729	0.547741318122	-0.00938539285843	0.0595754406609	
586.875	0.0447949091633	-0.0754902124675	0.445452071511	0.397222051863	0.445452071511	0.397222051863	-0.00206457850416	0.040625871884	
587.5	0.0404474856455	-0.0847318332747	0.569757193657	0.176345014325	0.569757193657	0.176345014325	-0.0123544770318	0.0238516911934	
588.125	0.0154024603434	-0.0823186271418	0.592860524147	-0.0772360869702	0.592860524147	-0.0772360869702	-0.030062514292	0.0201849877207	
588.75	-0.00937860675329	-0.0801900615185	0.50630590827	-0.319126535468	0.50630590827	-0.319126535468	-0.0515045599715	0.033974843116	
589.375	-0.0233309264848	-0.0731841040264	0.326206201883	-0.502057278022	0.326206201883	-0.502057278022	-0.0616231743893	0.0539995015191	
590.0	-0.0264844634497	-0.0645621664247	-0.0895927335269	0.591793157704	-0.0895927335269	0.591793157704	-0.0538460099201	0.0651763788147	
590.625	0.00187125877686	-0.0520222653869	0.165923918434	0.577883859624	0.165923918434	0.577883859624	-0.041653085793	0.0710141404325	
