# GHz S MA R 50

1.000000000000000e-03  1.7413280109819320e-03 -1.0320469579075333e+02  9.9989360236765168e-01 -1.6170692551184715e-01  9.9989360236765212e-01 -1.6170692551184712e-01  8.0544359483274023e-04 -6.8153697326369567e+01
2.000000000000000e-03  2.4535795701311966e-03 -1.0045068678128065e+02  9.9983515598200767e-01 -3.2168305885219450e-01  9.9983515598200756e-01 -3.2168305885219450e-01  2.4289062880171676e-03 -8.3373097226721612e+01
3.000000000000000e-03  3.7822789584074875e-03 -9.7521057145849767e+01  9.9978346791431238e-01 -4.8102387195506446e-01  9.9978346791431272e-01 -4.8102387195506474e-01  3.4448277995458923e-03 -8.5738987529306755e+01
4.000000000000000e-03  4.7947854616945847e-03 -9.6576526647843821e+01  9.9973448085423744e-01 -6.3993583069060411e-01  9.9973448085423788e-01 -6.3993583069060400e-01  4.7715098166738390e-03 -8.7263488640075977e+01
5.000000000000000e-03  6.0539810713586984e-03 -9.5775064179709076e+01  9.9968681872274823e-01 -7.9853808949496385e-01  9.9968681872274878e-01 -7.9853808949496397e-01  5.8418947951629019e-03 -8.8101053548216868e+01
6.000000000000000e-03  7.1210869192117887e-03 -9.5429661930632861e+01  9.9963964216807333e-01 -9.5688406858180952e-01  9.9963964216807355e-01 -9.5688406858180908e-01  7.0977235000782716e-03 -8.8753777196663833e+01
7.000000000000000e-03  8.3464715746987862e-03 -9.5121174244947142e+01  9.9959258742119084e-01 -1.1150228758797467e+00  9.9959258742119106e-01 -1.1150228758797462e+00  8.1879098073330617e-03 -8.9238669561792236e+01
8.000000000000000e-03  9.4341418348532248e-03 -9.4992634395639655e+01  9.9954529296487504e-01 -1.2729773598770955e+00  9.9954529296487460e-01 -1.2729773598770955e+00  9.4102908693512836e-03 -8.9647511918301845e+01
9.000000000000001e-03  1.0638893700003050e-02 -9.4873284852260369e+01  9.9949763582550155e-01 -1.4307749463445381e+00  9.9949763582550244e-01 -1.4307749463445374e+00  1.0509744094275037e-02 -8.9997120693994773e+01
1.000000000000000e-02  1.1736345421757636e-02 -9.4845897691779669e+01  9.9944940163039286e-01 -1.5884276211149242e+00  9.9944940163039275e-01 -1.5884276211149235e+00  1.1711862385185132e-02 -9.0304784123582508e+01
1.100000000000000e-02  1.2926811021819371e-02 -9.4818883878688140e+01  9.9940055685852502e-01 -1.7459530861452226e+00  9.9940055685852569e-01 -1.7459530861452226e+00  1.2816101287205369e-02 -9.0588486241549433e+01
1.200000000000000e-02  1.4029388587261786e-02 -9.4846641634084889e+01  9.9935094837490357e-01 -1.9033584048709307e+00  9.9935094837490301e-01 -1.9033584048709313e+00  1.4004216902584939e-02 -9.0844835942873999e+01
1.300000000000000e-02  1.5209135778357322e-02 -9.4871634647806871e+01  9.9930058454369641e-01 -2.0606559729890526e+00  9.9930058454369608e-01 -2.0606559729890535e+00  1.5110964111304278e-02 -9.1091531143554548e+01
1.400000000000000e-02  1.6314454189590061e-02 -9.4932725308459396e+01  9.9924934242471009e-01 -2.2178503111795904e+00  9.9924934242471064e-01 -2.2178503111795895e+00  1.6288573904027090e-02 -9.1318417177390273e+01
1.500000000000000e-02  1.7485699345173411e-02 -9.4989930203747662e+01  9.9919725308710317e-01 -2.3749505328599794e+00  9.9919725308710250e-01 -2.3749505328599807e+00  1.7396532804459547e-02 -9.1542264504395263e+01
1.600000000000000e-02  1.8592393511258316e-02 -9.5072696018346761e+01  9.9914421017871369e-01 -2.5319597447807212e+00  9.9914421017871402e-01 -2.5319597447807221e+00  1.8565801623586013e-02 -9.1750732332428726e+01
1.700000000000000e-02  1.9756612201620279e-02 -9.5151251305480486e+01  9.9909025841505161e-01 -2.6888848418161557e+00  9.9909025841505206e-01 -2.6888848418161566e+00  1.9674171945525360e-02 -9.1959477823299835e+01
1.800000000000000e-02  2.0863836310737297e-02 -9.5248897830310014e+01  9.9903530125053530e-01 -2.8457281165081358e+00  9.9903530125053552e-01 -2.8457281165081372e+00  2.0836538113177261e-02 -9.2155694315040989e+01
1.900000000000000e-02  2.2022061720371668e-02 -9.5342341345311766e+01  9.9897939226929711e-01 -3.0024948605240098e+00  9.9897939226929611e-01 -3.0024948605240103e+00  2.1944794449743319e-02 -9.2353929745343549e+01
2.000000000000000e-02  2.3129258821120682e-02 -9.5450640549450469e+01  9.9892244102669259e-01 -3.1591868978971682e+00  9.9892244102669292e-01 -3.1591868978971687e+00  2.3101263720437061e-02 -9.2541600139350322e+01
2.100000000000000e-02  2.4282242362103124e-02 -9.5554883397624479e+01  9.9886450724060494e-01 -3.3158082992630429e+00  9.9886450724060438e-01 -3.3158082992630438e+00  2.4209043376317619e-02 -9.2732219182737495e+01
2.200000000000000e-02  2.5389027139699930e-02 -9.5671065874929639e+01  9.9880550439697302e-01 -3.4723606320846536e+00  9.9880550439697258e-01 -3.4723606320846536e+00  2.5360346508586006e-02 -9.2913699215154878e+01
2.300000000000000e-02  2.6537331496099208e-02 -9.5783392370774052e+01  9.9874549667961776e-01 -3.6288469967297892e+00  9.9874549667961776e-01 -3.6288469967297883e+00  2.6467388186026248e-02 -9.3098615563574313e+01
2.400000000000000e-02  2.7643425953728873e-02 -9.5905567780707983e+01  9.9868440016302318e-01 -3.7852688404346639e+00  9.9868440016302329e-01 -3.7852688404346626e+00  2.7614071978427277e-02 -9.3275471866499117e+01
2.500000000000000e-02  2.8787482200991407e-02 -9.6024102236712068e+01  9.9862228242731188e-01 -3.9416284652025109e+00  9.9862228242731177e-01 -3.9416284652025109e+00  2.8720180193034090e-02 -9.3456001527399451e+01
2.600000000000000e-02  2.9892678219779364e-02 -9.6150935800159743e+01  9.9855906126858074e-01 -4.0979272892088190e+00  9.9855906126858085e-01 -4.0979272892088217e+00  2.9862663266542244e-02 -9.3629314839694430e+01
2.700000000000000e-02  3.1032822574779694e-02 -9.6274340146511975e+01  9.9849480694840620e-01 -4.2541669382255840e+00  9.9849480694840653e-01 -4.2541669382255831e+00  3.0967686682909834e-02 -9.3806392499906110e+01
2.800000000000000e-02  3.2136959059295568e-02 -9.6404862265001555e+01  9.9842943840396914e-01 -4.4103488642815565e+00  9.9842943840396858e-01 -4.4103488642815583e+00  3.2106295323540535e-02 -9.3976931412386222e+01
2.900000000000000e-02  3.3273457459961971e-02 -9.6532155691470720e+01  9.9836302808404009e-01 -4.5664741063152441e+00  9.9836302808403998e-01 -4.5664741063152468e+00  3.3210113038374491e-02 -9.4151239190703848e+01
3.000000000000000e-02  3.4376405832513605e-02 -9.6665644871416475e+01  9.9829549566610221e-01 -4.7225441947786830e+00  9.9829549566610187e-01 -4.7225441947786830e+00  3.4345105147314821e-02 -9.4319564529657342e+01
3.100000000000000e-02  3.5509470922259818e-02 -9.6796091620869774e+01  9.9822691543443287e-01 -4.8785596488861671e+00  9.9822691543443276e-01 -4.8785596488861671e+00  3.5447617716595450e-02 -9.4491611874141611e+01
3.200000000000000e-02  3.6611125611866531e-02 -9.6931999750393913e+01  9.9815720752284109e-01 -5.0345221097896031e+00  9.9815720752284132e-01 -5.0345221097896014e+00  3.6579199348460524e-02 -9.4658141955388473e+01
3.300000000000000e-02  3.7740928806585632e-02 -9.7065036773089275e+01  9.9808644779473510e-01 -5.1904316284611687e+00  9.9808644779473477e-01 -5.1904316284611687e+00  3.7680322754224421e-02 -9.4828317019322895e+01
3.400000000000000e-02  3.8841200839135379e-02 -9.7202939887131322e+01  9.9801455663433247e-01 -5.3462899805653450e+00  9.9801455663433203e-01 -5.3462899805653450e+00  3.8808659861384112e-02 -9.4993369845989378e+01
3.500000000000000e-02  3.9967881108631427e-02 -9.7338128742377037e+01  9.9794161129338776e-01 -5.5020967890778341e+00  9.9794161129338854e-01 -5.5020967890778323e+00  3.9908321358897110e-02 -9.5161973550247353e+01
3.600000000000000e-02  4.1066693684526319e-02 -9.7477693674523522e+01  9.9786753225414204e-01 -5.6578539820234424e+00  9.9786753225414182e-01 -5.6578539820234406e+00  4.1033548335210966e-02 -9.5325794909864797e+01
3.700000000000001e-02  4.2190364078042226e-02 -9.7614687689682555e+01  9.9779239801216479e-01 -5.8135607863689698e+00  9.9779239801216502e-01 -5.8135607863689733e+00  4.2131683536373782e-02 -9.5493064135151414e+01
3.800000000000000e-02  4.3287649458860815e-02 -9.7755648932710841e+01  9.9771612903282203e-01 -5.9692192960571244e+00  9.9771612903282225e-01 -5.9692192960571218e+00  4.3253909564649383e-02 -9.5655846790762737e+01
3.900000000000000e-02  4.4408402044302631e-02 -9.7894170249916385e+01  9.9763880494434665e-01 -6.1248283678464501e+00  9.9763880494434765e-01 -6.1248283678464484e+00  4.4350460353736409e-02 -9.5821970541743923e+01
4.000000000000000e-02  4.5504099322357820e-02 -9.8036313554297848e+01  9.9756034610707767e-01 -6.2803902720137286e+00  9.9756034610707822e-01 -6.2803902720137286e+00  4.5469774209495675e-02 -9.5983867637234653e+01
4.100000000000000e-02  4.6622008986350459e-02 -9.8176136753266974e+01  9.9748083319531944e-01 -6.4359035161955056e+00  9.9748083319531911e-01 -6.4359035161955065e+00  4.6564687231105246e-02 -9.6148998543603611e+01
4.200000000000000e-02  4.7716062462295490e-02 -9.8319287279422170e+01  9.9740018639562278e-01 -6.5913705550816717e+00  9.9740018639562300e-01 -6.5913705550816744e+00  4.7681160978156535e-02 -9.6310133155717480e+01
4.300000000000000e-02  4.8831189876730095e-02 -9.8460227475534438e+01  9.9731848736015927e-01 -6.7467895646260425e+00  9.9731848736015893e-01 -6.7467895646260443e+00  4.8774386525854335e-02 -9.6474395807616062e+01
4.400000000000000e-02  4.9923547863712572e-02 -9.8604241089296906e+01  9.9723565604721887e-01 -6.9021631902470011e+00  9.9723565604721887e-01 -6.9021631902470020e+00  4.9888078401223501e-02 -9.6634867874317479e+01
4.500000000000001e-02  5.1035941832146874e-02 -9.8746145140333141e+01  9.9715177503262331e-01 -7.0574892907952522e+00  9.9715177503262364e-01 -7.0574892907952540e+00  5.0979569591399064e-02 -9.6798364964177111e+01
4.600000000000001e-02  5.2126555764129320e-02 -9.8890901919455303e+01  9.9706676400256700e-01 -7.2127707073850349e+00  9.9706676400256722e-01 -7.2127707073850349e+00  5.2090526287231702e-02 -9.6958256390929719e+01
4.700000000000000e-02  5.3236255099785176e-02 -9.9033641831846253e+01  9.9698070641310177e-01 -7.3680049940739289e+00  9.9698070641310121e-01 -7.3680049940739289e+00  5.3180238438947293e-02 -9.7121073307052626e+01
4.800000000000000e-02  5.4325078859958485e-02 -9.9179041154610914e+01  9.9689352164249700e-01 -7.5231951915970097e+00  9.9689352164249712e-01 -7.5231951915970017e+00  5.4288496928994387e-02 -9.7280451784948610e+01
4.900000000000000e-02  5.5432113905073008e-02 -9.9322509072046145e+01  9.9680529399207396e-01 -7.6783385597073552e+00  9.9680529399207363e-01 -7.6783385597073561e+00  5.5376387094558992e-02 -9.7442660093957969e+01
5.000000000000000e-02  5.6519103315630273e-02 -9.9468465855601593e+01  9.9671594250246931e-01 -7.8334383418713012e+00  9.9671594250246964e-01 -7.8334383418712976e+00  5.6481976111990267e-02 -9.7601581992355150e+01
5.100000000000000e-02  5.7623497182784950e-02 -9.9612570203325433e+01  9.9662555229196748e-01 -7.9884915125498912e+00  9.9662555229196759e-01 -7.9884915125498921e+00  5.7568002719123303e-02 -9.7763242112067473e+01
5.200000000000000e-02  5.8708609614395550e-02 -9.9759011989406147e+01  9.9653404203855234e-01 -8.1435015204083214e+00  9.9653404203855300e-01 -8.1435015204083196e+00  5.8670943964053333e-02 -9.7921754696478772e+01
5.300000000000001e-02  5.9810379209859703e-02 -9.9903674474282425e+01  9.9644149765451451e-01 -8.2984650624206786e+00  9.9644149765451429e-01 -8.2984650624206751e+00  5.9755066541532217e-02 -9.8082917970708593e+01
5.400000000000001e-02  6.0893573280891906e-02 -1.0005053914757575e+02  9.9634783743381083e-01 -8.4533857944069251e+00  9.9634783743381095e-01 -8.4533857944069251e+00  6.0855375676633086e-02 -9.8241061122090002e+01
5.500000000000000e-02  6.1992730155279473e-02 -1.0019569239987683e+02  9.9625314806408127e-01 -8.6082601426633669e+00  9.9625314806408138e-01 -8.6082601426633669e+00  6.1937554642996176e-02 -9.8401771448016220e+01
5.600000000000000e-02  6.3073965498958842e-02 -1.0034292638435326e+02  9.9615734743670747e-01 -8.7630919717098674e+00  9.9615734743670725e-01 -8.7630919717098674e+00  6.3035242121226007e-02 -9.8559579009076359e+01
5.700000000000000e-02  6.4170516559766591e-02 -1.0048851208637656e+02  9.9606052299955639e-01 -8.9178774431465797e+00  9.9606052299955683e-01 -8.9178774431465815e+00  6.4115438621506718e-02 -9.8719874125937594e+01
5.800000000000000e-02  6.5249753643212102e-02 -1.0063606890667462e+02  9.9596259222511296e-01 -9.0726206314059752e+00  9.9596259222511241e-01 -9.0726206314059805e+00  6.5210510379555831e-02 -9.8877374965246659e+01
5.900000000000000e-02  6.6343701755908549e-02 -1.0078203629464107e+02  9.9586364330922039e-01 -9.2273174386810695e+00  9.9586364330922050e-01 -9.2273174386810712e+00  6.6288686158886542e-02 -9.9037287483923237e+01
6.000000000000000e-02  6.7420901739089253e-02 -1.0092987541910492e+02  9.9576359329090314e-01 -9.3819721502588393e+00  9.9576359329090325e-01 -9.3819721502588411e+00  6.7381144202264973e-02 -9.9194506344267040e+01
6.100000000000001e-02  6.8512246237538613e-02 -1.0107618007412883e+02  9.9566253110412717e-01 -9.5365804136307055e+00  9.9566253110412684e-01 -9.5365804136307020e+00  6.8457261507975847e-02 -9.9354064576641363e+01
6.200000000000001e-02  6.9587370863171141e-02 -1.0122426597718690e+02  9.9556037334129088e-01 -9.6911467256577897e+00  9.9556037334129066e-01 -9.6911467256577861e+00  6.9547104407939958e-02 -9.9511022756809211e+01
6.300000000000000e-02  7.0676107985737840e-02 -1.0137086884216227e+02  9.9545720966661377e-01 -9.8456664833410485e+00  9.9545720966661333e-01 -9.8456664833410468e+00  7.0621125913819763e-02 -9.9670251388967017e+01
6.400000000000000e-02  7.1749119493316360e-02 -1.0151917023901733e+02  9.9535295621382591e-01 -1.0000144395651835e+01  9.9535295621382625e-01 -1.0000144395651832e+01  7.1708349232025889e-02 -9.9826967295781316e+01
6.500000000000000e-02  7.2835242757614910e-02 -1.0166603681357772e+02  9.9524770337119939e-01 -1.0154575612890518e+01  9.9524770337119917e-01 -1.0154575612890513e+01  7.2780237979909235e-02 -9.9985887938373523e+01
6.600000000000000e-02  7.3906103816371110e-02 -1.0181452603136482e+02  9.9514136680263854e-01 -1.0308965056522176e+01  9.9514136680263821e-01 -1.0308965056522180e+01  7.3864834633397145e-02 -1.0014237753678773e+02
6.700000000000002e-02  7.4989604343027413e-02 -1.0196162570832998e+02  9.9503403761567599e-01 -1.0463307633575571e+01  9.9503403761567566e-01 -1.0463307633575571e+01  7.4934553988363101e-02 -1.0030100917797763e+02
6.800000000000000e-02  7.6058277999812351e-02 -1.0211027816617451e+02  9.9492563099395559e-01 -1.0617608478265437e+01  9.9492563099395559e-01 -1.0617608478265442e+01  7.6016514564942850e-02 -1.0045728636046664e+02
6.900000000000001e-02  7.7139144793592379e-02 -1.0225758368125327e+02  9.9481623876067959e-01 -1.0771862257467470e+01  9.9481623876068015e-01 -1.0771862257467472e+01  7.7084028181253220e-02 -1.0061564574104804e+02
7.000000000000001e-02  7.8205594432576395e-02 -1.0240637745784873e+02  9.9470577560936368e-01 -1.0926074318294651e+01  9.9470577560936380e-01 -1.0926074318294651e+01  7.8163341213419071e-02 -1.0077172263262146e+02
7.100000000000001e-02  7.9283814627653659e-02 -1.0255386443063620e+02  9.9459433407630515e-01 -1.1080239090319655e+01  9.9459433407630415e-01 -1.1080239090319655e+01  7.9228613008953258e-02 -1.0092982455851048e+02
7.200000000000001e-02  8.0348003939419585e-02 -1.0270277990263195e+02  9.9448182835551091e-01 -1.1234362133611532e+01  9.9448182835551102e-01 -1.1234362133611532e+01  8.0305265212908317e-02 -1.0108571177002685e+02
7.300000000000001e-02  8.1423563014319800e-02 -1.0285042645167817e+02  9.9436835169465554e-01 -1.1388437643057065e+01  9.9436835169465487e-01 -1.1388437643057065e+01  8.1368259350348110e-02 -1.0124356937402771e+02
7.400000000000001e-02  8.2485455972445026e-02 -1.0299944598971584e+02  9.9425381777924116e-01 -1.1542471391661973e+01  9.9425381777924149e-01 -1.1542471391661975e+01  8.2442235835519864e-02 -1.0139927621371454e+02
7.500000000000001e-02  8.3558337939211136e-02 -1.0314723240806703e+02  9.9413832056734941e-01 -1.1696457342041198e+01  9.9413832056734941e-01 -1.1696457342041198e+01  8.3502916708897409e-02 -1.0155690117594037e+02
7.600000000000000e-02  8.4617898782838610e-02 -1.0329634012002653e+02  9.9402177322729313e-01 -1.1850401480051612e+01  9.9402177322729324e-01 -1.1850401480051614e+01  8.4574201162364471e-02 -1.0171243582692182e+02
7.700000000000000e-02  8.5688086354176532e-02 -1.0344424860042378e+02  9.9390427042723584e-01 -1.2004297538273011e+01  9.9390427042723561e-01 -1.2004297538273017e+01  8.5632533387885790e-02 -1.0186983856131954e+02
7.800000000000000e-02  8.6745279575382306e-02 -1.0359343011354831e+02  9.9378572480986671e-01 -1.2158151715270952e+01  9.9378572480986715e-01 -1.2158151715270950e+01  8.6701108237370275e-02 -1.0202520823133705e+02
7.900000000000000e-02  8.7812754312906943e-02 -1.0374144451462733e+02  9.9366623175367041e-01 -1.2311957515670999e+01  9.9366623175367130e-01 -1.2311957515670999e+01  8.7757056647641205e-02 -1.0218239804426624e+02
8.000000000000000e-02  8.8867544647916893e-02 -1.0389068678983416e+02  9.9354570336749459e-01 -1.2465721350555851e+01  9.9354570336749437e-01 -1.2465721350555853e+01  8.8822903206105822e-02 -1.0233760909252935e+02
8.100000000000000e-02  8.9932287094109289e-02 -1.0403879243634844e+02  9.9342423574084038e-01 -1.2619436498540651e+01  9.9342423574084104e-01 -1.2619436498540651e+01  8.9876432847069893e-02 -1.0249459431817648e+02
8.200000000000000e-02  9.0984639517598595e-02 -1.0418808360931989e+02  9.9330174044068897e-01 -1.2773109582990802e+01  9.9330174044068875e-01 -1.2773109582990802e+01  9.0939531441447771e-02 -1.0264965236330417e+02
8.300000000000000e-02  9.2046629313666473e-02 -1.0433626712074921e+02  9.9317831426868419e-01 -1.2926733658333998e+01  9.9317831426868353e-01 -1.2926733658334005e+01  9.1990607571483529e-02 -1.0280644047980869e+02
8.400000000000001e-02  9.3096509035539343e-02 -1.0448559636540648e+02  9.9305386824203645e-01 -1.3080315559946460e+01  9.9305386824203601e-01 -1.3080315559946458e+01  9.3050937657683616e-02 -1.0296135049206006e+02
8.500000000000001e-02  9.4155725027019660e-02 -1.0463384550834211e+02  9.9292849987601828e-01 -1.3233848119784348e+01  9.9292849987601817e-01 -1.3233848119784339e+01  9.4099525748405327e-02 -1.0311794822149056e+02
8.600000000000001e-02  9.5203097491169300e-02 -1.0478320291911643e+02  9.9280211963030429e-01 -1.3387338384929773e+01  9.9280211963030429e-01 -1.3387338384929773e+01  9.5157066014377165e-02 -1.0327271460188175e+02
8.700000000000001e-02  9.6259517822846918e-02 -1.0493150647966382e+02  9.9267482573559707e-01 -1.3540778966488286e+01  9.9267482573559640e-01 -1.3540778966488286e+01  9.6203131752789980e-02 -1.0342912799664255e+02
8.800000000000001e-02  9.7304348707500474e-02 -1.0508088296961705e+02  9.9254652808637100e-01 -1.3694177122913944e+01  9.9254652808637056e-01 -1.3694177122913949e+01  9.7257860211177896e-02 -1.0358375464507009e+02
8.900000000000001e-02  9.8357950908965736e-02 -1.0522923064271289e+02  9.9241732563082241e-01 -1.3847525245998131e+01  9.9241732563082186e-01 -1.3847525245998142e+01  9.8301369502887426e-02 -1.0373998916284459e+02
9.000000000000001e-02  9.9400206128290675e-02 -1.0537861785507825e+02  9.9228712769066096e-01 -1.4000830805206849e+01  9.9228712769066130e-01 -1.4000830805206853e+01  9.9353263574565670e-02 -1.0389447953695104e+02
9.100000000000001e-02  1.0045096719127747e-01 -1.0552700014816276e+02  9.9215603393387630e-01 -1.4154085974478553e+01  9.9215603393387664e-01 -1.4154085974478544e+01  1.0039418254781132e-01 -1.0405054010593196e+02
9.200000000000001e-02  1.0149061289798275e-01 -1.0567639037929206e+02  9.9202395310192470e-01 -1.4307298433907858e+01  9.9202395310192493e-01 -1.4307298433907851e+01  1.0144321913740534e-01 -1.0420489727214657e+02
9.300000000000000e-02  1.0253850934645733e-01 -1.0582479852820850e+02  9.9189098558508870e-01 -1.4460460140974423e+01  9.9189098558508926e-01 -1.4460460140974430e+01  1.0248151414772087e-01 -1.0436078834799717e+02
