!Created with skrf (http://scikit-rf.org).
# GHz S RI R 50.0 
!freq ReS11 ImS11 ReS21 ImS21 ReS12 ImS12 ReS22 ImS22
0.001 -4.803299478954896e-05 -0.0011691982210677103 0.999813532196904 -0.004403943175100274 0.999813532196904 -0.004403943175100275 -4.80329947895767e-05 -0.0011691982210677097
0.002 -8.508059781894466e-05 -0.0022971620600626915 0.9996907370495977 -0.00876616850598558 0.9996907370495977 -0.00876616850598558 -8.508059781888916e-05 -0.002297162060062693
0.003 -0.00012845362565301144 -0.003409285439262853 0.9995614442390409 -0.013112139804854818 0.9995614442390409 -0.013112139804854818 -0.00012845362565315014 -0.0034092854392628515
0.004 -0.00017959886821917773 -0.004510923528982487 0.9994192236608456 -0.017447217258043973 0.9994192236608456 -0.017447217258043973 -0.00017959886821923316 -0.0045109235289824854
0.005 -0.00023902770041344426 -0.005604586753147502 0.9992616398136666 -0.02177390116035432 0.9992616398136666 -0.02177390116035432 -0.0002390277004134443 -0.005604586753147503
0.006 -0.0003069744188635655 -0.006691727381698222 0.9990874744355728 -0.026093626906026506 0.9990874744355728 -0.026093626906026506 -0.0003069744188635654 -0.006691727381698223
0.007 -0.000383559469588306 -0.007773283168374031 0.9988960242699574 -0.030407311648533098 0.9988960242699574 -0.030407311648533095 -0.00038355946958822297 -0.007773283168374036
0.008 -0.0004688475858732979 -0.008849901974870043 0.9986868460430915 -0.03471558032959155 0.9986868460430915 -0.03471558032959155 -0.00046884758587315933 -0.00884990197487005
0.009 -0.0005628730245512496 -0.009922051987729557 0.9984596434796054 -0.03901887665254593 0.9984596434796054 -0.03901887665254593 -0.0005628730245512773 -0.009922051987729552
0.01 -0.000665652016615805 -0.010990082274942976 0.9982142103266148 -0.04331752408810799 0.9982142103266148 -0.04331752408810797 -0.0006656520166156941 -0.010990082274942985
0.011 -0.0007771894908321013 -0.012054258862463512 0.997950398850765 -0.04761176223694849 0.997950398850765 -0.04761176223694849 -0.000777189490832046 -0.012054258862463514
0.012 -0.0008974829574470149 -0.013114787580942509 0.9976681011714343 -0.05190176986860957 0.9976681011714343 -0.05190176986860957 -0.0008974829574470428 -0.013114787580942509
0.013 -0.0010265248712395317 -0.014171829244243294 0.99736723758526 -0.05618768023463664 0.99736723758526 -0.05618768023463664 -0.0010265248712395315 -0.014171829244243294
0.014 -0.0011643041298426407 -0.015225510130748908 0.9970477489388438 -0.0604695916474286 0.9970477489388438 -0.0604695916474286 -0.0011643041298426413 -0.015225510130748916
0.015 -0.0013108070559367754 -0.016275929455421986 0.9967095914646062 -0.0647475750249811 0.9967095914646062 -0.06474757502498112 -0.0013108070559368586 -0.01627592945542199
0.016 -0.0014660180589119202 -0.01732316484100912 0.9963527331779859 -0.06902167941753794 0.9963527331779859 -0.06902167941753794 -0.0014660180589120035 -0.017323164841009115
0.017 -0.0016299200907403618 -0.018367276416534625 0.9959771512991076 -0.0732919361492404 0.9959771512991076 -0.07329193614924041 -0.0016299200907402786 -0.018367276416534625
0.018 -0.0018024949659926053 -0.01940830994845773 0.995582830366704 -0.07755836198345943 0.995582830366704 -0.07755836198345943 -0.0018024949659926337 -0.01940830994845773
0.019 -0.0019837235899769334 -0.020446299274172127 0.9951697608319319 -0.0818209615837739 0.9951697608319319 -0.0818209615837739 -0.001983723589976989 -0.020446299274172113
0.02 -0.0021735861234767847 -0.021481268222042844 0.9947379379922012 -0.08607972945639425 0.9947379379922012 -0.08607972945639425 -0.002173586123476785 -0.021481268222042844
0.021 -0.0023720621029303885 -0.022513232146734202 0.9942873611708424 -0.09033465150395173 0.9942873611708424 -0.09033465150395174 -0.00237206210293036 -0.022513232146734206
0.022 -0.0025791305288360156 -0.02354219917167918 0.9938180330774264 -0.09458570628334799 0.9938180330774264 -0.09458570628334799 -0.0025791305288360698 -0.023542199171679174
0.023 -0.0027947699311728323 -0.02456817120542627 0.9933299593031039 -0.09883286603504352 0.993329959303104 -0.09883286603504352 -0.002794769931172832 -0.024568171205426273
0.024 -0.0030189584180179713 -0.025591144781141745 0.992823147918127 -0.10307609753354195 0.992823147918127 -0.10307609753354195 -0.0030189584180179718 -0.02559114478114174
0.025 -0.0032516737117498622 -0.026611111756198888 0.9922976091477559 -0.10731536279637177 0.9922976091477559 -0.10731536279637177 -0.0032516737117498336 -0.02661111175619889
0.026 -0.0034928931760048847 -0.027628059899900546 0.991753355108931 -0.11155061967989931 0.991753355108931 -0.11155061967989932 -0.0034928931760048556 -0.02762805989990054
0.027 -0.0037425938356955984 -0.02864197339089843 0.9911903995946364 -0.11578182238376757 0.9911903995946364 -0.11578182238376757 -0.0037425938356956804 -0.028641973390898405
0.028 -0.004000752391798329 -0.02965283324106645 0.9906087578959135 -0.12000892188089131 0.9906087578959135 -0.12000892188089131 -0.004000752391798274 -0.029652833241066472
0.029 -0.004267345232169616 -0.03066061765899358 0.9900084466540044 -0.12423186628632413 0.9900084466540044 -0.12423186628632416 -0.0042673452321696425 -0.030660617658993583
0.03 -0.0045423484393534354 -0.031665302363525494 0.9893894837366582 -0.12845060117553875 0.9893894837366582 -0.12845060117553875 -0.004542348439353297 -0.0316653023635255
0.031 -0.004825737796087951 -0.03266686085570206 0.9887518881341089 -0.132665069860568 0.9887518881341089 -0.132665069860568 -0.004825737796088033 -0.032666860855702036
0.032 -0.0051174887890687 -0.033665264655812044 0.988095679871028 -0.13687521363080102 0.988095679871028 -0.13687521363080102 -0.00511748878906884 -0.03366526465581206
0.033 -0.005417576611380456 -0.03466048351103085 0.9874208799316517 -0.1410809719639685 0.9874208799316517 -0.1410809719639685 -0.00541757661138051 -0.034660483511030835
0.034 -0.005725976163926424 -0.035652485578104624 0.9867275101957734 -0.1452822827118329 0.9867275101957734 -0.1452822827118329 -0.005725976163926427 -0.03565248557810463
0.035 -0.006042662056097925 -0.036641237584760365 0.986015593383764 -0.14947908226430975 0.986015593383764 -0.14947908226430975 -0.006042662056098008 -0.03664123758476036
0.036 -0.006367608605888515 -0.03762670497288676 0.9852851530091284 -0.15367130569509999 0.9852851530091284 -0.15367130569509999 -0.006367608605888515 -0.03762670497288676
0.037 -0.006700789839589612 -0.03860885202602397 0.9845362133373999 -0.15785888689140753 0.9845362133373999 -0.15785888689140753 -0.006700789839589612 -0.03860885202602397
0.038 -0.007042179491199737 -0.039587641983284225 0.9837687993503514 -0.16204175866988746 0.9837687993503514 -0.16204175866988746 -0.007042179491199764 -0.03958764198328423
0.039 -0.0073917510016255315 -0.04056303714149656 0.982982936714737 -0.16621985288064567 0.982982936714737 -0.16621985288064567 -0.007391751001625557 -0.04056303714149655
0.04 -0.007749477517757758 -0.041534998947084595 0.9821786517548605 -0.17039310050081455 0.9821786517548605 -0.17039310050081455 -0.007749477517757786 -0.04153499894708463
0.041 -0.008115331891471459 -0.0425034880789639 0.9813559714284139 -0.1745614317190133 0.9813559714284139 -0.1745614317190133 -0.00811533189147138 -0.04250348807896392
0.042 -0.008489286678594903 -0.043468464523557446 0.9805149233051172 -0.1787247760118017 0.9805149233051172 -0.1787247760118017 -0.008489286678594903 -0.04346846452355744
0.043 -0.008871314137884048 -0.04442988764286743 0.9796555355477684 -0.18288306221308273 0.9796555355477684 -0.18288306221308273 -0.008871314137884105 -0.04442988764286742
0.044 -0.009261386230026328 -0.04538771623641111 0.9787778368953528 -0.18703621857727112 0.9787778368953528 -0.18703621857727112 -0.0092613862300263 -0.045387716236411114
0.045 -0.009659474616691553 -0.04634190859772193 0.9778818566479537 -0.19118417283693856 0.9778818566479537 -0.19118417283693856 -0.00965947461669164 -0.046341908597721936
0.046 -0.010065550659653585 -0.047292422566016325 0.9769676246532042 -0.19532685225554675 0.9769676246532042 -0.19532685225554675 -0.010065550659653501 -0.04729242256601634
0.047 -0.010479585419982217 -0.0482392155735538 0.9760351712940737 -0.19946418367580013 0.9760351712940737 -0.19946418367580013 -0.010479585419982191 -0.048239215573553804
0.048 -0.010901549657325683 -0.04918224468914904 0.9750845274778477 -0.20359609356408917 0.9750845274778477 -0.20359609356408917 -0.01090154965732576 -0.04918224468914903
0.049 -0.01133141382927854 -0.050121466658236455 0.9741157246261188 -0.20772250805142595 0.9741157246261188 -0.20772250805142595 -0.011331413829278623 -0.050121466658236434
0.05 -0.011769148090850976 -0.051056837939836015 0.9731287946656549 -0.21184335297122753 0.9731287946656549 -0.21184335297122753 -0.011769148090850924 -0.051056837939836015
0.051 -0.012214722294028896 -0.05198831474073458 0.9721237700200678 -0.2159585538942666 0.9721237700200678 -0.2159585538942666 -0.012214722294028925 -0.05198831474073458
0.052 -0.012668105987437747 -0.052915853047150345 0.9711006836021571 -0.22006803616106202 0.9711006836021571 -0.22006803616106202 -0.01266810598743772 -0.05291585304715038
0.053 -0.013129268416101788 -0.05383940865412605 0.9700595688068633 -0.22417172491195794 0.9700595688068633 -0.22417172491195794 -0.013129268416101816 -0.05383940865412605
0.054 -0.013598178521305276 -0.05475893719285944 0.9690004595047397 -0.22826954511510192 0.9690004595047397 -0.22826954511510192 -0.013598178521305269 -0.05475893719285941
0.055 -0.014074804940548307 -0.05567439415616697 0.967923390035898 -0.23236142159252318 0.967923390035898 -0.23236142159252318 -0.014074804940548224 -0.055674394156166984
0.056 -0.014559116007602166 -0.0565857349222445 0.9668283952043696 -0.23644727904447826 0.9668283952043696 -0.23644727904447826 -0.014559116007602162 -0.0565857349222445
0.057 -0.015051079752654633 -0.057492914776878117 0.9657155102728187 -0.24052704207221653 0.9657155102728187 -0.24052704207221653 -0.015051079752654632 -0.05749291477687812
0.058 -0.015550663902553007 -0.05839588893424113 0.9645847709575875 -0.24460063519930614 0.9645847709575875 -0.24460063519930614 -0.015550663902553087 -0.05839588893424112
0.059 -0.01605783588113387 -0.05929461255639532 0.9634362134240212 -0.2486679828916408 0.9634362134240212 -0.2486679828916408 -0.016057835881133894 -0.0592946125563953
0.06 -0.016572562809641585 -0.0601890407716062 0.9622698742820368 -0.25272900957623656 0.9622698742820368 -0.25272900957623656 -0.01657256280964148 -0.060189040771606216
0.061 -0.017094811507233753 -0.06107912869157264 0.9610857905819392 -0.2567836396589262 0.9610857905819392 -0.25678363965892614 -0.017094811507233805 -0.06107912869157261
0.062 -0.01762454849156874 -0.061964831427652106 0.9598839998103961 -0.2608317975410235 0.9598839998103961 -0.2608317975410235 -0.017624548491568567 -0.061964831427652134
0.063 -0.018161739979471802 -0.06284610410616989 0.9586645398866347 -0.26487340763506223 0.9586645398866347 -0.26487340763506223 -0.018161739979471854 -0.06284610410616988
0.064 -0.018706351887686257 -0.06372290188287412 0.9574274491587469 -0.2689083943796571 0.9574274491587469 -0.2689083943796571 -0.018706351887686264 -0.06372290188287412
0.065 -0.019258349833690465 -0.06459517995661178 0.9561727664001695 -0.27293668225357526 0.9561727664001695 -0.27293668225357526 -0.019258349833690593 -0.06459517995661175
0.066 -0.019817699136598445 -0.06546289358227515 0.9549005308062651 -0.276958195789063 0.9549005308062651 -0.276958195789063 -0.019817699136598477 -0.06546289358227515
0.067 -0.02038436481812349 -0.06632599808307911 0.9536107819910139 -0.28097285958448776 0.9536107819910139 -0.28097285958448776 -0.02038436481812345 -0.06632599808307914
0.068 -0.020958311603616 -0.067184448862216 0.9523035599838134 -0.2849805983163504 0.9523035599838134 -0.2849805983163504 -0.02095831160361597 -0.06718444886221597
0.069 -0.021539503923163488 -0.06803820141392977 0.9509789052263393 -0.2889813367506999 0.9509789052263393 -0.2889813367506999 -0.02153950392316351 -0.06803820141392979
0.07 -0.022127905912759975 -0.06888721133405348 0.9496368585695067 -0.2929749997540056 0.9496368585695067 -0.2929749997540056 -0.02212790591275992 -0.0688872113340535
0.071 -0.022723481415531235 -0.06973143433004793 0.9482774612704847 -0.2969615123035182 0.9482774612704846 -0.29696151230351814 -0.022723481415531266 -0.06973143433004793
0.072 -0.02332619398302668 -0.07057082623056722 0.9469007549897593 -0.3009407994971479 0.9469007549897593 -0.3009407994971479 -0.023326193983026645 -0.0705708262305672
0.073 -0.023936006876564483 -0.07140534299459603 0.9455067817882694 -0.3049127865629084 0.9455067817882694 -0.3049127865629084 -0.02393600687656446 -0.07140534299459603
0.074 -0.02455288306863463 -0.07223494072017225 0.9440955841245735 -0.3088773988679365 0.9440955841245735 -0.3088773988679365 -0.024552883068634658 -0.07223494072017225
0.075 -0.025176785244358114 -0.07305957565273184 0.9426672048520496 -0.3128345619271247 0.9426672048520496 -0.3128345619271247 -0.025176785244358 -0.07305957565273187
0.076 -0.025807675802994482 -0.07387920419309571 0.9412216872161464 -0.31678420141139313 0.9412216872161464 -0.31678420141139313 -0.025807675802994475 -0.07387920419309571
0.077 -0.02644551685950442 -0.07469378290511935 0.9397590748516512 -0.32072624315561377 0.9397590748516512 -0.32072624315561377 -0.026445516859504442 -0.07469378290511931
0.078 -0.027090270246159894 -0.07550326852302805 0.9382794117799831 -0.3246606131662158 0.9382794117799831 -0.3246606131662158 -0.027090270246160005 -0.075503268523028
0.079 -0.02774189751420035 -0.07630761795845831 0.9367827424065236 -0.32858723762849346 0.9367827424065236 -0.32858723762849346 -0.027741897514200323 -0.07630761795845833
0.08 -0.02840035993553562 -0.07710678830721458 0.9352691115179349 -0.33250604291361713 0.9352691115179349 -0.33250604291361713 -0.02840035993553561 -0.07710678830721462
0.081 -0.029065618504495922 -0.07790073685576726 0.9337385642795296 -0.3364169555853899 0.9337385642795296 -0.3364169555853899 -0.02906561850449598 -0.0779007368557673
0.082 -0.029737633939620943 -0.07868942108750188 0.9321911462326308 -0.34031990240674426 0.9321911462326308 -0.3403199024067442 -0.029737633939620846 -0.07868942108750193
0.083 -0.030416366685492822 -0.07947279868873124 0.9306269032919409 -0.34421481034599694 0.9306269032919409 -0.34421481034599694 -0.030416366685492795 -0.07947279868873125
0.084 -0.031101776914607505 -0.08025082755448816 0.9290458817429424 -0.3481016065828874 0.9290458817429424 -0.3481016065828874 -0.031101776914607623 -0.08025082755448817
0.085 -0.03179382452928828 -0.08102346579410623 0.9274481282392697 -0.3519802185143893 0.9274481282392697 -0.3519802185143893 -0.03179382452928826 -0.08102346579410624
0.086 -0.03249246916363303 -0.08179067173660265 0.9258336898001227 -0.3558505737603315 0.9258336898001227 -0.3558505737603315 -0.032492469163632985 -0.08179067173660265
0.087 -0.0331976701855004 -0.08255240393587086 0.924202613807656 -0.3597126001688184 0.924202613807656 -0.3597126001688184 -0.03319767018550039 -0.08255240393587088
0.088 -0.0339093866985309 -0.08330862117569468 0.9225549480043885 -0.36356622582147147 0.9225549480043885 -0.36356622582147147 -0.033909386698530906 -0.08330862117569467
0.089 -0.03462757754420105 -0.08405928247459064 0.9208907404905994 -0.3674113790384951 0.9208907404905994 -0.3674113790384951 -0.03462757754420105 -0.08405928247459063
0.09 -0.03535220130391169 -0.08480434709048798 0.9192100397217327 -0.3712479883835771 0.9192100397217327 -0.37124798838357714 -0.035352201303911736 -0.08480434709048792
0.091 -0.036083216301108084 -0.08554377452525422 0.9175128945058054 -0.3750759826686348 0.9175128945058054 -0.3750759826686347 -0.036083216301108036 -0.08554377452525425
0.092 -0.036820580603429395 -0.0862775245290717 0.9157993540007949 -0.3788952909584041 0.915799354000795 -0.378895290958404 -0.036820580603429374 -0.08627752452907173
0.093 -0.037564252024890776 -0.08700555710467386 0.9140694677120471 -0.3827058425748931 0.9140694677120471 -0.3827058425748931 -0.0375642520248908 -0.08700555710467384
0.094 -0.03831418812809165 -0.08772783251144746 0.9123232854896705 -0.3865075671016958 0.9123232854896705 -0.3865075671016958 -0.03831418812809163 -0.08772783251144747
0.095 -0.03907034622645429 -0.0884443112694027 0.9105608575259138 -0.39030039438816805 0.9105608575259138 -0.39030039438816805 -0.03907034622645418 -0.08844431126940273
0.096 -0.0398326833864875 -0.08915495416302267 0.9087822343525662 -0.3940842545534901 0.9087822343525662 -0.3940842545534901 -0.039832683386487655 -0.0891549541630226
0.097 -0.04060115643007851 -0.08985972224499275 0.9069874668383314 -0.3978590779905994 0.9069874668383314 -0.3978590779905994 -0.0406011564300785 -0.08985972224499272
0.098 -0.04137572193680738 -0.09055857683981625 0.9051766061862002 -0.4016247953700108 0.9051766061862002 -0.4016247953700107 -0.04137572193680728 -0.09055857683981625
0.099 -0.042156336246289734 -0.09125147954732198 0.903349703930834 -0.4053813376435302 0.903349703930834 -0.4053813376435302 -0.042156336246289755 -0.09125147954732196
0.1 -0.04294295546053995 -0.09193839224606402 0.9015068119359103 -0.4091286360478517 0.9015068119359103 -0.4091286360478517 -0.04294295546053984 -0.09193839224606405
0.101 -0.04373553544635812 -0.0926192770966236 0.8996479823914989 -0.4128666221080652 0.8996479823914989 -0.4128666221080652 -0.04373553544635818 -0.09261927709662358
0.102 -0.04453403183774096 -0.0932940965448113 0.8977732678114051 -0.4165952276410537 0.8977732678114051 -0.4165952276410537 -0.044534031837741 -0.0932940965448113
0.103 -0.045338400038311494 -0.09396281332477704 0.8958827210305241 -0.42031438475880656 0.8958827210305241 -0.42031438475880656 -0.0453384000383114 -0.0939628133247771
0.104 -0.04614859522377031 -0.09462539046202686 0.8939763952021739 -0.4240240258716292 0.8939763952021739 -0.4240240258716292 -0.046148595223770295 -0.09462539046202688
0.105 -0.046964572344368405 -0.09528179127635512 0.8920543437954329 -0.4277240836912752 0.8920543437954329 -0.4277240836912752 -0.046964572344368544 -0.09528179127635511
0.106 -0.047786286127397125 -0.09593197938469011 0.8901166205924693 -0.43141449123398634 0.8901166205924693 -0.43141449123398634 -0.04778628612739705 -0.09593197938469018
0.107 -0.04861369107969734 -0.09657591870385974 0.8881632796858638 -0.43509518182345563 0.8881632796858638 -0.43509518182345563 -0.048613691079697256 -0.09657591870385973
0.108 -0.0494467414901877 -0.09721357345327464 0.8861943754759171 -0.4387660890937007 0.8861943754759171 -0.4387660890937007 -0.04944674149018778 -0.09721357345327461
0.109 -0.05028539143240835 -0.09784490815753916 0.8842099626679721 -0.4424271469918745 0.8842099626679721 -0.4424271469918745 -0.05028539143240837 -0.09784490815753914
0.11 -0.05112959476708356 -0.09846988764898279 0.8822100962697045 -0.4460782897809858 0.8822100962697045 -0.4460782897809858 -0.05112959476708364 -0.09846988764898275
0.111 -0.0519793051446979 -0.09908847707012527 0.8801948315884329 -0.4497194520425609 0.8801948315884329 -0.4497194520425609 -0.05197930514469777 -0.0990884770701253
0.112 -0.05283447600809053 -0.09970064187606494 0.8781642242283921 -0.45335056867922047 0.8781642242283921 -0.45335056867922047 -0.05283447600809058 -0.09970064187606495
0.113 -0.0536950605950621 -0.10030634783680357 0.8761183300880374 -0.456971574917202 0.8761183300880374 -0.4569715749172019 -0.05369506059506215 -0.10030634783680362
0.114 -0.05456101194099781 -0.10090556103950349 0.8740572053573107 -0.46058240630880465 0.8740572053573107 -0.4605824063088047 -0.05456101194099784 -0.10090556103950343
0.115 -0.05543228288150285 -0.10149824789068096 0.8719809065149189 -0.4641829987347774 0.8719809065149189 -0.4641829987347774 -0.055432282881502724 -0.10149824789068104
0.116 -0.056308826055052164 -0.10208437511833435 0.8698894903256077 -0.4677732884066391 0.8698894903256077 -0.4677732884066391 -0.05630882605505225 -0.10208437511833435
