!Created with skrf (http://scikit-rf.org).
# GHz S RI R 50.0 
!freq ReS11 ImS11 ReS21 ImS21 ReS12 ImS12 ReS22 ImS22
0.001 2.4127850301210056e-06 5.238708460746276e-05 0.999928369566785 -0.0015824746635052763 0.999928369566785 -0.0015824746635052763 2.4127850301279445e-06 5.2387084607462744e-05
0.002 4.266507595068685e-06 0.0001157076195777871 0.9998886796628853 -0.003153888485328553 0.9998886796628853 -0.003153888485328553 4.2665075950548075e-06 0.00011570761957778713
0.003 6.169769106732606e-06 0.000183149467325643 0.9998521008099931 -0.004721077407289069 0.9998521008099931 -0.00472107740728907 6.169769106732606e-06 0.000183149467325643
0.004 8.211670455970384e-06 0.0002532641718670037 0.9998159454365482 -0.006285495373673794 0.9998159454365482 -0.006285495373673794 8.211670455970384e-06 0.0002532641718670038
0.005 1.0430799124171729e-05 0.0003253634344295806 0.9997791794372184 -0.007847831907555952 0.9997791794372184 -0.007847831907555952 1.0430799124171729e-05 0.0003253634344295806
0.006 1.2848965989052825e-05 0.0003990415383422664 0.9997412756734955 -0.009408492054172197 0.9997412756734955 -0.009408492054172195 1.2848965989038949e-05 0.00039904153834226653
0.007 1.548036330867517e-05 0.00047403012759864634 0.9997019228803118 -0.010967742453655602 0.9997019228803118 -0.010967742453655602 1.548036330867517e-05 0.0004740301275986464
0.008 1.833507889652133e-05 0.0005501382330072522 0.9996609194934322 -0.012525771710250109 0.9996609194934322 -0.012525771710250109 1.833507889652827e-05 0.0005501382330072522
0.009 2.1420730970707196e-05 0.0006272228560941841 0.9996181263932281 -0.014082720021093998 0.9996181263932281 -0.014082720021093998 2.1420730970714135e-05 0.000627222856094184
0.01 2.4743331159331494e-05 0.0007051728120080738 0.9995734429566747 -0.015638695459460887 0.9995734429566747 -0.015638695459460887 2.4743331159324555e-05 0.0007051728120080738
0.011 2.8307783146152906e-05 0.0007838991063793522 0.9995267937466001 -0.017193783678160646 0.9995267937466001 -0.017193783678160646 2.8307783146139032e-05 0.0007838991063793524
0.012 3.211819112625009e-05 0.0008633288423822371 0.9994781205807388 -0.01874805405633332 0.9994781205807388 -0.01874805405633332 3.211819112624315e-05 0.0008633288423822371
0.013 3.617806109417935e-05 0.0009434011735076949 0.9994273775421337 -0.020301563784357053 0.9994273775421337 -0.020301563784357053 3.617806109417935e-05 0.0009434011735076949
0.014 4.049043798632459e-05 0.001024064509212273 0.9993745276995305 -0.021854360685469046 0.9993745276995305 -0.021854360685469046 4.0490437986331516e-05 0.001024064509212273
0.015 4.5058002498913824e-05 0.0011052745230953676 0.9993195408725927 -0.023406485227882558 0.9993195408725927 -0.023406485227882558 4.5058002498906885e-05 0.0011052745230953676
0.016 4.988314150710156e-05 0.0011869926946137437 0.9992623920623221 -0.02495797199853344 0.9992623920623221 -0.02495797199853344 4.988314150709462e-05 0.0011869926946137437
0.017 5.496800059785475e-05 0.0012691852168019865 0.9992030603199614 -0.0265088508073772 0.9992030603199614 -0.026508850807377204 5.4968000597854746e-05 0.0012691852168019865
0.018 6.0314524125341556e-05 0.0013518221618965278 0.9991415279135898 -0.028059147531268543 0.9991415279135898 -0.028059147531268543 6.0314524125341556e-05 0.0013518221618965278
0.019 6.592448633784393e-05 0.0014348768329559558 0.9990777797021025 -0.02960888476997087 0.9990777797021025 -0.02960888476997087 6.592448633784393e-05 0.0014348768329559558
0.02 7.179951597264435e-05 0.0015183252523682295 0.9990118026569227 -0.031158082363856917 0.9990118026569227 -0.031158082363856917 7.179951597265129e-05 0.001518325252368229
0.021 7.79411159788909e-05 0.001602145752920582 0.9989435854910222 -0.032706757807948884 0.9989435854910222 -0.032706757807948884 7.794111597887705e-05 0.0016021457529205823
0.022 8.435067954149712e-05 0.0016863186469459899 0.998873118367328 -0.034254926587024274 0.998873118367328 -0.03425492658702428 8.435067954149021e-05 0.00168631864694599
0.023 9.10295032544508e-05 0.0017708259557575902 0.9988003926667115 -0.03580260244975255 0.9988003926667115 -0.03580260244975255 9.102950325444388e-05 0.0017708259557575909
0.024 9.797879806540657e-05 0.0018556511862354145 0.99872540080139 -0.03734979763513405 0.99872540080139 -0.03734979763513404 9.79787980653927e-05 0.001855651186235415
0.025 0.00010519969845609283 0.0019407791447210508 0.9986481360633562 -0.03889652306118888 0.9986481360633562 -0.03889652306118888 0.00010519969845609283 0.0019407791447210508
0.026 0.00011269327021017256 0.002026195780744657 0.9985685925001521 -0.04044278848345203 0.9985685925001521 -0.040442788483452036 0.0001126932702101795 0.002026195780744657
0.027 0.00012046051703844387 0.002111888054836467 0.9984867648122066 -0.041988602629085034 0.9984867648122066 -0.041988602629085034 0.00012046051703844387 0.002111888054836467
0.028 0.0001285023862703432 0.0021978438259555428 0.9984026482673513 -0.04353397331112262 0.9984026482673513 -0.04353397331112262 0.00012850238627032932 0.002197843825955543
0.029 0.00013681977377635304 0.0022840517550266853 0.9983162386291469 -0.045078907526403166 0.9983162386291469 -0.045078907526403166 0.0001368197737763461 0.0022840517550266853
0.03 0.00014541352825103335 0.0023705012218046 0.9982275320964025 -0.04662341153999666 0.9982275320964025 -0.04662341153999667 0.00014541352825103335 0.0023705012218046004
0.031 0.00015428445496186086 0.0024571822528403195 0.9981365252518143 -0.04816749095838108 0.9981365252518143 -0.04816749095838108 0.00015428445496186086 0.0024571822528403195
0.032 0.00016343331904661757 0.0025440854587572203 0.9980432150181345 -0.04971115079318247 0.9980432150181345 -0.04971115079318247 0.0001634333190466245 0.0025440854587572203
0.033 0.00017286084842895304 0.002631201979380039 0.9979475986205503 -0.051254395516952884 0.9979475986205503 -0.051254395516952884 0.0001728608484289461 0.0026312019793800394
0.034 0.00018256773640751924 0.002718523435525135 0.9978496735542411 -0.052797229112192555 0.9978496735542411 -0.052797229112192555 0.00018256773640751232 0.0027185234355251355
0.035 0.00019255464396520028 0.0028060418864720204 0.9977494375562841 -0.054339655114609704 0.9977494375562841 -0.05433965511460971 0.00019255464396520028 0.0028060418864720204
0.036 0.00020282220183686804 0.0028937497923027474 0.997646888581205 -0.05588167665144099 0.997646888581205 -0.05588167665144099 0.00020282220183686804 0.0028937497923027474
0.037 0.0002133710123678643 0.0029816399804329947 0.9975420247796309 -0.057423296475518346 0.9975420247796309 -0.057423296475518346 0.00021337101236786432 0.0029816399804329955
0.038 0.00022420165119016293 0.0030697056157671238 0.9974348444795685 -0.05896451699565705 0.9974348444795685 -0.05896451699565705 0.00022420165119016987 0.0030697056157671233
0.039 0.00023531466873904296 0.003157940174000743 0.9973253461699385 -0.0605053403038487 0.9973253461699385 -0.0605053403038487 0.00023531466873905678 0.003157940174000743
0.04 0.0002467105916299261 0.0032463374176656757 0.9972135284860337 -0.06204576819966846 0.9972135284860337 -0.06204576819966846 0.0002467105916299192 0.0032463374176656757
0.041 0.0002583899239114615 0.003334891374575457 0.9970993901966465 -0.06358580221224519 0.9970993901966465 -0.06358580221224518 0.0002583899239114615 0.003334891374575457
0.042 0.0002703531482098554 0.0034235963183769933 0.9969829301926267 -0.06512544362009054 0.9969829301926267 -0.06512544362009053 0.0002703531482098554 0.0034235963183769933
0.043 0.0002826007267757596 0.0035124467509587204 0.9968641474766959 -0.06666469346904276 0.9968641474766959 -0.06666469346904276 0.0002826007267757527 0.0035124467509587204
0.044 0.00029513310244510215 0.0036014373864978605 0.9967430411543404 -0.06820355258854358 0.9967430411543404 -0.06820355258854358 0.0002951331024451091 0.0036014373864978596
0.045 0.00030795069952248657 0.003690563136961751 0.9966196104256693 -0.06974202160643819 0.9966196104256693 -0.06974202160643818 0.00030795069952248657 0.00369056313696175
0.046 0.000321053924595727 0.003779819098899918 0.9964938545780816 -0.07128010096246092 0.9964938545780816 -0.07128010096246093 0.00032105392459573387 0.003779819098899918
0.047 0.00033444316728779155 0.0038692005413881276 0.9963657729796945 -0.07281779092055171 0.9963657729796945 -0.07281779092055173 0.00033444316728779155 0.0038692005413881276
0.048 0.0003481188009533038 0.003958702895000082 0.9962353650733893 -0.0743550915801249 0.9962353650733893 -0.0743550915801249 0.0003481188009533037 0.003958702895000081
0.049 0.0003620811833236369 0.004048321741701395 0.9961026303714557 -0.07589200288640204 0.9961026303714557 -0.07589200288640204 0.0003620811833236369 0.004048321741701395
0.05 0.0003763306571070968 0.004138052805569815 0.9959675684507152 -0.07742852463990169 0.9959675684507152 -0.07742852463990169 0.00037633065710710367 0.004138052805569815
0.051 0.00039086755054683364 0.0042278919442603966 0.9958301789481128 -0.07896465650517256 0.9958301789481128 -0.07896465650517256 0.0003908675505468337 0.004227891944260398
0.052 0.00040569217794098804 0.004317835141141821 0.9956904615567085 -0.08050039801884308 0.9956904615567085 -0.08050039801884307 0.00040569217794098804 0.004317835141141823
0.053 0.0004208048401288217 0.0044078784980395 0.9955484160220116 -0.08203574859705245 0.9955484160220116 -0.08203574859705245 0.00042080484012881476 0.0044078784980395
0.054 0.000436205824944699 0.004498018228528012 0.9954040421386509 -0.08357070754232318 0.9954040421386509 -0.0835707075423232 0.000436205824944699 0.004498018228528012
0.055 0.0004518954076436296 0.004588250651722019 0.9952573397473257 -0.08510527404992539 0.9952573397473257 -0.08510527404992539 0.0004518954076436296 0.004588250651722019
0.056 0.0004678738513001269 0.0046785721865205115 0.9951083087320156 -0.08663944721377952 0.9951083087320156 -0.08663944721377953 0.00046787385130012 0.0046785721865205115
0.057 0.0004841414071831938 0.004768979346263519 0.994956949017413 -0.08817322603193815 0.994956949017413 -0.08817322603193815 0.0004841414071831938 0.004768979346263519
0.058 0.0005006983151082359 0.004859468733765036 0.9948032605665834 -0.08970660941168529 0.9948032605665834 -0.08970660941168529 0.000500698315108222 0.004859468733765037
0.059 0.0005175448037690402 0.004950037036690437 0.994647243378799 -0.09123959617428382 0.994647243378799 -0.09123959617428382 0.0005175448037690402 0.004950037036690438
0.06 0.0005346810910504902 0.005040681023247942 0.994488897487547 -0.09277218505940288 0.994488897487547 -0.09277218505940288 0.0005346810910504902 0.005040681023247943
0.061 0.000552107384323434 0.0051313975381690686 0.9943282229587008 -0.09430437472925113 0.9943282229587008 -0.09430437472925113 0.000552107384323434 0.0051313975381690686
0.062 0.0005698238807237607 0.0052221834989535885 0.9941652198888177 -0.09583616377243905 0.9941652198888177 -0.09583616377243905 0.0005698238807237607 0.0052221834989535885
0.063 0.0005878307674158545 0.0053130358923581715 0.993999888403582 -0.09736755070759413 0.993999888403582 -0.09736755070759413 0.0005878307674158545 0.0053130358923581715
0.064 0.0006061282218426066 0.005403951771108773 0.993832228656345 -0.09889853398674617 0.993832228656345 -0.09889853398674618 0.0006061282218425996 0.005403951771108773
0.065 0.0006247164119617496 0.005494928250819963 0.9936622408267906 -0.10042911199850292 0.9936622408267906 -0.10042911199850292 0.0006247164119617635 0.005494928250819963
0.066 0.0006435954964705997 0.005585962507104536 0.9934899251196849 -0.10195928307103046 0.9934899251196849 -0.10195928307103046 0.0006435954964706067 0.005585962507104535
0.067 0.0006627656250190618 0.005677051772859718 0.9933152817637229 -0.10348904547485387 0.9933152817637229 -0.10348904547485387 0.0006627656250190688 0.005677051772859718
0.068 0.0006822269384124441 0.005768193335715866 0.9931383110104471 -0.10501839742549127 0.9931383110104471 -0.10501839742549127 0.0006822269384124441 0.005768193335715866
0.069 0.0007019795688041923 0.005859384535636726 0.992959013133251 -0.10654733708593418 0.992959013133251 -0.10654733708593418 0.0007019795688041992 0.005859384535636725
0.07 0.0007220236398794035 0.005950622762659417 0.9927773884264465 -0.10807586256898412 0.9927773884264465 -0.1080758625689841 0.0007220236398794036 0.005950622762659419
0.071 0.0007423592670297118 0.0060419054547645925 0.9925934372043936 -0.10960397193945695 0.9925934372043936 -0.10960397193945695 0.0007423592670297118 0.006041905454764594
0.072 0.0007629865575202525 0.006133230095867335 0.9924071598006875 -0.11113166321626318 0.9924071598006875 -0.11113166321626318 0.0007629865575202526 0.006133230095867336
0.073 0.0007839056106487832 0.006224594213920728 0.9922185565674025 -0.11265893437437367 0.9922185565674025 -0.11265893437437367 0.0007839056106487832 0.006224594213920728
0.074 0.0008051165178976986 0.006315995379123989 0.9920276278743866 -0.11418578334667843 0.9920276278743866 -0.11418578334667843 0.0008051165178976986 0.006315995379123989
0.075 0.0008266193630796298 0.006407431202228462 0.991834374108591 -0.11571220802574496 0.991834374108591 -0.11571220802574496 0.0008266193630796436 0.00640743120222846
0.076 0.000848414222476412 0.006498899332934445 0.9916387956734544 -0.11723820626548372 0.9916387956734544 -0.11723820626548372 0.0008484142224764052 0.006498899332934446
0.077 0.0008705011649720887 0.006590397458373561 0.991440892988322 -0.11876377588272718 0.991440892988322 -0.11876377588272718 0.0008705011649720886 0.00659039745837356
0.078 0.0008928802521807162 0.006681923301670377 0.9912406664878943 -0.12028891465872588 0.9912406664878943 -0.12028891465872589 0.0008928802521807092 0.006681923301670376
0.079 0.0009155515385684235 0.006773474620578668 0.9910381166217195 -0.12181362034056999 0.9910381166217195 -0.12181362034056999 0.0009155515385684166 0.006773474620578668
0.08 0.0009385150715706587 0.0068650492061874645 0.9908332438537112 -0.12333789064253843 0.9908332438537112 -0.12333789064253843 0.0009385150715706656 0.006865049206187463
0.081 0.0009617708917049519 0.006956644881692441 0.990626048661694 -0.1248617232473813 0.990626048661694 -0.1248617232473813 0.0009617708917049519 0.006956644881692441
0.082 0.0009853190326788194 0.007048259501228802 0.9904165315369776 -0.12638511580753925 0.9904165315369776 -0.12638511580753922 0.0009853190326788194 0.0070482595012288
0.083 0.0010091595214937192 0.007139890948761347 0.990204692983958 -0.12790806594630483 0.990204692983958 -0.1279080659463048 0.0010091595214937192 0.007139890948761347
0.084 0.0010332923785449264 0.007231537137029358 0.9899905335197399 -0.1294305712589272 0.9899905335197399 -0.1294305712589272 0.00103329237854494 0.007231537137029358
0.085 0.0010577176177176037 0.007323196006541683 0.9897740536737784 -0.1309526293136654 0.9897740536737784 -0.1309526293136654 0.0010577176177176037 0.0073231960065416836
0.086 0.0010824352464793735 0.007414865524620461 0.9895552539875472 -0.13247423765279245 0.9895552539875472 -0.13247423765279248 0.0010824352464793735 0.00741486552462046
0.087 0.0011074452659695338 0.007506543684488855 0.9893341350142127 -0.13399539379355271 0.9893341350142127 -0.13399539379355271 0.0011074452659695338 0.007506543684488855
0.088 0.0011327476710846405 0.007598228504402821 0.9891106973183502 -0.1355160952290771 0.9891106973183502 -0.13551609522907712 0.0011327476710846335 0.007598228504402822
0.089 0.0011583424505616146 0.007689918026821417 0.9888849414756444 -0.13703633942925494 0.9888849414756444 -0.13703633942925494 0.0011583424505616148 0.007689918026821417
0.09 0.0011842295870575317 0.007781610317616132 0.988656868072632 -0.13855612384156937 0.988656868072632 -0.1385561238415694 0.0011842295870575317 0.00778161031761613
0.091 0.0012104090572266635 0.007873303465315243 0.9884264777064464 -0.1400754458918947 0.9884264777064464 -0.1400754458918947 0.0012104090572266704 0.007873303465315243
0.092 0.0012368808317949928 0.007964995580382182 0.9881937709845781 -0.1415943029852593 0.9881937709845781 -0.14159430298525932 0.0012368808317949928 0.007964995580382184
0.093 0.0012636448756322889 0.00805668479452606 0.9879587485246448 -0.14311269250657613 0.9879587485246448 -0.14311269250657613 0.0012636448756322889 0.008056684794526058
0.094 0.0012907011478214697 0.00814836926004182 0.9877214109541818 -0.14463061182134201 0.9877214109541818 -0.144630611821342 0.001290701147821463 0.008148369260041822
0.095 0.0013180496017259125 0.008240047149179378 0.9874817589104339 -0.1461480582763078 0.9874817589104339 -0.1461480582763078 0.0013180496017259125 0.008240047149179378
0.096 0.0013456901850545727 0.008331716653539947 0.9872397930401648 -0.14766502920012073 0.9872397930401648 -0.14766502920012073 0.0013456901850545727 0.00833171665353995
0.097 0.0013736228399250205 0.008423375983497693 0.9869955139994722 -0.14918152190394007 0.9869955139994722 -0.14918152190394007 0.0013736228399250205 0.008423375983497693
0.098 0.0014018475029244882 0.008515023367646047 0.9867489224536083 -0.150697533682027 0.9867489224536083 -0.150697533682027 0.0014018475029244882 0.008515023367646047
0.099 0.0014303641051687174 0.008606657052266809 0.9865000190768266 -0.15221306181231414 0.9865000190768266 -0.15221306181231414 0.0014303641051687244 0.008606657052266809
0.1 0.0014591725723595947 0.008698275300821307 0.9862488045522116 -0.15372810355694788 0.9862488045522116 -0.15372810355694788 0.0014591725723595878 0.00869827530082131
0.101 0.0014882728248403834 0.008789876393462733 0.9859952795715395 -0.15524265616281294 0.9859952795715395 -0.15524265616281296 0.0014882728248403765 0.008789876393462733
0.102 0.001517664777649949 0.008881458626567487 0.9857394448351257 -0.15675671686203443 0.9857394448351257 -0.15675671686203446 0.001517664777649949 0.008881458626567487
0.103 0.0015473483405748138 0.008973020312286216 0.9854813010516984 -0.15827028287246234 0.9854813010516984 -0.1582702828724623 0.001547348340574814 0.008973020312286216
0.104 0.0015773234182001018 0.009064559778112132 0.9852208489382617 -0.15978335139813526 0.9852208489382617 -0.15978335139813526 0.0015773234182001018 0.009064559778112132
0.105 0.0016075899099586518 0.009156075366466555 0.9849580892199811 -0.16129591962972978 0.9849580892199811 -0.16129591962972978 0.0016075899099586382 0.009156075366466558
0.106 0.00163814771017924 0.009247565434300898 0.9846930226300569 -0.16280798474498984 0.9846930226300569 -0.16280798474498984 0.001638147710179233 0.009247565434300898
0.107 0.0016689967081329356 0.009339028352713795 0.9844256499096203 -0.16431954390914263 0.9844256499096203 -0.16431954390914266 0.0016689967081329356 0.009339028352713795
0.108 0.0017001367880785008 0.00943046250658314 0.9841559718076213 -0.16583059427529823 0.9841559718076213 -0.16583059427529823 0.0017001367880784938 0.009430462506583142
0.109 0.0017315678293064113 0.00952186629421201 0.9838839890807302 -0.16734113298483463 0.9838839890807302 -0.16734113298483466 0.0017315678293063977 0.009521866294212011
0.11 0.0017632897061817111 0.009613238126988267 0.9836097024932399 -0.16885115716777016 0.9836097024932399 -0.16885115716777016 0.001763289706181718 0.009613238126988269
0.111 0.0017953022881860342 0.00970457642905679 0.9833331128169691 -0.17036066394312083 0.9833331128169691 -0.17036066394312083 0.001795302288186048 0.00970457642905679
0.112 0.0018276054399577364 0.009795879637003683 0.9830542208311832 -0.17186965041924762 0.9830542208311832 -0.17186965041924762 0.0018276054399577362 0.009795879637003681
0.113 0.0018601990213320584 0.009887146199552872 0.9827730273224988 -0.17337811369418862 0.9827730273224988 -0.17337811369418865 0.0018601990213320584 0.009887146199552872
0.114 0.0018930828873793422 0.009978374577272726 0.9824895330848072 -0.1748860508559827 0.9824895330848072 -0.1748860508559827 0.0018930828873793353 0.009978374577272728
0.115 0.001926256888442828 0.010069563242294539 0.9822037389192008 -0.17639345898298056 0.9822037389192008 -0.17639345898298056 0.0019262568884428142 0.01006956324229454
