!Created with skrf (http://scikit-rf.org).
# GHz S RI R 50.0 
!freq ReS11 ImS11
500.0 0.0935896223999 0.99561085901
500.625 0.0989234843819 0.99510676
501.25 0.104251217862 0.99457052259
501.875 0.109571948297 0.994002985966
502.5 0.114884883976 0.993404923323
503.125 0.120189308826 0.992777044784
503.75 0.125484575638 0.992120000466
504.375 0.130770099691 0.991434383673
505.0 0.136045352791 0.990720734164
505.625 0.141309857708 0.989979541486
506.25 0.146563183001 0.989211248333
506.875 0.151804938231 0.988416253903
507.5 0.157034769537 0.987594917243
508.125 0.162252355577 0.986747560541
508.75 0.167457403807 0.985874472369
509.375 0.172649647095 0.984975910843
510.0 0.17782884064 0.984052106688
510.625 0.1829947592 0.983103266203
511.25 0.188147194595 0.982129574111
511.875 0.193285953478 0.981131196278
512.5 0.198410855359 0.980108282301
513.125 0.203521730857 0.97906096796
513.75 0.208618420173 0.977989377524
514.375 0.213700771767 0.976893625905
515.0 0.218768641215 0.975773820669
515.625 0.223821890242 0.974630063895
516.25 0.22886038591 0.973462453877
516.875 0.233883999948 0.972271086684
517.5 0.238892608208 0.971056057566
518.125 0.243886090239 0.96981746222
518.75 0.248864328966 0.968555397912
519.375 0.253827210448 0.967269964455
520.0 0.258774623729 0.965961265063
520.625 0.263706460749 0.964629407073
521.25 0.268622616315 0.963274502541
521.875 0.27352298812 0.961896668724
522.5 0.278407476802 0.960496028452
523.125 0.283275986036 0.959072710393
523.75 0.28812842265 0.957626849225
524.375 0.292964696751 0.956158585707
525.0 0.297784721878 0.954668066679
525.625 0.30258841514 0.953155444974
526.25 0.30737569737 0.951620879265
526.875 0.312146493267 0.950064533849
527.5 0.316900731534 0.948486578367
528.125 0.321638344994 0.946887187485
528.75 0.326359270708 0.94526654052
529.375 0.33106345006 0.94362482104
530.0 0.335750828833 0.94196221642
530.625 0.340421357258 0.940278917387
531.25 0.345074990044 0.93857511753
531.875 0.349711686387 0.936851012809
532.5 0.354331409952 0.935106801048
533.125 0.358934128834 0.933342681425
533.75 0.363519815497 0.931558853961
534.375 0.368088446687 0.929755519018
535.0 0.372640003328 0.927932876798
535.625 0.377174470393 0.926091126862
536.25 0.381691836756 0.924230467658
536.875 0.386192095029 0.922351096072
537.5 0.390675241377 0.920453206995
538.125 0.395141275323 0.918536992916
538.75 0.399590199531 0.916602643542
539.375 0.404022019588 0.914650345444
540.0 0.408436743765 0.912680281724
540.625 0.412834382777 0.910692631729
541.25 0.417214949533 0.908687570773
541.875 0.421578458881 0.906665269911
542.5 0.425924927351 0.904625895732
543.125 0.430254372897 0.902569610186
543.75 0.43456681464 0.900496570449
544.375 0.438862272609 0.898406928806
545.0 0.443140767492 0.896300832581
545.625 0.447402320392 0.894178424088
546.25 0.451646952582 0.892039840608
546.875 0.455874685277 0.889885214406
547.5 0.460085539414 0.887714672765
548.125 0.464279535438 0.88552833805
548.75 0.468456693106 0.8833263278
549.375 0.472617031303 0.881108754834
550.0 0.476760567863 0.87887572739
550.625 0.48088731942 0.876627349277
551.25 0.484997301262 0.874363720048
551.875 0.489090527201 0.872084935187
552.5 0.493167009472 0.869791086315
553.125 0.497226758629 0.867482261408
553.75 0.501269783476 0.865158545025
554.375 0.505296090999 0.862820018545
555.0 0.509305686332 0.860466760418
555.625 0.513298572719 0.858098846411
556.25 0.517274751512 0.855716349873
556.875 0.521234222174 0.853319341988
557.5 0.525176982297 0.85090789204
558.125 0.529103027643 0.848482067671
558.75 0.533012352194 0.846041935142
559.375 0.536904948214 0.843587559586
560.0 0.540780806333 0.841119005259
560.625 0.544639915633 0.838636335782
561.25 0.548482263755 0.83613961438
561.875 0.55230783701 0.833628904108
562.5 0.556116620504 0.831104268067
563.125 0.559908598271 0.828565769616
563.75 0.563683753416 0.826013472562
564.375 0.567442068259 0.823447441345
565.0 0.571183524492 0.82086774121
565.625 0.574908103338 0.81827443836
566.25 0.578615785712 0.815667600098
566.875 0.582306552392 0.813047294954
567.5 0.58598038418 0.810413592798
568.125 0.589637262079 0.807766564936
568.75 0.593277167454 0.805106284188
569.375 0.596900082205 0.802432824956
570.0 0.60050598893 0.799746263274
570.625 0.604094871087 0.79704667684
571.25 0.607666713154 0.794334145036
571.875 0.611221500782 0.791608748932
572.5 0.614759220942 0.788870571274
573.125 0.618279862067 0.78611969646
573.75 0.621783414184 0.783356210502
574.375 0.625269869046 0.780580200969
575.0 0.628739220243 0.777791756928
575.625 0.632191463313 0.774990968863
576.25 0.635626595841 0.772177928587
576.875 0.639044617549 0.769352729144
577.5 0.642445530372 0.766515464699
578.125 0.645829338525 0.763666230422
578.75 0.649196048562 0.760805122358
579.375 0.652545669415 0.757932237296
580.0 0.655878212434 0.755047672629
580.625 0.659193691403 0.752151526207
581.25 0.662492122553 0.749243896188
581.875 0.665773524557 0.746324880882
582.5 0.669037918517 0.743394578594
583.125 0.672285327942 0.740453087469
583.75 0.675515778706 0.737500505327
584.375 0.678729299006 0.734536929504
585.0 0.681925919297 0.731562456695
585.625 0.68510567223 0.728577182791
586.25 0.688268592567 0.72558120273
586.875 0.691414717097 0.722574610338
587.5 0.694544084534 0.719557498185
588.125 0.697656735414 0.716529957438
588.75 0.700752711976 0.713492077726
589.375 0.703832058044 0.710443947004
590.0 0.706894818896 0.707385651429
590.625 0.709941041125 0.70431727524
591.25 0.712970772504 0.701238900651
591.875 0.715984061832 0.698150607742
592.5 0.718980958788 0.695052474372
593.125 0.721961513777 0.691944576091
593.75 0.724925777767 0.688826986064
594.375 0.727873802133 0.685699775006
595.0 0.730805638494 0.68256301113
595.625 0.733721338553 0.679416760098
596.25 0.736620953929 0.676261084986
596.875 0.739504535999 0.673096046262
597.5 0.742372135735 0.669921701773
598.125 0.745223803545 0.666738106738
598.75 0.748059589115 0.66354531376
599.375 0.750879541257 0.660343372841
600.0 0.753683707759 0.657132331409
600.625 0.756472135237 0.653912234363
601.25 0.759244868995 0.650683124112
601.875 0.762001952891 0.647445040641
602.5 0.764743429204 0.644198021575
603.125 0.767469338515 0.640942102257
603.75 0.770179719588 0.637677315831
604.375 0.772874609261 0.634403693341
605.0 0.775554042344 0.631121263826
605.625 0.778218051528 0.627830054437
606.25 0.780866667297 0.624530090547
606.875 0.783499917851 0.621221395879
607.5 0.786117829042 0.617903992631
608.125 0.78872042431 0.614577901615
608.75 0.791307724636 0.611243142393
609.375 0.793879748502 0.607899733424
610.0 0.796436511856 0.604547692209
610.625 0.798978028093 0.601187035446
611.25 0.801504308043 0.597817779181
611.875 0.804015359965 0.594439938968
612.5 0.806511189554 0.591053530022
613.125 0.808991799955 0.58765856738
613.75 0.811457191789 0.584255066062
614.375 0.813907363184 0.580843041226
615.0 0.816342309815 0.57742250833
615.625 0.818762024955 0.573993483285
616.25 0.821166499533 0.570555982613
616.875 0.823555722196 0.567110023599
617.5 0.825929679385 0.563655624439
618.125 0.828288355411 0.560192804388
618.75 0.830631732544 0.556721583898
619.375 0.832959791101 0.553241984763
620.0 0.835272509547 0.549754030247
620.625 0.837569864597 0.54625774521
621.25 0.839851831324 0.542753156237
621.875 0.842118383268 0.539240291748
622.5 0.844369492555 0.535719182109
623.125 0.846605130016 0.532189859739
623.75 0.848825265306 0.528652359201
624.375 0.851029867029 0.525106717297
625.0 0.853218902864 0.521552973144
625.625 0.855392339691 0.517991168252
626.25 0.857550143716 0.514421346592
626.875 0.859692280602 0.510843554652
627.5 0.861818715594 0.507257841488
628.125 0.863929413642 0.503664258769
628.75 0.866024339529 0.500062860814
629.375 0.868103457988 0.496453704614
630.0 0.870166733828 0.492836849855
630.625 0.872214132042 0.489212358931
631.25 0.874245617929 0.485580296946
631.875 0.876261157194 0.481940731707
632.5 0.878260716058 0.478293733721
633.125 0.880244261359 0.47463937617
633.75 0.882211760642 0.470977734888
634.375 0.884163182249 0.467308888329
635.0 0.886098495407 0.463632917531
635.625 0.888017670302 0.459949906064
636.25 0.88992067815 0.456259939988
636.875 0.891807491261 0.452563107791
637.5 0.8936780831 0.44885950033
638.125 0.895532428336 0.445149210764
638.75 0.897370502885 0.441432334481
639.375 0.899192283949 0.437708969026
640.0 0.900997750045 0.43397921402
640.625 0.902786881025 0.430243171079
641.25 0.904559658096 0.426500943728
641.875 0.906316063825 0.422752637311
642.5 0.90805608214 0.418998358905
643.125 0.909779698325 0.415238217226
643.75 0.911486899008 0.411472322534
644.375 0.91317767214 0.407700786541
645.0 0.914852006973 0.403923722316
645.625 0.916509894022 0.400141244191
646.25 0.918151325033 0.39635346766
646.875 0.919776292938 0.392560509295
647.5 0.921384791805 0.388762486642
648.125 0.922976816786 0.384959518137
648.75 0.924552364057 0.381151723009
649.375 0.926111430761 0.377339221194
650.0 0.927654014935 0.373522133251
650.625 0.929180115447 0.369700580269
651.25 0.930689731922 0.365874683795
651.875 0.932182864666 0.362044565748
652.5 0.933659514593 0.358210348345
653.125 0.935119683146 0.354372154029
653.75 0.936563372221 0.350530105399
654.375 0.937990584086 0.34668432514
655.0 0.939401321304 0.342834935966
655.625 0.940795586657 0.338982060558
656.25 0.942173383067 0.335125821507
656.875 0.943534713524 0.331266341264
657.5 0.944879581016 0.327403742092
658.125 0.946207988455 0.323538146016
658.75 0.947519938615 0.319669674789
659.375 0.948815434068 0.315798449848
660.0 0.950094477129 0.311924592282
660.625 0.951357069799 0.308048222797
661.25 0.952603213724 0.304169461691
661.875 0.953832910144 0.300288428824
662.5 0.955046159866 0.296405243596
663.125 0.956242963226 0.292520024926
663.75 0.957423320073 0.288632891226
664.375 0.958587229751 0.284743960396
665.0 0.959734691085 0.280853349793
665.625 0.960865702389 0.276961176224
666.25 0.961980261465 0.273067555927
666.875 0.963078365622 0.269172604561
667.5 0.964160011697 0.265276437186
668.125 0.965225196085 0.261379168252
668.75 0.966273914781 0.257480911583
669.375 0.967306163424 0.253581780359
670.0 0.968321937356 0.249681887099
670.625 0.969321231683 0.245781343643
671.25 0.970304041348 0.241880261127
671.875 0.971270361211 0.237978749961
672.5 0.972220186137 0.234076919803
673.125 0.973153511091 0.230174879525
673.75 0.974070331241 0.226272737181
674.375 0.974970642064 0.22237059997
675.0 0.97585443947 0.218468574194
675.625 0.976721719913 0.214566765212
676.25 0.977572480532 0.210665277385
676.875 0.978406719271 0.206764214027
677.5 0.979224435028 0.202863677339
678.125 0.980025627792 0.198963768343
678.75 0.980810298788 0.195064586811
679.375 0.98157845063 0.191166231188
680.0 0.982330087468 0.187268798507
680.625 0.983065215145 0.183372384302
681.25 0.983783841347 0.17947708251
681.875 0.984485975758 0.175582985373
682.5 0.985171630216 0.171690183332
683.125 0.985840818862 0.167798764911
683.75 0.986493558289 0.163908816602
684.375 0.987129867694 0.160020422743
685.0 0.987749769014 0.156133665386
685.625 0.98835328707 0.15224862417
686.25 0.988940449695 0.148365376176
686.875 0.989511287864 0.144483995791
687.5 0.990065835809 0.14060455456
688.125 0.990604131133 0.136727121038
688.75 0.991126214908 0.132851760638
689.375 0.991632131769 0.128978535476
690.0 0.992121929993 0.125107504216
690.625 0.992595661568 0.121238721917
691.25 0.993053382251 0.117372239868
691.875 0.993495151609 0.113508105439
692.5 0.99392103305 0.10964636192
693.125 0.994331093835 0.105787048373
693.75 0.994725405079 0.101930199474
694.375 0.995104041731 0.0980758453735
695.0 0.995467082541 0.0942240115472
695.625 0.995814610007 0.0903747186641
696.25 0.996146710307 0.0865279824535
696.875 0.996463473204 0.0826838135837
697.5 0.996764991947 0.0788422175469
698.125 0.997051363134 0.0750031945558
698.75 0.99732268657 0.0711667394501
699.375 0.997579065096 0.0673328416146
700.0 0.997820604405 0.0635014849121
700.625 0.998047412823 0.0596726476286
701.25 0.99825960109 0.0558463024359
701.875 0.998457282098 0.0520224163694
702.5 0.998640570624 0.0482009508251
703.125 0.998809583034 0.0443818615749
703.75 0.99896443697 0.0405650988029
704.375 0.99910525101 0.0367506071625
705.0 0.999232144315 0.0329383258576
705.625 0.999345236251 0.0291281887461
706.25 0.999444645994 0.0253201244703
706.875 0.999530492111 0.0215140566128
707.5 0.999602892126 0.0177099038796
708.125 0.99966196207 0.0139075803133
708.75 0.999707816005 0.0101069955346
709.375 0.999740565542 0.00630805501543
710.0 0.999760319334 0.00251066038457
710.625 0.999767182559 -0.00128529023468
711.25 0.999761256389 -0.00507990185213
711.875 0.999742637441 -0.00887328220356
712.5 0.999711417227 -0.0126655413076
713.125 0.999667681584 -0.016456790986
713.75 0.999611510096 -0.0202471443461
714.375 0.999542975515 -0.0240367152253
715.0 0.999462143171 -0.027825617596
715.625 0.999369070378 -0.0316139649316
716.25 0.999263805839 -0.0354018695317
716.875 0.999146389048 -0.0391894418071
717.5 0.9990168497 -0.0429767895233
718.125 0.998875207092 -0.0467640170031
718.75 0.998721469541 -0.0505512242873
719.375 0.998555633805 -0.0543385062535
720.0 0.998377684508 -0.058125951694
720.625 0.99818759359 -0.0619136423511
721.25 0.997985319759 -0.0657016519116
721.875 0.997770807965 -0.0694900449601
722.5 0.997543988894 -0.0732788758912
723.125 0.997304778484 -0.0770681877827
723.75 0.997053077463 -0.0808580112283
724.375 0.996788770918 -0.0846483631333
725.0 0.996511727894 -0.0884392454712
725.625 0.996221801024 -0.0922306440064
726.25 0.995918826197 -0.0960225269804
726.875 0.995602622265 -0.0998148437658
727.5 0.995272990794 -0.103607523489
728.125 0.994929715858 -0.107400473623
728.75 0.994572563879 -0.111193578556
729.375 0.994201283528 -0.114986698128
730.0 0.993815605671 -0.118779666157
730.625 0.993415243374 -0.122572288934
731.25 0.992999891978 -0.126364343711
731.875 0.992569229222 -0.130155577174
732.5 0.992122915448 -0.133945703903
733.125 0.991660593866 -0.137734404832
733.75 0.991181890894 -0.141521325709
734.375 0.990686416573 -0.145306075554
735.0 0.99017376506 -0.149088225132
735.625 0.989643515197 -0.152867305435
736.25 0.989095231168 -0.156642806184
736.875 0.988528463231 -0.160414174357
737.5 0.987942748543 -0.164180812742
738.125 0.987337612068 -0.167942078537
738.75 0.986712567572 -0.171697281978
739.375 0.986067118707 -0.175445685027
740.0 0.985400760185 -0.179186500112
740.625 0.984712979035 -0.182918888933
741.25 0.984003255958 -0.186641961328
741.875 0.983271066761 -0.190354774233
742.5 0.982515883878 -0.19405633071
743.125 0.981737177978 -0.197745579077
743.75 0.980934419652 -0.201421412139
744.375 0.980107081182 -0.205082666519
745.0 0.979254638379 -0.208728122112
745.625 0.978376572498 -0.212356501655
746.25 0.977472372216 -0.215966470434
746.875 0.976541535672 -0.219556636126
747.5 0.975583572561 -0.223125548782
748.125 0.974598006277 -0.226671700968
748.75 0.973584376097 -0.23019352806
749.375 0.972542239399 -0.233689408702
750.0 0.971471173902 -0.237157665441
