!Created with skrf (http://scikit-rf.org).
# GHz S RI R 50.0 
!freq ReS11 ImS11
500.0 0.0508434252106 -0.191456973756
500.625 0.0510565437377 -0.191708241164
501.25 0.0512632645542 -0.1919580581
501.875 0.051463664455 -0.192206423977
502.5 0.0516578188868 -0.192453337948
503.125 0.0518458019863 -0.192698798909
503.75 0.0520276866168 -0.19294280551
504.375 0.0522035444038 -0.193185356159
505.0 0.0523734457701 -0.193426449033
505.625 0.052537459969 -0.193666082079
506.25 0.0526956551171 -0.19390425303
506.875 0.0528480982259 -0.194140959403
507.5 0.0529948552326 -0.194376198511
508.125 0.0531359910298 -0.19460996747
508.75 0.0532715694943 -0.1948422632
509.375 0.0534016535156 -0.195073082439
510.0 0.0535263050227 -0.195302421745
510.625 0.0536455850108 -0.195530277501
511.25 0.0537595535669 -0.195756645926
511.875 0.0538682698948 -0.195981523076
512.5 0.0539717923392 -0.196204904853
513.125 0.0540701784094 -0.196426787011
513.75 0.0541634848018 -0.19664716516
514.375 0.0542517674225 -0.196866034773
515.0 0.0543350814085 -0.197083391192
515.625 0.0544134811487 -0.197299229632
516.25 0.0544870203043 -0.197513545188
516.875 0.0545557518281 -0.19772633284
517.5 0.0546197279845 -0.197937587458
518.125 0.054679000367 -0.198147303807
518.75 0.0547336199174 -0.198355476553
519.375 0.0547836369422 -0.198562100267
520.0 0.0548291011308 -0.198767169433
520.625 0.0548700615709 -0.198970678448
521.25 0.0549065667657 -0.199172621632
521.875 0.0549386646485 -0.199372993227
522.5 0.0549664025986 -0.19957178741
523.125 0.0549898274556 -0.199768998288
523.75 0.055008985534 -0.199964619912
524.375 0.0550239226368 -0.200158646273
525.0 0.0550346840691 -0.200351071314
525.625 0.0550413146514 -0.200541888928
526.25 0.0550438587319 -0.200731092969
526.875 0.0550423601994 -0.20091867725
527.5 0.0550368624947 -0.201104635549
528.125 0.0550274086225 -0.201288961619
528.75 0.055014041163 -0.201471649182
529.375 0.0549968022823 -0.201652691941
530.0 0.0549757337433 -0.201832083583
530.625 0.0549508769163 -0.202009817778
531.25 0.0549222727883 -0.202185888188
531.875 0.0548899619737 -0.202360288471
532.5 0.0548539847228 -0.20253301228
533.125 0.0548143809315 -0.202704053272
533.75 0.0547711901499 -0.202873405109
534.375 0.0547244515912 -0.203041061462
535.0 0.0546742041395 -0.203207016016
535.625 0.0546204863586 -0.20337126247
536.25 0.054563336499 -0.203533794545
536.875 0.0545027925063 -0.203694605985
537.5 0.0544388920279 -0.203853690561
538.125 0.0543716724202 -0.204011042073
538.75 0.054301170756 -0.204166654357
539.375 0.0542274238306 -0.204320521282
540.0 0.0541504681682 -0.204472636761
540.625 0.0540703400285 -0.204622994747
541.25 0.0539870754127 -0.204771589242
541.875 0.0539007100688 -0.204918414295
542.5 0.053811279498 -0.205063464008
543.125 0.0537188189592 -0.205206732541
543.75 0.0536233634752 -0.205348214108
544.375 0.0535249478368 -0.205487902987
545.0 0.0534236066086 -0.20562579352
545.625 0.0533193741328 -0.205761880116
546.25 0.0532122845345 -0.205896157251
546.875 0.0531023717253 -0.206028619477
547.5 0.0529896694082 -0.206159261418
548.125 0.052874211081 -0.206288077778
548.75 0.0527560300407 -0.206415063339
549.375 0.0526351593866 -0.206540212967
550.0 0.0525116320245 -0.206663521612
550.625 0.0523854806697 -0.206784984313
551.25 0.0522567378502 -0.206904596197
551.875 0.0521254359101 -0.207022352485
552.5 0.0519916070125 -0.207138248491
553.125 0.0518552831421 -0.207252279626
553.75 0.0517164961082 -0.2073644414
554.375 0.0515752775471 -0.207474729424
555.0 0.0514316589248 -0.207583139412
555.625 0.0512856715391 -0.207689667182
556.25 0.0511373465216 -0.20779430866
556.875 0.0509867148403 -0.207897059881
557.5 0.0508338073013 -0.207997916989
558.125 0.0506786545507 -0.208096876242
558.75 0.0505212870762 -0.208193934011
559.375 0.0503617352089 -0.208289086784
560.0 0.0502000291251 -0.208382331167
560.625 0.0500361988471 -0.208473663882
561.25 0.0498702742449 -0.208563081775
561.875 0.0497022850378 -0.208650581811
562.5 0.0495322607947 -0.208736161082
563.125 0.049360230936 -0.208819816802
563.75 0.049186224734 -0.208901546311
564.375 0.049010271314 -0.208981347077
565.0 0.0488323996552 -0.209059216698
565.625 0.048652638591 -0.209135152898
566.25 0.0484710168103 -0.209209153534
566.875 0.0482875628573 -0.209281216595
567.5 0.0481023051326 -0.2093513402
568.125 0.0479152718933 -0.209419522604
568.75 0.0477264912534 -0.209485762194
569.375 0.0475359911843 -0.209550057493
570.0 0.0473437995144 -0.209612407158
570.625 0.0471499439302 -0.209672809984
571.25 0.0469544519753 -0.209731264901
571.875 0.0467573510516 -0.209787770978
572.5 0.0465586684183 -0.209842327419
573.125 0.0463584311923 -0.209894933567
573.75 0.0461566663483 -0.209945588904
574.375 0.045953400718 -0.209994293048
575.0 0.0457486609906 -0.210041045757
575.625 0.0455424737121 -0.210085846928
576.25 0.0453348652853 -0.210128696594
576.875 0.0451258619693 -0.210169594929
577.5 0.0449154898793 -0.210208542243
578.125 0.0447037749862 -0.210245538986
578.75 0.0444907431162 -0.210280585744
579.375 0.0442764199502 -0.210313683243
580.0 0.0440608310239 -0.210344832342
580.625 0.0438440017267 -0.210374034041
581.25 0.0436259573018 -0.210401289472
581.875 0.0434067228453 -0.210426599905
582.5 0.0431863233059 -0.210449966744
583.125 0.0429647834844 -0.210471391527
583.75 0.0427421280332 -0.210490875924
584.375 0.042518381456 -0.210508421739
585.0 0.0422935681067 -0.210524030907
585.625 0.0420677121897 -0.210537705493
586.25 0.0418408377589 -0.21054944769
586.875 0.0416129687173 -0.210559259823
587.5 0.0413841288167 -0.210567144339
588.125 0.0411543416572 -0.210573103815
588.75 0.0409236306867 -0.21057714095
589.375 0.0406920192006 -0.210579258568
590.0 0.0404595303412 -0.210579459612
590.625 0.0402261870977 -0.210577747149
591.25 0.0399920123057 -0.21057412436
591.875 0.0397570286467 -0.210568594549
592.5 0.0395212586483 -0.21056116113
593.125 0.0392847246836 -0.210551827634
593.75 0.0390474489711 -0.210540597704
594.375 0.0388094535747 -0.210527475092
595.0 0.0385707604034 -0.21051246366
595.625 0.0383313912113 -0.210495567377
596.25 0.0380913675979 -0.210476790316
596.875 0.0378507110077 -0.210456136653
597.5 0.0376094427304 -0.210433610665
598.125 0.0373675839013 -0.21040921673
598.75 0.0371251555012 -0.21038295932
599.375 0.036882178357 -0.210354843005
600.0 0.0366386731417 -0.210324872447
600.625 0.0363946603748 -0.210293052397
601.25 0.0361501604232 -0.210259387699
601.875 0.035905193501 -0.21022388328
602.5 0.0356597796706 -0.210186544153
603.125 0.0354139388433 -0.210147375415
603.75 0.0351676907798 -0.210106382241
604.375 0.0349210550911 -0.210063569886
605.0 0.0346740512393 -0.21001894368
605.625 0.0344266985386 -0.209972509028
606.25 0.0341790161562 -0.209924271407
606.875 0.0339310231135 -0.209874236363
607.5 0.033682738287 -0.20982240951
608.125 0.0334341804099 -0.209768796528
608.75 0.0331853680729 -0.20971340316
609.375 0.032936319726 -0.209656235212
610.0 0.0326870536794 -0.209597298547
610.625 0.0324375881057 -0.209536599089
611.25 0.0321879410408 -0.209474142814
611.875 0.0319381303861 -0.209409935754
612.5 0.0316881739098 -0.209343983993
613.125 0.0314380892488 -0.209276293664
613.75 0.0311878939106 -0.20920687095
614.375 0.0309376052754 -0.209135722078
615.0 0.0306872405977 -0.209062853322
615.625 0.0304368170087 -0.208988270999
616.25 0.0301863515183 -0.208911981468
616.875 0.0299358610171 -0.208833991127
617.5 0.0296853622789 -0.208754306416
618.125 0.0294348719631 -0.208672933808
618.75 0.0291844066166 -0.208589879818
619.375 0.0289339826766 -0.208505150992
620.0 0.028683616473 -0.208418753912
620.625 0.0284333242308 -0.208330695192
621.25 0.0281831220729 -0.208240981481
621.875 0.0279330260222 -0.208149619455
622.5 0.0276830520049 -0.208056615826
623.125 0.0274332158528 -0.207961977332
623.75 0.0271835333059 -0.207865710743
624.375 0.0269340200154 -0.207767822857
625.0 0.0266846915466 -0.2076683205
625.625 0.0264355633812 -0.20756721053
626.25 0.0261866509208 -0.207464499831
626.875 0.0259379694888 -0.207360195316
627.5 0.0256895343344 -0.207254303926
628.125 0.0254413606344 -0.207146832634
628.75 0.0251934634968 -0.207037788439
629.375 0.0249458579631 -0.206927178372
630.0 0.0246985590116 -0.206815009494
630.625 0.0244515815601 -0.206701288896
631.25 0.0242049404684 -0.206586023702
631.875 0.0239586505416 -0.206469221071
632.5 0.0237127265327 -0.206350888193
633.125 0.0234671831451 -0.206231032294
633.75 0.0232220350357 -0.206109660639
634.375 0.0229772968174 -0.205986780529
635.0 0.0227329830616 -0.205862399306
635.625 0.0224891083012 -0.205736524352
636.25 0.0222456870325 -0.205609163094
636.875 0.0220027337182 -0.205480323005
637.5 0.0217602627897 -0.205350011602
638.125 0.0215182886493 -0.205218236457
638.75 0.0212768256725 -0.205085005189
639.375 0.0210358882102 -0.204950325475
640.0 0.0207954905908 -0.204814205047
640.625 0.0205556471223 -0.204676651698
641.25 0.0203163720939 -0.204537673283
641.875 0.0200776797781 -0.204397277723
642.5 0.0198395844325 -0.204255473008
643.125 0.0196021003009 -0.204112267198
643.75 0.0193652416153 -0.20396766843
644.375 0.0191290225969 -0.203821684918
645.0 0.0188934574574 -0.203674324958
645.625 0.0186585604003 -0.203525596933
646.25 0.0184243456216 -0.203375509311
646.875 0.0181908273106 -0.203224070656
647.5 0.0179580196509 -0.203071289628
648.125 0.0177259368207 -0.202917174986
648.75 0.0174945929929 -0.202761735594
649.375 0.0172640023359 -0.202604980425
650.0 0.0170341790134 -0.202446918562
650.625 0.0168051371838 -0.202287559207
651.25 0.0165768910009 -0.202126911682
651.875 0.0163494546125 -0.201964985431
652.5 0.0161228421605 -0.201801790032
653.125 0.0158970677794 -0.201637335193
653.75 0.0156721455961 -0.201471630761
654.375 0.0154480897281 -0.201304686725
655.0 0.0152249142823 -0.201136513219
655.625 0.0150026333537 -0.200967120531
656.25 0.0147812610232 -0.200796519101
656.875 0.0145608113562 -0.200624719531
657.5 0.0143412984002 -0.200451732586
658.125 0.0141227361823 -0.200277569201
658.75 0.013905138707 -0.20010224048
659.375 0.0136885199533 -0.199925757709
660.0 0.0134728938719 -0.199748132352
660.625 0.013258274382 -0.199569376058
661.25 0.0130446753679 -0.19938950067
661.875 0.0128321106757 -0.19920851822
662.5 0.0126205941093 -0.199026440942
663.125 0.0124101394269 -0.198843281268
663.75 0.0122007603364 -0.198659051839
664.375 0.0119924704913 -0.198473765504
665.0 0.0117852834863 -0.198287435327
665.625 0.0115792128526 -0.198100074586
666.25 0.0113742720526 -0.197911696783
666.875 0.0111704744753 -0.19772231564
667.5 0.010967833431 -0.197531945109
668.125 0.0107663621453 -0.197340599372
668.75 0.0105660737541 -0.197148292842
669.375 0.0103669812976 -0.19695504017
670.0 0.010169097714 -0.196760856244
670.625 0.00997243583365 -0.196565756195
671.25 0.00977700837271 -0.196369755396
671.875 0.00958282792647 -0.196172869466
672.5 0.00938990696288 -0.195975114271
673.125 0.00919825781566 -0.195776505927
673.75 0.00900789267732 -0.195577060802
674.375 0.00881882359217 -0.195376795513
675.0 0.00863106244905 -0.195175726933
675.625 0.00844462097388 -0.194973872189
676.25 0.00825951072231 -0.194771248662
676.875 0.00807574307208 -0.194567873989
677.5 0.00789332921528 -0.194363766063
678.125 0.00771228015057 -0.194158943033
678.75 0.00753260667529 -0.193953423303
679.375 0.00735431937745 -0.193747225532
680.0 0.00717742862763 -0.193540368633
680.625 0.00700194457095 -0.193332871772
681.25 0.00682787711867 -0.193124754368
681.875 0.00665523594015 -0.19291603609
682.5 0.00648403045437 -0.192706736855
683.125 0.00631426982169 -0.192496876826
683.75 0.00614596293547 -0.192286476412
684.375 0.00597911841353 -0.192075556261
685.0 0.00581374459002 -0.191864137261
685.625 0.00564984950677 -0.191652240534
686.25 0.00548744090508 -0.191439887435
686.875 0.00532652621714 -0.191227099546
687.5 0.00516711255794 -0.191013898672
688.125 0.00500920671678 -0.190800306839
688.75 0.00485281514906 -0.190586346286
689.375 0.00469794396815 -0.190372039462
690.0 0.00454459893713 -0.19015740902
690.625 0.00439278546085 -0.189942477813
691.25 0.004242508578 -0.189727268884
691.875 0.00409377295312 -0.189511805466
692.5 0.00394658286895 -0.189296110968
693.125 0.0038009422188 -0.189080208977
693.75 0.00365685449905 -0.188864123242
694.375 0.00351432280174 -0.188647877674
695.0 0.00337334980747 -0.188431496333
695.625 0.00323393777827 -0.188215003423
696.25 0.00309608855075 -0.187998423286
696.875 0.00295980352956 -0.187781780385
697.5 0.00282508368061 -0.187565099308
698.125 0.00269192952506 -0.187348404745
698.75 0.00256034113308 -0.187131721492
699.375 0.00243031811805 -0.186915074432
700.0 0.00230185963097 -0.186698488529
700.625 0.00217496435496 -0.186481988818
701.25 0.00204963050025 -0.186265600395
701.875 0.00192585579921 -0.186049348405
702.5 0.00180363750186 -0.185833258033
703.125 0.00168297237133 -0.185617354494
703.75 0.00156385668003 -0.185401663017
704.375 0.00144628620575 -0.185186208841
705.0 0.00133025622824 -0.184971017198
705.625 0.00121576152611 -0.184756113303
706.25 0.00110279637385 -0.184541522343
706.875 0.000991354539482 -0.184327269465
707.5 0.000881429282192 -0.184113379763
708.125 0.000773013350673 -0.183899878266
708.75 0.000666098981425 -0.183686789926
709.375 0.00056067789767 -0.183474139606
710.0 0.000456741308523 -0.183261952067
710.625 0.000354279908504 -0.183050251954
711.25 0.000253283877453 -0.182839063786
711.875 0.000153742880778 -0.182628411941
712.5 5.56460700392e-05 -0.182418320644
713.125 -4.10179159595e-05 -0.182208813952
713.75 -0.00013626094994 -0.181999915748
714.375 -0.000230095414251 -0.181791649717
715.0 -0.000322534198887 -0.181584039342
715.625 -0.000413590698874 -0.181377107888
716.25 -0.000503278811474 -0.181170878389
716.875 -0.000591612932812 -0.180965373634
717.5 -0.000678607954348 -0.180760616156
718.125 -0.000764279258766 -0.180556628217
718.75 -0.000848642715546 -0.180353431797
719.375 -0.000931714676211 -0.180151048583
720.0 -0.00101351196914 -0.179949499949
720.625 -0.00109405189404 -0.179748806953
721.25 -0.00117335221587 -0.179548990318
721.875 -0.00125143115873 -0.179350070421
722.5 -0.00132830739908 -0.179152067283
723.125 -0.00140400005869 -0.178955000554
723.75 -0.00147852869722 -0.178758889504
724.375 -0.00155191330454 -0.178563753009
725.0 -0.00162417429253 -0.178369609539
725.625 -0.00169533248658 -0.178176477151
726.25 -0.00176540911686 -0.177984373471
726.875 -0.00183442580908 -0.177793315691
727.5 -0.00190240457515 -0.177603320551
728.125 -0.0019693678031 -0.177414404334
728.75 -0.00203533824726 -0.177226582851
729.375 -0.00210033901762 -0.177039871437
730.0 -0.0021643935691 -0.176854284935
730.625 -0.00222752569062 -0.176669837692
731.25 -0.00228975949371 -0.176486543546
731.875 -0.00235111940084 -0.17630441582
732.5 -0.0024116301337 -0.176123467311
733.125 -0.00247131670095 -0.175943710284
733.75 -0.00253020438586 -0.175765156463
734.375 -0.00258831873382 -0.175587817025
735.0 -0.00264568553932 -0.17541170259
735.625 -0.00270233083291 -0.175236823218
736.25 -0.0027582808681 -0.175063188397
736.875 -0.00281356210771 -0.174890807044
737.5 -0.00286820121029 -0.174719687493
738.125 -0.00292222501626 -0.174549837496
738.75 -0.00297566053401 -0.174381264209
739.375 -0.00302853492563 -0.174213974197
740.0 -0.00308087549273 -0.174047973426
740.625 -0.00313270966199 -0.173883267254
741.25 -0.00318406497069 -0.173719860439
741.875 -0.00323496905203 -0.173557757124
742.5 -0.00328544962041 -0.173396960843
743.125 -0.00333553445672 -0.173237474516
743.75 -0.00338525139346 -0.173079300445
744.375 -0.00343462829974 -0.172922440316
745.0 -0.00348369306645 -0.172766895196
745.625 -0.00353247359129 -0.172612665535
746.25 -0.00358099776367 -0.172459751163
746.875 -0.00362929344984 -0.17230815129
747.5 -0.00367738847783 -0.172157864511
748.125 -0.00372531062257 -0.172008888803
748.75 -0.00377308759093 -0.171861221528
749.375 -0.00382074700679 -0.171714859435
750.0 -0.0038683163964 -0.171569798662
