!Generated from: C:\Users\peter4656563\Desktop\__Study\Test\43micro_FIT.BNP
! Port1::DQ
! Port2::DQ
!
!Layout Workbench Version: 23.1.3.12171.472612   300
!Computer Host Name: WINDOW10VM
!
!TouchstoneFormatFlag = 1
! GNDNET GND
! NETSLIST
!
#	Hz	S	RI	R	50
50000000	0.00160219470882917	0.0101154610998783	0.991131566425437	-0.113904171881998	0.991131566425437	-0.113904171881998	0.00160087857200664	0.0101154783778725
100000000	0.0044837398802832	0.0189858877461993	0.970231497636175	-0.225188801681626	0.970231497636175	-0.225188801681626	0.0044779275359874	0.018986462531635
150000000	0.00914892927112623	0.0268219451020517	0.936986746275067	-0.332945726022203	0.936986746275067	-0.332945726022203	0.00913689472185546	0.0268249670797398
200000000	0.0153585405640937	0.0333889965678698	0.891891544570678	-0.436009203930046	0.891891544570678	-0.436009203930046	0.0153384366448465	0.0333967013195226
250000000	0.0228213183458763	0.038386256900514	0.835563943536616	-0.533076000162164	0.835563943536616	-0.533076000162164	0.0227924584837382	0.0384012450687238
300000000	0.0311747831443769	0.0415801911402969	0.768793499615531	-0.62292291863901	0.768793499615531	-0.62292291863901	0.0311377116138111	0.0416049854190673
350000000	0.0400064046181887	0.0428266659522211	0.692505296233672	-0.704446525364185	0.692505296233672	-0.704446525364185	0.0399627889684757	0.0428632256770984
400000000	0.0488787564894783	0.0420772798781209	0.607735918733073	-0.776669685404528	0.607735918733073	-0.776669685404528	0.048831168880331	0.0421265450738729
450000000	0.0573538163871797	0.039380802952038	0.51561520191567	-0.838746961188168	0.51561520191567	-0.838746961188168	0.057305389412772	0.0394423020841472
500000000	0.065015631468898	0.0348801654730376	0.41734887616031	-0.889970246883712	0.41734887616031	-0.889970246883712	0.0649695901576735	0.0349517198576346
550000000	0.0714908702285128	0.0288049469513275	0.314201348366723	-0.929772894630588	0.314201348366723	-0.929772894630588	0.0714499587719043	0.0288825042839789
600000000	0.0764666943473655	0.0214597217035902	0.207479150373579	-0.957731679555606	0.207479150373579	-0.957731679555606	0.0764325280884756	0.0215373477972127
650000000	0.0797053681043464	0.0132089107520141	0.0985155941032456	-0.973566865494257	0.0985155941032456	-0.973566865494257	0.0796777500764962	0.0132789623000831
700000000	0.0810551045239185	0.00445894884108746	-0.0113431621107117	-0.977140993695358	-0.0113431621107117	-0.977140993695358	0.0810313523139566	0.00451244136800573
750000000	0.080456786885386	-0.00436134907868046	-0.120750760511341	-0.968457028612257	-0.120750760511341	-0.968457028612257	0.0804311199454396	-0.00433417444421892
800000000	0.0779463650188454	-0.0128213136403067	-0.228372359414258	-0.947656337442522	-0.228372359414258	-0.947656337442522	0.0779094045174529	-0.0128302328478065
850000000	0.0736528863233352	-0.0205089396524423	-0.332895894728169	-0.915016755548849	-0.332895894728169	-0.915016755548849	0.0735913188524987	-0.0205628189000604
900000000	0.0677922727627273	-0.0270505269320819	-0.433043389975926	-0.870950753204691	-0.433043389975926	-0.870950753204691	0.067688725392767	-0.02715626027376
950000000	0.060657097187479	-0.0321286139573235	-0.527582759996713	-0.816003502050929	-0.527582759996713	-0.816003502050929	0.0604902643442946	-0.032289971580908
1000000000	0.0526027500819907	-0.0354974256547251	-0.615340430012263	-0.750850463000997	-0.615340430012263	-0.750850463000997	0.0523478026091266	-0.03571386986953
1050000000	0.0440305271353223	-0.0369951201340811	-0.695214919234847	-0.676293995795591	-0.695214919234847	-0.676293995795591	0.0436598210555606	-0.0372606546177558
1100000000	0.0353683119912352	-0.0365522038545372	-0.766191335531849	-0.593258434090473	-0.766191335531849	-0.593258434090473	0.0348523994872311	-0.036854327254114
1150000000	0.0270496743408904	-0.0341956020789258	-0.827356515419445	-0.502783084283953	-0.827356515419445	-0.502783084283953	0.0263586030684953	-0.0345144391695579
1200000000	0.0194923406155569	-0.0300480326236974	-0.87791434357653	-0.406012691282844	-0.87791434357653	-0.406012691282844	0.018597210433464	-0.0303557146480397
1250000000	0.0130771047903473	-0.0243225420455369	-0.917200619804572	-0.30418506392621	-0.917200619804572	-0.30418506392621	0.0119518340918847	-0.0245829025051689
1300000000	0.00812830714202423	-0.0173123216372972	-0.944696728606694	-0.198615754125457	-0.944696728606694	-0.198615754125457	0.00675154491078239	-0.0174809646942298
1350000000	0.00489699605185531	-0.00937621124157749	-0.960041322783745	-0.0906799179983739	-0.960041322783745	-0.0906799179983739	0.00325410122773239	-0.00940099704226549
1400000000	0.00354778511414859	-0.000920595424970727	-0.963039266574694	0.0182082694704482	-0.963039266574694	0.0182082694704482	0.00163278264304387	-0.000742570127490852
1450000000	0.00415022012878046	0.00762133593438917	-0.953667196461721	0.126618048827151	-0.953667196461721	0.126618048827151	0.00196763417155024	0.00806655770641245
1500000000	0.0066751894284974	0.0158117889356398	-0.932075240133237	0.233125579508525	-0.932075240133237	0.233125579508525	0.00424164984132176	0.0165922045989877
1550000000	0.0109965742427226	0.0232307497530187	-0.898584668778642	0.336337614380973	-0.898584668778642	0.336337614380973	0.00834209392949163	0.0244157527643132
1600000000	0.0168979834777644	0.0294972796522776	-0.8536815205015	0.434914409560402	-0.8536815205015	0.434914409560402	0.014066812673558	0.0311551129934451
1650000000	0.0240840936821194	0.0342885657733231	-0.798006495003788	0.527590980221465	-0.798006495003788	0.527590980221465	0.0211350731507695	0.0364835342706883
1700000000	0.0321958587201957	0.0373557762866833	-0.732341653634862	0.613195939347375	-0.732341653634862	0.613195939347375	0.0292022166766495	0.0401453255302294
1750000000	0.0408286887638432	0.0385360219711359	-0.657594640047517	0.69066734774165	-0.657594640047517	0.69066734774165	0.0378772541511932	0.0419678023697435
1800000000	0.0495526282191162	0.0377599861177235	-0.574781247617009	0.759065238441883	-0.574781247617009	0.759065238441883	0.0467424625067125	0.0418690218694999
1850000000	0.0579335697394524	0.0350550125766044	-0.485007191810871	0.817580731319353	-0.485007191810871	0.817580731319353	0.0553740463984303	0.0398610867710393
1900000000	0.0655545930003416	0.03054361431355	-0.389449899387487	0.865541898085769	-0.389449899387487	0.865541898085769	0.0633629737983967	0.0360489649443932
1950000000	0.0720365721806897	0.0244374803445724	-0.289341010373526	0.902416750904307	-0.289341010373526	0.902416750904307	0.0703351389594732	0.0306248820848458
2000000000	0.077057220348493	0.0170271390214184	-0.185950118106995	0.92781389114968	-0.185950118106995	0.92781389114968	0.0759700190015521	0.0238584286542158
