!Created with skrf (http://scikit-rf.org).
# Hz S RI R 50.0 
!freq ReS11 ImS11 ReS21 ImS21 ReS12 ImS12 ReS22 ImS22
30000000000.0 -0.15729355707583725 -0.6876187298787073 0.057190448408817346 1.1527575174177795 0.19470126132317414 0.0642973388338408 0.1291607573681655 -0.479906682610223
30100000000.0 -0.16278028618500398 -0.6861689628366346 0.0614278274238016 1.1497276288967166 0.1949359186030265 0.06385029540778434 0.1290525232377139 -0.4797443357884721
30200000000.0 -0.1682554992117384 -0.6844850480402245 0.06550479169579813 1.1463876151021983 0.1953357431246242 0.06343227030195671 0.12967925521820212 -0.4794241344467009
30300000000.0 -0.17257652025650622 -0.6830873696243795 0.06959666059120626 1.1435170264565422 0.19550430425795726 0.06301482714659365 0.12981613313555887 -0.47907163369348454
30400000000.0 -0.1725494759263058 -0.6823414970647577 0.07181357940441453 1.1399751656991883 0.1956270045815239 0.06285721144402952 0.12865405354730058 -0.47767522485370495
30500000000.0 -0.17287490334062366 -0.6853084715932692 0.07442750842132527 1.1388423229424065 0.19602308165564722 0.06276779831364052 0.12591902145151507 -0.47665719065976003
30600000000.0 -0.17655168468561408 -0.6851132941694552 0.0783081748185857 1.136619101115502 0.1964625994040878 0.06236280917505777 0.12551127855045655 -0.4772138039357564
30700000000.0 -0.17763261119199966 -0.687052119616222 0.07980459194560481 1.1351014694986232 0.19691254447253942 0.062394345078324115 0.12543096124012063 -0.47753034655170873
30800000000.0 -0.17771459290484298 -0.6870610173606281 0.08246284703176462 1.1320416281023262 0.19699555748216704 0.062187083853105084 0.12385321785667765 -0.47523136586026143
30900000000.0 -0.17628166468726433 -0.6855789712132204 0.0850003379181816 1.1275727875953738 0.19700431397773863 0.06194597621001991 0.11895681089767227 -0.47456074282774957
31000000000.0 -0.17510866796380653 -0.6844034912022415 0.0871125217886965 1.1248112981167722 0.1972479563738479 0.061758002465471334 0.11598364372855723 -0.4763210092851999
31100000000.0 -0.17702225880631273 -0.684583502433462 0.08910028120587808 1.1226251654402706 0.19762130911330372 0.06156943405710565 0.11713147965232584 -0.4774041003028231
31200000000.0 -0.1794487699828043 -0.6799021316778835 0.09199999174863303 1.1172175731225962 0.19737072427461888 0.06111012018731391 0.11767039735841238 -0.47645911850884465
31300000000.0 -0.18082578507474334 -0.6758857020001297 0.09620667520610136 1.1119682988493305 0.19728295504630447 0.06043314350435326 0.11429557276076266 -0.47550820141552325
31400000000.0 -0.1830042525924944 -0.6739069605356456 0.09965985881638394 1.1093826498930976 0.19758400768613515 0.05998793928428364 0.11149065281295463 -0.47686546054265255
31500000000.0 -0.1850630869997164 -0.6721328510532556 0.10202063195002038 1.1066651905753373 0.19784615114453022 0.059840790109084455 0.11230230259970723 -0.4793472923023428
31600000000.0 -0.18931837051067563 -0.6713877099368618 0.1040032372597098 1.1031250834610946 0.19793407510292377 0.05961732076190603 0.11586769306290151 -0.47787829880425897
31700000000.0 -0.192347114213315 -0.6700663730930881 0.1085270253130874 1.0995266977340066 0.19804847957554916 0.058985900211970595 0.11325874931519594 -0.4766278969723479
31800000000.0 -0.1940129626800221 -0.6680647808358263 0.11219839668374866 1.096439732105296 0.19822511801378812 0.058520076734424845 0.11015099916055118 -0.4768314420681578
31900000000.0 -0.19536405590856668 -0.6672573220889878 0.11451041829399652 1.094164067309138 0.19850588710085249 0.05824598673372085 0.10911069448738313 -0.4792993446028456
32000000000.0 -0.19778191241437204 -0.6670686550806422 0.11652864497372713 1.091326077823388 0.19861196154699473 0.058049034116122195 0.11075359395346976 -0.4789835504176868
32100000000.0 -0.2012336626036318 -0.6658019318640609 0.11905109316229649 1.0867532417721193 0.19850298906213823 0.05762665549411757 0.11104951242742904 -0.476269227413706
32200000000.0 -0.2049943498032616 -0.6630616912228156 0.12352850628202416 1.0827625076475642 0.19868261037230198 0.05691952028672593 0.10881321242845207 -0.4754643531620231
32300000000.0 -0.20552924864694103 -0.662588454820793 0.12624565322008136 1.0809965494415152 0.19903360114848503 0.05667970376237183 0.1066774618913486 -0.47713358867695643
32400000000.0 -0.20860560771993017 -0.6621552799426476 0.12759705038034388 1.078756298955797 0.19923178724113735 0.05658753810928301 0.10950583595883431 -0.47871815497626563
32500000000.0 -0.21149702778219262 -0.6639345155471723 0.12973658524686768 1.0762458895743743 0.19944449814487597 0.05644715829597879 0.11091325972103169 -0.47666849519327625
32600000000.0 -0.21245291599673288 -0.6681109399118481 0.1325952076738968 1.0756215246721912 0.19997557940222033 0.0561925040553493 0.10907133252759788 -0.47442054453907767
32700000000.0 -0.21303823590043625 -0.6671998041290618 0.13540158632612523 1.0732355316682785 0.20019924743235226 0.05583231210607545 0.10540011033491271 -0.4738818973003889
32800000000.0 -0.21157021543438315 -0.6664076934268897 0.1366839805899342 1.071261135741628 0.200445057869489 0.05588324143639415 0.10435488855662453 -0.4767994628778666
32900000000.0 -0.2113992249066358 -0.6680412906272035 0.13777726067119128 1.0689948893986128 0.20068108644089908 0.055899290499929186 0.10510329392588354 -0.4764405287125237
33000000000.0 -0.2111023348296243 -0.668575078124468 0.13850492262511999 1.0663028760072837 0.20070695620092135 0.055805635850681844 0.10373364284665049 -0.47539705388955433
33100000000.0 -0.21164347726364555 -0.6667731461116406 0.1412341303225411 1.062593280437076 0.2007925614274903 0.055339064620425565 0.10105491286269788 -0.4744136920717653
33200000000.0 -0.21200814000777612 -0.6645304846461426 0.14404303363632218 1.0587653783900433 0.2008473433871498 0.05500457751704582 0.09808166999371563 -0.47539155554318707
33300000000.0 -0.2151165163496111 -0.6620066327303669 0.14744515963903054 1.0566283384089468 0.2012572433881127 0.05443120367368117 0.09751346918310264 -0.47879688970458967
33400000000.0 -0.2137941219238355 -0.6589158358506574 0.1473581094607215 1.052925425380083 0.20089342476571262 0.05445833311133112 0.09916220357614791 -0.4797345128765749
33500000000.0 -0.2186094266624108 -0.6601487622664114 0.15043470080904106 1.050223190432195 0.2010334273708149 0.05407639425523562 0.10006958367660622 -0.4767320984121603
33600000000.0 -0.2183375315069856 -0.6623772638661127 0.15308427429292415 1.0478052359572503 0.20143603074606564 0.0536628220155619 0.09552243936520498 -0.47531511587427944
33700000000.0 -0.2207255969081561 -0.6591220756267817 0.1571655222242188 1.0446735912032001 0.2015157434971098 0.05301605137639265 0.09275810211728006 -0.47718379937066674
33800000000.0 -0.22381519956194768 -0.6564226481961265 0.1587808183288446 1.0416397863079896 0.2017968758888361 0.052788560757907756 0.09488857537789676 -0.4796364995003226
33900000000.0 -0.22556125481397196 -0.6576901873114962 0.1597226708468273 1.0401902561936227 0.20185351524308234 0.0527234432596822 0.09724308759436424 -0.47891564000796666
34000000000.0 -0.22534476410364473 -0.6597051058686867 0.16178526474858332 1.036906294276955 0.2018596942488341 0.0524355280865102 0.09442409724981984 -0.4747974194968838
34100000000.0 -0.2256925078352651 -0.6583113204450891 0.1660968607910913 1.0331894514399165 0.20193827168985898 0.05169303583902746 0.08809782556826953 -0.4747931445090046
34200000000.0 -0.22726721140029282 -0.6556763852405441 0.16808592727150426 1.0307298827016063 0.2021175928901804 0.051525349910914016 0.08816419779835116 -0.4784651531801146
34300000000.0 -0.23354582683279485 -0.6509744068112702 0.17047878191878185 1.0266112865559283 0.20189680011664118 0.05107801025485052 0.09224835211293833 -0.479861894424973
34400000000.0 -0.2360697976960905 -0.6512087344487406 0.17260287220903664 1.0231968003685132 0.2018509962246468 0.05074269294435354 0.09281165953010184 -0.47718263104234615
34500000000.0 -0.23576832782054813 -0.6484940799450268 0.17486450007109897 1.0186561472327995 0.2016396643126293 0.05026947356856183 0.08747151023360053 -0.47406655820951116
34600000000.0 -0.2387722160549445 -0.6460708580510416 0.17834407918444042 1.0159658703489074 0.20188988601141522 0.04972272579191954 0.0858677566704929 -0.47646597707153304
34700000000.0 -0.24158680207486222 -0.6465080404294453 0.17917324628726533 1.014498964484881 0.20217919194701697 0.0497408071587381 0.08989428586854897 -0.47831741173298775
34800000000.0 -0.24575830723542907 -0.6456406783606186 0.18066058067421384 1.0115323756422228 0.20196839104468908 0.049587031191780165 0.09332619942138567 -0.4768102727417231
34900000000.0 -0.24519304487759425 -0.6468141073119675 0.1831003400923677 1.0084017486914951 0.20198090052223852 0.049189972233530395 0.08959041464508866 -0.47184774833199344
35000000000.0 -0.24470986338785966 -0.6436674685834096 0.18585516250924156 1.0051279257308603 0.2021115934923682 0.04871736418156612 0.08392790519815209 -0.47327345108627605
35100000000.0 -0.24668128223018476 -0.6425947622623858 0.18753950692386145 1.0035723167681063 0.20227912311159962 0.048759038583616084 0.08583703948072317 -0.4764930383080427
35200000000.0 -0.2494714600944235 -0.643593698355952 0.18765397295228972 1.0018046110431413 0.2022856205755708 0.04876358988869231 0.0911114059668003 -0.4761909822155377
35300000000.0 -0.24890887916010357 -0.6450664583087324 0.1882498396956099 0.9991165331543098 0.20220252555615376 0.048785074929378225 0.09045536472288143 -0.4720681597491624
35400000000.0 -0.24733000951027395 -0.6445978593636148 0.19102079940941244 0.9960161245315514 0.2021620208308863 0.04836601881419774 0.0842226727720315 -0.4710965565496503
35500000000.0 -0.24843122485611147 -0.6404048766023043 0.19392587279265985 0.9934764944573015 0.2025372010155028 0.048022209510048756 0.08140292394304684 -0.4750694903239824
35600000000.0 -0.2509880042934489 -0.6412064547971701 0.19503039334672614 0.992882186538952 0.20279902227843616 0.04822461714266062 0.08578432532078391 -0.4772322311692195
35700000000.0 -0.25240849984692326 -0.6410336361012211 0.19530019761289213 0.9890158192388364 0.20258823228309902 0.04822556242075553 0.08735937323027342 -0.4749501731613886
35800000000.0 -0.253337996157434 -0.6417577153719874 0.19907473271326737 0.9867538942512796 0.202824563409156 0.04761086867109511 0.08264920175028631 -0.47250451010828654
35900000000.0 -0.25347763107723487 -0.6388632639223917 0.20216869076015187 0.9838049146531337 0.2029528582281759 0.04722503928476846 0.07868122527531823 -0.47537693294401345
36000000000.0 -0.2561336669198904 -0.6386683256096333 0.2039626088123121 0.9829768157996933 0.20326750300298735 0.04708370088767325 0.0799052204284999 -0.4778444494673074
36100000000.0 -0.2586849063868597 -0.6415253262748276 0.20556743346234685 0.9815642844512404 0.20363770547834276 0.047186603239480686 0.08183180113665847 -0.4771721341691002
36200000000.0 -0.26123129360101727 -0.6421578732457149 0.20810963596962587 0.9790228555299779 0.2037674506070085 0.046736266281160996 0.08039697614190977 -0.4749071889339576
36300000000.0 -0.2594302887952459 -0.6403396753951658 0.21028608055578554 0.9757062173003805 0.2038495376673345 0.04646687160994126 0.07560837529241257 -0.47491091082934767
36400000000.0 -0.26231946448127763 -0.6365506786666957 0.21321035874253297 0.9727686152006898 0.20403763433134706 0.04608346762482664 0.07430359404917107 -0.47779350128594644
36500000000.0 -0.2639429563756664 -0.6394305964940444 0.2147084811256947 0.9723012271932913 0.20447151090434898 0.04607307131027871 0.0760388488102266 -0.47886971104437137
36600000000.0 -0.2668185887648438 -0.6414878572426417 0.2170092149300653 0.9703631386509347 0.20476331328645606 0.045807157651911234 0.07610004289233606 -0.4775436433142981
36700000000.0 -0.2696745756937257 -0.6411511339606238 0.22033999452321779 0.9663256582369538 0.20482307620285217 0.04529397007049669 0.07344452849728852 -0.4744861921011053
36800000000.0 -0.2702189794573241 -0.6371459822097272 0.2223939027698136 0.9629067521432854 0.20485989131805105 0.04480940545569338 0.07000768773570883 -0.47629236090647364
36900000000.0 -0.26972159886929437 -0.6365044690976885 0.22350240492537615 0.9610707729942262 0.20508638543161078 0.04494701462467311 0.0698845876328222 -0.4786943354661685
37000000000.0 -0.27103227084394327 -0.638534618022714 0.22432390452771056 0.9594478099661488 0.20544029863466687 0.044944093403207895 0.0715190732631814 -0.47879156358646763
37100000000.0 -0.27321622958647074 -0.6396478317226173 0.22708127803689418 0.9567616543371854 0.20561273185650358 0.04443308749849785 0.06925606522334152 -0.47684555988500094
37200000000.0 -0.2733683487387236 -0.6386855203150551 0.22895973340327203 0.953862160795374 0.2056565838810105 0.04398649805439788 0.06625002617934253 -0.4753296336200073
37300000000.0 -0.27405957520715674 -0.6341430982069841 0.23108982686171423 0.9503056733645245 0.20552732326255613 0.04372163684925373 0.0651095665358582 -0.47724757042708543
37400000000.0 -0.27396053811991045 -0.6326575198797475 0.23195489691304735 0.9475142155838884 0.20563704001804534 0.043839318336309975 0.06468789381234422 -0.4788403991596569
37500000000.0 -0.272556258944193 -0.633064507552261 0.23214233815833402 0.9455801447587443 0.20580177397606222 0.04356807772484485 0.0645665918541927 -0.478906009752358
37600000000.0 -0.2728784350172887 -0.6317776058544211 0.2331371250701471 0.9423127742858312 0.20536994603873626 0.04333286352944626 0.06358400740968315 -0.47761073944324256
37700000000.0 -0.2744863701102048 -0.6285743570436948 0.2354507707577281 0.9378317953670154 0.20540978586340577 0.04297475421464339 0.0614037879165531 -0.476483777559466
37800000000.0 -0.2774857543485325 -0.6222620428725103 0.23793359372599035 0.9337665429968997 0.2053827046828892 0.04232594627642223 0.0604774897333296 -0.4795395378753093
37900000000.0 -0.279184377102222 -0.6192045019459275 0.23876217111862688 0.9302274550386403 0.20530655461539962 0.0419676572030689 0.06203854648894504 -0.4815335950695091
38000000000.0 -0.28139529582854367 -0.6182605804353549 0.23988453431356407 0.9278746701655748 0.20520504240036286 0.04193109802462982 0.06399952549709748 -0.4796720804309119
38100000000.0 -0.28413918514824665 -0.6180902720811493 0.24273599420719003 0.9253831952055454 0.20525012395150846 0.041323605675212344 0.06317112584361875 -0.4783408006583401
38200000000.0 -0.2861461178528862 -0.6184103583071113 0.24569697412317307 0.9219819301192594 0.20554215761267447 0.04080954620041701 0.060002246627805 -0.4766080259521887
38300000000.0 -0.289315859434294 -0.6157833008755154 0.24754508976108666 0.9196041056765965 0.20567135369900685 0.04053319087617683 0.06087452768997493 -0.48090066717104035
38400000000.0 -0.2920798833797785 -0.6168800634773528 0.24946043502377147 0.9187276479952594 0.2062839247742106 0.04044099013938801 0.06298544522205701 -0.4821089572501868
38500000000.0 -0.29460584922538846 -0.6181374764325916 0.2500969007689252 0.916600400602636 0.20625391681467126 0.04007315278089001 0.06331712954911033 -0.4792388284625043
38600000000.0 -0.2955730849405347 -0.6211489713417724 0.2529096477067136 0.9139434474029157 0.20630198963875213 0.03944545163559855 0.05976342067257593 -0.4737165639936591
38700000000.0 -0.2935735224277384 -0.6197405973155999 0.25498208887612905 0.9124893481900515 0.2065735062426036 0.039072235262666594 0.056304654840251545 -0.47607243694534707
38800000000.0 -0.29521249337274363 -0.6189546431107693 0.25645718045965465 0.9104547623467565 0.20665036237690626 0.039168139194470895 0.05567657240438158 -0.4796969561480904
38900000000.0 -0.2984953483548143 -0.6195297514756795 0.2576783385644697 0.9096876745508784 0.20702597721404492 0.03912639765977668 0.059530588396654746 -0.4810523557312367
39000000000.0 -0.2993556922280271 -0.6198517926066898 0.25930809023446894 0.9063272805818493 0.2069201200225142 0.038602523299647334 0.0565950796544923 -0.47624406442235195
39100000000.0 -0.2982636644326141 -0.6189116498321604 0.26136005987843625 0.9030295270533496 0.20685687481571352 0.038196960816786196 0.05266443899761518 -0.47449987507965563
39200000000.0 -0.29952617951263016 -0.6135972803745151 0.26335524004685 0.8998934359023287 0.20683248222015121 0.037700170798349475 0.04941272190893626 -0.4781638128790024
39300000000.0 -0.30087857268864454 -0.6137815511226506 0.26432873521143574 0.8987384939980081 0.20704831020800232 0.037807979570729656 0.054201364882862035 -0.4807734423164011
39400000000.0 -0.3017367295721119 -0.6168149026519709 0.26404055428737416 0.8970397117800627 0.20706961503648866 0.038027581510742474 0.05587172692602466 -0.4775685938612286
39500000000.0 -0.3012083909257493 -0.6158152319320361 0.26553549249589176 0.8927100976913382 0.20687698441131283 0.037553536884344416 0.051142775432407736 -0.4737363997654688
39600000000.0 -0.3011222342945544 -0.6128431810047835 0.2677646032314048 0.8911344508174717 0.20720805504921339 0.03704350190257948 0.047701170949260754 -0.47753371768701247
39700000000.0 -0.3030646034486254 -0.6091017030880536 0.2683937911059598 0.8883176519451726 0.20698861264217258 0.03699494444460962 0.04959416155879018 -0.479833910656032
39800000000.0 -0.30356769073398704 -0.6088608374511665 0.267996776499606 0.8868335370927767 0.20706888538401394 0.03698724147439406 0.05372282054409261 -0.4808189915712439
39900000000.0 -0.3044574825157214 -0.6078596194932986 0.2698634824124693 0.8822394964132161 0.20690566527073015 0.03656640630349543 0.051051044335057395 -0.47746052797460004
40000000000.0 -0.30579570453782584 -0.6081501143804595 0.2723916086690479 0.8799304349404051 0.20702493933529637 0.03594310132015084 0.047828596504871465 -0.4765061233002969