!Created with skrf (http://scikit-rf.org).
# Hz S RI R 50.0 
!freq ReS11 ImS11 ReS21 ImS21 ReS12 ImS12 ReS22 ImS22
100000000.0 1.0030919436760144 -0.009758049518273394 -2.6317377769569017 0.021735027848053787 8.643704713077788e-06 0.001654537438615315 0.8190467331966129 -0.007706082996479653
200000000.0 1.0034133608450744 -0.020116870303208894 -2.6308153880939655 0.045593889704184515 5.738764414285279e-05 0.0032849860044408055 0.817071460742976 -0.01439259919865157
300000000.0 1.0029294527537869 -0.0289971549885895 -2.629309736203299 0.07131763765378649 0.00012965347482019187 0.004928110085174366 0.8167424919372337 -0.020563930962877203
400000000.0 1.000683120196392 -0.03837139100283295 -2.627138778999874 0.09545700508175041 0.00022490690986172335 0.0065642096764459545 0.816996188689824 -0.025732338708591488
500000000.0 1.0012786791052746 -0.04792920787448486 -2.6277807432342275 0.1166903658279014 0.00032365872506117863 0.008207463904223698 0.816481395933982 -0.03212484685497358
600000000.0 1.0008010801815457 -0.057477113246514534 -2.626913951110205 0.13988072696621817 0.0004582879238053837 0.009836885800371384 0.8159009007759108 -0.03910620320262912
700000000.0 0.9999158456330186 -0.06700715749981516 -2.625293409770269 0.16263176958851 0.0006165560849130536 0.011487331906296793 0.8154314787084165 -0.045391345212694514
800000000.0 0.9986892476379561 -0.07650606067623136 -2.624307467888356 0.18419533141654248 0.0008006307143431322 0.013101261123998295 0.8155984351780337 -0.05074908984116374
900000000.0 0.9980484511270896 -0.08593051183382577 -2.6189738012856796 0.20637050051123276 0.0009965749588190767 0.014723577015260059 0.8136891645539083 -0.05696038240236974
1000000000.0 0.9971486404020834 -0.0953646273050049 -2.616288096765455 0.22926934488339237 0.0012261767055528551 0.016326326252246223 0.8130935960168262 -0.06350078007451783
1100000000.0 0.9961074845054649 -0.10486503522097854 -2.6135440044327254 0.25272861086715015 0.0014793499755094955 0.01794545244717108 0.8118296900754931 -0.07012603432433524
1200000000.0 0.9944143566539276 -0.11444006916308176 -2.6101652217675375 0.275199760776244 0.001757464100955739 0.01954754150167209 0.8112671530193821 -0.07590244718868693
1300000000.0 0.9930183189986159 -0.12372254708784046 -2.6050178226276044 0.2978718827024214 0.0020554823043607384 0.02115710213804696 0.8098507654383524 -0.08163650336263406
1400000000.0 0.9912070124597907 -0.13294380622384613 -2.6004085062996363 0.3199281330607174 0.0023612887236914336 0.022733372889605176 0.8090394599784969 -0.08792735322819041
1500000000.0 0.9893821969081237 -0.14228697445249355 -2.5959141291079653 0.3434692570352791 0.002725907887018031 0.024310822874645626 0.8084171430371744 -0.09428988376320704
1600000000.0 0.9878575144058384 -0.15158605725957217 -2.5911136915287263 0.366272727919781 0.0030894711316036046 0.02589929290531486 0.8067486645419215 -0.10057882940882246
1700000000.0 0.9860407741532485 -0.16074403733918094 -2.5854459942024346 0.3867517767926434 0.003469602758370564 0.027481206125245544 0.8052218402172656 -0.1063437158612451
1800000000.0 0.9838361798820505 -0.16979812397601993 -2.579495602670582 0.4069082197127537 0.003853824260498492 0.029039406067200624 0.8041207331183648 -0.11227024201796872
1900000000.0 0.9813109679426253 -0.1790411323204354 -2.573339082303959 0.4293083043585492 0.004285860297530412 0.03058119169011189 0.8030934681469173 -0.11821998454109338
2000000000.0 0.9793967791211574 -0.18850301019266497 -2.5671078396192586 0.4522415544681244 0.004763132602024307 0.032117768374258664 0.8014422033991769 -0.12425247748806921
2100000000.0 0.9778703795104509 -0.1976340918121356 -2.563009401420501 0.4738925431333238 0.005232509811878298 0.03367195019822226 0.7989431778208238 -0.1301101364517805
2200000000.0 0.9750194649375523 -0.20648821168002277 -2.5552515770167155 0.49477173963339005 0.00573170696873977 0.0352163744915622 0.7973898036182263 -0.13574727238961037
2300000000.0 0.9717343170792304 -0.21536170481400344 -2.549511425276075 0.5164893358182423 0.006233285389944474 0.03670156672894843 0.7965720466795447 -0.14172823928782183
2400000000.0 0.9689477086101824 -0.22460509321067176 -2.5415877389723427 0.538054576486967 0.006796749025268346 0.038208271663157795 0.7947845270195778 -0.14747733368738883
2500000000.0 0.9669445595194057 -0.23349571168513092 -2.5345540355514764 0.5594893164319894 0.007331497557284705 0.03969943095781829 0.7921250113928096 -0.15337360685999035
2600000000.0 0.9647131571245126 -0.2422188975375881 -2.5267102768718575 0.5800487672181182 0.007923691458383468 0.04121672872073755 0.7893944199140296 -0.15904123264577574
2700000000.0 0.9616873305924974 -0.25110698650294355 -2.5187046310486845 0.6006098861491384 0.008506943893639181 0.04266009939432719 0.7875128678629115 -0.16452314089269968
2800000000.0 0.9580114498264836 -0.2598557923707626 -2.5085204652461917 0.6219441806056921 0.009126251795959084 0.04408706868663732 0.7858090415461826 -0.1702917536800048
2900000000.0 0.9545571915527984 -0.26848063045682696 -2.499114273972029 0.6435070551587629 0.009798413706585827 0.04554537159779509 0.7833993117154159 -0.17627557318529913
3000000000.0 0.9514215741409822 -0.2768520882118351 -2.489395677876628 0.6642533121282551 0.010462506262129698 0.04701340672619817 0.7807664394902101 -0.18171673994766518
3100000000.0 0.947604272523613 -0.28550885074135235 -2.4809283162385243 0.6839611214453057 0.011133807481915248 0.04837699040964551 0.7794161967517274 -0.18682106878256385
3200000000.0 0.9437581201926287 -0.2941673930313448 -2.4715183812969794 0.7035521941052216 0.011784459223463346 0.04977368237769098 0.7776895411703483 -0.1922298731987304
3300000000.0 0.9399238359335753 -0.3026608731506826 -2.4608884091228345 0.7232222744075634 0.012531572926377282 0.05122753587603434 0.7749812745293152 -0.19816071009536496
3400000000.0 0.9364022754703181 -0.31075652050268127 -2.452179118203925 0.7426750459291594 0.013234654801237642 0.052615888941061256 0.7724688463943823 -0.2038760074646449
3500000000.0 0.9327825799404291 -0.3190025411001185 -2.4410461525455127 0.7609178597327982 0.013968682037610168 0.05400715802437524 0.7700207968707302 -0.20904273834043016
3600000000.0 0.9290470567475553 -0.32740197948819755 -2.432256081097769 0.7787658987335448 0.014661830015849848 0.05530325476507726 0.7683113967121468 -0.21380822277787948
3700000000.0 0.924966350175234 -0.335776528302285 -2.4226792278016003 0.7974649472650458 0.01543778506984011 0.05665402969022224 0.7658812409898782 -0.21911216964892685
3800000000.0 0.9210219109851376 -0.3439885852563635 -2.411990532321518 0.8156549679077415 0.01623120915705931 0.05800860868165583 0.763075608996682 -0.22447767268668134
3900000000.0 0.9173424105360141 -0.35203577686643184 -2.401499316082317 0.8336444489021395 0.017010326527597035 0.059302185613597076 0.7604864890508195 -0.22938689294977244
4000000000.0 0.9138255878791094 -0.3600095179178505 -2.3916030912483537 0.8502888297970622 0.017787077774550276 0.06058866212366429 0.7573157349573365 -0.23398389499147074
4100000000.0 0.91000222779894 -0.36765396144785034 -2.3807997150168583 0.8662588614688969 0.018557028367019675 0.06185281423698313 0.7544500380876559 -0.23875790057843665
4200000000.0 0.9059264170228142 -0.3754702404260539 -2.369963029470501 0.8836104802138839 0.019398757127245318 0.06309896930325355 0.751268323829423 -0.24381226843092976
4300000000.0 0.9019856500001664 -0.38302539776750566 -2.35711417142151 0.9012142922653223 0.020265348000454972 0.06432030766418516 0.7477127433134868 -0.24874724953461214
4400000000.0 0.8983939857392337 -0.3909174375380411 -2.344632423631413 0.9196608019516797 0.02117463058667265 0.0655860410969113 0.7429872421959343 -0.25398175656337396
4500000000.0 0.8944803526780606 -0.3981653972232781 -2.3327421520063605 0.9372722404393036 0.022062248129308647 0.06677268324761845 0.7395725304037419 -0.25895496808609386
4600000000.0 0.8895357772920675 -0.40558513166772536 -2.3199775902685382 0.9547844396800825 0.02298415960761141 0.06791690269574707 0.7372183986837662 -0.2637051970355032
4700000000.0 0.8841045768167323 -0.4127966046459751 -2.3068407046154307 0.9735635413839339 0.023985617731981716 0.06906568006642459 0.7339808042600461 -0.2684099875150742
4800000000.0 0.879048352473395 -0.41990366628662074 -2.292974811240353 0.9916999269095426 0.024938285303477734 0.070233160463477 0.7307760974168865 -0.2734068160294278
4900000000.0 0.8741808108378687 -0.42697611225233023 -2.279932136176495 1.009104567542894 0.025941468357849006 0.07141562470229765 0.7272196735985917 -0.2783414078853635
5000000000.0 0.8688864180513827 -0.43416298373981355 -2.266605438206731 1.0245221470685966 0.026835298360409827 0.07248945805965752 0.7251030271957797 -0.282774805480167
5100000000.0 0.8626496594854194 -0.441362147970071 -2.2533461055624278 1.0411741582793905 0.027834719781774802 0.07360034327042732 0.7225534669941603 -0.2870177866340439
5200000000.0 0.8565875004650632 -0.44855396442890283 -2.2387324233005708 1.0583229913962808 0.02889117364223093 0.07466292343631306 0.7195817821822422 -0.29111908905748285
5300000000.0 0.8512915445011212 -0.45519734458640004 -2.225603702703592 1.073866402703516 0.02986708626105801 0.07580392462711338 0.715873200712168 -0.2957518850414444
5400000000.0 0.845964657939683 -0.4620498481051694 -2.2113918807245527 1.0882490654144643 0.030849266751681752 0.07687926960641303 0.712951514575765 -0.3001248020434985
5500000000.0 0.8400739938390495 -0.4692719956682499 -2.197565840383548 1.1023004343500293 0.03174914660433107 0.07781675849442754 0.7116067586347428 -0.30387864915329976
5600000000.0 0.8347022703736015 -0.47676603498443537 -2.1846085390833974 1.1169250379843012 0.03281418405345041 0.07893979351462967 0.7084955741593594 -0.3078725455398466
5700000000.0 0.82985845121532 -0.4835008668336932 -2.1715064696526003 1.131596603306665 0.033859074683943224 0.07999610601126399 0.70464006212597 -0.3120765843997509
5800000000.0 0.8254532376491978 -0.4894610147253367 -2.1593553657352453 1.1441137663045935 0.03477995923605598 0.08103289821369968 0.7009427986987768 -0.3163829965185428
5900000000.0 0.820951561386119 -0.49592011435602606 -2.1457001382955854 1.1556168431854021 0.03572200512182693 0.0819960064067019 0.6978541881637602 -0.31997175031176883
6000000000.0 0.8159509739575664 -0.5026402955647615 -2.1331178296297226 1.1690339337827789 0.0366961449799834 0.082931822458406 0.694958661796948 -0.32364968146138623
6100000000.0 0.8107498071069542 -0.5090719194183545 -2.1189032013924325 1.1821573821289315 0.03779300769387284 0.08390390899528302 0.6906189317708552 -0.3278534742964797
6200000000.0 0.8060524803683847 -0.5144834400790291 -2.1047980512194755 1.1944730972416728 0.038831395924065724 0.08485990694385874 0.6861750653617701 -0.3320481712339921
6300000000.0 0.8017633979232194 -0.5204624472026347 -2.0909269678603195 1.2056895804353067 0.039769960351247455 0.08572575665884638 0.6825752598156493 -0.3354577074102487
6400000000.0 0.7968877141796402 -0.5265034255798313 -2.076520567306116 1.2173040618873263 0.04076304916763535 0.08658308473218358 0.6787261874064457 -0.33893001192188227
6500000000.0 0.7915584736967043 -0.5325442147441961 -2.0620587956482836 1.2304995806664958 0.04187295533930522 0.08746958132270469 0.6745378317574431 -0.3431500452665478
6600000000.0 0.7862789806041454 -0.5378336677334739 -2.0470282518221032 1.2429233159349007 0.04299708038477353 0.08831771899257486 0.6699477187156723 -0.3474355685526703
6700000000.0 0.7817188510784995 -0.543375507623397 -2.031819104782814 1.255080426012864 0.04408754850911057 0.08915907851758857 0.6654483471145368 -0.35105227568232583
6800000000.0 0.7760379118513235 -0.5491163797830083 -2.016324904201315 1.268398266426892 0.045221619596464556 0.08994858316743307 0.6612222729156195 -0.3542963292305297
6900000000.0 0.7697725170429047 -0.5549432107161534 -2.000773357905699 1.2818034008813368 0.04642132430334207 0.0907152721176184 0.6570071453092862 -0.35790373229462114
7000000000.0 0.7628553433040719 -0.5596890291002324 -1.9850713234546908 1.2945615700690178 0.04761598997650714 0.09145085226143662 0.6536810459470448 -0.36197731470533157
7100000000.0 0.7558437665170906 -0.5645675733958374 -1.9684723845532135 1.3076183111374207 0.04882007206760248 0.09215880877268838 0.6498388182457606 -0.3652730638220928
7200000000.0 0.7487094749569843 -0.5697915301307123 -1.9517446981716169 1.3197062425312502 0.050016178277472775 0.09286504643859217 0.6461544430258567 -0.3679495573964709
7300000000.0 0.741433554961176 -0.574663917336912 -1.9360456239503112 1.3303147875241768 0.05111798228415533 0.0935747574985454 0.6430558010614179 -0.37107607377541874
7400000000.0 0.7340508135590326 -0.5800900947750465 -1.9206092989932069 1.3403315434767735 0.052243183877218116 0.09427507748760036 0.6409250182916747 -0.37431114305037805
7500000000.0 0.7271302058442435 -0.5853087573143626 -1.9044044264335842 1.3502229866774258 0.05339653371146661 0.09491425217267412 0.6379999674970561 -0.3770456895575799
7600000000.0 0.7211510122833564 -0.5904583652177422 -1.8893019934501534 1.3596604353101631 0.0545456666479609 0.0955904576896382 0.6345371101952556 -0.37928799130494883
7700000000.0 0.7160603160884296 -0.5958011443554296 -1.8767309950264033 1.3691173006931276 0.05558899667229383 0.09634156041386974 0.6313781295690537 -0.3822465997505271
7800000000.0 0.7105134998026381 -0.6009752842595046 -1.8621775424569422 1.3763522240332695 0.05662166994363986 0.0969966898044939 0.6289553477126396 -0.385219843487811
7900000000.0 0.7052015891985101 -0.6063399354853076 -1.8489631690575798 1.3836903039858435 0.057569210321895437 0.09764017299851789 0.6264219321426531 -0.38776499380907264
8000000000.0 0.6996772944569362 -0.6110682910262363 -1.8336986192610998 1.3924872346759272 0.05867586183527798 0.09825954956025608 0.6223271492251818 -0.39032024936741
8100000000.0 0.6949859279407145 -0.6153188260362392 -1.8199902338001313 1.4006500880854187 0.05973265331585531 0.09888197984204451 0.6178088917165921 -0.3931036689195223
8200000000.0 0.6908674679723358 -0.619780398960414 -1.807179143234769 1.4075586054189084 0.06073440667271342 0.09955000971330835 0.614151572060654 -0.3960292363667625
8300000000.0 0.686110627573731 -0.6247882178423252 -1.7940333807709543 1.4141769286613244 0.06172392154380481 0.10018821124339361 0.610627108780094 -0.3984823958063061
8400000000.0 0.6805638681628393 -0.6292360022185794 -1.7787710700957924 1.421599076188658 0.06278356070494223 0.10072182602636122 0.6063505266760266 -0.4008052602368141
8500000000.0 0.6752553715025914 -0.6330941515389539 -1.7632118848781193 1.4297089747928073 0.0639125248607616 0.10125728430017565 0.6014222264186907 -0.4039539657141143
8600000000.0 0.6708169880715442 -0.6367115201463938 -1.7478996037556314 1.4366004281019613 0.06498521034963331 0.10176231632113127 0.5967896194649508 -0.40704137052432143
8700000000.0 0.6660917304754344 -0.6411898908174799 -1.7333533792018234 1.443063636310993 0.06599855094523756 0.10231003777609633 0.5927725415611084 -0.40930364776989775
8800000000.0 0.6599654654842567 -0.645484892728444 -1.7178641316598118 1.451524388532202 0.06718399785581494 0.10276769713262379 0.588185961592822 -0.41167039270886246
8900000000.0 0.6529204659866666 -0.6488343042816561 -1.7008674756419817 1.460891620027945 0.06846702680619458 0.10319328263398712 0.5833674772616085 -0.41486361326033394
9000000000.0 0.6470026761294624 -0.651653570871368 -1.6836740664606715 1.4692305388639382 0.06967847823176114 0.10358007500418831 0.5786434138794769 -0.4180565030993013
9100000000.0 0.6409821227905569 -0.6554542093870562 -1.6670585665298157 1.4763004325168385 0.07078803428319945 0.10395303799250172 0.5749255403102074 -0.4197895252699252
9200000000.0 0.6323855698078321 -0.6590214300002333 -1.6496208462287762 1.4845227106857475 0.07207188967537759 0.10430159834744424 0.571546149041164 -0.4216824663727695
9300000000.0 0.6236569186486047 -0.66155641137866 -1.63247583737297 1.4926765964108706 0.07335336799814528 0.10465282495741653 0.5676949439772252 -0.42400320619068166
9400000000.0 0.6153658086335383 -0.6644382807782205 -1.616377111888167 1.5004612930803722 0.07464025646025924 0.10503758305596265 0.5644608052891212 -0.4265405903791304
9500000000.0 0.6076933130592602 -0.6673920812767566 -1.5994625211190014 1.5057904968296139 0.07568767460675535 0.10527160570534103 0.5624386825782965 -0.4279342418314775
9600000000.0 0.601464703479549 -0.6716952180738529 -1.585438424329069 1.5105613254027395 0.07671791384662174 0.1056822779921374 0.5604060352283823 -0.4291216990290917
9700000000.0 0.5959797154368704 -0.6759267671812115 -1.5726721721885593 1.5160862806923892 0.07783529015793594 0.10620138783493634 0.5571937673705168 -0.43131136541636605
9800000000.0 0.5890579060676242 -0.6787487516876612 -1.5577962904816434 1.5216706994761913 0.07897202135948937 0.10659253878171843 0.553965289931545 -0.43384724312243206
9900000000.0 0.583396830931206 -0.6825317401270045 -1.544071467949764 1.5260004906129088 0.07999983474430407 0.10695646750888338 0.5514564184978076 -0.4354140981172553
10000000000.0 0.5789842798758522 -0.6858180041795852 -1.5303599871940152 1.52982863505355 0.0809741017539095 0.10730179735649575 0.5477386364614768 -0.4369749599155769
10100000000.0 0.57453508593362 -0.6898275654348365 -1.5183893640788548 1.534364808858619 0.08202491563193445 0.10775924082580993 0.5441848338915614 -0.439028410431477
10200000000.0 0.5694689453698809 -0.6930067112816672 -1.5056004639971272 1.5384045451888904 0.08306004976894199 0.10816850332534972 0.5408285474978428 -0.4410723099358531
10300000000.0 0.5644163689993559 -0.6960770509719162 -1.4922657854012167 1.5421134758265016 0.08412085879251614 0.10852142719734706 0.5372049229349135 -0.44293450045686295
10400000000.0 0.5592627505702064 -0.6989576484210016 -1.4775106145433456 1.5455875331672952 0.085135381962145 0.10877322949474212 0.5331016869460348 -0.4445288902517634
10500000000.0 0.5553565011260931 -0.7020045458481987 -1.464443720338949 1.548507224167806 0.0861169499093097 0.10910110054372528 0.5284934904699353 -0.44639624784119114
10600000000.0 0.5517232270630371 -0.705665092908849 -1.4524725856528933 1.551552527426964 0.08712107180073107 0.10951592943115013 0.5239051239582431 -0.4481103135311668
10700000000.0 0.5467244714280802 -0.7088433913519555 -1.4392900659656818 1.5554271543016258 0.08816671236304144 0.10973971377464967 0.519991583350189 -0.44957157094646555
10800000000.0 0.5413565182619604 -0.7113995496791374 -1.4242501998966175 1.5588827771149008 0.08925688474806513 0.10990761331331578 0.515179614732087 -0.4510734943645239
10900000000.0 0.5365535565354167 -0.7133101379294494 -1.4080800847857446 1.5624622819769305 0.0903316121197748 0.11003208175419178 0.5096765295442552 -0.45324460424805446
11000000000.0 0.5316087541192819 -0.7158244902947511 -1.3931111499010695 1.566482144494743 0.09144711058028406 0.11018293893401138 0.5048006314444694 -0.45509853845637993
11100000000.0 0.5247118833555776 -0.7181952622699154 -1.377798553216098 1.5713229428805582 0.09263285880527117 0.11031006208867847 0.5017499189787544 -0.45682081248753187
11200000000.0 0.517311941719737 -0.7201043514010013 -1.3618005770176933 1.575765050319015 0.0938327710197971 0.11032058283526944 0.49777518440364144 -0.45779851725002774
11300000000.0 0.5093258658289269 -0.720907383283334 -1.3443161517754911 1.5805875183013156 0.0950774717809135 0.11030421532529645 0.4933464953598046 -0.45965504020548464
11400000000.0 0.5023315513950457 -0.721795857177502 -1.3282612154255704 1.5834703130889602 0.0961510749310119 0.1102703017372678 0.4899847175194845 -0.4610440605687535
11500000000.0 0.4941126882712066 -0.7237631434195725 -1.3124970019607873 1.5858006499122 0.09719681804743002 0.11026712878481518 0.4880448483902396 -0.46155785210737565
11600000000.0 0.48571764516340654 -0.7256266516759706 -1.2973443954342418 1.5888282727755463 0.09830244690152411 0.11029952499506854 0.48592846882640567 -0.46207789101654323
