[Version] 2.0
# MHz S RI R 50
[Number of Ports] 6
! Port 1 : P01
! Port 2 : P02
! Port 3 : P03
! Port 4 : P04
! Port 5 : P05
! Port 6 : P06
![VeloceRaptor options]
! Command Line:
!     /rsc/user/Tools/helic_2024.R2.1_ece/tools/bin/x86_64/extEngine -d /rsc/user/test/ -n my_project --config-file /rsc/user/test/typical_25C/my_config.config
! Config file:
!     bandwidth = 100e9
!     capacitance-enable-lde = 0
!     compress-logfile = 0
!     create-logfile = 1
!     create-sp-file = 2
!     enable-netlist-reduction = 1
!     enable-port-referencing = 1
!     extract-c = 1
!     extract-k = 1
!     extract-l = 1
!     extract-nonwire-lk = 1
!     extract-r = 1
!     generate-rfm = 1
!     geometry-file = /rsc/user/test/typical_25C/mesh.dat
!     logfile-verbose = 6
!     model-dir = /rsc/user/test/typical_25C
!     model-name = my_project
!     simulator = 0
!     simulator = 1
!     sp-format = 0
!     sp-freq-file = /rsc/user/test/.spFreqFile
!     sp-ref-res = 50
!     sp-start-freq = 0.0
!     sp-step-freq = 0.1
!     sp-stop-freq = 100
!     sp-type = 0
!     substrate-model = 1
!     temperature = 25
!     thread-count = 16
!     via-modeling = 1
!     tech-file = /rsc/user/test/TECH/.vlc.tech.typical
!     gfd-file = /rsc/user/test/TECH/.vlc.gfd.typical
!     output-file-prefix = typical_25C
!
! Working directory:
!     /rsc/user/test/
![End of VeloceRaptor options]
[Reference] 
50 75 0.01 1 2 3
[Number of Frequencies] 17
[Network Data]
0                       0.999987             180                0               0                0               0                0               0                0               0                0               0
                    4.51607e-006              -0                0               0                0               0                0               0                0               0                0               0
                    4.48001e-006              -0                0               0                0               0                0               0                0               0                0               0
                    6.80102e-006              -0                0               0                0               0                0               0                0               0                0               0
                    6.90174e-006              -0                0               0                0               0                0               0                0               0                0               0
                    7.97467e-006              -0                0               0                0               0                0               0                0               0                0               0
0.06                    0.999988         179.767                0               0                0               0                0               0                0               0                0               0
                      0.00019652        -89.0486                0               0                0               0                0               0                0               0                0               0
                    1.30088e-005        -72.0641                0               0                0               0                0               0                0               0                0               0
                    9.48142e-005         86.0489                0               0                0               0                0               0                0               0                0               0
                    1.75248e-005          69.016                0               0                0               0                0               0                0               0                0               0
                    9.29603e-006        -39.5923                0               0                0               0                0               0                0               0                0               0
0.12                     0.99999         179.535                0               0                0               0                0               0                0               0                0               0
                     0.000392578        -90.0595                0               0                0               0                0               0                0               0                0               0
                    2.45074e-005        -83.7408                0               0                0               0                0               0                0               0                0               0
                     0.000189833         88.2322                0               0                0               0                0               0                0               0                0               0
                    3.36232e-005         82.2584                0               0                0               0                0               0                0               0                0               0
                     1.2187e-005        -66.3872                0               0                0               0                0               0                0               0                0               0
0.18                    0.999992         179.302                0               0                0               0                0               0                0               0                0               0
                     0.000587955        -90.6091                0               0                0               0                0               0                0               0                0               0
                    3.56447e-005        -88.8373                0               0                0               0                0               0                0               0                0               0
                     0.000285967         88.9731                0               0                0               0                0               0                0               0                0               0
                    5.13824e-005         87.7344                0               0                0               0                0               0                0               0                0               0
                    1.52522e-005        -84.1511                0               0                0               0                0               0                0               0                0               0
0.24                    0.999995         179.069                0               0                0               0                0               0                0               0                0               0
                     0.000782451        -91.0183                0               0                0               0                0               0                0               0                0               0
                    4.60474e-005        -91.8463                0               0                0               0                0               0                0               0                0               0
                     0.000383417         89.2742                0               0                0               0                0               0                0               0                0               0
                    7.07194e-005         90.5523                0               0                0               0                0               0                0               0                0               0
                    1.77599e-005        -97.1159                0               0                0               0                0               0                0               0                0               0
0.3                     0.999998         178.836                0               0                0               0                0               0                0               0                0               0
                     0.000976037        -91.3487                0               0                0               0                0               0                0               0                0               0
                    5.56218e-005        -93.6601                0               0                0               0                0               0                0               0                0               0
                     0.000482191         89.3307                0               0                0               0                0               0                0               0                0               0
                    9.15107e-005         91.8839                0               0                0               0                0               0                0               0                0               0
                    1.93458e-005          -107.1                0               0                0               0                0               0                0               0                0               0
0.36                    0.999999         178.604                0               0                0               0                0               0                0               0                0               0
                      0.00116885        -91.6221                0               0                0               0                0               0                0               0                0               0
                    6.44548e-005        -94.5523                0               0                0               0                0               0                0               0                0               0
                     0.000582064         89.2139                0               0                0               0                0               0                0               0                0               0
                     0.000113429         92.2216                0               0                0               0                0               0                0               0                0               0
                    1.98522e-005        -114.635                0               0                0               0                0               0                0               0                0               0
0.42                           1         178.371                0               0                0               0                0               0                0               0                0               0
                      0.00136118        -91.8518                0               0                0               0                0               0                0               0                0               0
                    7.27926e-005        -94.6656                0               0                0               0                0               0                0               0                0               0
                     0.000682617         88.9672                0               0                0               0                0               0                0               0                0               0
                      0.00013599         91.8757                0               0                0               0                0               0                0               0                0               0
                    1.93017e-005        -119.494                0               0                0               0                0               0                0               0                0               0
0.48                    0.999999         178.138                0               0                0               0                0               0                0               0                0               0
                      0.00155337        -92.0496                0               0                0               0                0               0                0               0                0               0
                    8.09995e-005        -94.1515                0               0                0               0                0               0                0               0                0               0
                     0.000783318         88.6279                0               0                0               0                0               0                0               0                0               0
                      0.00015864         91.0848                0               0                0               0                0               0                0               0                0               0
                    1.79393e-005        -120.777                0               0                0               0                0               0                0               0                0               0
0.54                    0.999997         177.905                0               0                0               0                0               0                0               0                0               0
                      0.00174581         -92.228                0               0                0               0                0               0                0               0                0               0
                    8.94832e-005         -93.213                0               0                0               0                0               0                0               0                0               0
                     0.000883619         88.2322                0               0                0               0                0               0                0               0                0               0
                     0.000180842         90.0466                0               0                0               0                0               0                0               0                0               0
                    1.63356e-005        -116.988                0               0                0               0                0               0                0               0                0               0
0.6                     0.999994         177.672                0               0                0               0                0               0                0               0                0               0
                      0.00193881        -92.3989                0               0                0               0                0               0                0               0                0               0
                    9.85989e-005        -92.0959                0               0                0               0                0               0                0               0                0               0
                     0.000983057         87.8142                0               0                0               0                0               0                0               0                0               0
                     0.000202159          88.928                0               0                0               0                0               0                0               0                0               0
                     1.5488e-005        -107.244                0               0                0               0                0               0                0               0                0               0
0.66                    0.999991         177.439                0               0                0               0                0               0                0               0                0               0
                      0.00213257        -92.5731                0               0                0               0                0               0                0               0                0               0
                      0.00010856        -91.0447                0               0                0               0                0               0                0               0                0               0
                      0.00108133         87.4042                0               0                0               0                0               0                0               0                0               0
                     0.000222314         87.8673                0               0                0               0                0               0                0               0                0               0
                    1.65089e-005        -94.5299                0               0                0               0                0               0                0               0                0               0
0.72                    0.999987         177.207                0               0                0               0                0               0                0               0                0               0
                      0.00232713        -92.7594                0               0                0               0                0               0                0               0                0               0
                     0.000119386         -90.252                0               0                0               0                0               0                0               0                0               0
                      0.00117837         87.0265                0               0                0               0                0               0                0               0                0               0
                     0.000241244         86.9734                0               0                0               0                0               0                0               0                0               0
                    1.96845e-005        -84.8417                0               0                0               0                0               0                0               0                0               0
0.78                    0.999984         176.974                0               0                0               0                0               0                0               0                0               0
                      0.00252234        -92.9631                0               0                0               0                0               0                0               0                0               0
                      0.00013091        -89.8261                0               0                0               0                0               0                0               0                0               0
                      0.00127432          86.697                0               0                0               0                0               0                0               0                0               0
                     0.000259112         86.3214                0               0                0               0                0               0                0               0                0               0
                    2.43185e-005        -80.5496                0               0                0               0                0               0                0               0                0               0
0.84                    0.999982         176.742                0               0                0               0                0               0                0               0                0               0
                      0.00271794        -93.1862                0               0                0               0                0               0                0               0                0               0
