! Touchstone file from project gndCpw
! Exported from HFSS 14.0.0
! Variables:
!  airbox_h = 500um
!  cc_h = 6.7um
!  cc_l = 2mm
!  cc_w = 70um
!  cpw_pitch = 155um
!  gap = 70um
!  l_2_via1 = 250um
!  length = 500um
!  oc_w = 70um
!  s = 30um
!  sub_h = 100um
!  sub_w = 465um
!  via_r = 30um
!  wp_w_factor = 1.3
!Data is not renormalized
# GHZ S MA
! Modal data exported
! Port[1] = 1:1
! Port[2] = 2:1
75               0.00704607529970448 -86.1700776742048 0.984080364193039 -108.439410263506 0.984080364196934 -108.439410263507 0.00694751014337044 -85.9407145828164 
! Gamma  !      10.3322101252995 3736.34654552359 9.8996147444026  3736.11167025233 
! Port Impedance  49.6880494439638 -0.112098324722594 49.626538212863  -0.112974315275203 

75.35            0.007061909975316 -87.0684742612378 0.984052035941887 -108.962681869182 0.984052035945923 -108.962681869183 0.00697270556758125 -86.845627118644 
! Gamma  !      10.3570292406394 3754.4893182725  9.92304800264537 3754.25327802224 
! Port Impedance  49.6838474240077 -0.111842377083077 49.6212691755067 -0.112779319033166 

75.7             0.00707354034684172 -87.970896168829 0.984023648290401 -109.486232803522 0.984023648294567 -109.486232803522 0.00699370532199397 -87.7577677932422 
! Gamma  !      10.3818044442734 3772.64217193038 9.9464409654302  3772.40495100522 
! Port Impedance  49.6797388576816 -0.111589089076027 49.6161887521379 -0.112581064661906 

76.05            0.00708076433008491 -88.8752263230505 0.983995197565354 -110.010065040381 0.983995197569641 -110.010065040381 0.00701025358537343 -88.6749711810229 
! Gamma  !      10.4065342441662 3790.80514745795 9.96979223585404 3790.5667302268  
! Port Impedance  49.6757232004593 -0.111338459894546 49.6112914188973 -0.112379945433923 

76.4             0.00708340178669605 -89.7791366991933 0.983966679950221 -110.534180555149 0.98396667995462 -110.534180555149 0.00702211510100601 -89.5948182970931 
! Gamma  !      10.4312171597359 3808.9782857626  9.9931004277928  3808.73865665884 
! Port Impedance  49.6717999099145 -0.111090488012829 49.6065718784166 -0.112176327615292 

76.75            0.00708129912014716 -90.6800915537817 0.98393809148299 -111.05858132455 0.98393809148749 -111.058581324549 0.00702908099506768 -90.5146378714669 
! Gamma  !      10.4558517221878 3827.16162769704 10.0163641662155 3826.92077121829 
! Port Impedance  49.6679684458192 -0.110845171213573 49.6020250484054 -0.111970552375148 

77.1             0.00707433382175374 -91.5753544070088 0.983909428053959 -111.583269326439 0.983909428058551 -111.583269326437 0.00703097468258235 -91.4315125060384 
! Gamma  !      10.4804364748514 3845.355214058   10.0395820875012 3845.11311476583 
! Port Impedance  49.6642282702386 -0.110602506614617 49.5976460509188 -0.111762937548343 

77.45            0.00706241882911503 -92.4619990599638 0.983880685403525 -112.108246539594 0.9838806854082  -112.108246539592 0.00702765767828016 -92.3422902006909 
! Gamma  !      10.5049699735216 3863.55908558493 10.0627528397587 3863.31572810466 
! Port Impedance  49.6605788476204 -0.11036249069481 49.5934302022596 -0.111553779263669 

77.8             0.00704550655008709 -93.3369248399344 0.98385185911996 -112.633514943508 0.983851859124708 -112.633514943506 0.007019035108453 -93.2436016076558 
! Gamma  !      10.5294507868009 3881.77328295868 10.0858750831493 3881.52865197917 
! Port Impedance  49.6570196448808 -0.110125119319127 49.5893730034718 -0.111343353448884 

78.15            0.00702359240267484 -94.196876158097 0.983822944637172 -113.159076518177 0.983822944641984 -113.159076518175 0.00700506070762886 -94.1318832116316 
! Gamma  !      10.5538774964469 3899.99784680021 10.1089474902126 3899.7519270737  
! Port Impedance  49.6535501314856 -0.10989038776306 49.5854701313856 -0.111131917222743 

78.5             0.00699671772608425 -95.0384663412248 0.983793937232456 -113.684933243877 0.983793937237322 -113.684933243874 0.00698574108286486 -95.0034064428326 
! Gamma  !      10.5782486977212 3918.23281766931 10.1319687461949 3917.98559401124 
! Port Impedance  49.6501697795278 -0.109658290736288 49.5817174301764 -0.11091971018333 

78.85            0.00696497193118184 -95.8582055682784 0.983764832024238 -114.211087100945 0.983764832029149 -114.211087100942 0.00696113904032169 -95.854312519746 
! Gamma  !      10.6025629997425 3936.4782360633  10.1549375493809 3936.22969335223 
! Port Impedance  49.6468780638012 -0.109428822405653 49.5781109034046 -0.110706955601145 

79.2             0.00692849377971339 -96.6525326106092 0.983735623969798 -114.737540069555 0.983735623974745 -114.737540069552 0.00693137579416944 -96.6806525992607 
! Gamma  !      10.6268190258423 3954.73414241577 10.1778526114282 3954.48426559321 
! Port Impedance  49.6436744618699 -0.109201976417456 49.5746467065038 -0.11049386152463 

79.55            0.00688747171009078 -97.4178499482448 0.983706307862997 -115.264294129489 0.983706307867972 -115.264294129486 0.00689663191621674 -97.4784325970812 
! Gamma  !      10.6510154139247 3973.00057709528 10.200712657705  3972.74935116565 
! Port Impedance  49.6405584541351 -0.108977745919085 49.5713211396894 -0.11028062180518 

79.9             0.00684214316193661 -98.1505617214709 0.98367687833198 -115.791351259903 0.983676878336973 -115.7913512599  0.00685714693409375 -98.2436618445881 
! Gamma  !      10.6751508168281 3991.27758040412 10.223516427631  3991.02499043467 
! Port Impedance  49.6375295238968 -0.108756123580005 49.568130641259  -0.110067417048023 

80.25            0.0067927928898495 -98.8471138829173 0.983647329836878 -116.318713439089 0.983647329841881 -116.318713439085 0.00681321754329082 -98.9724045823063 
! Gamma  !      10.6992239026914 4009.56519257699 10.2462626750211 4009.31122369776 
! Port Impedance  49.6345871574141 -0.108537101612099 49.5650717812608 -0.109854415494829 

80.6             0.00673975029656399 -99.5040358453357 0.983617656667496 -116.846382644237 0.983617656672501 -116.846382644233 0.00676519445985009 -99.660833165394 
! Gamma  !      10.7232333553231 4027.86345377981 10.2689501684323 4027.60809118359 
! Port Impedance  49.6317308439601 -0.108320671789412 49.5621412555064 -0.10964177384339 

80.95            0.00668338585417566 -100.117982876872 0.983587852940998 -117.374360851188 0.983587852945995 -117.374360851184 0.00671347800148331 -100.305281780059 
! Gamma  !      10.7471778745734 4046.17240410839 10.2915776915139 4045.91563305075 
! Port Impedance  49.6289600758755 -0.108106825467281 49.5593358799058 -0.109429638009267 

81.3             0.00662410671680536 -100.685778479188 0.983557912599576 -117.90265003419 0.983557912604558 -117.902650034186 0.00665851254076485 -100.902299444312 
! Gamma  !      10.7710561767103 4064.49208358722 10.314144043361  4064.23388938647 
! Port Impedance  49.6262743486177 -0.107895553600883 49.5566525851058 -0.109218143833874 

81.65            0.00656235165674273 -101.204455992183 0.983527829408117 -118.431252165638 0.983527829413075 -118.431252165634 0.00660078002072932 -101.448701090263 
! Gamma  !      10.7948669947987 4082.82253216817 10.3366480388705 4082.56290020545 
! Port Impedance  49.623673160808  -0.107686846763214 49.5540884114114 -0.109007417743096 

82               0.00649858547704947 -101.671298698203 0.983497596951861 -118.960169215824 0.983497596956787 -118.96016921582 0.00654079275753126 -101.941615592473 
! Gamma  !      10.8186090790829 4101.16378972928 10.3590885091016 4100.90270544858 
! Port Impedance  49.6211560142749 -0.107480695162512 49.5516405039745 -0.108797577360205 

82.35            0.00643329306584183 -102.083877742816 0.98346720863405 -119.489403152674 0.983467208638937 -119.489403152669 0.00647908577490262 -102.378529708851 
! Gamma  !      10.8422811973731 4119.51589607347 10.3814643016385 4119.25334498168 
! Port Impedance  49.6187224140955 -0.107277088659133 49.5493061082331 -0.108588732076516 

82.7             0.00636697326080276 -102.440087242215 0.983436657673574 -120.018955941481 0.983436657678414 -120.018955941477 0.0064162089204781 -102.757327026555 
! Gamma  !      10.8658821354345 4137.87889092731 10.4037742809564 4137.61485859435 
! Port Impedance  49.616371868634  -0.107076016781909 49.5470825655853 -0.108380983582948 

83.05            0.00630013268743472 -102.738176002923 0.983405937102609 -120.548829544643 0.983405937107394 -120.548829544638 0.00635271900550733 -103.076321144561 
! Gamma  !      10.8894106973807 4156.25281393976 10.4260173287919 4155.98728599865 
! Port Impedance  49.6141038895771 -0.106877468743978 49.5449673092853 -0.108174426365394 

83.4             0.00623327972231631 -102.976775332718 0.98337503976425 -121.079025921381 0.983375039768972 -121.079025921376 0.00628917218903198 -103.334282467471 
! Gamma  !      10.9128657060706 4174.63770468094 10.4481923445155 4174.37066682791 
! Port Impedance  49.6119179919674 -0.106681433458127 49.5429578605476 -0.107969148166577 

83.75            0.00616691871478463 -103.154922469296 0.983343958310138 -121.609547027469 0.983343958314791 -121.609547027465 0.00622611679806825 -103.530458124672 
! Gamma  !      10.9362460035083 4193.03360264083 10.4702982455084 4192.76504063548 
! Port Impedance  49.6098136942344 -0.106487899551644 49.5410518248468 -0.107765230416833 

84.1             0.00610154457888941 -103.272079194426 0.983312685198088 -122.140394814951 0.983312685202664 -122.140394814946 0.00616408673989743 -103.664584661367 
! Gamma  !      10.9595504512472 4211.44054722808 10.4923339675419 4211.1704468935  
! Port Impedance  49.6077905182232 -0.106296855380686 49.5392468884026 -0.107562748636104 

84.45            0.0060376378440439 -103.328145237732 0.983281212689704 -122.671571231853 0.983281212694198 -122.671571231848 0.00610359562443618 -103.736893272642 
! Gamma  !      10.9827779307975 4229.85857776872 10.5142984651612 4229.58692499168 
! Port Impedance  49.6058479892202 -0.106108289044199 49.5375408148389 -0.107361772809206 

84.8             0.00597566022927091 -103.32346611005 0.983249532848003 -123.203078221896 0.983249532852407 -123.203078221892 0.00604513167672318 -103.748107471191 
! Gamma  !      11.0059273440375 4248.28773350494 10.5361907120717 4248.01451423604 
! Port Impedance  49.6039856359778 -0.105922188397384 49.5359314420067 -0.107162367736289 

85.15            0.00591605078374959 -103.258835047371 0.983217637535026 -123.734917724204 0.983217637539333 -123.734917724199 0.00598915348415406 -103.69943319782 
! Gamma  !      11.0289976136283 4266.7280535938  10.5580097015295 4266.45325384769 
! Port Impedance  49.6022029907361 -0.105738541064717 49.5344166789619 -0.106964593360276 

85.5             0.00585922261656496 -103.135488799825 0.983185518409452 -124.267091672999 0.983185518413657 -124.267091672994 0.00593608659187002 -103.592541506664 
! Gamma  !      11.0519876834327 4285.17957710603 10.5797544467352 4284.90318296157 
! Port Impedance  49.6004995892432 -0.10555733445256 49.532994503089  -0.106768505072894 

85.85            0.00580556022178262 -102.955097072928 0.983153166924213 -124.799601997305 0.983153166928309 -124.799601997301 0.00588632093360538 -103.429544088582 
! Gamma  !      11.0748965189376 4303.64234302471 10.6014239812311 4303.36434062525 
! Port Impedance  49.5988749707732 -0.105378555761345 49.5316629573635 -0.106574154000808 

86.2             0.00575541739144619 -102.719745526237 0.983120574324105 -125.332450620641 0.983120574328087 -125.332450620636 0.00584020906462524 -103.212962038932 
! Gamma  !      11.0977231076801 4322.1163902441  10.6230173593022 4321.83676579765 
! Port Impedance  49.5973286781421 -0.105202191997359 49.5304201477433 -0.106381587273257 

86.55            0.00570911569871206 -102.431912360965 0.983087731643403 -125.865639460705 0.983087731647265 -125.8656394607  0.00579806514792592 -102.945688429469 
! Gamma  !      11.1204664596777 4340.6017575683  10.6445336563806 4340.32049734781 
! Port Impedance  49.5958602577226 -0.105028229984145 49.5292642406842 -0.106190848272469 

86.9             0.00566694352571929 -102.094438682989 0.983054629703469 -126.399170429062 0.983054629707206 -126.399170429058 0.00576016463405037 -102.630945404281 
! Gamma  !      11.1431256078619 4359.09848371006 10.6659719694539 4358.81557405366 
! Port Impedance  49.5944692594567 -0.10485665637351 49.528193460772  -0.106001976868054 

87.25            0.00562915560540695 -101.710493007007 0.983021259110377 -126.933045430826 0.983021259113984 -126.933045430822 0.00572674456791566 -102.272236679107 
! Gamma  !      11.1656996085164 4377.60660728947 10.6873314174768 4377.32203460077 
! Port Impedance  49.5931552368666 -0.104687457656175 49.5272060884633 -0.105815009636458 

87.6             0.00559597304273909 -101.283530463125 0.982987610252526 -127.467266364332 0.982987610255997 -127.467266364327 0.00569800445212669 -101.873296471663 
! Gamma  !      11.1881875417185 4396.12616683273 10.7086111417866 4395.83991758104 
! Port Impedance  49.5919177470642 -0.104520620172059 49.5263004579324 -0.105629980066516 

87.95            0.00556758377810808 -100.817247466843 0.982953673298264 -128.001835120808 0.982953673301595 -128.001835120803 0.00567410759458797 -101.43803601573 
! Gamma  !      11.2105885117848 4414.65720077089 10.7298103065228 4414.36926149155 
! Port Impedance  49.590756350759  -0.104356130120216 49.5254749550152 -0.105446918752036 

88.3             0.00554414345359019 -100.315532802823 0.982919438193513 -128.536753584044 0.982919438196701 -128.53675358404 0.00565518286818215 -100.970488901716 
! Gamma  !      11.2329016477208 4433.19974743854 10.7509280990497 4432.91010473323 
! Port Impedance  49.5896706122643 -0.104193973568428 49.5247280152474 -0.105265853572292 

88.65            0.00552577664089229 -99.7824162358974 0.982884894659406 -129.072023630053 0.982884894662445 -129.07202363005 0.00564132681138868 -100.47475653072 
! Gamma  !      11.2551261036747 4451.75384507258 10.7719637303833 4451.46248560961 
! Port Impedance  49.5886600995024 -0.104034136462482 49.524058121991  -0.105086809861229 

89               0.00551257838809126 -99.2220158846961 0.982850032189918 -129.607647126731 0.982850032192805 -129.607647126727 0.00563260600066844 -99.9549549605193 
! Gamma  !      11.2772610593947 4470.31953181096 10.792916435622  4470.02644232558 
! Port Impedance  49.5877243840079 -0.103876604635105 49.523463804645  -0.104909810566145 

89.35            0.00550461604061604 -98.6384856613332 0.982814840049518 -130.143625933506 0.982814840052249 -130.143625933502 0.00562905962808348 -99.4151643573588 
! Gamma  !      11.299305720691  4488.89684569133 10.8137854743808 4488.60201298612 
! Port Impedance  49.5868630409303 -0.103721363814608 49.5229436369347 -0.104734876396538 

89.7             0.00550193129047172 -98.035964086664 0.982779307270815 -130.679961900992 0.982779307273388 -130.679961900988 0.00563070222090335 -98.8593821489393 
! Gamma  !      11.3212593199015 4507.48582464987 10.8345701312298 4507.18923559499 
! Port Impedance  49.5860756490347 -0.103568399633218 49.5224962352776 -0.104562025963763 

90.05            0.00550454240665391 -97.4185257318036 0.982743422652228 -131.21665687063 0.982743422654639 -131.216656870627 0.0056375264438745 -98.2914808082229 
! Gamma  !      11.3431211163616 4526.0865065199  10.8552697161361 4525.78814805353 
! Port Impedance  49.5853617907018 -0.103417697635115 49.5221202572206 -0.104391275912114 

90.4             0.00551244659928027 -96.7901364158409 0.982707174755649 -131.753712674331 0.982707174757896 -131.753712674328 0.00564950592940851 -97.7151709953754 
! Gamma  !      11.3648903968785 4544.69892903066 10.8758835649103 4544.39878815931 
! Port Impedance  49.5847210519264 -0.103269243284191 49.5218143999443 -0.104222641041876 

90.75            0.00552562247038708 -96.1546131154518 0.982670551904131 -132.291131134109 0.982670551906211 -132.291131134106 0.00566659808616918 -97.1339705599258 
! Gamma  !      11.3865664762093 4563.32312980601 10.8964110396562 4563.02119360489 
! Port Impedance  49.5841530223148 -0.103123021971526 49.5215773988333 -0.104056134424872 

91.1             0.00554403250575855 -95.515589327325 0.982633542179579 -132.828914061714 0.98263354218149 -132.828914061711 0.0056887468423471 -96.5511796718462 
! Gamma  !      11.4081486975435 4581.95914636309 10.9168515292248 4581.65540197653 
! Port Impedance  49.5836572950816 -0.102979019022599 49.521408026107  -0.103891767512997 

91.45            0.0055676255646447 -94.8764863847819 0.98259613342046 -133.367063258256 0.982596133422201 -133.367063258254 0.00571588528619184 -95.9698621232712 
! Gamma  !      11.4296364329895 4600.60701611109 10.9372044496726 4600.30145075288 
! Port Impedance  49.5832334670448 -0.102837219704236 49.5213050895085 -0.103729550240174 

91.8             0.00559633932775463 -94.2404909826027 0.98255831321952 -133.905580513829 0.982558313221088 -133.905580513827 0.00574793817296465 -95.3928326347943 
! Gamma  !      11.4510290840659 4619.2667763499  10.9574692447233 4618.95937730369 
! Port Impedance  49.5828811386202 -0.102697609231308 49.5212674310495 -0.103569491118162 

92.15            0.00563010266836726 -93.6105389250808 0.982520068921521 -134.444467607128 0.982520068922918 -134.444467607125 0.005784824274181 -94.8226498217658 
! Gamma  !      11.4723260821968 4637.93846426882 10.9776453862344 4637.62921888853 
! Port Impedance  49.5825999138151 -0.10256017277318 49.5212939258081 -0.103411597326605 

92.5             0.00566883791658628 -92.9893048956556 0.982481387620996 -134.983726305059 0.982481387622219 -134.983726305057 0.00582645855162392 -94.2616143334882 
! Gamma  !      11.4935268892109 4656.62211694521 10.9977323746667 4656.31101265546 
! Port Impedance  49.5823894002208 -0.102424895459927 49.5213834807755 -0.103255874797678 

92.85            0.00571246299243446 -92.3791978627963 0.982442256160012 -135.523358362351 0.982442256161061 -135.52335836235 0.00587275414491771 -93.7117715749161 
! Gamma  !      11.514630997846  4675.31777134324 11.0177297395594 4675.00479563973 
! Port Impedance  49.5822492090043 -0.10229176238831 49.5215350337522 -0.103102328295685 

93.2             0.00576089338936575 -91.7823615928904 0.982402661125961 -136.063365521159 0.982402661126836 -136.063365521158 0.00592362416727788 -93.1749183564112 
! Gamma  !      11.535637932257  4694.02546431252 11.037637040008  4693.71060476247 
! Port Impedance  49.582178954899  -0.102160758627538 49.5217475522883 -0.102950961491906 

93.55            0.00581404399560708 -91.2006796395986 0.982362588849365 -136.603749510659 0.982362588850067 -136.603749510657 0.00597898330925173 -92.6526127896314 
! Gamma  !      11.5565472485289 4712.74523258676 11.0574538651471 4712.42847682934 
! Port Impedance  49.5821782561955 -0.102031869224808 49.5220200326675 -0.102801777035003 

93.9             0.00587183074628821 -90.6357841198378 0.982322025401704 -137.144512046646 0.982322025402233 -137.144512046645 0.00603874925473492 -92.1461867520862 
! Gamma  !      11.5773585351939 4731.47711278249 11.0771798346375 4731.15844852925 
! Port Impedance  49.58224673473   -0.101905079210629 49.5223514989327 -0.102654776617253 

94.25            0.00593417210438358 -90.0890675657511 0.982280956593267 -137.685654831124 0.982280956593624 -137.685654831123 0.00610284391724075 -91.6567602734365 
! Gamma  !      11.5980714137531 4750.22114139766 11.0968145991569 4749.90055643299 
! Port Impedance  49.5823840158739 -0.101780373603956 49.5227410019505 -0.102509961036868 

94.6             0.00600099037293373 -89.561697154236 0.982239367971018 -138.227179551888 0.982239367971205 -138.227179551888 0.006171194507302 -91.1852572468848 
