! Touchstone file exported from HFSS 2019.2.0
!
# GHZ S MA R 50.000000
! Modal data exported
! Port[1] = 1:1
! Port[2] = 2:1
! Port[3] = 3:1
! Port[4] = 4:1
! Port[5] = 5:1
! Port[6] = 6:1
! Port[7] = 7:1
! Port[8] = 8:1
0.045                          0.819488474009944 165.956546448496 3.13107392991582E-05 -21.4299003391523 0.556377072909146 -166.263670796882 0.0668194912783704 123.210248520038 
                0.00924509385804822 68.6419876445361 0.00125669025204015 40.2893916742433 0.000223545271856673 60.1304730021673 9.84395310953911E-05 82.3354619625718 
                3.13107392991582E-05 -21.4299003391523 0.823167614476652 -30.2693011317863 9.59312920617283E-05 169.688960475125 0.000229770798809021 145.511326432876 
                0.00126170681118288 122.94026010695  0.00926997311782849 150.578051060169 0.0669361040158998 -154.942310707325 0.557303956869274 -84.4009317551041 
                0.556377072909146 -166.263670796882 9.59312920617283E-05 169.688960475125 0.804563921668786 42.2337629952195 0.204357844277707 -50.0741973086256 
                0.0282734616669093 -104.588167728519 0.00373743318742177 -132.106966121784 0.000659900155436503 -109.009476951133 0.000300021218313488 -86.6641016139295 
                0.0668194912783704 123.210248520038 0.00022977079880902 145.511326432876 0.204357844277707 -50.0741973086256 0.952870179484748 42.8348074124248 
                0.217632670359832 -48.3341254183689 0.0300468003181239 -103.634193174458 0.00401544703454775 -132.450934754327 0.00068586668463537 -106.633093630258 
                0.00924509385804822 68.6419876445361 0.00126170681118288 122.94026010695  0.0282734616669093 -104.588167728519 0.217632670359832 -48.3341254183689 
                0.951850337984183 42.7227817323981 0.217502090480064 -48.4030534106684 0.0300553086884861 -103.633277662989 0.00375663387207541 -131.416055779402 
                0.00125669025204015 40.2893916742433 0.00926997311782849 150.578051060169 0.00373743318742177 -132.106966121784 0.0300468003181239 -103.634193174458 
                0.217502090480064 -48.4030534106684 0.951850373597689 42.7277411388385 0.217633189042467 -48.3349333557352 0.028315943135753 -104.538238884422 
                0.000223545271856673 60.1304730021673 0.0669361040158998 -154.942310707325 0.000659900155436504 -109.009476951133 0.00401544703454775 -132.450934754327 
                0.0300553086884861 -103.633277662989 0.217633189042467 -48.3349333557352 0.95284898470858 42.8317468473651 0.204436420503487 -50.0956172513953 
                9.84395310953911E-05 82.3354619625718 0.557303956869274 -84.4009317551041 0.000300021218313488 -86.6641016139295 0.00068586668463537 -106.633093630258 
                0.00375663387207541 -131.416055779402 0.028315943135753 -104.538238884422 0.204436420503487 -50.0956172513953 0.804726861301663 42.1851322768428 
! Gamma         !               0.00140403162136179 0.944536382369955 0.00140403037066379 0.944536380855541 0.00319552833371885 0.946339792415383 0.00321173158908117 0.946358836869526 
!               0.00320398089816656 0.946347370554671 0.00320510022337626 0.946348212568956 0.00320432332994362 0.946351446282716 0.00320513293789884 0.946347878497865 
! Port Impedance30.054603588375  -0.0446671401418543 30.0546541419751 -0.0446671515768952 7.72784620796527 -0.0263555307266157 7.73823149330113 -0.0263664181426637 
!               7.72785444607172 -0.0263557327064361 7.72862982951216 -0.0263554336137685 7.7375311272741  -0.0263677187640197 7.72750984631558 -0.0263561044347578 

0.0451                         0.819468127236839 165.147310891102 3.14216422139881E-05 -22.0259916502431 0.55641012807468 -166.704803913279 0.0666967482254703 122.715378781785 
                0.00921296035137754 68.1378615892636 0.00125033544482254 39.8912490373415 0.000223430324266554 59.9218984912001 9.87231139201463E-05 82.0436121889519 
                3.14216422139881E-05 -22.0259916502431 0.82314806870401 -30.7138529289047 9.62571554673492E-05 169.493907675376 0.000229743486213283 145.452411188429 
                0.00125695450587412 122.563546014477 0.00923772451005214 150.259993624712 0.06681545454917 -155.250707920867 0.55734049082168 -84.6603201669057 
                0.55641012807468 -166.704803913279 9.62571554673492E-05 169.493907675376 0.804619945283114 42.1561169187217 0.204036950679571 -50.152168392415 
                0.0281819686364018 -104.675086119666 0.00371942477460385 -132.085828066197 0.000659950937219808 -108.787166160939 0.000300974542291339 -86.5540847979998 
                0.0666967482254703 122.715378781785 0.000229743486213282 145.452411188429 0.204036950679571 -50.152168392415 0.953020618164449 42.7432097098665 
                0.217310250150977 -48.4215778793952 0.0299511177163914 -103.732876144995 0.00399632087154942 -132.45080875549 0.000685833780360129 -106.43596390532 
                0.00921296035137754 68.1378615892636 0.00125695450587412 122.563546014477 0.0281819686364018 -104.675086119666 0.217310250150978 -48.4215778793952 
                0.952001084647166 42.6317678869055 0.217178002348435 -48.4901211882318 0.0299597557079122 -103.732230048605 0.00374053543504255 -131.401981075803 
                0.00125033544482254 39.8912490373415 0.00923772451005214 150.259993624712 0.00371942477460385 -132.085828066197 0.0299511177163914 -103.732876144995 
                0.217178002348435 -48.4901211882318 0.952000691755158 42.6367784957784 0.217309684865728 -48.4223075453292 0.0282236747664473 -104.625824471613 
                0.000223430324266554 59.9218984912001 0.06681545454917 -155.250707920867 0.000659950937219809 -108.787166160939 0.00399632087154943 -132.45080875549 
                0.0299597557079122 -103.732230048605 0.217309684865728 -48.4223075453292 0.952999778548887 42.7402227957835 0.204113974230898 -50.1736034838528 
                9.87231139201463E-05 82.0436121889519 0.55734049082168 -84.6603201669057 0.000300974542291339 -86.5540847979998 0.000685833780360129 -106.43596390532 
                0.00374053543504255 -131.401981075803 0.0282236747664473 -104.625824471613 0.204113974230898 -50.1736034838528 0.804782011510052 42.1073605737593 
! Gamma         !               0.00140559311455756 0.946633788889859 0.00140559186225119 0.946633787373518 0.00319909214428116 0.948439202627921 0.00321531652128266 0.948458269157094 
!               0.00320755339526466 0.948446788516535 0.00320867366907546 0.94844763140596 0.00320790004010079 0.948450870399419 0.00320870608658563 0.948447296780478 
! Port Impedance30.0545539328151 -0.0446176318132646 30.0546044864844 -0.0446176433160251 7.72781685827378 -0.0263264031226599 7.73820213017286 -0.0263372798284742 
!               7.72782509558713 -0.0263266054494012 7.72860047867507 -0.0263263073919678 7.73750176475747 -0.0263385769154006 7.72748049454883 -0.026326977656643 

0.0452                         0.819448120892887 164.338109236404 3.15321262598326E-05 -22.6251552846576 0.556442246155285 -167.145851106024 0.0665742274416438 122.221385269025 
                0.00918097475738274 67.6346479313549 0.00124406851839904 39.4937855597523 0.000223312909742469 59.7121625614637 9.90074519449266E-05 81.7512245106016 
                3.15321262598326E-05 -22.6251552846576 0.823129130532562 -31.1583866932545 9.65846900769707E-05 169.296639904727 0.000229714567544285 145.392910037846 
                0.00125186969546135 122.144109234231 0.00920562913817827 149.942388052965 0.0666950944961179 -155.558798241006 0.557376060923908 -84.9195651252831 
                0.556442246155285 -167.145851106024 9.65846900769707E-05 169.296639904727 0.804676295012947 42.0787667132101 0.203716852520553 -50.2298597276234 
                0.0280908913396561 -104.761563025603 0.00370157183546616 -132.063958708651 0.000659984903051399 -108.566294375382 0.00030193176126935 -86.4437572980244 
                0.0665742274416438 122.221385269025 0.000229714567544284 145.392910037846 0.203716852520553 -50.2298597276234 0.953170440150647 42.6519228414575 
                0.216988419288618 -48.5087434000179 0.0298558677487719 -103.831154831544 0.00397734507413663 -132.450030628131 0.000685798841618505 -106.239047589603 
                0.00918097475738274 67.6346479313549 0.00125186969546135 122.144109234231 0.0280908913396561 -104.761563025603 0.216988419288618 -48.5087434000179 
                0.952151246611864 42.5410653613778 0.216854584480716 -48.5769086570717 0.0298646149948385 -103.830742477855 0.00372413447010373 -131.391219956514 
                0.00124406851839904 39.4937855597523 0.00920562913817827 149.942388052965 0.00370157183546616 -132.063958708651 0.0298558677487719 -103.831154831544 
                0.216854584480716 -48.5769086570717 0.952150426059717 42.5461222111689 0.216986840375684 -48.5093979522397 0.0281318512812939 -104.712957448215 
                0.000223312909742469 59.7121625614637 0.0666950944961179 -155.558798241006 0.0006599849030514 -108.566294375382 0.00397734507413663 -132.450030628131 
                0.0298646149948385 -103.830742477855 0.216986840375684 -48.5093979522397 0.953149957110855 42.6490070443902 0.20379235229612 -50.251313673291 
                9.90074519449266E-05 81.7512245106016 0.557376060923908 -84.9195651252831 0.00030193176126935 -86.4437572980244 0.000685798841618505 -106.239047589603 
                0.00372413447010373 -131.391219956513 0.0281318512812939 -104.712957448215 0.20379235229612 -50.251313673291 0.804837474982284 42.0298811198899 
! Gamma         !               0.00140715287752421 0.948731193679669 0.00140715162360925 0.948731192161413 0.00320265200737799 0.950538608890702 0.00321889748413317 0.95055769746951 
!               0.00321112193428124 0.95054620251968 0.00321224315553563 0.950547046283279 0.00321147279008212 0.950550290550043 0.00321227527611867 0.950546711103913 
! Port Impedance30.0545044420193 -0.0445682875961967 30.0545549957577 -0.0445682991667615 7.72778760602121 -0.0262973719768064 7.73817286452796 -0.0263082380050306 
!               7.7277958425441  -0.0262975746481108 7.72857122528056 -0.0262972776209375 7.73747249972222 -0.0263095315738822 7.72745124022801 -0.0262979473306887             


