! Mini-Circuits								
! S2P DATA File Format								
! Type: LOW PASS FILTER								
! Model: LFCN-2352+								
! All S Parameters are in dB deg format								
! TEST CONDITIONS: INPUT POWER = 0 dBm - +125 deg C
# MHZ S DB R 50
!Frequency          S11 dB    S11 DEG     S21 dB    S21 DEG     S12 dB    S12 DEG     S22 dB    S22 DEG
  10.0000     -4.002228E+001 -4.503735E+001 -2.045485E-002 -2.160045E-001 -3.052544E-002 -2.031851E-001 -4.036396E+001 -5.884427E+001
  20.0000     -4.544709E+001  2.209830E+000 -2.276102E-002 -4.157551E-001 -3.175298E-002 -4.093197E-001 -4.700039E+001  8.251020E+000
  30.0000     -4.291907E+001  2.323727E+001 -2.405050E-002 -6.184204E-001 -3.358266E-002 -6.117838E-001 -4.346197E+001  3.038693E+001
  40.0000     -4.079576E+001  3.145406E+001 -2.495502E-002 -8.082174E-001 -3.471544E-002 -8.062171E-001 -4.131796E+001  3.769293E+001
  50.0000     -3.925475E+001  3.714179E+001 -2.571974E-002 -1.003501E+000 -3.514388E-002 -1.000414E+000 -3.977742E+001  4.215518E+001
  60.0000     -3.817379E+001  4.101793E+001 -2.643879E-002 -1.195495E+000 -3.733872E-002 -1.199265E+000 -3.849737E+001  4.456112E+001
  70.0000     -3.696860E+001  4.307343E+001 -2.761166E-002 -1.388051E+000 -3.828914E-002 -1.391592E+000 -3.756125E+001  4.651594E+001
  80.0000     -3.606609E+001  4.440139E+001 -2.870343E-002 -1.582459E+000 -3.950389E-002 -1.581969E+000 -3.657234E+001  4.669703E+001
  90.0000     -3.543448E+001  4.392200E+001 -2.971238E-002 -1.776817E+000 -4.029453E-002 -1.776049E+000 -3.569516E+001  4.689643E+001
 100.0000     -3.468929E+001  4.552637E+001 -3.056225E-002 -1.970813E+000 -4.092033E-002 -1.965698E+000 -3.494746E+001  4.574636E+001
 125.0000     -3.325499E+001  4.496177E+001 -3.355501E-002 -2.449366E+000 -4.375174E-002 -2.450560E+000 -3.338472E+001  4.404808E+001
 150.0000     -3.222187E+001  4.158325E+001 -3.674567E-002 -2.921206E+000 -4.677231E-002 -2.924302E+000 -3.223882E+001  4.221918E+001
 175.0000     -3.132180E+001  3.896597E+001 -3.916363E-002 -3.394843E+000 -4.919439E-002 -3.399086E+000 -3.151655E+001  4.060087E+001
 200.0000     -3.061918E+001  3.753818E+001 -4.153570E-002 -3.867083E+000 -5.148381E-002 -3.872573E+000 -3.092441E+001  3.837513E+001
 225.0000     -3.020649E+001  3.484574E+001 -4.345584E-002 -4.337720E+000 -5.372940E-002 -4.342731E+000 -3.054381E+001  3.574073E+001
 250.0000     -2.981105E+001  3.193437E+001 -4.594387E-002 -4.807823E+000 -5.605637E-002 -4.811427E+000 -3.004509E+001  3.376324E+001
 275.0000     -2.937153E+001  2.952160E+001 -4.840029E-002 -5.276840E+000 -5.868717E-002 -5.280248E+000 -2.947600E+001  3.060468E+001
 300.0000     -2.893657E+001  2.738879E+001 -5.082926E-002 -5.742961E+000 -6.113980E-002 -5.748422E+000 -2.902475E+001  2.869642E+001
 325.0000     -2.856391E+001  2.414069E+001 -5.316710E-002 -6.205728E+000 -6.280416E-002 -6.213544E+000 -2.874118E+001  2.706431E+001
 350.0000     -2.818662E+001  2.019825E+001 -5.476020E-002 -6.665724E+000 -6.454936E-002 -6.678432E+000 -2.845358E+001  2.568504E+001
 375.0000     -2.786380E+001  1.699905E+001 -5.552739E-002 -7.129618E+000 -6.602876E-002 -7.142673E+000 -2.813214E+001  2.358839E+001
 400.0000     -2.755840E+001  1.526494E+001 -5.712138E-002 -7.593643E+000 -6.718960E-002 -7.607506E+000 -2.785055E+001  2.097211E+001
 425.0000     -2.731572E+001  1.460748E+001 -5.883314E-002 -8.058007E+000 -6.881616E-002 -8.070901E+000 -2.747879E+001  1.747712E+001
 450.0000     -2.706289E+001  1.285388E+001 -6.003672E-002 -8.521914E+000 -7.030755E-002 -8.533874E+000 -2.719678E+001  1.455694E+001
 475.0000     -2.677938E+001  9.670960E+000 -6.157810E-002 -8.982821E+000 -7.202318E-002 -8.996086E+000 -2.699890E+001  1.246103E+001
 500.0000     -2.654989E+001  5.772497E+000 -6.236633E-002 -9.444101E+000 -7.326037E-002 -9.458724E+000 -2.678573E+001  1.137614E+001
 525.0000     -2.645900E+001  3.487976E+000 -6.305373E-002 -9.909631E+000 -7.436698E-002 -9.922383E+000 -2.658277E+001  9.671357E+000
 550.0000     -2.629842E+001  1.783213E+000 -6.457353E-002 -1.037655E+001 -7.568228E-002 -1.038734E+001 -2.644131E+001  6.780532E+000
 575.0000     -2.607486E+001 -6.845098E-002 -6.629566E-002 -1.083874E+001 -7.661728E-002 -1.085259E+001 -2.626630E+001  3.859321E+000
 600.0000     -2.577780E+001 -2.450693E+000 -6.779563E-002 -1.129833E+001 -7.802829E-002 -1.131392E+001 -2.600557E+001  8.232377E-001
 625.0000     -2.555027E+001 -4.993855E+000 -6.819849E-002 -1.175983E+001 -7.836892E-002 -1.177439E+001 -2.580253E+001 -1.318731E+000
 650.0000     -2.549547E+001 -7.663913E+000 -6.871800E-002 -1.222147E+001 -7.907172E-002 -1.223969E+001 -2.565557E+001 -2.811468E+000
 675.0000     -2.547300E+001 -9.836336E+000 -6.944647E-002 -1.268723E+001 -7.995684E-002 -1.270618E+001 -2.569496E+001 -5.178846E+000
 700.0000     -2.534726E+001 -1.172670E+001 -7.092144E-002 -1.315178E+001 -8.139867E-002 -1.316949E+001 -2.572296E+001 -7.831964E+000
 725.0000     -2.517354E+001 -1.388902E+001 -7.273813E-002 -1.361266E+001 -8.283869E-002 -1.363185E+001 -2.566356E+001 -1.031152E+001
 750.0000     -2.513229E+001 -1.620553E+001 -7.301991E-002 -1.407290E+001 -8.372306E-002 -1.409248E+001 -2.543115E+001 -1.270795E+001
 775.0000     -2.510623E+001 -1.864586E+001 -7.321214E-002 -1.453510E+001 -8.450140E-002 -1.455581E+001 -2.528714E+001 -1.436117E+001
 800.0000     -2.508562E+001 -2.149231E+001 -7.394180E-002 -1.500173E+001 -8.547385E-002 -1.502221E+001 -2.519951E+001 -1.581816E+001
 825.0000     -2.496428E+001 -2.349544E+001 -7.546356E-002 -1.546576E+001 -8.625825E-002 -1.548498E+001 -2.523156E+001 -1.841111E+001
 850.0000     -2.483014E+001 -2.580897E+001 -7.625048E-002 -1.592685E+001 -8.751054E-002 -1.594842E+001 -2.520033E+001 -2.094862E+001
 875.0000     -2.475288E+001 -2.831034E+001 -7.739991E-002 -1.638631E+001 -8.841458E-002 -1.640900E+001 -2.508763E+001 -2.384215E+001
 900.0000     -2.479216E+001 -3.065867E+001 -7.741956E-002 -1.684730E+001 -8.893155E-002 -1.687164E+001 -2.500321E+001 -2.624741E+001
 925.0000     -2.479790E+001 -3.211500E+001 -7.816803E-002 -1.731425E+001 -8.956489E-002 -1.733533E+001 -2.504933E+001 -2.844247E+001
 950.0000     -2.476784E+001 -3.349792E+001 -7.902157E-002 -1.777943E+001 -9.032680E-002 -1.779840E+001 -2.514153E+001 -3.059220E+001
 975.0000     -2.480066E+001 -3.557893E+001 -8.009419E-002 -1.824110E+001 -9.136815E-002 -1.826231E+001 -2.516628E+001 -3.304166E+001
1000.0000     -2.488396E+001 -3.845343E+001 -8.104230E-002 -1.870310E+001 -9.250181E-002 -1.872512E+001 -2.513368E+001 -3.497636E+001
1025.0000     -2.497660E+001 -4.131468E+001 -8.177302E-002 -1.916501E+001 -9.290692E-002 -1.918903E+001 -2.508317E+001 -3.656646E+001
1050.0000     -2.499971E+001 -4.365049E+001 -8.242229E-002 -1.962886E+001 -9.386059E-002 -1.965324E+001 -2.513273E+001 -3.825292E+001
1075.0000     -2.496898E+001 -4.573167E+001 -8.350727E-002 -2.009173E+001 -9.483948E-002 -2.011802E+001 -2.516505E+001 -4.072722E+001
1100.0000     -2.493029E+001 -4.782603E+001 -8.454919E-002 -2.055459E+001 -9.592177E-002 -2.057833E+001 -2.511991E+001 -4.399984E+001
1125.0000     -2.488798E+001 -5.046690E+001 -8.555976E-002 -2.101202E+001 -9.651859E-002 -2.103932E+001 -2.502038E+001 -4.649760E+001
1150.0000     -2.489960E+001 -5.234307E+001 -8.578887E-002 -2.147352E+001 -9.692269E-002 -2.150066E+001 -2.500924E+001 -4.831903E+001
1175.0000     -2.494098E+001 -5.330669E+001 -8.582987E-002 -2.193783E+001 -9.752093E-002 -2.196683E+001 -2.518303E+001 -4.962360E+001
1200.0000     -2.506821E+001 -5.451337E+001 -8.635226E-002 -2.240486E+001 -9.832982E-002 -2.243204E+001 -2.539632E+001 -5.183517E+001
1225.0000     -2.523574E+001 -5.692181E+001 -8.767480E-002 -2.286872E+001 -9.911676E-002 -2.289681E+001 -2.553267E+001 -5.434274E+001
1250.0000     -2.536631E+001 -5.988828E+001 -8.908600E-002 -2.333084E+001 -1.009386E-001 -2.336011E+001 -2.544344E+001 -5.659892E+001
1275.0000     -2.541493E+001 -6.216798E+001 -9.000139E-002 -2.379435E+001 -1.021708E-001 -2.382165E+001 -2.531960E+001 -5.820395E+001
1300.0000     -2.543177E+001 -6.388214E+001 -9.038385E-002 -2.425647E+001 -1.031262E-001 -2.428368E+001 -2.535081E+001 -5.999223E+001
1325.0000     -2.547558E+001 -6.551369E+001 -9.138069E-002 -2.472072E+001 -1.039354E-001 -2.474549E+001 -2.554894E+001 -6.222791E+001
1350.0000     -2.547615E+001 -6.787338E+001 -9.210429E-002 -2.518148E+001 -1.046683E-001 -2.520603E+001 -2.565574E+001 -6.508865E+001
1375.0000     -2.553111E+001 -7.029957E+001 -9.272759E-002 -2.564412E+001 -1.050656E-001 -2.567104E+001 -2.569901E+001 -6.757087E+001
1400.0000     -2.562010E+001 -7.163641E+001 -9.407949E-002 -2.610652E+001 -1.058211E-001 -2.613432E+001 -2.570271E+001 -6.890573E+001
1425.0000     -2.571027E+001 -7.234248E+001 -9.510208E-002 -2.656832E+001 -1.068396E-001 -2.660006E+001 -2.582918E+001 -7.075860E+001
1450.0000     -2.573669E+001 -7.388010E+001 -9.569787E-002 -2.703014E+001 -1.080489E-001 -2.706176E+001 -2.611040E+001 -7.344297E+001
1475.0000     -2.582789E+001 -7.594028E+001 -9.605047E-002 -2.749284E+001 -1.087820E-001 -2.752302E+001 -2.629529E+001 -7.632887E+001
1500.0000     -2.592904E+001 -7.798145E+001 -9.703263E-002 -2.795400E+001 -1.096532E-001 -2.798628E+001 -2.629564E+001 -7.843287E+001
1525.0000     -2.619609E+001 -7.965575E+001 -9.827786E-002 -2.841763E+001 -1.104056E-001 -2.844960E+001 -2.633441E+001 -7.952099E+001
1550.0000     -2.648860E+001 -8.132330E+001 -9.864623E-002 -2.888089E+001 -1.113935E-001 -2.891090E+001 -2.657095E+001 -7.999510E+001
1575.0000     -2.659102E+001 -8.341634E+001 -9.905733E-002 -2.934278E+001 -1.121293E-001 -2.937523E+001 -2.682306E+001 -8.180109E+001
1600.0000     -2.651070E+001 -8.602589E+001 -1.000301E-001 -2.980584E+001 -1.131368E-001 -2.983746E+001 -2.694286E+001 -8.528703E+001
1625.0000     -2.649020E+001 -8.816320E+001 -1.010876E-001 -3.026707E+001 -1.142732E-001 -3.029898E+001 -2.683677E+001 -8.835803E+001
1650.0000     -2.662768E+001 -8.940667E+001 -1.024214E-001 -3.072804E+001 -1.150170E-001 -3.075772E+001 -2.686362E+001 -9.039218E+001
1675.0000     -2.680822E+001 -9.050025E+001 -1.031280E-001 -3.119187E+001 -1.158589E-001 -3.122174E+001 -2.720566E+001 -9.104510E+001
1700.0000     -2.689280E+001 -9.200630E+001 -1.035726E-001 -3.165709E+001 -1.163881E-001 -3.168675E+001 -2.769242E+001 -9.240573E+001
1725.0000     -2.697757E+001 -9.308664E+001 -1.045115E-001 -3.212052E+001 -1.173928E-001 -3.215015E+001 -2.800700E+001 -9.537998E+001
1750.0000     -2.713467E+001 -9.414557E+001 -1.052890E-001 -3.258224E+001 -1.188848E-001 -3.261152E+001 -2.806588E+001 -9.800014E+001
1775.0000     -2.750214E+001 -9.581612E+001 -1.062132E-001 -3.304440E+001 -1.195441E-001 -3.307143E+001 -2.805191E+001 -9.872382E+001
1800.0000     -2.782706E+001 -9.778103E+001 -1.070326E-001 -3.350555E+001 -1.201721E-001 -3.353411E+001 -2.813900E+001 -9.855195E+001
1825.0000     -2.788800E+001 -1.000845E+002 -1.083685E-001 -3.396734E+001 -1.212877E-001 -3.399617E+001 -2.836449E+001 -1.000569E+002
1850.0000     -2.786423E+001 -1.023740E+002 -1.092878E-001 -3.442864E+001 -1.223380E-001 -3.445760E+001 -2.866912E+001 -1.033608E+002
1875.0000     -2.801481E+001 -1.043423E+002 -1.101798E-001 -3.488728E+001 -1.229097E-001 -3.491845E+001 -2.880712E+001 -1.071026E+002
1900.0000     -2.831950E+001 -1.054380E+002 -1.106739E-001 -3.535063E+001 -1.236294E-001 -3.537876E+001 -2.896704E+001 -1.088623E+002
1925.0000     -2.853516E+001 -1.066311E+002 -1.117347E-001 -3.581289E+001 -1.244884E-001 -3.584261E+001 -2.914373E+001 -1.089491E+002
1950.0000     -2.857195E+001 -1.081781E+002 -1.126942E-001 -3.627667E+001 -1.253425E-001 -3.630563E+001 -2.947507E+001 -1.102832E+002
1975.0000     -2.863104E+001 -1.097897E+002 -1.140299E-001 -3.673867E+001 -1.268518E-001 -3.676714E+001 -2.990537E+001 -1.133941E+002
2000.0000     -2.891282E+001 -1.114839E+002 -1.151720E-001 -3.719806E+001 -1.284102E-001 -3.722500E+001 -3.019998E+001 -1.158253E+002
2025.0000     -2.939221E+001 -1.130481E+002 -1.157087E-001 -3.765906E+001 -1.287467E-001 -3.768443E+001 -3.029848E+001 -1.164049E+002
2050.0000     -2.976520E+001 -1.136098E+002 -1.166395E-001 -3.812136E+001 -1.296973E-001 -3.814715E+001 -3.044086E+001 -1.169246E+002
2075.0000     -2.980545E+001 -1.145810E+002 -1.175998E-001 -3.858374E+001 -1.311709E-001 -3.860946E+001 -3.085950E+001 -1.186689E+002
2100.0000     -2.987848E+001 -1.167007E+002 -1.184944E-001 -3.904679E+001 -1.318996E-001 -3.907245E+001 -3.130389E+001 -1.220535E+002
2125.0000     -3.020078E+001 -1.192264E+002 -1.197143E-001 -3.950590E+001 -1.331388E-001 -3.953394E+001 -3.153649E+001 -1.242406E+002
2150.0000     -3.059953E+001 -1.211492E+002 -1.205600E-001 -3.996676E+001 -1.342174E-001 -3.999401E+001 -3.150040E+001 -1.251741E+002
2175.0000     -3.081620E+001 -1.216165E+002 -1.217605E-001 -4.042665E+001 -1.351444E-001 -4.045282E+001 -3.177902E+001 -1.257439E+002
2200.0000     -3.078254E+001 -1.218889E+002 -1.222849E-001 -4.088744E+001 -1.355890E-001 -4.091428E+001 -3.248891E+001 -1.273499E+002
2225.0000     -3.080439E+001 -1.232487E+002 -1.233910E-001 -4.134787E+001 -1.367682E-001 -4.137629E+001 -3.324295E+001 -1.296745E+002
2250.0000     -3.112269E+001 -1.242354E+002 -1.244905E-001 -4.181055E+001 -1.375850E-001 -4.183828E+001 -3.349915E+001 -1.322418E+002
2275.0000     -3.166330E+001 -1.244220E+002 -1.255589E-001 -4.226992E+001 -1.384429E-001 -4.229824E+001 -3.346635E+001 -1.327350E+002
2300.0000     -3.202268E+001 -1.246120E+002 -1.264193E-001 -4.273237E+001 -1.396925E-001 -4.276079E+001 -3.357811E+001 -1.315146E+002
2325.0000     -3.209409E+001 -1.261243E+002 -1.270403E-001 -4.319398E+001 -1.409724E-001 -4.322240E+001 -3.424532E+001 -1.329009E+002
2350.0000     -3.215211E+001 -1.285300E+002 -1.274041E-001 -4.365651E+001 -1.419997E-001 -4.368275E+001 -3.518646E+001 -1.361090E+002
2375.0000     -3.231948E+001 -1.296398E+002 -1.283340E-001 -4.411838E+001 -1.432976E-001 -4.414382E+001 -3.563288E+001 -1.409707E+002
2400.0000     -3.257613E+001 -1.301588E+002 -1.293453E-001 -4.457743E+001 -1.443339E-001 -4.460401E+001 -3.581463E+001 -1.425252E+002
2425.0000     -3.276138E+001 -1.297750E+002 -1.302634E-001 -4.503709E+001 -1.450331E-001 -4.506524E+001 -3.612314E+001 -1.423407E+002
2450.0000     -3.263078E+001 -1.298086E+002 -1.306573E-001 -4.549745E+001 -1.458780E-001 -4.552739E+001 -3.712328E+001 -1.409302E+002
2475.0000     -3.260063E+001 -1.304954E+002 -1.320068E-001 -4.595897E+001 -1.470397E-001 -4.598928E+001 -3.835942E+001 -1.414582E+002
2500.0000     -3.301254E+001 -1.303033E+002 -1.324655E-001 -4.642128E+001 -1.471370E-001 -4.644961E+001 -3.942007E+001 -1.454502E+002
2525.0000     -3.364118E+001 -1.301002E+002 -1.331775E-001 -4.688401E+001 -1.481670E-001 -4.690960E+001 -3.939599E+001 -1.470805E+002
2550.0000     -3.375179E+001 -1.306194E+002 -1.342056E-001 -4.734579E+001 -1.494850E-001 -4.737092E+001 -3.942052E+001 -1.477660E+002
2575.0000     -3.356174E+001 -1.341473E+002 -1.349340E-001 -4.780363E+001 -1.504687E-001 -4.783249E+001 -4.035516E+001 -1.472889E+002
2600.0000     -3.343761E+001 -1.359233E+002 -1.363523E-001 -4.826377E+001 -1.515613E-001 -4.829337E+001 -4.200547E+001 -1.490471E+002
2625.0000     -3.366958E+001 -1.354685E+002 -1.370810E-001 -4.872551E+001 -1.522188E-001 -4.875291E+001 -4.374392E+001 -1.507138E+002
2650.0000     -3.393073E+001 -1.326003E+002 -1.377662E-001 -4.918575E+001 -1.531999E-001 -4.921400E+001 -4.478056E+001 -1.505483E+002
2675.0000     -3.380330E+001 -1.327486E+002 -1.391677E-001 -4.964436E+001 -1.542135E-001 -4.967454E+001 -4.523986E+001 -1.413481E+002
2700.0000     -3.342472E+001 -1.337697E+002 -1.396431E-001 -5.010384E+001 -1.548077E-001 -5.013280E+001 -4.614300E+001 -1.348060E+002
2725.0000     -3.340288E+001 -1.348176E+002 -1.397314E-001 -5.056338E+001 -1.558851E-001 -5.059179E+001 -4.876064E+001 -1.211562E+002
2750.0000     -3.387242E+001 -1.328917E+002 -1.402971E-001 -5.102568E+001 -1.564024E-001 -5.105296E+001 -5.012959E+001 -1.106014E+002
2775.0000     -3.436839E+001 -1.308370E+002 -1.411268E-001 -5.148788E+001 -1.568564E-001 -5.151483E+001 -5.003065E+001 -1.190468E+002
2800.0000     -3.461538E+001 -1.315113E+002 -1.425692E-001 -5.194936E+001 -1.574893E-001 -5.197350E+001 -4.874075E+001 -1.204677E+002
2825.0000     -3.434135E+001 -1.338646E+002 -1.438047E-001 -5.240980E+001 -1.582206E-001 -5.243711E+001 -4.929964E+001 -1.049988E+002
2850.0000     -3.419779E+001 -1.361870E+002 -1.446110E-001 -5.286802E+001 -1.594391E-001 -5.289661E+001 -5.075771E+001 -7.269839E+001
2875.0000     -3.462966E+001 -1.380383E+002 -1.453253E-001 -5.332693E+001 -1.600935E-001 -5.335585E+001 -5.120607E+001 -3.579297E+001
2900.0000     -3.506096E+001 -1.396381E+002 -1.459515E-001 -5.378813E+001 -1.607658E-001 -5.381584E+001 -4.981466E+001 -3.578395E+001
2925.0000     -3.446082E+001 -1.408387E+002 -1.465684E-001 -5.424973E+001 -1.618741E-001 -5.427553E+001 -4.888551E+001 -4.616323E+001
2950.0000     -3.378830E+001 -1.412547E+002 -1.473302E-001 -5.470719E+001 -1.627946E-001 -5.473448E+001 -4.524830E+001 -5.117044E+001
2975.0000     -3.389148E+001 -1.406440E+002 -1.481461E-001 -5.516412E+001 -1.633732E-001 -5.519591E+001 -4.322247E+001 -4.860472E+001
3000.0000     -3.442992E+001 -1.393983E+002 -1.490116E-001 -5.562477E+001 -1.642951E-001 -5.565606E+001 -4.286716E+001 -4.070778E+001
3025.0000     -3.461020E+001 -1.396329E+002 -1.493167E-001 -5.608622E+001 -1.648356E-001 -5.611611E+001 -4.396876E+001 -3.810374E+001
3050.0000     -3.450739E+001 -1.411756E+002 -1.499175E-001 -5.654794E+001 -1.653926E-001 -5.657840E+001 -4.499427E+001 -4.691975E+001
3075.0000     -3.443875E+001 -1.416606E+002 -1.513406E-001 -5.701075E+001 -1.661117E-001 -5.703668E+001 -4.420446E+001 -5.249656E+001
3100.0000     -3.497838E+001 -1.414504E+002 -1.515170E-001 -5.746991E+001 -1.669227E-001 -5.749878E+001 -4.210373E+001 -4.616989E+001
3125.0000     -3.608428E+001 -1.432280E+002 -1.519657E-001 -5.792793E+001 -1.672293E-001 -5.795603E+001 -4.097557E+001 -3.725092E+001
3150.0000     -3.645247E+001 -1.487556E+002 -1.528139E-001 -5.838904E+001 -1.677670E-001 -5.841503E+001 -4.074608E+001 -2.594330E+001
3175.0000     -3.561850E+001 -1.547029E+002 -1.534320E-001 -5.884991E+001 -1.686305E-001 -5.887511E+001 -4.041952E+001 -2.675373E+001
3200.0000     -3.504646E+001 -1.584731E+002 -1.548411E-001 -5.931057E+001 -1.695788E-001 -5.933458E+001 -3.977396E+001 -3.664593E+001
3225.0000     -3.534853E+001 -1.591946E+002 -1.554483E-001 -5.976671E+001 -1.701646E-001 -5.979219E+001 -3.882849E+001 -4.419354E+001
3250.0000     -3.580074E+001 -1.588844E+002 -1.552480E-001 -6.022635E+001 -1.700723E-001 -6.025240E+001 -3.833992E+001 -4.276537E+001
3275.0000     -3.564215E+001 -1.577709E+002 -1.555551E-001 -6.068539E+001 -1.701522E-001 -6.071100E+001 -3.832536E+001 -4.180658E+001
3300.0000     -3.542785E+001 -1.570463E+002 -1.558062E-001 -6.114738E+001 -1.706520E-001 -6.117200E+001 -3.896364E+001 -4.345427E+001
3325.0000     -3.577268E+001 -1.569860E+002 -1.567224E-001 -6.161134E+001 -1.709780E-001 -6.163399E+001 -3.888654E+001 -4.600206E+001
3350.0000     -3.698388E+001 -1.608846E+002 -1.579609E-001 -6.207103E+001 -1.715697E-001 -6.209351E+001 -3.838093E+001 -4.414711E+001
3375.0000     -3.835608E+001 -1.674616E+002 -1.586356E-001 -6.252884E+001 -1.718251E-001 -6.255349E+001 -3.744297E+001 -3.658454E+001
3400.0000     -3.838329E+001 -1.706771E+002 -1.584939E-001 -6.298537E+001 -1.721095E-001 -6.301149E+001 -3.700737E+001 -3.353846E+001
3425.0000     -3.762956E+001 -1.730900E+002 -1.581392E-001 -6.344584E+001 -1.728530E-001 -6.347158E+001 -3.722543E+001 -3.886982E+001
3450.0000     -3.763340E+001 -1.760178E+002 -1.582124E-001 -6.390654E+001 -1.732187E-001 -6.393344E+001 -3.706389E+001 -4.955857E+001
3475.0000     -3.833272E+001  1.780328E+002 -1.589701E-001 -6.436835E+001 -1.741966E-001 -6.439418E+001 -3.614647E+001 -5.169726E+001
3500.0000     -3.863469E+001  1.737671E+002 -1.602599E-001 -6.482920E+001 -1.745467E-001 -6.485417E+001 -3.528016E+001 -4.660971E+001
