! Mini-Circuits								
! S2P DATA File Format								
! Type: LOW PASS FILTER								
! Model: LFCN-2352+								
! All S Parameters are in dB deg format								
! TEST CONDITIONS: INPUT POWER = 0 dBm - +25 deg C
# MHZ S DB R 50
!Frequency          S11 dB    S11 DEG     S21 dB    S21 DEG     S12 dB    S12 DEG     S22 dB    S22 DEG
  10.0000     -4.010140E+001 -4.791718E+001 -1.965048E-002 -1.868977E-001 -2.149604E-002 -1.844229E-001 -4.033467E+001 -6.119190E+001
  20.0000     -4.676099E+001 -5.787296E+000 -2.067953E-002 -3.662735E-001 -2.187248E-002 -3.659779E-001 -4.822491E+001 -1.837017E-001
  30.0000     -4.480563E+001  1.966020E+001 -2.095522E-002 -5.488033E-001 -2.218574E-002 -5.488737E-001 -4.514723E+001  2.686484E+001
  40.0000     -4.272208E+001  3.033941E+001 -2.068112E-002 -7.244631E-001 -2.219218E-002 -7.300573E-001 -4.308820E+001  3.673411E+001
  50.0000     -4.116619E+001  3.762790E+001 -2.116936E-002 -9.059579E-001 -2.228034E-002 -9.074085E-001 -4.153572E+001  4.262867E+001
  60.0000     -4.002090E+001  4.214830E+001 -2.140019E-002 -1.086028E+000 -2.266320E-002 -1.090542E+000 -4.022987E+001  4.622218E+001
  70.0000     -3.862590E+001  4.402179E+001 -2.201316E-002 -1.266052E+000 -2.249826E-002 -1.271870E+000 -3.926766E+001  4.919038E+001
  80.0000     -3.757368E+001  4.455487E+001 -2.214310E-002 -1.446398E+000 -2.278852E-002 -1.451132E+000 -3.822267E+001  4.975045E+001
  90.0000     -3.684782E+001  4.296217E+001 -2.199807E-002 -1.627329E+000 -2.310921E-002 -1.630968E+000 -3.731017E+001  5.030970E+001
 100.0000     -3.602649E+001  4.414774E+001 -2.228832E-002 -1.804668E+000 -2.333674E-002 -1.810015E+000 -3.654404E+001  4.919956E+001
 125.0000     -3.453757E+001  4.326731E+001 -2.243054E-002 -2.253394E+000 -2.380966E-002 -2.258380E+000 -3.486016E+001  4.768933E+001
 150.0000     -3.362294E+001  4.063519E+001 -2.277792E-002 -2.700724E+000 -2.420158E-002 -2.708170E+000 -3.358486E+001  4.537496E+001
 175.0000     -3.263318E+001  3.970623E+001 -2.325610E-002 -3.151050E+000 -2.447586E-002 -3.158765E+000 -3.260938E+001  4.334433E+001
 200.0000     -3.159569E+001  3.924551E+001 -2.386507E-002 -3.599376E+000 -2.521873E-002 -3.608522E+000 -3.167570E+001  4.110838E+001
 225.0000     -3.074965E+001  3.676734E+001 -2.426885E-002 -4.046689E+000 -2.558150E-002 -4.056003E+000 -3.096615E+001  3.932159E+001
 250.0000     -3.017808E+001  3.309915E+001 -2.487796E-002 -4.492579E+000 -2.605496E-002 -4.503942E+000 -3.035389E+001  3.825134E+001
 275.0000     -2.985075E+001  3.027010E+001 -2.474073E-002 -4.941433E+000 -2.644603E-002 -4.951962E+000 -2.985363E+001  3.569596E+001
 300.0000     -2.945965E+001  2.845891E+001 -2.526361E-002 -5.390324E+000 -2.698260E-002 -5.400864E+000 -2.944903E+001  3.263680E+001
 325.0000     -2.901114E+001  2.662143E+001 -2.604149E-002 -5.841664E+000 -2.749201E-002 -5.852170E+000 -2.904551E+001  2.984602E+001
 350.0000     -2.845970E+001  2.416778E+001 -2.687704E-002 -6.289521E+000 -2.849621E-002 -6.300590E+000 -2.849346E+001  2.786025E+001
 375.0000     -2.800091E+001  2.100455E+001 -2.707781E-002 -6.735362E+000 -2.942959E-002 -6.746905E+000 -2.799041E+001  2.625058E+001
 400.0000     -2.764289E+001  1.817564E+001 -2.769223E-002 -7.181362E+000 -2.976004E-002 -7.193614E+000 -2.767828E+001  2.451429E+001
 425.0000     -2.738210E+001  1.631262E+001 -2.806456E-002 -7.629193E+000 -2.955027E-002 -7.640080E+000 -2.744284E+001  2.132814E+001
 450.0000     -2.709153E+001  1.457880E+001 -2.819860E-002 -8.077954E+000 -3.068323E-002 -8.088642E+000 -2.723200E+001  1.785213E+001
 475.0000     -2.677576E+001  1.219231E+001 -2.941211E-002 -8.523057E+000 -3.123554E-002 -8.535767E+000 -2.695711E+001  1.517724E+001
 500.0000     -2.648807E+001  9.128395E+000 -2.991142E-002 -8.969076E+000 -3.188352E-002 -8.980188E+000 -2.661040E+001  1.358411E+001
 525.0000     -2.628132E+001  6.723096E+000 -3.012577E-002 -9.413727E+000 -3.226003E-002 -9.427416E+000 -2.634658E+001  1.180329E+001
 550.0000     -2.609324E+001  4.710517E+000 -3.101447E-002 -9.860377E+000 -3.306948E-002 -9.876073E+000 -2.618510E+001  9.132401E+000
 575.0000     -2.587961E+001  2.966165E+000 -3.201677E-002 -1.030491E+001 -3.333987E-002 -1.032207E+001 -2.605231E+001  6.033079E+000
 600.0000     -2.566529E+001  6.886237E-001 -3.277228E-002 -1.074990E+001 -3.402916E-002 -1.076724E+001 -2.586296E+001  3.077349E+000
 625.0000     -2.550589E+001 -1.893092E+000 -3.269472E-002 -1.119335E+001 -3.445887E-002 -1.121165E+001 -2.569869E+001  8.417775E-001
 650.0000     -2.542144E+001 -4.589393E+000 -3.305294E-002 -1.163877E+001 -3.483018E-002 -1.165840E+001 -2.559443E+001 -9.597071E-001
 675.0000     -2.534458E+001 -6.664600E+000 -3.336557E-002 -1.208622E+001 -3.513552E-002 -1.210535E+001 -2.559048E+001 -3.633189E+000
 700.0000     -2.522724E+001 -8.688358E+000 -3.395039E-002 -1.253314E+001 -3.601346E-002 -1.255137E+001 -2.551478E+001 -6.313073E+000
 725.0000     -2.509090E+001 -1.113135E+001 -3.508735E-002 -1.298001E+001 -3.715825E-002 -1.299726E+001 -2.536683E+001 -8.454415E+000
 750.0000     -2.501605E+001 -1.384666E+001 -3.550638E-002 -1.342373E+001 -3.779919E-002 -1.344117E+001 -2.515889E+001 -1.027996E+001
 775.0000     -2.495576E+001 -1.632683E+001 -3.593753E-002 -1.386799E+001 -3.823588E-002 -1.388634E+001 -2.505580E+001 -1.207457E+001
 800.0000     -2.489196E+001 -1.859719E+001 -3.608305E-002 -1.431509E+001 -3.904252E-002 -1.433369E+001 -2.500106E+001 -1.446889E+001
 825.0000     -2.477382E+001 -2.053401E+001 -3.722523E-002 -1.475725E+001 -3.972558E-002 -1.477746E+001 -2.496612E+001 -1.775859E+001
 850.0000     -2.464637E+001 -2.303969E+001 -3.751248E-002 -1.519993E+001 -3.998185E-002 -1.522141E+001 -2.484770E+001 -2.044540E+001
 875.0000     -2.453654E+001 -2.576825E+001 -3.796814E-002 -1.564273E+001 -4.063628E-002 -1.566220E+001 -2.472418E+001 -2.273587E+001
 900.0000     -2.453605E+001 -2.792863E+001 -3.775596E-002 -1.608565E+001 -4.066664E-002 -1.610792E+001 -2.470856E+001 -2.475730E+001
 925.0000     -2.455182E+001 -2.916767E+001 -3.839242E-002 -1.653226E+001 -4.087052E-002 -1.655300E+001 -2.480772E+001 -2.721924E+001
 950.0000     -2.454450E+001 -3.050207E+001 -3.924233E-002 -1.697854E+001 -4.153160E-002 -1.700099E+001 -2.488311E+001 -2.997722E+001
 975.0000     -2.452887E+001 -3.293199E+001 -3.965311E-002 -1.742131E+001 -4.225371E-002 -1.744417E+001 -2.483851E+001 -3.255369E+001
1000.0000     -2.456781E+001 -3.602128E+001 -4.038090E-002 -1.786513E+001 -4.278557E-002 -1.788711E+001 -2.475411E+001 -3.417451E+001
1025.0000     -2.465299E+001 -3.882365E+001 -4.022737E-002 -1.830930E+001 -4.285479E-002 -1.833183E+001 -2.471731E+001 -3.552856E+001
1050.0000     -2.470899E+001 -4.113406E+001 -4.060188E-002 -1.875494E+001 -4.334346E-002 -1.877832E+001 -2.480270E+001 -3.738253E+001
1075.0000     -2.464560E+001 -4.326634E+001 -4.193123E-002 -1.920004E+001 -4.362050E-002 -1.922487E+001 -2.485487E+001 -4.014436E+001
1100.0000     -2.450647E+001 -4.555331E+001 -4.233007E-002 -1.964387E+001 -4.454364E-002 -1.966732E+001 -2.477959E+001 -4.339950E+001
1125.0000     -2.441849E+001 -4.807751E+001 -4.264835E-002 -2.008363E+001 -4.474050E-002 -2.010829E+001 -2.467582E+001 -4.590752E+001
1150.0000     -2.446389E+001 -4.984944E+001 -4.243376E-002 -2.052672E+001 -4.452573E-002 -2.055152E+001 -2.470510E+001 -4.766785E+001
1175.0000     -2.458389E+001 -5.091975E+001 -4.261758E-002 -2.097211E+001 -4.468694E-002 -2.099673E+001 -2.490588E+001 -4.926154E+001
1200.0000     -2.470231E+001 -5.232227E+001 -4.290265E-002 -2.141859E+001 -4.530360E-002 -2.144466E+001 -2.513449E+001 -5.147152E+001
1225.0000     -2.480540E+001 -5.481638E+001 -4.363913E-002 -2.186312E+001 -4.580285E-002 -2.188912E+001 -2.522690E+001 -5.380974E+001
1250.0000     -2.489434E+001 -5.786676E+001 -4.435612E-002 -2.230593E+001 -4.669794E-002 -2.233180E+001 -2.515143E+001 -5.596154E+001
1275.0000     -2.500190E+001 -6.054900E+001 -4.451348E-002 -2.275057E+001 -4.708607E-002 -2.277549E+001 -2.508300E+001 -5.754729E+001
1300.0000     -2.507063E+001 -6.261220E+001 -4.482485E-002 -2.319422E+001 -4.740395E-002 -2.322078E+001 -2.514543E+001 -5.924521E+001
1325.0000     -2.506685E+001 -6.442805E+001 -4.534460E-002 -2.363984E+001 -4.797852E-002 -2.366518E+001 -2.530228E+001 -6.153428E+001
1350.0000     -2.499765E+001 -6.671012E+001 -4.563061E-002 -2.408188E+001 -4.867484E-002 -2.410943E+001 -2.537981E+001 -6.427715E+001
1375.0000     -2.500830E+001 -6.907468E+001 -4.594214E-002 -2.452505E+001 -4.914589E-002 -2.455356E+001 -2.539186E+001 -6.681018E+001
1400.0000     -2.509545E+001 -7.088338E+001 -4.621184E-002 -2.496702E+001 -4.936858E-002 -2.499568E+001 -2.542132E+001 -6.845947E+001
1425.0000     -2.522306E+001 -7.210002E+001 -4.615986E-002 -2.541084E+001 -4.961728E-002 -2.544052E+001 -2.556326E+001 -7.029744E+001
1450.0000     -2.527330E+001 -7.337783E+001 -4.672085E-002 -2.585623E+001 -4.998830E-002 -2.588402E+001 -2.580309E+001 -7.269748E+001
1475.0000     -2.533839E+001 -7.516041E+001 -4.692718E-002 -2.630073E+001 -5.022850E-002 -2.632719E+001 -2.597548E+001 -7.558026E+001
1500.0000     -2.546925E+001 -7.747022E+001 -4.725574E-002 -2.674134E+001 -5.074289E-002 -2.677213E+001 -2.606862E+001 -7.780321E+001
1525.0000     -2.573233E+001 -7.956876E+001 -4.746943E-002 -2.718651E+001 -5.059969E-002 -2.721525E+001 -2.614589E+001 -7.894173E+001
1550.0000     -2.597863E+001 -8.157552E+001 -4.759589E-002 -2.763099E+001 -5.093795E-002 -2.765947E+001 -2.631904E+001 -7.954909E+001
1575.0000     -2.606593E+001 -8.367008E+001 -4.774412E-002 -2.807629E+001 -5.079370E-002 -2.810621E+001 -2.647052E+001 -8.118023E+001
1600.0000     -2.603475E+001 -8.615035E+001 -4.830761E-002 -2.851833E+001 -5.145582E-002 -2.854887E+001 -2.653722E+001 -8.419515E+001
1625.0000     -2.602441E+001 -8.851395E+001 -4.865355E-002 -2.896059E+001 -5.187650E-002 -2.899215E+001 -2.646409E+001 -8.719350E+001
1650.0000     -2.609536E+001 -9.019312E+001 -4.925188E-002 -2.940229E+001 -5.225277E-002 -2.943450E+001 -2.650346E+001 -8.959491E+001
1675.0000     -2.618555E+001 -9.149083E+001 -4.917420E-002 -2.984641E+001 -5.246986E-002 -2.987936E+001 -2.675637E+001 -9.109628E+001
1700.0000     -2.624956E+001 -9.277523E+001 -4.880964E-002 -3.029187E+001 -5.235701E-002 -3.032343E+001 -2.715228E+001 -9.292182E+001
1725.0000     -2.635231E+001 -9.397350E+001 -4.885900E-002 -3.073597E+001 -5.247667E-002 -3.076813E+001 -2.745037E+001 -9.549083E+001
1750.0000     -2.657061E+001 -9.522337E+001 -4.884624E-002 -3.118012E+001 -5.329059E-002 -3.121185E+001 -2.759526E+001 -9.750477E+001
1775.0000     -2.686422E+001 -9.660567E+001 -4.905589E-002 -3.162370E+001 -5.335533E-002 -3.165627E+001 -2.764637E+001 -9.832284E+001
1800.0000     -2.709628E+001 -9.830425E+001 -4.940882E-002 -3.206808E+001 -5.325181E-002 -3.210102E+001 -2.774039E+001 -9.884765E+001
1825.0000     -2.714879E+001 -1.005043E+002 -5.005137E-002 -3.251244E+001 -5.389725E-002 -3.254600E+001 -2.787924E+001 -1.005450E+002
1850.0000     -2.717434E+001 -1.033042E+002 -5.002614E-002 -3.295563E+001 -5.418092E-002 -3.298885E+001 -2.804683E+001 -1.034133E+002
1875.0000     -2.734480E+001 -1.059734E+002 -5.019394E-002 -3.339730E+001 -5.411894E-002 -3.343112E+001 -2.810645E+001 -1.063806E+002
1900.0000     -2.759967E+001 -1.075017E+002 -5.040451E-002 -3.384117E+001 -5.452472E-002 -3.387484E+001 -2.818239E+001 -1.081460E+002
1925.0000     -2.773783E+001 -1.087494E+002 -5.073626E-002 -3.428547E+001 -5.477149E-002 -3.432111E+001 -2.835343E+001 -1.093234E+002
1950.0000     -2.767892E+001 -1.103397E+002 -5.129335E-002 -3.473169E+001 -5.472461E-002 -3.476625E+001 -2.865337E+001 -1.111856E+002
1975.0000     -2.765135E+001 -1.124954E+002 -5.211931E-002 -3.517471E+001 -5.546082E-002 -3.521081E+001 -2.896366E+001 -1.144372E+002
2000.0000     -2.787588E+001 -1.143648E+002 -5.231567E-002 -3.561645E+001 -5.591712E-002 -3.565276E+001 -2.913961E+001 -1.170413E+002
2025.0000     -2.824911E+001 -1.156412E+002 -5.195009E-002 -3.605906E+001 -5.543704E-002 -3.609574E+001 -2.924193E+001 -1.182356E+002
2050.0000     -2.853146E+001 -1.163235E+002 -5.188019E-002 -3.650362E+001 -5.547526E-002 -3.653953E+001 -2.942219E+001 -1.189650E+002
2075.0000     -2.857318E+001 -1.175541E+002 -5.211582E-002 -3.694768E+001 -5.619798E-002 -3.698508E+001 -2.979402E+001 -1.209741E+002
2100.0000     -2.862293E+001 -1.196939E+002 -5.182487E-002 -3.739297E+001 -5.606049E-002 -3.743031E+001 -3.010983E+001 -1.243654E+002
2125.0000     -2.888960E+001 -1.224202E+002 -5.205680E-002 -3.783717E+001 -5.623663E-002 -3.787500E+001 -3.019565E+001 -1.269701E+002
2150.0000     -2.922954E+001 -1.249299E+002 -5.205643E-002 -3.828140E+001 -5.656590E-002 -3.831977E+001 -3.007148E+001 -1.283065E+002
2175.0000     -2.940298E+001 -1.266020E+002 -5.255878E-002 -3.872454E+001 -5.676581E-002 -3.876215E+001 -3.020879E+001 -1.292947E+002
2200.0000     -2.933732E+001 -1.279939E+002 -5.233091E-002 -3.916722E+001 -5.655804E-002 -3.920514E+001 -3.067331E+001 -1.314950E+002
2225.0000     -2.927430E+001 -1.296391E+002 -5.242246E-002 -3.960960E+001 -5.683094E-002 -3.964787E+001 -3.118952E+001 -1.351196E+002
2250.0000     -2.945141E+001 -1.309170E+002 -5.248673E-002 -4.005479E+001 -5.714386E-002 -4.009311E+001 -3.138873E+001 -1.388391E+002
2275.0000     -2.982051E+001 -1.319673E+002 -5.261466E-002 -4.049916E+001 -5.708698E-002 -4.053709E+001 -3.134926E+001 -1.403176E+002
2300.0000     -3.001135E+001 -1.334598E+002 -5.275897E-002 -4.094373E+001 -5.697598E-002 -4.098268E+001 -3.143318E+001 -1.405499E+002
2325.0000     -3.002213E+001 -1.354313E+002 -5.255176E-002 -4.139000E+001 -5.743989E-002 -4.142659E+001 -3.187114E+001 -1.429319E+002
2350.0000     -3.003724E+001 -1.374882E+002 -5.252285E-002 -4.183428E+001 -5.734785E-002 -4.187121E+001 -3.244814E+001 -1.470219E+002
2375.0000     -3.023759E+001 -1.388579E+002 -5.216683E-002 -4.227824E+001 -5.738660E-002 -4.231664E+001 -3.268875E+001 -1.509437E+002
2400.0000     -3.052277E+001 -1.400234E+002 -5.255867E-002 -4.272076E+001 -5.755626E-002 -4.276094E+001 -3.273145E+001 -1.520861E+002
2425.0000     -3.069225E+001 -1.408827E+002 -5.221896E-002 -4.316497E+001 -5.739705E-002 -4.320544E+001 -3.286805E+001 -1.527156E+002
2450.0000     -3.067316E+001 -1.421975E+002 -5.233134E-002 -4.361111E+001 -5.730991E-002 -4.365131E+001 -3.332651E+001 -1.548359E+002
2475.0000     -3.075475E+001 -1.442936E+002 -5.230306E-002 -4.405769E+001 -5.759415E-002 -4.409650E+001 -3.389820E+001 -1.592513E+002
2500.0000     -3.114887E+001 -1.466396E+002 -5.198079E-002 -4.450180E+001 -5.699205E-002 -4.454162E+001 -3.410627E+001 -1.637232E+002
2525.0000     -3.151009E+001 -1.492401E+002 -5.141275E-002 -4.494714E+001 -5.708296E-002 -4.498713E+001 -3.395274E+001 -1.654472E+002
2550.0000     -3.150637E+001 -1.509710E+002 -5.196899E-002 -4.539363E+001 -5.741844E-002 -4.543208E+001 -3.412358E+001 -1.667715E+002
2575.0000     -3.128691E+001 -1.528005E+002 -5.233099E-002 -4.583738E+001 -5.778984E-002 -4.587866E+001 -3.488980E+001 -1.699002E+002
2600.0000     -3.116548E+001 -1.543914E+002 -5.248168E-002 -4.628246E+001 -5.810994E-002 -4.632279E+001 -3.562402E+001 -1.759367E+002
2625.0000     -3.139231E+001 -1.559535E+002 -5.206906E-002 -4.672845E+001 -5.786292E-002 -4.676674E+001 -3.601451E+001  1.786673E+002
2650.0000     -3.177561E+001 -1.558997E+002 -5.200437E-002 -4.717252E+001 -5.735617E-002 -4.721098E+001 -3.608014E+001  1.773939E+002
2675.0000     -3.182245E+001 -1.559587E+002 -5.217030E-002 -4.761902E+001 -5.723245E-002 -4.765690E+001 -3.643062E+001  1.787478E+002
2700.0000     -3.177359E+001 -1.567259E+002 -5.215478E-002 -4.806563E+001 -5.716266E-002 -4.810450E+001 -3.715123E+001  1.769175E+002
2725.0000     -3.202606E+001 -1.589814E+002 -5.190214E-002 -4.851156E+001 -5.754783E-002 -4.854842E+001 -3.807846E+001  1.711409E+002
2750.0000     -3.256631E+001 -1.611578E+002 -5.168343E-002 -4.895771E+001 -5.720754E-002 -4.899551E+001 -3.814504E+001  1.647092E+002
2775.0000     -3.305896E+001 -1.634125E+002 -5.118566E-002 -4.940602E+001 -5.733513E-002 -4.944374E+001 -3.756628E+001  1.616981E+002
2800.0000     -3.322683E+001 -1.658787E+002 -5.132026E-002 -4.985097E+001 -5.721936E-002 -4.988775E+001 -3.762234E+001  1.615720E+002
2825.0000     -3.296582E+001 -1.679259E+002 -5.165572E-002 -5.029941E+001 -5.708805E-002 -5.033763E+001 -3.860239E+001  1.576372E+002
2850.0000     -3.278403E+001 -1.707279E+002 -5.161155E-002 -5.074364E+001 -5.742837E-002 -5.078151E+001 -3.959550E+001  1.453043E+002
2875.0000     -3.299342E+001 -1.742642E+002 -5.205149E-002 -5.118823E+001 -5.753531E-002 -5.122399E+001 -3.934454E+001  1.332921E+002
2900.0000     -3.337726E+001 -1.766825E+002 -5.158505E-002 -5.163213E+001 -5.748884E-002 -5.167098E+001 -3.917990E+001  1.309166E+002
2925.0000     -3.328078E+001 -1.756482E+002 -5.118820E-002 -5.208091E+001 -5.734346E-002 -5.211678E+001 -3.979972E+001  1.320899E+002
2950.0000     -3.316824E+001 -1.750591E+002 -5.117821E-002 -5.252828E+001 -5.761738E-002 -5.256301E+001 -4.168895E+001  1.311546E+002
2975.0000     -3.342934E+001 -1.765102E+002 -5.122220E-002 -5.297489E+001 -5.730403E-002 -5.301132E+001 -4.306682E+001  1.207754E+002
3000.0000     -3.397055E+001 -1.789901E+002 -5.155684E-002 -5.342186E+001 -5.744076E-002 -5.345879E+001 -4.236938E+001  1.079449E+002
3025.0000     -3.444881E+001  1.794270E+002 -5.160950E-002 -5.386827E+001 -5.750425E-002 -5.390545E+001 -4.122638E+001  1.075596E+002
3050.0000     -3.477802E+001  1.779484E+002 -5.107212E-002 -5.431668E+001 -5.729762E-002 -5.435360E+001 -4.100383E+001  1.112609E+002
3075.0000     -3.491577E+001  1.758669E+002 -5.143473E-002 -5.476620E+001 -5.736624E-002 -5.480078E+001 -4.169451E+001  1.070522E+002
3100.0000     -3.528819E+001  1.713310E+002 -5.134993E-002 -5.521260E+001 -5.750097E-002 -5.524911E+001 -4.200860E+001  9.154475E+001
3125.0000     -3.589273E+001  1.644564E+002 -5.107780E-002 -5.565929E+001 -5.765028E-002 -5.569434E+001 -4.067464E+001  7.890909E+001
3150.0000     -3.602921E+001  1.593606E+002 -5.161151E-002 -5.610666E+001 -5.713590E-002 -5.614040E+001 -3.927930E+001  7.384770E+001
3175.0000     -3.557372E+001  1.583789E+002 -5.149776E-002 -5.655252E+001 -5.713836E-002 -5.658668E+001 -3.955048E+001  7.073589E+001
3200.0000     -3.510458E+001  1.573083E+002 -5.168885E-002 -5.700109E+001 -5.753550E-002 -5.703589E+001 -4.057954E+001  6.345992E+001
3225.0000     -3.528111E+001  1.553289E+002 -5.160843E-002 -5.744588E+001 -5.729983E-002 -5.748297E+001 -4.104565E+001  5.253160E+001
3250.0000     -3.587479E+001  1.536909E+002 -5.095067E-002 -5.789306E+001 -5.705894E-002 -5.792811E+001 -4.045838E+001  4.692680E+001
3275.0000     -3.662724E+001  1.548263E+002 -5.083186E-002 -5.833925E+001 -5.660432E-002 -5.837554E+001 -4.035531E+001  4.765800E+001
3300.0000     -3.715199E+001  1.559811E+002 -5.055979E-002 -5.878833E+001 -5.643752E-002 -5.882470E+001 -4.073789E+001  4.885773E+001
3325.0000     -3.755770E+001  1.530057E+002 -5.092290E-002 -5.923928E+001 -5.676438E-002 -5.927616E+001 -4.077934E+001  4.370908E+001
3350.0000     -3.810378E+001  1.429407E+002 -5.132533E-002 -5.968835E+001 -5.710923E-002 -5.972473E+001 -3.940549E+001  3.614920E+001
3375.0000     -3.850369E+001  1.308226E+002 -5.163387E-002 -6.013444E+001 -5.730264E-002 -6.017086E+001 -3.747689E+001  3.188453E+001
3400.0000     -3.858500E+001  1.253282E+002 -5.108220E-002 -6.057734E+001 -5.699657E-002 -6.061470E+001 -3.669304E+001  2.987515E+001
3425.0000     -3.820481E+001  1.267255E+002 -5.021241E-002 -6.102336E+001 -5.669159E-002 -6.106080E+001 -3.742111E+001  2.623163E+001
3450.0000     -3.774444E+001  1.276594E+002 -4.974181E-002 -6.147147E+001 -5.639258E-002 -6.150962E+001 -3.848269E+001  1.573815E+001
3475.0000     -3.753498E+001  1.234165E+002 -5.019359E-002 -6.192236E+001 -5.632771E-002 -6.195888E+001 -3.785942E+001  5.123219E+000
3500.0000     -3.770843E+001  1.190698E+002 -5.097793E-002 -6.237113E+001 -5.670418E-002 -6.241014E+001 -3.640132E+001  2.532257E+000
