! Created Thu Nov 11 11:10:01 2010
# ghz S ri R 50
! 2 Port Network Data from SP1.SP block
! freq  reS11  imS11  reS21  imS21  reS12  imS12  reS22  imS22  
!     
                 1      0.0465744411      -0.0259892428        0.950443375      -0.0562341719        0.950443375      -0.0562341719       0.0460780533      -0.0184689771
               1.1      0.0463549546      -0.0285852468        0.950036593      -0.0618474689        0.950036593      -0.0618474689       0.0457547237      -0.0203036602
               1.2      0.0461145174      -0.0311804123        0.949591114      -0.0674578725        0.949591114      -0.0674578725       0.0454007121      -0.0221348542
               1.3      0.0458531165      -0.0337746612        0.949106949      -0.0730651189        0.949106949      -0.0730651189       0.0450160488      -0.0239622422
               1.4      0.0455707383       -0.036367915        0.948584112      -0.0786689439        0.948584112      -0.0786689439       0.0446007671      -0.0257855074
               1.5      0.0452673676      -0.0389600946        0.948022617      -0.0842690831        0.948022617      -0.0842690831       0.0441549025      -0.0276043332
               1.6      0.0449429887      -0.0415511204        0.947422479      -0.0898652721        0.947422479      -0.0898652721       0.0436784936      -0.0294184031
               1.7      0.0445975843       -0.044140912        0.946783714       -0.095457246        0.946783714       -0.095457246       0.0431715814      -0.0312274006
               1.8      0.0442311366      -0.0467293886         0.94610634       -0.101044739         0.94610634       -0.101044739       0.0426342097      -0.0330310093
               1.9      0.0438436264      -0.0493164685        0.945390376       -0.106627487        0.945390376       -0.106627487       0.0420664249      -0.0348289131
                 2      0.0434350337      -0.0519020696        0.944635841       -0.112205223        0.944635841       -0.112205223       0.0414682764      -0.0366207961
               2.1      0.0430053374      -0.0544861088        0.943842757       -0.117777682        0.943842757       -0.117777682       0.0408398159      -0.0384063422
               2.2      0.0425545157      -0.0570685021        0.943011145       -0.123344596        0.943011145       -0.123344596       0.0401810982      -0.0401852358
               2.3      0.0420825454      -0.0596491649        0.942141028         -0.1289057        0.942141028         -0.1289057       0.0394921805      -0.0419571614
               2.4      0.0415894029      -0.0622280118        0.941232432       -0.134460725        0.941232432       -0.134460725        0.038773123      -0.0437218037
               2.5      0.0410750632      -0.0648049561        0.940285382       -0.140009404        0.940285382       -0.140009404       0.0380239884      -0.0454788474
               2.6      0.0405395007      -0.0673799106        0.939299905        -0.14555147        0.939299905        -0.14555147       0.0372448424      -0.0472279777
               2.7      0.0399826888      -0.0699527867        0.938276029       -0.151086653        0.938276029       -0.151086653       0.0364357534      -0.0489688798
               2.8      0.0394046003      -0.0725234952        0.937213784       -0.156614685        0.937213784       -0.156614685       0.0355967925      -0.0507012393
               2.9      0.0388052068      -0.0750919456          0.9361132       -0.162135296          0.9361132       -0.162135296       0.0347280336      -0.0524247419
                 3      0.0381844793      -0.0776580462         0.93497431       -0.167648218         0.93497431       -0.167648218       0.0338295534      -0.0541390736
               3.1       0.037542388      -0.0802217045        0.933797146       -0.173153178        0.933797146       -0.173153178       0.0329014315      -0.0558439209
               3.2      0.0368789024      -0.0827828266        0.932581745       -0.178649907        0.932581745       -0.178649907       0.0319437503      -0.0575389701
               3.3      0.0361939911      -0.0853413175        0.931328141       -0.184138134        0.931328141       -0.184138134       0.0309565948      -0.0592239084
               3.4      0.0354876222      -0.0878970809        0.930036373       -0.189617586        0.930036373       -0.189617586       0.0299400533      -0.0608984228
               3.5       0.034759763      -0.0904500192        0.928706479       -0.195087992        0.928706479       -0.195087992       0.0288942165      -0.0625622009
               3.6      0.0340103801      -0.0930000338          0.9273385       -0.200549078          0.9273385       -0.200549078       0.0278191782      -0.0642149307
               3.7      0.0332394396      -0.0955470243        0.925932477       -0.206000571        0.925932477       -0.206000571       0.0267150351      -0.0658563003
               3.8       0.032446907      -0.0980908894        0.924488454       -0.211442197        0.924488454       -0.211442197       0.0255818867      -0.0674859985
               3.9      0.0316327471       -0.100631526        0.923006477       -0.216873682        0.923006477       -0.216873682       0.0244198355      -0.0691037142
                 4      0.0307969242        -0.10316883         0.92148659       -0.222294751         0.92148659       -0.222294751       0.0232289868       -0.070709137
               4.1      0.0299394023       -0.105702696        0.919928843       -0.227705128        0.919928843       -0.227705128       0.0220094491      -0.0723019568
               4.2      0.0290601447       -0.108233015        0.918333285       -0.233104538        0.918333285       -0.233104538       0.0207613334      -0.0738818639
               4.3      0.0281591144        -0.11075968        0.916699967       -0.238492702        0.916699967       -0.238492702       0.0194847541      -0.0754485491
               4.4      0.0272362738       -0.113282581        0.915028941       -0.243869345        0.915028941       -0.243869345       0.0181798284      -0.0770017039
               4.5      0.0262915852       -0.115801604        0.913320263       -0.249234187        0.913320263       -0.249234187       0.0168466764        -0.07854102
               4.6      0.0253250104       -0.118316638        0.911573988       -0.254586952        0.911573988       -0.254586952       0.0154854214      -0.0800661899
               4.7      0.0243365109       -0.120827565        0.909790175       -0.259927359        0.909790175       -0.259927359       0.0140961895      -0.0815769065
               4.8      0.0233260481       -0.123334271        0.907968883       -0.265255129        0.907968883       -0.265255129       0.0126791102      -0.0830728633
               4.9      0.0222935829       -0.125836636        0.906110173       -0.270569981        0.906110173       -0.270569981       0.0112343155      -0.0845537546
                 5      0.0212390762        -0.12833454         0.90421411       -0.275871635         0.90421411       -0.275871635      0.00976194105      -0.0860192752
               5.1      0.0201624887       -0.130827861        0.902280758        -0.28115981        0.902280758        -0.28115981      0.00826212513      -0.0874691204
               5.2      0.0190637811       -0.133316476        0.900310183       -0.286434223        0.900310183       -0.286434223      0.00673500932      -0.0889029864
               5.3      0.0179429139       -0.135800259        0.898302456       -0.291694591        0.898302456       -0.291694591      0.00518073827      -0.0903205701
               5.4      0.0167998476       -0.138279083        0.896257647       -0.296940632        0.896257647       -0.296940632      0.00359945976       -0.091721569
               5.5      0.0156345428       -0.140752819        0.894175829       -0.302172062        0.894175829       -0.302172062      0.00199132468      -0.0931056815
               5.6      0.0144469599       -0.143221335        0.892057077       -0.307388596        0.892057077       -0.307388596     0.000356487093      -0.0944726068
               5.7      0.0132370598         -0.1456845        0.889901467        -0.31258995        0.889901467        -0.31258995     -0.00130489579      -0.0958220448
               5.8      0.0120048032       -0.148142177        0.887709079       -0.317775837        0.887709079       -0.317775837     -0.00299266357      -0.0971536963
               5.9      0.0107501511       -0.150594232        0.885479994       -0.322945972        0.885479994       -0.322945972     -0.00470665267       -0.098467263
                 6     0.00947306476       -0.153040525        0.883214294       -0.328100068        0.883214294       -0.328100068     -0.00644669629      -0.0997624476
               6.1     0.00817350574       -0.155480916        0.880912067       -0.333237837        0.880912067       -0.333237837     -0.00821262443       -0.101038954
               6.2     0.00685143587       -0.157915262        0.878573399       -0.338358994        0.878573399       -0.338358994      -0.0100042638       -0.102296486
               6.3     0.00550681734       -0.160343419        0.876198379       -0.343463248        0.876198379       -0.343463248      -0.0118214381       -0.103534749
               6.4     0.00413961279       -0.162765241        0.873787101       -0.348550311        0.873787101       -0.348550311      -0.0136639673       -0.104753451
               6.5     0.00274978529       -0.165180579        0.871339659       -0.353619895        0.871339659       -0.353619895      -0.0155316686       -0.105952298
               6.6     0.00133729845       -0.167589283         0.86885615       -0.358671708         0.86885615       -0.358671708      -0.0174243557       -0.107131001
               6.7  -9.78835743e-005       -0.169991201        0.866336672       -0.363705462        0.866336672       -0.363705462      -0.0193418389       -0.108289268
               6.8    -0.00155579602       -0.172386177        0.863781328       -0.368720865        0.863781328       -0.368720865      -0.0212839254        -0.10942681
               6.9    -0.00303647345       -0.174774056        0.861190222       -0.373717627        0.861190222       -0.373717627      -0.0232504189       -0.110543341
                 7    -0.00453994974       -0.177154679         0.85856346       -0.378695456         0.85856346       -0.378695456        -0.02524112       -0.111638574
               7.1      -0.006066258       -0.179527886        0.855901151       -0.383654059        0.855901151       -0.383654059      -0.0272558257       -0.112712223
               7.2    -0.00761543052       -0.181893513        0.853203407       -0.388593146        0.853203407       -0.388593146      -0.0292943299       -0.113764006
               7.3    -0.00918749873       -0.184251395        0.850470343       -0.393512422        0.850470343       -0.393512422      -0.0313564229       -0.114793639
               7.4     -0.0107824932       -0.186601367        0.847702075       -0.398411595        0.847702075       -0.398411595      -0.0334418918       -0.115800842
               7.5     -0.0124004433       -0.188943259        0.844898723       -0.403290373        0.844898723       -0.403290373      -0.0355505203       -0.116785336
               7.6     -0.0140413778         -0.1912769        0.842060409        -0.40814846        0.842060409        -0.40814846      -0.0376820888       -0.117746843
               7.7     -0.0157053241       -0.193602116        0.839187258       -0.412985564        0.839187258       -0.412985564       -0.039836374       -0.118685086
               7.8     -0.0173923085       -0.195918733        0.836279399        -0.41780139        0.836279399        -0.41780139      -0.0420131495        -0.11959979
               7.9     -0.0191023561       -0.198226574        0.833336961       -0.422595644        0.833336961       -0.422595644      -0.0442121855       -0.120490684
                 8     -0.0208354909       -0.200525458        0.830360078       -0.427368032        0.830360078       -0.427368032      -0.0464332486       -0.121357494
               8.1     -0.0225917356       -0.202815205        0.827348887       -0.432118258        0.827348887       -0.432118258      -0.0486761021       -0.122199952
               8.2     -0.0243711113       -0.205095631        0.824303526       -0.436846029        0.824303526       -0.436846029       -0.050940506        -0.12301779
               8.3     -0.0261736381       -0.207366549        0.821224138       -0.441551048        0.821224138       -0.441551048      -0.0532262165       -0.123810742
               8.4     -0.0279993344       -0.209627773        0.818110869       -0.446233022        0.818110869       -0.446233022      -0.0555329869       -0.124578544
               8.5      -0.029848217       -0.211879112        0.814963866       -0.450891655        0.814963866       -0.450891655      -0.0578605666       -0.125320934
               8.6     -0.0317203014       -0.214120375         0.81178328       -0.455526652         0.81178328       -0.455526652      -0.0602087018        -0.12603765
               8.7     -0.0336156013       -0.216351368        0.808569267       -0.460137718        0.808569267       -0.460137718      -0.0625771354       -0.126728437
               8.8     -0.0355341288       -0.218571895        0.805321982        -0.46472456        0.805321982        -0.46472456      -0.0649656065       -0.127393036
               8.9     -0.0374758943       -0.220781757        0.802041588        -0.46928688        0.802041588        -0.46928688      -0.0673738512       -0.128031195
                 9     -0.0394409063       -0.222980755        0.798728247       -0.473824386        0.798728247       -0.473824386      -0.0698016018       -0.128642662
               9.1     -0.0414291715       -0.225168687        0.795382127       -0.478336783        0.795382127       -0.478336783      -0.0722485874       -0.129227187
               9.2     -0.0434406947       -0.227345348        0.792003398       -0.482823776        0.792003398       -0.482823776      -0.0747145337       -0.129784523
               9.3     -0.0454754788       -0.229510533        0.788592232       -0.487285072        0.788592232       -0.487285072      -0.0771991628       -0.130314426
               9.4     -0.0475335246       -0.231664034        0.785148808       -0.491720378        0.785148808       -0.491720378      -0.0797021936       -0.130816653
               9.5      -0.049614831       -0.233805641        0.781673306       -0.496129399        0.781673306       -0.496129399      -0.0822233415       -0.131290964
               9.6     -0.0517193945       -0.235935142        0.778165907       -0.500511843        0.778165907       -0.500511843      -0.0847623185       -0.131737122
               9.7     -0.0538472097       -0.238052324          0.7746268       -0.504867419          0.7746268       -0.504867419      -0.0873188332       -0.132154891
               9.8     -0.0559982687       -0.240156971        0.771056175       -0.509195833        0.771056175       -0.509195833      -0.0898925909       -0.132544041
               9.9     -0.0581725615       -0.242248866        0.767454225       -0.513496795        0.767454225       -0.513496795      -0.0924832935       -0.132904341
                10     -0.0603700758       -0.244327789        0.763821147       -0.517770014        0.763821147       -0.517770014      -0.0950906396       -0.133235564
