!Generated from: C:\Cadence\Sigrity2023.1\share\SpeedXP\Samples\PowerSI\Hybrid\psi_pkg_wb_pre-layout.spd
! Port1_Bump::VDD25
! Port2_Bump::VDD125
! Port3_Bump::DATA1
! Port4_Bump::DATA2
! Port5_BGA::VDD25
! Port6_BGA::VDD125
! Port7_BGA::DATA1
! Port8_BGA::DATA2
!
!Layout Workbench Version: 23.1.3.12171.472612   300
!Computer Host Name: WINDOW10VM
!
!TouchstoneFormatFlag = 1
! GNDNET GND
! NETSLIST DATA1, DATA2, VDD125, VDD25
! Port 1 = DIE-1 VDD25
! Port 2 = DIE-6 VDD125
! Port 3 = DIE-3 DATA1
! Port 4 = DIE-4 DATA2
! Port 5 = BGA-6 VDD25
! Port 6 = BGA-19 VDD125
! Port 7 = BGA-1 DATA1
! Port 8 = BGA-2 DATA2
!
#	Hz	S	RI	R	50
10000000	-0.079314278093031	-0.261806502878892	0.000501621934128303	0.00130555383444293	0.000399639870054931	0.00118979221221041	0.000338807677306319	0.0007583515541379
				0.917693028951032	-0.269751599161568	-0.000143292597936384	-7.47603140061753e-05	-0.000229852177641987	-0.000622060060769564	-0.000311862076288583	-0.000659637341847014
			0.000501621934128303	0.00130555383444293	-0.00123095537554274	-0.0475033334902268	0.000392869415396305	0.00061202940538164	0.000434709007506785	0.00113044187499342
				-0.000281388974408076	0.000170217060811325	0.994788912901277	-0.0543440057699026	-0.000390457075396672	-0.000529933692856454	-0.00039477858525136	-0.000477535719486662
			0.000399639870054903	0.00118979221221039	0.000392869415396298	0.000612029405381641	0.00340657831193858	0.00570015288098339	0.000415516598610952	0.000575288932069092
				-0.000470213046318452	-0.000310712389586402	-0.00043436092750136	-0.000487999699261195	0.996548370590068	-0.00983110354896916	-0.0004170305929432	-0.000552829881768614
			0.000338807677306317	0.000758351554137976	0.000434709007506775	0.00113044187499342	0.000415516598610955	0.000575288932069092	0.00326178133354826	0.00526486096089982
				-0.000491927342454176	-0.000372836444607751	-0.000438670332361133	-0.000435905959350599	-0.000417356470444724	-0.000552630245556646	0.996701331243327	-0.0088877217740111
			0.917693028951033	-0.269751599161568	-0.000281388974408089	0.00017021706081133	-0.000470213046318432	-0.000310712389586403	-0.00049192734245404	-0.000372836444607725
				-0.0768112612842766	-0.264994104724061	0.000725506676109544	0.000980508560154275	0.000641507806345476	0.000878492119335147	0.000521484364925995	0.000469733969425665
			-0.000143292597936412	-7.47603140062547e-05	0.994788912901278	-0.0543440057699026	-0.000434360927501355	-0.000487999699261194	-0.000438670332361078	-0.000435905959350603
				0.000725506676109405	0.000980508560154388	-0.000666564629059674	-0.0479613737296265	0.000440115032055016	0.000567694177744679	0.000478307170891534	0.00108890875523215
			-0.000229852177642122	-0.000622060060769525	-0.000390457075396672	-0.000529933692856457	0.996548370590068	-0.00983110354896916	-0.000417356470444719	-0.000552630245556646
				0.000641507806345362	0.000878492119335167	0.000440115032055008	0.00056769417774468	0.00342246626838794	0.00568390084772856	0.000418936578622314	0.000572833509405798
			-0.000311862076288579	-0.000659637341847096	-0.000394778585251261	-0.000477535719486667	-0.000417030592943197	-0.000552829881768613	0.996701331243327	-0.0088877217740111
				0.000521484364926161	0.000469733969425669	0.000478307170891884	0.00108890875523213	0.000418936578622321	0.000572833509405799	0.00327503077693825	0.00525120607599904
20000000	-0.257740000499752	-0.419791267529866	0.000676813949445857	0.00244424528164271	0.000365724501199521	0.00242504757647856	0.000196175847683479	0.00162389169531749
				0.741882873330987	-0.437356429603344	0.000390474893295578	-0.000567931000962613	0.000173746739861202	-0.00151268220878784	-0.000112008057464918	-0.00146543015298567
			0.000676813949445833	0.0024442452816427	-0.0102275907300944	-0.0940872465450532	0.000355798094700509	0.00122999807374213	0.000465145675704201	0.00224838115659785
				-1.99942340931847e-05	0.000162211845784167	0.986482395621261	-0.107820554948293	-0.000346619365376083	-0.00106738736752916	-0.000317171707577946	-0.000954894906157813
			0.000365724501199476	0.00242504757647857	0.000355798094700524	0.00122999807374213	0.00371309153496457	0.011247519392863	0.000444845328396028	0.00114679289290972
				-0.000586958974210803	-0.000547457529754793	-0.000521688967879515	-0.000965104623606304	0.996162932144371	-0.0195087827241749	-0.000450951402750256	-0.00110183774112418
			0.000196175847683517	0.00162389169531751	0.000465145675704059	0.00224838115659785	0.000444845328396023	0.00114679289290972	0.00351947151797272	0.0104024072651869
				-0.000688850359020921	-0.000632842916000057	-0.00049186961943638	-0.000853617392221923	-0.000452375652527358	-0.00110152435840135	0.996379532755441	-0.0176476000246448
			0.741882873330987	-0.437356429603344	-1.99942340931708e-05	0.000162211845784167	-0.000586958974210811	-0.000547457529754835	-0.000688850359020929	-0.000632842916000062
				-0.249688954180812	-0.429575267629935	0.00143494389422155	0.00152660499289906	0.00113462417214405	0.00146321052400164	0.000783892409262965	0.000788214091050676
			0.000390474893295856	-0.000567931000962753	0.986482395621261	-0.107820554948293	-0.000521688967879512	-0.000965104623606303	-0.000491869619436348	-0.000853617392221934
				0.0014349438942218	0.00152660499289892	-0.00798546140912038	-0.0952053152963319	0.000544612904155251	0.00112327873354789	0.000638899886032912	0.00214846286081629
			0.000173746739861324	-0.00151268220878787	-0.000346619365376079	-0.00106738736752916	0.996162932144372	-0.0195087827241749	-0.000452375652527362	-0.00110152435840135
				0.00113462417214409	0.00146321052400155	0.000544612904155244	0.00112327873354789	0.00377785068174297	0.0112145753517325	0.000458760681405262	0.00114194818969186
			-0.000112008057464754	-0.00146543015298577	-0.000317171707577724	-0.00095489490615779	-0.000450951402750251	-0.00110183774112418	0.996379532755441	-0.0176476000246448
				0.000783892409263084	0.000788214091050662	0.000638899886032805	0.00214846286081632	0.000458760681405263	0.00114194818969186	0.0035731668525445	0.0103744747172028
30000000	-0.440704921390941	-0.470746351445954	0.000767467437827529	0.0034309729755248	0.000362117899318639	0.00371499844152482	7.61319119162961e-05	0.0026008709265765
				0.561437162885779	-0.499679500481262	0.00080535981133778	-0.00147477003683413	0.000547594228091253	-0.00268794198757744	6.05602682760276e-05	-0.00242299210875621
			0.000767467437827511	0.00343097297552481	-0.0246455500919648	-0.138935847459715	0.000293244685831751	0.00186096241494552	0.000502192157062542	0.00336649644190653
				0.000218088864067656	-2.45667564815616e-05	0.973225266313773	-0.159736099203872	-0.000273241161896892	-0.00162119586537867	-0.000181514453320542	-0.00145534558568754
			0.000362117899318656	0.0037149984415248	0.000293244685831752	0.00186096241494552	0.00412292694480665	0.0167126949653532	0.000489504991466277	0.00171385365983183
				-0.000705904970452725	-0.000718329295292824	-0.000661122606602254	-0.00142268387860082	0.995640111826956	-0.0291030568440624	-0.000503312845745293	-0.00164632641616204
			7.61319119163516e-05	0.00260087092657644	0.000502192157062542	0.00336649644190654	0.00048950499146627	0.00171385365983183	0.00386358233975703	0.0154726762695997
				-0.000892839613754416	-0.000774612262619633	-0.000568983506154264	-0.00125905472622553	-0.000506768408845013	-0.00164587539651805	0.995943996039471	-0.0263392454536875
			0.561437162885779	-0.499679500481262	0.000218088864067694	-2.45667564815512e-05	-0.000705904970452743	-0.000718329295292794	-0.000892839613754505	-0.00077461226261958
				-0.427127649758392	-0.490641730424347	0.00213760558156553	0.00162424206854009	0.00163898857102152	0.00175518026151669	0.00105494211249121	0.000948618245745908
			0.000805359811337725	-0.00147477003683405	0.973225266313773	-0.159736099203872	-0.000661122606602289	-0.00142268387860082	-0.000568983506154072	-0.00125905472622554
				0.00213760558156539	0.00162424206854006	-0.0196722299361801	-0.141095431178831	0.000712861125282377	0.00165622830062928	0.000888218953118969	0.00317492188154404
			0.000547594228091166	-0.0026879419875775	-0.000273241161896916	-0.00162119586537867	0.995640111826957	-0.0291030568440624	-0.000506768408845008	-0.00164587539651805
				0.00163898857102146	0.00175518026151678	0.000712861125282373	0.00165622830062928	0.00427032769877989	0.0166613718394403	0.000521294696865791	0.00170647173499011
			6.05602682759547e-05	-0.00242299210875608	-0.000181514453320831	-0.00145534558568752	-0.000503312845745294	-0.00164632641616204	0.995943996039472	-0.0263392454536875
				0.001054942112491	0.000948618245745941	0.000888218953118925	0.00317492188154405	0.000521294696865786	0.00170647173499011	0.00398516428572959	0.0154290506596059
40000000	-0.586813579393871	-0.458639777660044	0.00070921515193912	0.00436807602077951	0.000414594417334366	0.00503722360379336	2.47315473591442e-05	0.00364364312255308
				0.417055385779453	-0.499979367958626	0.000931153745290819	-0.00258987116807244	0.000776567007346851	-0.0040304060982827	0.000143956908365855	-0.0034701130755285
			0.000709215151939155	0.00436807602077952	-0.0440845215760477	-0.181313453370178	0.000209597336349482	0.00251425606402355	0.000549537689381152	0.00449166122162629
				0.000360123191934736	-0.00030935786951175	0.95536310160529	-0.209461137344686	-0.000175590176885315	-0.00220244926641937	3.15296870778692e-06	-0.00199533815950545
			0.000414594417334399	0.00503722360379331	0.000209597336349461	0.00251425606402355	0.00461053172176462	0.0221355917122349	0.000549790709896233	0.00227839177433861
				-0.000805393696171423	-0.000851695049424568	-0.000849174364892712	-0.00185589814281915	0.995005382063079	-0.0386531464592002	-0.000574460044098915	-0.00218815763268304
			2.47315473591164e-05	0.00364364312255304	0.000549537689381246	0.00449166122162626	0.000549790709896232	0.00227839177433861	0.00427618152649134	0.020509678532302
				-0.00105918314338083	-0.000847122994888603	-0.00067045933955158	-0.00165251277449736	-0.000580915957030086	-0.00218734324421415	0.995412595767081	-0.0349961821092093
			0.417055385779452	-0.499979367958626	0.000360123191934698	-0.000309357869511702	-0.00080539369617141	-0.000851695049424582	-0.00105918314338089	-0.000847122994888462
				-0.56909850144281	-0.490721655014663	0.00265839719648178	0.00146497648626703	0.00204507282977889	0.00187585518598449	0.00127445071294349	0.00101611445737243
			0.000931153745290958	-0.00258987116807241	0.955363101605291	-0.209461137344686	-0.00084917436489268	-0.00185589814281915	-0.000670459339551656	-0.00165251277449736
				0.00265839719648175	0.00146497648626715	-0.035414379950453	-0.185060835449497	0.000940808578256153	0.00215954976485358	0.00122201155331661	0.00415977052578403
			0.000776567007346752	-0.00403040609828261	-0.000175590176885286	-0.00220244926641937	0.995005382063078	-0.0386531464592002	-0.000580915957030083	-0.00218734324421415
				0.00204507282977887	0.00187585518598457	0.00094080857825614	0.00215954976485357	0.0048746790143499	0.0220625048639815	0.000607011197772646	0.00226793748429503
			0.000143956908365868	-0.00347011307552841	3.15296870760998e-06	-0.00199533815950541	-0.000574460044098918	-0.00218815763268304	0.995412595767081	-0.0349961821092093
				0.00127445071294344	0.00101611445737261	0.00122201155331683	0.00415977052578402	0.000607011197772648	0.00226793748429503	0.00449327066923577	0.0204480114762628
50000000	-0.693286346252553	-0.41916962855159	0.000512483990040582	0.00533603418732744	0.000525887689225764	0.00636878277869112	4.5824022726371e-05	0.00471099468494829
				0.311462797209547	-0.473343087325847	0.000768107826687778	-0.00374114822692104	0.000851889484192472	-0.00543986019000486	0.000133084922969803	-0.00455202879594527
			0.000512483990040606	0.00533603418732746	-0.0680311273978391	-0.220603119893188	0.000110545383047125	0.00319494157891246	0.00061058566472718	0.00562556175404291
				0.000404114431287572	-0.000624249624915807	0.933343862468095	-0.256442726025014	-6.06666308079762e-05	-0.00281764866569355	0.000226514447953963	-0.00258471398674744
			0.000525887689225729	0.00636878277869113	0.00011054538304712	0.00319494157891247	0.00517902115472513	0.0275191510183489	0.000625662591257282	0.00283926658387175
				-0.000883969896016589	-0.000968056505738551	-0.00108069170900448	-0.00225806049815799	0.994255740368692	-0.0481613722992743	-0.000664389466792268	-0.00272612088014148
			4.58240227264282e-05	0.00471099468494823	0.00061058566472723	0.00562556175404289	0.00062566259125728	0.00283926658387175	0.00476011714344082	0.0255144850993394
				-0.00118413196568026	-0.000888810468840631	-0.000794542919841806	-0.00203050400949016	-0.000674747266143724	-0.00272454694783055	0.99478255301124	-0.0436190398476512
			0.311462797209547	-0.473343087325848	0.00040411443128756	-0.000624249624915793	-0.000883969896016542	-0.000968056505738585	-0.00118413196568026	-0.000888810468840547
				-0.672928129643598	-0.464321110336765	0.00298665236113586	0.00120396226033495	0.00234543028185938	0.00192136237076704	0.00143753148672245	0.0010423337193802
			0.000768107826687847	-0.0037411482269211	0.933343862468095	-0.256442726025014	-0.00108069170900449	-0.00225806049815799	-0.000794542919841851	-0.00203050400949016
				0.00298665236113596	0.00120396226033505	-0.0548187503000174	-0.22662350100085	0.00122208269607543	0.00262473336936752	0.00163239488986119	0.00509197119791385
			0.000851889484192533	-0.00543986019000489	-6.06666308079467e-05	-0.00281764866569355	0.994255740368692	-0.0481613722992743	-0.000674747266143728	-0.00272454694783055
				0.00234543028185942	0.00192136237076694	0.00122208269607547	0.00262473336936752	0.00559378231160412	0.0274194000758828	0.000715887207933696	0.00282483018125332
			0.00013308492296973	-0.00455202879594525	0.00022651444795376	-0.00258471398674734	-0.000664389466792266	-0.00272612088014148	0.99478255301124	-0.0436190398476512
				0.00143753148672245	0.00104233371938022	0.00163239488986119	0.00509197119791388	0.000715887207933693	0.00282483018125332	0.00510027124739953	0.0254315694512153
60000000	-0.768963091433037	-0.3710598027456	0.000210835296915297	0.00638096643028408	0.000690662459877617	0.00769682729999348	0.000129474995279821	0.0057805775778304
				0.235967759200956	-0.438170071617782	0.00037037343956256	-0.00483343945641651	0.000797962884851261	-0.00686273384682903	4.10320947611953e-05	-0.00563918506001859
			0.000210835296915318	0.00638096643028408	-0.0958902910669751	-0.256308418078225	2.40087094844493e-06	0.00390695844525052	0.000688408039997285	0.00676927317476106
				0.000369450052131681	-0.000932712307026379	0.907690314666934	-0.300236944315538	6.36496389070096e-05	-0.00347177337954558	0.000477453410587664	-0.00323102465479038
			0.000690662459877606	0.0076968272999935	2.40087094844493e-06	0.00390695844525052	0.00583162034990981	0.0328657832111057	0.000716799016184117	0.0033956855392304
				-0.000946735771911268	-0.00107840939728244	-0.0013494670966572	-0.00262416567780306	0.993388117215617	-0.057629584869244	-0.000772818167302783	-0.00325934370406303
			0.000129474995279807	0.00578057757783028	0.000688408039997318	0.00676927317476108	0.000716799016184108	0.0033956855392304	0.00531769289076034	0.0304883785605206
				-0.00127691749186986	-0.000920213027263865	-0.000938319940428037	-0.00239046500636589	-0.000787874138987602	-0.00325649855421703	0.994051654305337	-0.0522086907167396
			0.235967759200957	-0.438170071617782	0.00036945005213166	-0.000932712307026334	-0.000946735771911267	-0.00107840939728246	-0.00127691749186983	-0.000920213027263819
				-0.747166147662937	-0.429530621951224	0.00316250041254582	0.000924139530283558	0.00256383558312649	0.00194238474963823	0.00155661546521381	0.00105474124617783
			0.000370373439562574	-0.00483343945641654	0.907690314666934	-0.300236944315538	-0.00134946709665722	-0.00262416567780306	-0.000938319940427826	-0.00239046500636588
				0.00316250041254607	0.000924139530283537	-0.0774293999415521	-0.265395794489464	0.00154894289610882	0.00304541245604965	0.00210930306435772	0.00596290271841898
			0.000797962884851245	-0.00686273384682909	6.36496389070304e-05	-0.00347177337954557	0.993388117215617	-0.057629584869244	-0.000787874138987597	-0.00325649855421704
				0.00256383558312648	0.00194238474963826	0.00154894289610883	0.00304541245604968	0.00643047926633722	0.0327331541066906	0.000847576135307726	0.00337602742332919
			4.10320947612022e-05	-0.00563918506001854	0.000477453410587469	-0.00323102465479047	-0.000772818167302783	-0.00325934370406303	0.994051654305337	-0.0522086907167396
				0.00155661546521389	0.00105474124617783	0.00210930306435792	0.00596290271841899	0.000847576135307732	0.00337602742332919	0.00580837393884082	0.0303801910474146
70000000	-0.822872992384353	-0.322480197069417	-0.000160753669949056	0.00752596704837215	0.00090282639959794	0.00901512771471849	0.000264979979980936	0.00684206380651029
				0.181697131363274	-0.402485706508921	-0.000205038477281136	-0.00582140144517654	0.000640394968166896	-0.00827482864412027	-0.000118259413545638	-0.00671798964336634
			-0.000160753669949033	0.00752596704837216	-0.127017083868136	-0.28806348693664	-0.000108254895132047	0.00465292698851261	0.000785867127903531	0.00792333004755709
				0.000276292004358858	-0.00121801563489587	0.878971517548177	-0.340515799402416	0.000189086810665567	-0.00416808737148474	0.000744380413363555	-0.00393948490966194
			0.00090282639959794	0.00901512771471851	-0.000108254895132043	0.00465292698851261	0.00656780681813873	0.0381769768765869	0.000822686615589617	0.0039470830958557
				-0.000998818893128829	-0.00118769337349877	-0.00164867797242113	-0.00295079976673016	0.992403208774437	-0.0670587305389163	-0.000899272575939554	-0.00378716809356348
			0.000264979979980918	0.00684206380651034	0.000785867127903538	0.00792333004755713	0.000822686615589615	0.0039470830958557	0.00594794164477852	0.0354322831493939
				-0.00134711165710017	-0.000950467915702551	-0.00109830621058431	-0.00273078729720159	-0.00091971037760537	-0.00378246703631095	0.993220967867019	-0.06076564929779
			0.181697131363274	-0.402485706508921	0.000276292004358865	-0.00121801563489592	-0.00099881889312882	-0.00118769337349878	-0.00134711165710015	-0.000950467915702583
				-0.800538637845263	-0.39423917467922	0.003227537680782	0.000662748990529788	0.00272451317580219	0.00196118363436792	0.00164455982555697	0.00106549218105095
			-0.000205038477281032	-0.00582140144517676	0.878971517548178	-0.340515799402416	-0.00164867797242112	-0.00295079976673017	-0.00109830621058428	-0.0027307872972016
				0.00322753768078213	0.000662748990529601	-0.102751070014158	-0.301088897139376	0.00191291039571581	0.00341723424798711	0.00264148108034734	0.00676648740741925
			0.000640394968166881	-0.00827482864412026	0.000189086810665555	-0.00416808737148473	0.992403208774438	-0.0670587305389163	-0.000919710377605368	-0.00378246703631094
				0.00272451317580216	0.00196118363436799	0.00191291039571579	0.00341723424798712	0.00738382135242444	0.0380040276666491	0.00100153402383492	0.00392065565274621
			-0.000118259413545629	-0.00671798964336632	0.000744380413363475	-0.0039394849096621	-0.000899272575939551	-0.00378716809356349	0.993220967867018	-0.06076564929779
				0.00164455982555697	0.00106549218105102	0.0026414810803474	0.00676648740741932	0.00100153402383492	0.00392065565274621	0.00661649955293719	0.0352939649272372
80000000	-0.861739655967657	-0.276536887832489	-0.00057074050225825	0.00878106883998962	0.00115797745772148	0.0103206248028098	0.000444417529906387	0.00789090665916857
				0.142043287038372	-0.369338808320704	-0.000910920638924118	-0.00668544724268837	0.000398158317191553	-0.00966603663899783	-0.000334489997736449	-0.00778250107847134
			-0.000570740502258235	0.00878106883998963	-0.160745276005758	-0.315633255951026	-0.000214374619028707	0.00543401009446494	0.000906248332544567	0.00908754623375312
