#  HZ   S   RI   R     50.00 
! Rohde & Schwarz Vector Network Analyzer 
! Rohde-Schwarz,ZNB8-4Port,1311601044102961,2.82
! Created: UTC 6/29/2017, 11:43:21 PM
! freq[Hz]                re:S11                  im:S11                  re:S12                  im:S12                  re:S13                  im:S13                  re:S14                  im:S14
!                         re:S21                  im:S21                  re:S22                  im:S22                  re:S23                  im:S23                  re:S24                  im:S24
!                         re:S31                  im:S31                  re:S32                  im:S32                  re:S33                  im:S33                  re:S34                  im:S34
!                         re:S41                  im:S41                  re:S42                  im:S42                  re:S43                  im:S43                  re:S44                  im:S44
! 
 4.000000000000000E7     8.126100432995712E-1   -5.575894714010644E-1   -7.476939052162781E-4    5.320851489257270E-3   -1.628092695762683E-5   -3.023918825347054E-6   -9.096505194511479E-6    3.050657644127240E-6
                        -7.347054933454954E-4    5.204832181476281E-3    7.915665759758946E-1    5.668141472449255E-1    2.657259787517348E-6    1.257163139928045E-6    1.258043404579018E-6   -4.394809932990907E-7
                        -9.748145748042028E-6    4.457944078457155E-6    5.737806652221101E-6    5.341399484369366E-6   -7.283138400961303E-1   -4.531402467395991E-1   -7.202238521877286E-6    5.667857998796495E-7
                        -7.839799445833518E-6   -1.137513522937525E-6   -2.810554703601745E-6   -2.463855349762261E-6   -2.085816785698320E-6   -8.506752508202678E-7   -7.281526514608976E-1   -4.511363480138563E-1

 4.002000000000000E7     8.096027027719074E-1   -5.622349626185872E-1   -7.398735928230884E-4    5.295601323590506E-3   -9.982363920075653E-6   -4.413077010268457E-6   -1.038955924265815E-5    5.689823695422291E-6
                        -7.008960282454865E-4    5.243668327674371E-3    7.960436609431123E-1    5.607756091239058E-1   -1.823807224017438E-6    5.081239701684141E-7   -2.007323939852987E-6    1.006405326006242E-6
                        -7.094159742669558E-6   -6.279648367862773E-7   -4.413735062691725E-6   -2.449238380999170E-6   -7.303829341453241E-1   -4.498306104686591E-1   -4.120999203450523E-6    5.547848043624326E-6
                        -1.034352813881549E-5    5.866431322375735E-6    1.817793238103737E-6   -1.208472625596553E-6   -5.971116670228952E-7   -4.267982049316690E-6   -7.302130991828345E-1   -4.478011169057721E-1

 4.004000000000000E7     8.064600748876607E-1   -5.668020791643887E-1   -6.755939087138324E-4    5.295881325714796E-3   -1.780628632993266E-5   -3.186239907495101E-6   -1.293266391430487E-5    4.906550077670324E-6
                        -6.728398693200906E-4    5.223218916801206E-3    8.003801482734017E-1    5.546625986206303E-1   -1.880301450588857E-6    8.637871830966922E-6   -2.682320656452863E-6    4.190387789562668E-7
                        -9.234358596093239E-6   -3.578147126052267E-6   -1.127584237173181E-6   -3.457222397355039E-6   -7.324570676429286E-1   -4.464763295785997E-1   -1.114140352385689E-6   -3.761855816607835E-6
                        -1.411185967884885E-5   -1.914088533673510E-6   -5.130795030025967E-6   -1.469462273298819E-6   -4.147053697839163E-6    7.365173737106799E-6   -7.322986016891646E-1   -4.444670082968529E-1

 4.006000000000000E7     8.033676925956140E-1   -5.714884630431494E-1   -6.240612618619767E-4    5.332481220620551E-3   -1.025231631299947E-5    2.634135648479371E-6   -7.856839033221844E-6   -1.656742242381139E-6
                        -6.000067984822377E-4    5.247308229083966E-3    8.047486301179517E-1    5.485677205262801E-1   -6.997894243663059E-6    2.471452681906233E-6    1.384235648192108E-6    1.142366382889564E-5
                        -1.148776914546232E-5   -1.423368567430319E-6    4.172853052657443E-6    2.635199154505747E-6   -7.344618220917810E-1   -4.430987508084319E-1    4.843271235201240E-6    4.127725164380622E-6
                        -8.392426696036189E-6   -3.976920834960641E-6   -2.501658325610374E-6    2.274246399095935E-8    4.465594816725538E-7   -5.587793147494009E-6   -7.343066855406575E-1   -4.411047973909734E-1

 4.008000000000000E7     8.002185327610452E-1   -5.759789598330021E-1   -6.122580051919980E-4    5.316622730086787E-3   -6.958229395356546E-6    2.601772412522043E-6   -6.207024398823873E-6    3.171918302951892E-6
                        -6.016912927911038E-4    5.237721351736106E-3    8.090822232300818E-1    5.424502473972083E-1    6.459951715260294E-6   -7.718335742055132E-6    2.781484436053822E-7   -9.329912030950918E-7
                        -1.344301754191772E-5   -3.615670228239145E-7    6.081228426041350E-6   -2.050037920210852E-6   -7.365133349310958E-1   -4.397259800670386E-1   -1.757026335321901E-6    3.486144030875213E-6
                        -2.728060298501034E-6    6.411415652214765E-7    3.611936714015987E-6    7.324806413167567E-7   -8.975743913524028E-7    1.679055116036639E-6   -7.363145052156247E-1   -4.377059085669474E-1

 4.010000000000000E7     7.970151560716422E-1   -5.805746121086065E-1   -5.804240394932477E-4    5.326065819177070E-3   -1.731895299997456E-5    4.803672042689705E-6   -7.368036651393291E-6    2.700985994876034E-7
                        -5.404515716436267E-4    5.267766827741169E-3    8.132229672760750E-1    5.362541186877475E-1   -2.072728838407264E-6   -1.032174397582684E-6    5.887014160718921E-6   -3.581994288501564E-6
                        -1.341203718215778E-5    1.044616095710732E-6   -5.245516178421454E-6   -2.035964612642681E-6   -7.384970731688180E-1   -4.363442252005674E-1   -4.671419339166479E-6   -6.188103197225259E-6
                        -9.101366921064168E-6    2.463621893961859E-6    2.200236303734805E-6    1.267934543995414E-6    3.852891221351123E-6   -7.962034648162236E-6   -7.382797252146123E-1   -4.343029496231707E-1

 4.012000000000000E7     7.936929883284100E-1   -5.850657994550663E-1   -5.291802015918963E-4    5.351565432874082E-3   -2.139290604774299E-5    9.958593236177462E-7   -7.502996953543556E-6   -1.117956948641241E-5
                        -5.416556652518320E-4    5.274706566125367E-3    8.174599303896161E-1    5.301213862929100E-1    2.221685194996133E-7    4.767184035551125E-6    3.249041707147660E-6    2.860962733689882E-6
                        -1.745812313947849E-5    1.970799266111894E-6   -5.364448068927889E-6   -7.978381994616502E-7   -7.404639394267200E-1   -4.329695700849023E-1    1.144534214086660E-6    1.473964400008287E-6
                        -6.992870720272867E-6    5.377525852044935E-6    3.179764632789677E-8    5.171806623251804E-7   -1.805281741538763E-6   -3.769903740677193E-6   -7.402839478939391E-1   -4.308959574441551E-1

 4.014000000000000E7     7.904599759508404E-1   -5.895787460464620E-1   -4.832961148174060E-4    5.363472560542265E-3   -1.550094658185245E-5    1.669417975968282E-6   -1.147485569085600E-5   -3.841119813251243E-6
                        -4.911899490960924E-4    5.277964121460329E-3    8.215216648471511E-1    5.238806065628527E-1   -1.938882153335360E-6    5.605428644689213E-6   -9.414532723586848E-7   -4.257968104298773E-7
                        -1.317387685959721E-5    6.352626254879926E-6   -7.725667690834457E-6    4.225395737732484E-6   -7.424202027867900E-1   -4.295151104495004E-1    8.338679190766380E-6    4.512763473653657E-6
                        -1.612494771311854E-5    1.224043508237776E-6   -3.169223248382964E-7    7.086272898016493E-6    3.600553803882485E-6   -2.266504775682135E-6   -7.421700060277540E-1   -4.274797322752846E-1

 4.016000000000000E7     7.870926497338222E-1   -5.941122014899011E-1   -4.761473090256500E-4    5.306573221482063E-3   -1.638021490892991E-5    1.166083239337943E-5   -9.771798292579735E-6    9.748055862838646E-6
                        -4.879775683945268E-4    5.266130467126907E-3    8.255004611569129E-1    5.177536236122902E-1   -2.752162602494050E-7   -4.608145609698494E-6   -3.019560572851773E-6    5.069991694280670E-6
                        -6.394176741888767E-6   -9.697830732889032E-7    7.205093221972056E-6   -4.138767613095083E-6   -7.443723806555732E-1   -4.260971330992842E-1   -7.609302818275676E-6   -2.939700801246060E-6
                        -2.358554889646600E-6   -4.637565741488171E-6    2.537325925229601E-6   -3.018396015728322E-8   -1.042385193233459E-6   -4.010227367172854E-7   -7.440795052314524E-1   -4.240798145534805E-1

 4.018000000000000E7     7.837685352198862E-1   -5.985799222345825E-1   -4.141355576751710E-4    5.321726602334562E-3   -1.218820295571086E-5    1.325187185853194E-6   -1.443684463449302E-5   -6.690321061228335E-6
                        -4.138337944369179E-4    5.288196304146776E-3    8.295439533008188E-1    5.115718371776907E-1    4.710266223732269E-6   -2.275575412609619E-6    7.370858422615543E-6   -1.624414493802147E-6
                        -1.071731437770992E-5    1.381369533445773E-6    8.015729857986322E-7   -2.511686333168974E-6   -7.462445385662623E-1   -4.226414204467008E-1   -3.353130642253344E-6    5.414252455415869E-6
                        -8.006721665037021E-6   -2.908557204519209E-6    8.004686700602139E-7    2.741938586859818E-6   -6.921472471648052E-6   -1.546699133958155E-6   -7.459904030954726E-1   -4.206581825907292E-1

 4.020000000000000E7     7.803905065498999E-1   -6.030410789821836E-1   -4.206442166669982E-4    5.335737094066431E-3   -8.434395829446827E-6    4.819596733893832E-6   -2.618829831919123E-6   -1.492795941909892E-7
                        -3.751907508429748E-4    5.320208699628843E-3    8.334239252284399E-1    5.054077146187951E-1    2.992294446032246E-6    3.611522718999913E-6    5.676762851551778E-6    6.034547292724182E-6
                        -1.387513651078018E-5   -3.249446826016582E-6    1.339466879667119E-6   -3.080290215275285E-6   -7.481214268686961E-1   -4.192273001539236E-1    7.537879997666536E-7    5.151790170457467E-6
                        -6.256401752124107E-6    6.257042781758110E-6   -7.129873851252399E-7   -7.992800486288065E-6    4.469541195947560E-6    3.128734987243013E-6   -7.478753178039900E-1   -4.171919973315633E-1

 4.022000000000000E7     7.769594398792002E-1   -6.075550873714078E-1   -3.870792863200157E-4    5.356391300158162E-3   -1.119328781135662E-5   -6.306763605739255E-7   -2.479314875966867E-6   -2.581731832800254E-6
                        -3.806041166048828E-4    5.315971982583109E-3    8.372130024576084E-1    4.991467645061523E-1    8.457154316130946E-6    4.752884412950425E-6   -1.625760282396513E-6    4.527294110515212E-6
                        -1.270543901495821E-5    3.054900460298830E-8   -6.860987260656452E-6   -6.851737868367645E-6   -7.500001274386071E-1   -4.157558645040317E-1    7.407984305519412E-8   -4.436735967199876E-7
                        -1.161713782135276E-5    5.259831281843394E-6    3.316838181078334E-6    2.436822604238454E-7    4.771103417794361E-6    3.039850219714073E-6   -7.497302897908728E-1   -4.137349716789162E-1

 4.024000000000000E7     7.734945974086931E-1   -6.119892282530186E-1   -3.304140590553459E-4    5.374962333986064E-3   -8.053986001857722E-6    1.097648527488640E-6   -1.878437003994577E-5    3.698643520832412E-6
                        -3.247041408817937E-4    5.291367932713439E-3    8.410619411999870E-1    4.929795498940839E-1    2.990996946692977E-6   -1.740062232679956E-6   -6.653184530473085E-6    6.028072204906919E-6
                        -9.119799207301342E-6    3.118628373190912E-6    1.883222776794677E-6    4.071287545953819E-6   -7.518558284632571E-1   -4.122729215740389E-1   -1.832071021939223E-6    1.403766520251739E-6
                        -1.487275908593375E-5    3.300762088680839E-6   -1.778949635284899E-6    6.552940388469935E-6    1.104421326146541E-6    1.664212879288198E-6   -7.515557203577511E-1   -4.102659259170408E-1

 4.026000000000000E7     7.700082377356750E-1   -6.164310848615734E-1   -3.059326803664077E-4    5.353864786115627E-3   -1.165729334411676E-5   -3.883201692241840E-6   -8.348665913013320E-6   -1.612932544977444E-7
                        -2.551973229486413E-4    5.323846459132057E-3    8.447793094210734E-1    4.867865064118628E-1   -7.260296444209082E-7    1.064504787218318E-6   -1.735711780063189E-6   -5.697683084130517E-6
                        -1.020488766676480E-5   -1.987870208992383E-6    1.116654663097111E-5    4.048830999137391E-6   -7.536348071683973E-1   -4.088185327807781E-1    1.634180962077035E-6    5.836271304559351E-6
                        -4.800099244225649E-6   -4.909382585110620E-6    5.110018655740205E-6    4.277521970601643E-6   -6.644658875361148E-7    1.666115299579015E-6   -7.533912929652312E-1   -4.067933836314082E-1

 4.028000000000000E7     7.664650270697132E-1   -6.208179498388046E-1   -2.608752663066253E-4    5.350612079414945E-3   -3.199921113914339E-6    6.581287480583564E-6   -3.814992717556176E-6    3.725809573756164E-6
                        -2.265436920213775E-4    5.293179415771029E-3    8.485180864830646E-1    4.804641629244199E-1   -6.293649980162213E-6   -3.279163091580716E-7    2.471880969446244E-6   -3.952289894556369E-6
                        -1.764725829565058E-5    4.689360935964446E-6   -3.525288580814045E-7    7.868456238088751E-6   -7.555355354710595E-1   -4.053227926703631E-1   -3.323307336059623E-6    6.994561937564820E-7
                        -9.075386406970140E-6    4.603222845080472E-6    6.742000135979186E-6    6.958834747221841E-7   -1.567705784635295E-6   -8.233030921749831E-6   -7.552371966136494E-1   -4.032790211100935E-1

 4.030000000000000E7     7.629321884183204E-1   -6.251629919052077E-1   -2.069023472604739E-4    5.348295610685299E-3   -1.354574037522293E-5    4.360617770834096E-6   -8.533113466331445E-6    1.898399584662617E-6
                        -2.229995406826359E-4    5.310749699076596E-3    8.520741991132014E-1    4.742954296857281E-1   -3.854180921430180E-7   -7.265589281276335E-6    3.266066395650397E-6    1.140553283856822E-5
                        -1.307930225878444E-5   -1.644669151462795E-6    9.464523999433306E-7    3.333290405320739E-6   -7.572973923832480E-1   -4.018449700864065E-1   -3.808660144837631E-6   -2.404385972492730E-6
                        -1.302866174785466E-5   -1.051718460220378E-6   -3.785314026880628E-6    7.159376996216058E-6   -2.156013411323720E-6   -7.664200746835049E-7   -7.570527581442578E-1   -3.998545975743176E-1

 4.032000000000000E7     7.593541842999401E-1   -6.296235697297777E-1   -2.104626809273972E-4    5.377788997226454E-3   -9.529413284283674E-6    3.767661773909401E-6   -1.438403420193085E-5    3.492366252648396E-6
                        -1.752028952754938E-4    5.329094743742102E-3    8.556234314149853E-1    4.679672291117570E-1   -2.386017197282900E-6   -9.633976254897051E-6   -8.524242866656624E-6   -3.690379978353212E-6
                        -1.770819624316238E-5   -7.947337173201347E-7    2.637902187109992E-6    3.597124240386758E-6   -7.591153966235348E-1   -3.983451104932475E-1   -1.231982484710026E-6   -4.102798915322269E-6
                        -1.056484418490736E-5    9.726044473086245E-6   -3.514544964612728E-7    1.952749421288578E-6   -1.237666807692388E-6   -7.998941910797721E-6   -7.587902392805700E-1   -3.963230173411794E-1

 4.034000000000000E7     7.557648957272618E-1   -6.340015098424694E-1   -1.522920497419109E-4    5.346373667365498E-3   -1.590975649459362E-5    6.798091937427648E-6   -1.119731807894000E-5   -3.362683415492469E-6
                        -1.710001640211260E-4    5.323177557761435E-3    8.591685182773969E-1    4.616823492849956E-1   -2.512085598762288E-6    4.983060796205989E-6    1.593246540863355E-7   -3.167093192130968E-6
                        -9.544040374687272E-6   -9.233399615481893E-7   -2.005220961566770E-6   -4.186638714832553E-6   -7.608099626044376E-1   -3.948613982217362E-1    1.383485499995736E-6   -1.042439927571961E-5
                        -1.130192478915489E-5    4.905392223508981E-6   -1.870444098766310E-6   -1.027639849896452E-6    1.751628777939197E-6   -3.370864197336996E-6   -7.605453568185748E-1   -3.928537559596261E-1

 4.036000000000000E7     7.521036272068002E-1   -6.383090915196840E-1   -9.339296014920219E-5    5.389635224941914E-3   -1.589970455607286E-5    7.440920024494926E-8   -8.745176869041633E-7    6.883558106529916E-6
                        -8.932354111301507E-5    5.283626105438216E-3    8.625622239016715E-1    4.555055837914392E-1    3.815035399883688E-7   -2.533281507616222E-6    5.383460758295225E-6   -7.322999764490603E-6
                        -8.481004534335944E-6   -2.437553550829487E-6   -4.627519647849496E-6   -1.006973367369282E-5   -7.626024591155257E-1   -3.913892246449279E-1    2.870404985077332E-6    7.572790412146494E-7
                        -3.351054335466288E-6   -3.329516377286237E-6    3.237746204653056E-6    3.727227824510122E-6    2.385784399285998E-6    4.795447855501970E-6   -7.622762493013967E-1   -3.893323886245517E-1

 4.038000000000000E7     7.484628806679400E-1   -6.426519262900646E-1   -6.715878594786446E-5    5.373145674031464E-3   -1.413382505425538E-5    3.538354956551505E-6   -7.159569377158651E-6    1.597085670612363E-7
                        -3.622355103903155E-5    5.309043921971908E-3    8.659492464471015E-1    4.491511989338916E-1    5.368241057468860E-7    5.079762840965302E-6   -3.910756175190853E-6   -4.118334118013127E-6
                        -1.898622571506654E-5    2.840431862582063E-7    3.207305441518659E-6   -3.915588778530844E-6   -7.643172416373534E-1   -3.877859997071495E-1   -5.916371774987126E-7    8.696207680392927E-7
                        -1.030271808911658E-5   -1.545805953046454E-6   -2.170848904824291E-6   -1.854233320613591E-6   -1.564333430208241E-6    5.828857083782357E-6   -7.640414766380854E-1   -3.858371235439564E-1

 4.040000000000000E7     7.447206792115154E-1   -6.469998714494974E-1   -4.082389064846375E-5    5.388445158995530E-3   -1.925124550027967E-6   -3.603911096211778E-6   -6.719402546796648E-6   -3.369949416390019E-6
                        -5.097392280296128E-5    5.331619678085204E-3    8.692340154530527E-1    4.429000963853482E-1    6.696073240223872E-7   -3.761694792206631E-6    5.937881179115490E-6   -5.624573529787100E-6
                        -1.321627037666245E-5    4.483020985045095E-6    6.259582701066584E-7    2.010785339892588E-6   -7.660483681906178E-1   -3.842985806098849E-1   -6.053233266214123E-6    1.173264262397290E-6
                        -7.999462409781243E-6   -3.933771685242938E-6    1.267298402730782E-6   -2.596760912154162E-6    2.315869931317424E-6   -2.347769296279291E-6   -7.657346406473312E-1   -3.822875728728500E-1

 4.042000000000000E7     7.410108263947917E-1   -6.512656829554235E-1   -2.751457572229708E-5    5.374300287864042E-3   -1.429114085799315E-5    4.240415753987935E-6   -9.372395353122232E-6    7.724595212690348E-6
                         2.893643307194816E-5    5.314701113982338E-3    8.725814770843958E-1    4.365424151265077E-1   -4.468022292775782E-6    8.268274202931383E-6   -8.561214008988990E-6    4.647205246135820E-6
                        -1.770633499789785E-5    2.065416003415508E-6    4.427292304687463E-6    6.623987751470504E-6   -7.677156828555364E-1   -3.807591196754213E-1    7.194625594919093E-8    1.536381607449335E-6
                        -8.422689705404490E-6   -6.969559707022397E-7   -6.817185111692685E-6   -1.040076680641600E-6    2.853326456235178E-6    3.374303210028110E-6   -7.674331881022435E-1   -3.787151841804026E-1

