! Created Fri Jul 21 17:19:19 2023
# mhz S ri R 50
! 2 Port Network Data from SP1.SP block
! freq  reS11  imS11  reS21  imS21  reS12  imS12  reS22  imS22  
!     
                     0.1       0.979485695771589    -6.02803917501281e-05       0.0205143042284108     6.02803917501281e-05       0.0205143042284108     6.02803917501281e-05        0.979485695771589    -6.02803917501281e-05
                     0.6       0.979485565927549    -0.000361682302554895       0.0205144340724506     0.000361682302554895       0.0205144340724506     0.000361682302554895         0.97948556592755    -0.000361682302554895
                     1.1       0.979485250592167    -0.000663084007877443       0.0205147494078326     0.000663084007877443       0.0205147494078326     0.000663084007877443        0.979485250592167    -0.000663084007877443
                     1.6       0.979484749765802    -0.000964485336482993       0.0205152502341984     0.000964485336482993       0.0205152502341984     0.000964485336482993        0.979484749765802    -0.000964485336482993
                     2.1       0.979484063449021     -0.00126588611713748        0.020515936550979      0.00126588611713748        0.020515936550979      0.00126588611713748        0.979484063449021     -0.00126588611713748
                     2.6       0.979483191642606     -0.00156728617860788       0.0205168083573946      0.00156728617860788       0.0205168083573946      0.00156728617860788        0.979483191642605     -0.00156728617860788
                     3.1       0.979482134347546     -0.00186868534966252       0.0205178656524545      0.00186868534966252       0.0205178656524545      0.00186868534966252        0.979482134347546     -0.00186868534966252
                     3.6       0.979480891565042     -0.00217008345907143       0.0205191084349574      0.00217008345907143       0.0205191084349574      0.00217008345907143        0.979480891565043     -0.00217008345907143
                     4.1       0.979479463296509     -0.00247148033560664       0.0205205367034912      0.00247148033560664       0.0205205367034912      0.00247148033560664        0.979479463296509     -0.00247148033560664
                     4.6       0.979477849543567     -0.00277287580804251       0.0205221504564331      0.00277287580804251       0.0205221504564331      0.00277287580804251        0.979477849543567     -0.00277287580804251
                     5.1       0.979476050308051     -0.00307426970515607       0.0205239496919494      0.00307426970515607       0.0205239496919494      0.00307426970515607        0.979476050308051     -0.00307426970515607
                     5.6       0.979474065592004     -0.00337566185572733       0.0205259344079958      0.00337566185572733       0.0205259344079958      0.00337566185572733        0.979474065592004     -0.00337566185572733
                     6.1       0.979471895397683      -0.0036770520885396       0.0205281046023173       0.0036770520885396       0.0205281046023173       0.0036770520885396        0.979471895397683      -0.0036770520885396
                     6.6       0.979469539727552     -0.00397844023237983        0.020530460272448      0.00397844023237983        0.020530460272448      0.00397844023237983        0.979469539727552     -0.00397844023237983
                     7.1       0.979466998584289     -0.00427982611603892       0.0205330014157114      0.00427982611603892       0.0205330014157114      0.00427982611603892        0.979466998584289     -0.00427982611603892
                     7.6        0.97946427197078     -0.00458120956831206       0.0205357280292202      0.00458120956831206       0.0205357280292202      0.00458120956831206         0.97946427197078     -0.00458120956831206
                     8.1       0.979461359890123     -0.00488259041799904       0.0205386401098766      0.00488259041799904       0.0205386401098766      0.00488259041799904        0.979461359890123     -0.00488259041799903
                     8.6       0.979458262345628     -0.00518396849390456       0.0205417376543718      0.00518396849390456       0.0205417376543718      0.00518396849390456        0.979458262345628     -0.00518396849390456
                     9.1       0.979454979340813      -0.0054853436248386       0.0205450206591865       0.0054853436248386       0.0205450206591865       0.0054853436248386        0.979454979340813      -0.0054853436248386
                     9.6       0.979451510879409      -0.0057867156396167       0.0205484891205908       0.0057867156396167       0.0205484891205908       0.0057867156396167         0.97945151087941      -0.0057867156396167
                    10.1       0.979447856965356     -0.00608808436706031        0.020552143034644      0.00608808436706031        0.020552143034644      0.00608808436706031        0.979447856965356     -0.00608808436706031
                    10.6       0.979444017602805      -0.0063894496359971       0.0205559823971946       0.0063894496359971       0.0205559823971946       0.0063894496359971        0.979444017602805      -0.0063894496359971
                    11.1       0.979439992796119     -0.00669081127526129       0.0205600072038808      0.00669081127526128       0.0205600072038808      0.00669081127526128        0.979439992796119     -0.00669081127526128
                    11.6        0.97943578254987     -0.00699216911369395       0.0205642174501299      0.00699216911369395       0.0205642174501299      0.00699216911369395         0.97943578254987     -0.00699216911369395
                    12.1       0.979431386868841      -0.0072935229801434       0.0205686131311587       0.0072935229801434       0.0205686131311587       0.0072935229801434        0.979431386868842      -0.0072935229801434
                    12.6       0.979426805758026     -0.00759487270346542       0.0205731942419734      0.00759487270346542       0.0205731942419734      0.00759487270346542        0.979426805758027     -0.00759487270346542
                    13.1       0.979422039222631     -0.00789621811252368       0.0205779607773696      0.00789621811252368       0.0205779607773696      0.00789621811252368         0.97942203922263     -0.00789621811252368
                    13.6       0.979417087268068        -0.00819755903619       0.0205829127319322         0.00819755903619       0.0205829127319322         0.00819755903619        0.979417087268068        -0.00819755903619
                    14.1       0.979411949899964     -0.00849889530334469       0.0205880501000357      0.00849889530334469       0.0205880501000357      0.00849889530334469        0.979411949899965     -0.00849889530334469
                    14.6       0.979406627124155     -0.00880022674287688       0.0205933728758439      0.00880022674287688       0.0205933728758439      0.00880022674287688        0.979406627124156     -0.00880022674287688
                    15.1        0.97940111894669     -0.00910155318368483       0.0205988810533103      0.00910155318368483       0.0205988810533103      0.00910155318368483         0.97940111894669     -0.00910155318368483
                    15.6       0.979395425373822      -0.0094028744546763       0.0206045746261778      0.00940287445467629       0.0206045746261778      0.00940287445467629        0.979395425373823      -0.0094028744546763
                    16.1       0.979389546412022     -0.00970419038476877       0.0206104535879786      0.00970419038476877       0.0206104535879786      0.00970419038476877        0.979389546412021     -0.00970419038476877
                    16.6       0.979383482067965      -0.0100055008028899       0.0206165179320347       0.0100055008028899       0.0206165179320347       0.0100055008028899        0.979383482067965      -0.0100055008028899
                    17.1       0.979377232348542      -0.0103068055379778       0.0206227676514574       0.0103068055379778       0.0206227676514574       0.0103068055379778        0.979377232348542      -0.0103068055379778
                    17.6       0.979370797260852      -0.0106081044189812       0.0206292027391479       0.0106081044189812       0.0206292027391479       0.0106081044189812        0.979370797260852      -0.0106081044189812
                    18.1       0.979364176812203        -0.01090939727486       0.0206358231877966         0.01090939727486       0.0206358231877966         0.01090939727486        0.979364176812204        -0.01090939727486
                    18.6       0.979357371010116      -0.0112106839345856       0.0206426289898837       0.0112106839345856       0.0206426289898837       0.0112106839345856        0.979357371010117      -0.0112106839345856
                    19.1       0.979350379862321       -0.011511964227141       0.0206496201376791        0.011511964227141       0.0206496201376791        0.011511964227141        0.979350379862321       -0.011511964227141
                    19.6       0.979343203376758      -0.0118132379815213       0.0206567966232422       0.0118132379815213       0.0206567966232422       0.0118132379815213        0.979343203376758      -0.0118132379815213
                    20.1       0.979335841561578       -0.012114505026734       0.0206641584384222        0.012114505026734       0.0206641584384222        0.012114505026734        0.979335841561578       -0.012114505026734
                    20.6       0.979328294425142      -0.0124157651917991       0.0206717055748578       0.0124157651917992       0.0206717055748578       0.0124157651917992        0.979328294425142      -0.0124157651917991
                    21.1       0.979320561976023        -0.01271701830575       0.0206794380239777         0.01271701830575       0.0206794380239777         0.01271701830575        0.979320561976022        -0.01271701830575
                    21.6          0.979312644223      -0.0130182641976332           0.020687355777       0.0130182641976332           0.020687355777       0.0130182641976332           0.979312644223      -0.0130182641976332
                    22.1       0.979304541175067      -0.0133195026965088       0.0206954588249328       0.0133195026965088       0.0206954588249328       0.0133195026965088        0.979304541175067      -0.0133195026965088
                    22.6       0.979296252841426       -0.013620733631451        0.020703747158574        0.013620733631451        0.020703747158574        0.013620733631451        0.979296252841426       -0.013620733631451
                    23.1       0.979287779231489      -0.0139219568315484       0.0207122207685112       0.0139219568315484       0.0207122207685112       0.0139219568315484        0.979287779231489      -0.0139219568315484
                    23.6       0.979279120354878      -0.0142231721259041       0.0207208796451219       0.0142231721259041       0.0207208796451219       0.0142231721259041        0.979279120354878      -0.0142231721259041
                    24.1       0.979270276221427      -0.0145243793436362       0.0207297237785736       0.0145243793436362       0.0207297237785736       0.0145243793436362        0.979270276221426      -0.0145243793436362
                    24.6       0.979261246841177      -0.0148255783138781       0.0207387531588234       0.0148255783138781       0.0207387531588234       0.0148255783138781        0.979261246841177      -0.0148255783138781
                    25.1       0.979252032224382      -0.0151267688657787       0.0207479677756185       0.0151267688657787       0.0207479677756185       0.0151267688657787        0.979252032224382      -0.0151267688657787
                    25.6       0.979242632381504      -0.0154279508285031       0.0207573676184962       0.0154279508285031       0.0207573676184962       0.0154279508285031        0.979242632381504      -0.0154279508285031
                    26.1       0.979233047323216      -0.0157291240312324       0.0207669526767836       0.0157291240312324       0.0207669526767836       0.0157291240312324        0.979233047323217      -0.0157291240312324
                    26.6       0.979223277060402      -0.0160302883031643       0.0207767229395978       0.0160302883031643       0.0207767229395978       0.0160302883031643        0.979223277060403      -0.0160302883031643
                    27.1       0.979213321604154      -0.0163314434735135        0.020786678395846       0.0163314434735135        0.020786678395846       0.0163314434735135        0.979213321604154      -0.0163314434735135
                    27.6       0.979203180965774      -0.0166325893715118       0.0207968190342256       0.0166325893715118       0.0207968190342256       0.0166325893715118        0.979203180965774      -0.0166325893715118
                    28.1       0.979192855156776      -0.0169337258264088       0.0208071448432239       0.0169337258264088       0.0208071448432239       0.0169337258264088        0.979192855156776      -0.0169337258264088
                    28.6       0.979182344188882      -0.0172348526674715       0.0208176558111186       0.0172348526674715       0.0208176558111186       0.0172348526674715        0.979182344188882      -0.0172348526674715
                    29.1       0.979171648074023      -0.0175359697239856       0.0208283519259772       0.0175359697239856       0.0208283519259772       0.0175359697239856        0.979171648074023      -0.0175359697239856
                    29.6       0.979160766824342      -0.0178370768252549       0.0208392331756579       0.0178370768252549       0.0208392331756579       0.0178370768252549        0.979160766824342      -0.0178370768252549
                    30.1       0.979149700452191      -0.0181381738006022       0.0208502995478086       0.0181381738006022       0.0208502995478086       0.0181381738006022        0.979149700452192      -0.0181381738006022
                    30.6       0.979138448970132      -0.0184392604793696        0.020861551029868       0.0184392604793696        0.020861551029868       0.0184392604793696        0.979138448970132      -0.0184392604793696
                    31.1       0.979127012390935      -0.0187403366909184       0.0208729876090648       0.0187403366909184       0.0208729876090648       0.0187403366909184        0.979127012390936      -0.0187403366909184
                    31.6       0.979115390727582      -0.0190414022646299       0.0208846092724181       0.0190414022646299       0.0208846092724181       0.0190414022646299        0.979115390727582      -0.0190414022646299
                    32.1       0.979103583993263      -0.0193424570299054       0.0208964160067375       0.0193424570299054       0.0208964160067375       0.0193424570299054        0.979103583993263      -0.0193424570299054
                    32.6       0.979091592201377      -0.0196435008161666       0.0209084077986229       0.0196435008161666       0.0209084077986229       0.0196435008161666        0.979091592201377      -0.0196435008161666
                    33.1       0.979079415365535      -0.0199445334528562       0.0209205846344647       0.0199445334528562       0.0209205846344647       0.0199445334528562        0.979079415365535      -0.0199445334528562
                    33.6       0.979067053499556      -0.0202455547694378       0.0209329465004439       0.0202455547694378       0.0209329465004439       0.0202455547694378        0.979067053499556      -0.0202455547694378
                    34.1       0.979054506617468      -0.0205465645953963       0.0209454933825319       0.0205465645953963       0.0209454933825319       0.0205465645953963        0.979054506617468      -0.0205465645953963
                    34.6       0.979041774733509      -0.0208475627602385       0.0209582252664907       0.0208475627602385       0.0209582252664907       0.0208475627602385        0.979041774733509      -0.0208475627602385
                    35.1       0.979028857862127      -0.0211485490934933       0.0209711421378732       0.0211485490934933       0.0209711421378732       0.0211485490934933        0.979028857862127      -0.0211485490934933
                    35.6       0.979015756017978      -0.0214495234247119       0.0209842439820225       0.0214495234247119       0.0209842439820225       0.0214495234247119        0.979015756017978      -0.0214495234247119
                    36.1       0.979002469215927       -0.021750485583468       0.0209975307840727        0.021750485583468       0.0209975307840727        0.021750485583468        0.979002469215927       -0.021750485583468
                    36.6       0.978988997471052      -0.0220514353993586       0.0210110025289486       0.0220514353993586       0.0210110025289486       0.0220514353993586        0.978988997471051      -0.0220514353993586
                    37.1       0.978975340798634      -0.0223523727020038       0.0210246592013659       0.0223523727020038       0.0210246592013659       0.0223523727020038        0.978975340798634      -0.0223523727020038
                    37.6       0.978961499214169      -0.0226532973210476       0.0210385007858308       0.0226532973210476       0.0210385007858308       0.0226532973210476        0.978961499214169      -0.0226532973210476
                    38.1       0.978947472733359      -0.0229542090861578       0.0210525272666408       0.0229542090861578       0.0210525272666408       0.0229542090861578        0.978947472733358      -0.0229542090861578
                    38.6       0.978933261372116      -0.0232551078270264        0.021066738627884       0.0232551078270264        0.021066738627884       0.0232551078270264        0.978933261372116      -0.0232551078270264
                    39.1       0.978918865146561      -0.0235559933733703       0.0210811348534396       0.0235559933733703       0.0210811348534396       0.0235559933733703        0.978918865146561      -0.0235559933733703
                    39.6       0.978904284073022      -0.0238568655549311       0.0210957159269778       0.0238568655549311       0.0210957159269778       0.0238568655549311        0.978904284073022      -0.0238568655549311
                    40.1        0.97888951816804      -0.0241577242014758       0.0211104818319598       0.0241577242014758       0.0211104818319598       0.0241577242014758         0.97888951816804      -0.0241577242014758
                    40.6       0.978874567448362      -0.0244585691427969       0.0211254325516381       0.0244585691427969       0.0211254325516381       0.0244585691427969        0.978874567448362      -0.0244585691427969
                    41.1       0.978859431930944      -0.0247594002087127       0.0211405680690561       0.0247594002087127       0.0211405680690561       0.0247594002087127        0.978859431930944      -0.0247594002087127
                    41.6       0.978844111632952       -0.025060217229068       0.0211558883670485        0.025060217229068       0.0211558883670485        0.025060217229068        0.978844111632951       -0.025060217229068
                    42.1       0.978828606571759      -0.0253610200337338       0.0211713934282414       0.0253610200337338       0.0211713934282414       0.0253610200337338        0.978828606571758      -0.0253610200337338
                    42.6       0.978812916764948      -0.0256618084526082       0.0211870832350519       0.0256618084526082       0.0211870832350519       0.0256618084526083        0.978812916764948      -0.0256618084526083
                    43.1       0.978797042230311      -0.0259625823156165       0.0212029577696888       0.0259625823156165       0.0212029577696888       0.0259625823156165        0.978797042230311      -0.0259625823156164
                    43.6       0.978780982985848      -0.0262633414527112        0.021219017014152       0.0262633414527112        0.021219017014152       0.0262633414527112        0.978780982985848      -0.0262633414527112
