! Created Wed Jun  1 10:18:04 2022
# hz S ma R 50
! 2 Port Network Data from SP1.SP block
! freq  magS11  angS11  magS21  angS21  magS12  angS12  magS22  angS22  
!     
         200000000     0.00850816326          -101.1902        0.997904608        -9.45607242        0.997904608        -9.45607242      0.00850816326          -101.1902
         400000000      0.0162775492        -112.469122        0.996300104         -18.822624        0.996300104         -18.822624       0.0162775492        -112.469122
         600000000      0.0233226974        -122.696738        0.994746011        -28.1594804        0.994746011        -28.1594804       0.0233226974        -122.696738
         800000000      0.0295635493        -132.561687         0.99322295        -37.4763018         0.99322295        -37.4763018       0.0295635493        -132.561687
             1e+09      0.0348991756         -142.24019        0.991735536        -46.7776467        0.991735536        -46.7776467       0.0348991756         -142.24019
           1.2e+09       0.039235039        -151.801945        0.990294027        -56.0664744        0.990294027        -56.0664744        0.039235039        -151.801945
           1.4e+09      0.0424934319        -161.280959        0.988908543        -65.3451189        0.988908543        -65.3451189       0.0424934319        -161.280959
           1.6e+09        0.04461867        -170.695769        0.987586283        -74.6156267        0.987586283        -74.6156267         0.04461867        -170.695769
           1.8e+09      0.0455799449         179.943256        0.986330048        -83.8798616        0.986330048        -83.8798616       0.0455799449         179.943256
             2e+09      0.0453728232         170.631054        0.985137615        -93.1395116        0.985137615        -93.1395116       0.0453728232         170.631054
           2.2e+09      0.0440197902         161.367001        0.984001796        -102.396051        0.984001796        -102.396051       0.0440197902         161.367001
           2.4e+09      0.0415700204         152.155376        0.982911083        -111.650688        0.982911083        -111.650688       0.0415700204         152.155376
           2.6e+09      0.0380984557         143.007379        0.981850742        -120.904322        0.981850742        -120.904322       0.0380984557         143.007379
           2.8e+09      0.0337042395         133.946086        0.980804244        -130.157509        0.980804244        -130.157509       0.0337042395         133.946086
             3e+09      0.0285085663         125.018602        0.979754865        -139.410458        0.979754865        -139.410458       0.0285085663         125.018602
           3.2e+09      0.0226521143         116.330055         0.97868728        -148.663053         0.97868728        -148.663053       0.0226521143         116.330055
           3.4e+09      0.0162927141         108.162943        0.977589009        -157.914899        0.977589009        -157.914899       0.0162927141         108.162943
           3.6e+09     0.00960740492         101.606883        0.976451553        -167.165391        0.976451553        -167.165391      0.00960740492         101.606883
           3.8e+09     0.00288112329         108.089119        0.975271104        -176.413802        0.975271104        -176.413802      0.00288112329         108.089119
             4e+09     0.00434052158        -117.856839        0.974048785         174.340624        0.974048785         174.340624      0.00434052158        -117.856839
           4.2e+09      0.0109415195         -118.22578        0.972790372         165.098577        0.972790372         165.098577       0.0109415195         -118.22578
           4.4e+09      0.0172557293        -125.301407        0.971505565         155.860606        0.971505565         155.860606       0.0172557293        -125.301407
           4.6e+09      0.0230727651        -133.537477        0.970206882         146.627046        0.970206882         146.627046       0.0230727651        -133.537477
           4.8e+09      0.0282429702        -142.168445        0.968908294         137.397982        0.968908294         137.397982       0.0282429702        -142.168445
             5e+09      0.0326399213         -150.97176        0.967623763          128.17324        0.967623763          128.17324       0.0326399213         -150.97176
           5.2e+09      0.0361593416         -159.85796        0.966365813         118.952395        0.966365813         118.952395       0.0361593416         -159.85796
           5.4e+09      0.0387205057         -168.78286        0.965144292         109.734815        0.965144292         109.734815       0.0387205057         -168.78286
           5.6e+09      0.0402676352        -177.720481        0.963965437         100.519721        0.963965437         100.519721       0.0402676352        -177.720481
           5.8e+09      0.0407708674         173.347661        0.962831314         91.3062647        0.962831314         91.3062647       0.0407708674         173.347661
             6e+09      0.0402267059         164.438011        0.961739696         82.0936036        0.961739696         82.0936036       0.0402267059         164.438011
           6.2e+09       0.038657933          155.56894        0.960684368         72.8809852        0.960684368         72.8809852        0.038657933          155.56894
           6.4e+09      0.0361129831         146.765239        0.959655828         63.6678142        0.959655828         63.6678142       0.0361129831         146.765239
           6.6e+09      0.0326647995         138.065451        0.958642299         54.4537054        0.958642299         54.4537054       0.0326647995         138.065451
           6.8e+09      0.0284092496         129.537031        0.957630961         45.2385144        0.957630961         45.2385144       0.0284092496         129.537031
             7e+09      0.0234633478         121.313804         0.95660926         36.0223447         0.95660926         36.0223447       0.0234633478         121.313804
           7.2e+09       0.017964211         113.709074        0.955566183         26.8055286        0.955566183         26.8055286        0.017964211         113.709074
           7.4e+09      0.0120733871         107.674277        0.954493346         17.5885859        0.954493346         17.5885859       0.0120733871         107.674277
           7.6e+09     0.00602880518         108.031834        0.953385802          8.3721649        0.953385802          8.3721649      0.00602880518         108.031834
           7.8e+09       0.002003982        -172.423675        0.952242482       -0.843030003        0.952242482       -0.843030003        0.002003982        -172.423675
             8e+09     0.00709746699        -124.200144        0.951066237         -10.056314        0.951066237         -10.056314      0.00709746699        -124.200144
           8.2e+09      0.0130005001        -126.021639        0.949863464         -19.267095        0.949863464         -19.267095       0.0130005001        -126.021639
           8.4e+09      0.0186090428        -132.444552        0.948643388         -28.474935        0.948643388         -28.474935       0.0186090428        -132.444552
           8.6e+09      0.0237247028        -140.132673        0.947417064        -37.6795956        0.947417064        -37.6795956       0.0237247028        -140.132673
           8.8e+09      0.0282077027        -148.333661        0.946196215        -46.8810617        0.946196215        -46.8810617       0.0282077027        -148.333661
             9e+09      0.0319439887         -156.78329        0.944992019        -56.0795417        0.944992019        -56.0795417       0.0319439887         -156.78329
           9.2e+09       0.034841983        -165.363065        0.943813992        -65.2754453        0.943813992        -65.2754453        0.034841983        -165.363065
           9.4e+09      0.0368330627        -174.009644        0.942669046        -74.4693415        0.942669046        -74.4693415       0.0368330627        -174.009644
           9.6e+09      0.0378724877         177.316817        0.941560835        -83.6619003        0.941560835        -83.6619003       0.0378724877         177.316817
           9.8e+09      0.0379400914         168.646437        0.940489439        -92.8538255        0.940489439        -92.8538255       0.0379400914         168.646437
             1e+10      0.0370405493         160.007358        0.939451412        -102.045785        0.939451412        -102.045785       0.0370405493         160.007358
          1.02e+10      0.0352031761         151.432117         0.93844018        -111.238347         0.93844018        -111.238347       0.0352031761         151.432117
          1.04e+10      0.0324812622         142.965757        0.937446752        -120.431921        0.937446752        -120.431921       0.0324812622         142.965757
          1.06e+10      0.0289510269         134.680258        0.936460658        -129.626725        0.936460658        -129.626725       0.0289510269         134.680258
          1.08e+10      0.0247104396         126.706374        0.935471036        -138.822766        0.935471036        -138.822766       0.0247104396         126.706374
           1.1e+10       0.019878749            119.318        0.934467733        -148.019841        0.934467733        -148.019841        0.019878749            119.318
          1.12e+10      0.0146001384         113.212113        0.933442332        -157.217563        0.933442332        -157.217563       0.0146001384         113.212113
          1.14e+10     0.00907199004         110.827816        0.932388983        -166.415407        0.932388983        -166.415407      0.00907199004         110.827816
          1.16e+10     0.00385752904         128.281247        0.931304965        -175.612761        0.931304965        -175.612761      0.00385752904         128.281247
          1.18e+10     0.00407703987         -144.38652        0.930190919         175.191005        0.930190919         175.191005      0.00407703987         -144.38652
           1.2e+10     0.00928203471        -129.361551        0.929050728         165.996474        0.929050728         165.996474      0.00928203471        -129.361551
          1.22e+10      0.0146714476        -132.050688        0.927891076         156.804121        0.927891076         156.804121       0.0146714476        -132.050688
          1.24e+10      0.0197419136        -138.202502        0.926720719         147.614269        0.926720719         147.614269       0.0197419136        -138.202502
          1.26e+10      0.0243115319        -145.559359         0.92554956          138.42705         0.92554956          138.42705       0.0243115319        -145.559359
          1.28e+10      0.0282509832        -153.460901        0.924387627         129.242398        0.924387627         129.242398       0.0282509832        -153.460901
           1.3e+10      0.0314575131        -161.643208        0.923244048         120.060057        0.923244048         120.060057       0.0314575131        -161.643208
          1.32e+10      0.0338510491        -169.977586        0.922126144         110.879606        0.922126144         110.879606       0.0338510491        -169.977586
          1.34e+10       0.035374093        -178.390455        0.921038715         101.700502        0.921038715         101.700502        0.035374093        -178.390455
          1.36e+10       0.035992263         173.167591        0.919983589         92.5221384        0.919983589         92.5221384        0.035992263         173.167591
          1.38e+10      0.0356947216         164.736552        0.918959479         83.3439053        0.918959479         83.3439053       0.0356947216         164.736552
           1.4e+10      0.0344942673         156.356389        0.917962156         74.1652488        0.917962156         74.1652488       0.0344942673         156.356389
          1.42e+10      0.0324270366         148.075999        0.916984907         64.9857263        0.916984907         64.9857263       0.0324270366         148.075999
          1.44e+10      0.0295518652         139.966221        0.916019249         55.8050498        0.916019249         55.8050498       0.0295518652         139.966221
          1.46e+10      0.0259495132         132.144984        0.915055804          46.623112        0.915055804          46.623112       0.0259495132         132.144984
          1.48e+10      0.0217223895         124.836357        0.914085257         37.4399951        0.914085257         37.4399951       0.0217223895         124.836357
           1.5e+10      0.0169970148         118.537884        0.913099307         28.2559592        0.913099307         28.2559592       0.0169970148         118.537884
          1.52e+10      0.0119393897         114.628195        0.912091492         19.0714137        0.912091492         19.0714137       0.0119393897         114.628195
          1.54e+10     0.00685498406         118.619688        0.911057827         9.88687354        0.911057827         9.88687354      0.00685498406         118.619688
          1.56e+10     0.00333300674         163.936078        0.909997178        0.702904253        0.909997178        0.702904253      0.00333300674         163.936078
          1.58e+10     0.00613554354        -140.391293        0.908911346        -8.47993624        0.908911346        -8.47993624      0.00613554354        -140.391293
           1.6e+10      0.0110897613        -133.871356        0.907804836        -17.6611554        0.907804836        -17.6611554       0.0110897613        -133.871356
          1.62e+10      0.0160495524        -137.139557         0.90668437         -26.840376         0.90668437         -26.840376       0.0160495524        -137.139557
          1.64e+10      0.0206650512        -143.156519        0.905558165        -36.0173742        0.905558165        -36.0173742       0.0206650512        -143.156519
          1.66e+10      0.0247703744        -150.283373        0.904435085        -45.1921007        0.904435085        -45.1921007       0.0247703744        -150.283373
          1.68e+10      0.0282464746        -157.951643        0.903323727        -54.3646851        0.903323727        -54.3646851       0.0282464746        -157.951643
           1.7e+10      0.0310008469        -165.910723        0.902231557        -63.5354207        0.902231557        -63.5354207       0.0310008469        -165.910723
          1.72e+10      0.0329636681        -174.029556        0.901164171        -72.7047344        0.901164171        -72.7047344       0.0329636681        -174.029556
          1.74e+10       0.034087349         177.771566        0.900124754        -81.8731421        0.900124754        -81.8731421        0.034087349         177.771566
          1.76e+10       0.034346788          169.54974         0.89911379        -91.0411963         0.89911379        -91.0411963        0.034346788          169.54974
          1.78e+10       0.033739587         161.354548        0.898129046        -100.209431        0.898129046        -100.209431        0.033739587         161.354548
           1.8e+10      0.0322860085         153.239014        0.897165825        -109.378308        0.897165825        -109.378308       0.0322860085         153.239014
          1.82e+10      0.0300286443         145.271823        0.896217475        -118.548171        0.896217475        -118.548171       0.0300286443         145.271823
          1.84e+10      0.0270319298         137.557148        0.895276071        -127.719214        0.895276071        -127.719214       0.0270319298         137.557148
          1.86e+10      0.0233819433         130.275697        0.894333237        -136.891462        0.894333237        -136.891462       0.0233819433         130.275697
          1.88e+10      0.0191878981         123.786588        0.893380995         -146.06477        0.893380995         -146.06477       0.0191878981         123.786588
           1.9e+10      0.0145905809         118.934085         0.89241257        -155.238842         0.89241257        -155.238842       0.0145905809         118.934085
          1.92e+10     0.00980403389         118.248319        0.891423064        -164.413262        0.891423064        -164.413262      0.00980403389         118.248319
          1.94e+10      0.0053960328         132.555706        0.890409935        -173.587534        0.890409935        -173.587534       0.0053960328         132.555706
          1.96e+10     0.00423984594        -169.970747        0.889373225          177.23886        0.889373225          177.23886      0.00423984594        -169.970747
          1.98e+10     0.00794219996        -140.757304        0.888315529          168.06641        0.888315529          168.06641      0.00794219996        -140.757304
             2e+10      0.0126138139        -137.934493        0.887241697         158.895529        0.887241697         158.895529       0.0126138139        -137.934493
