! Created Wed Jun  1 10:19:41 2022
# hz S ma R 50
! 2 Port Network Data from SP1.SP block
! freq  magS11  angS11  magS21  angS21  magS12  angS12  magS22  angS22  
!     
         200000000     0.00243138776        -127.505431        0.998851798        -9.52444404        0.998851798        -9.52444404      0.00243138776        -127.505431
         400000000     0.00394210695        -143.739145        0.997706875        -18.9907061        0.997706875        -18.9907061      0.00394210695        -143.739145
         600000000     0.00509675126        -158.616076         0.99656657        -28.4350405         0.99656657        -28.4350405      0.00509675126        -158.616076
         800000000     0.00599800811         -172.81543        0.995430764        -37.8652199        0.995430764        -37.8652199      0.00599800811         -172.81543
             1e+09      0.0066874715         173.427251        0.994298729        -47.2849589        0.994298729        -47.2849589       0.0066874715         173.427251
           1.2e+09     0.00718555197         160.002858        0.993169411        -56.6964463        0.993169411        -56.6964463      0.00718555197         160.002858
           1.4e+09     0.00750342825         146.852972        0.992041641        -66.1011144        0.992041641        -66.1011144      0.00750342825         146.852972
           1.6e+09     0.00764804989         133.943437        0.990914306        -75.4999602        0.990914306        -75.4999602      0.00764804989         133.943437
           1.8e+09     0.00762472703         121.253183        0.989786485        -84.8937048        0.989786485        -84.8937048      0.00762472703         121.253183
             2e+09     0.00743869104         108.769062        0.988657548        -94.2828862        0.988657548        -94.2828862      0.00743869104         108.769062
           2.2e+09     0.00709613337         96.4836132        0.987527206        -103.667917        0.987527206        -103.667917      0.00709613337         96.4836132
           2.4e+09      0.0066049291         84.3947102        0.986395517        -113.049123        0.986395517        -113.049123       0.0066049291         84.3947102
           2.6e+09     0.00597513513         72.5071521        0.985262848        -122.426775        0.985262848        -122.426775      0.00597513513         72.5071521
           2.8e+09     0.00521930568         60.8375443        0.984129808        -131.801105        0.984129808        -131.801105      0.00521930568         60.8375443
             3e+09     0.00435265146         49.4272012         0.98299715        -141.172322         0.98299715        -141.172322      0.00435265146         49.4272012
           3.2e+09     0.00339307805         38.3802565        0.981865668        -150.540621        0.981865668        -150.540621      0.00339307805         38.3802565
           3.4e+09     0.00236122116          28.008337        0.980736097        -159.906188        0.980736097        -159.906188      0.00236122116          28.008337
           3.6e+09     0.00128133403         19.7239949        0.979609023        -169.269203        0.979609023        -169.269203      0.00128133403         19.7239949
           3.8e+09    0.000220685744         44.4615686        0.978484822        -178.629837        0.978484822        -178.629837     0.000220685744         44.4615686
             4e+09    0.000960837926         161.685488        0.977363624          172.01175        0.977363624          172.01175     0.000960837926         161.685488
           4.2e+09     0.00204081309         155.411773        0.976245315          162.65541        0.976245315          162.65541      0.00204081309         155.411773
           4.4e+09     0.00307384693         145.898803        0.975129563         153.301011        0.975129563         153.301011      0.00307384693         145.898803
           4.6e+09     0.00403098628         135.731118        0.974015878          143.94844        0.974015878          143.94844      0.00403098628         135.731118
           4.8e+09     0.00488739436         125.367463         0.97290368         134.597607         0.97290368         134.597607      0.00488739436         125.367463
             5e+09     0.00562065484         114.951956        0.971792382         125.248437        0.971792382         125.248437      0.00562065484         114.951956
           5.2e+09     0.00621112387         104.543983        0.970681468         115.900878        0.970681468         115.900878      0.00621112387         104.543983
           5.4e+09      0.0066424571         94.1729408        0.969570561         106.554891        0.969570561         106.554891       0.0066424571         94.1729408
           5.6e+09     0.00690210976         83.8562414        0.968459465         97.2104463        0.968459465         97.2104463      0.00690210976         83.8562414
           5.8e+09     0.00698175766         73.6068805        0.967348193         87.8675239        0.967348193         87.8675239      0.00698175766         73.6068805
             6e+09     0.00687761518         63.4376885        0.966236956         78.5261033        0.966236956         78.5261033      0.00687761518         63.4376885
           6.2e+09     0.00659063681         53.3649783        0.965126141         69.1861611        0.965126141         69.1861611      0.00659063681         53.3649783
           6.4e+09     0.00612659585         43.4134778        0.964016252         59.8476679        0.964016252         59.8476679      0.00612659585         43.4134778
           6.6e+09     0.00549604312         33.6254778        0.962907851         50.5105855        0.962907851         50.5105855      0.00549604312         33.6254778
           6.8e+09     0.00471416547         24.0815606        0.961801484         41.1748663        0.961801484         41.1748663      0.00471416547         24.0815606
             7e+09     0.00380061587         14.9569129        0.960697616         31.8404544        0.960697616         31.8404544      0.00380061587         14.9569129
           7.2e+09     0.00277961118         6.71520908        0.959596571         22.5072876        0.959596571         22.5072876      0.00277961118         6.71520908
           7.4e+09     0.00168218865         1.09754636        0.958498492         13.1753005        0.958498492         13.1753005      0.00168218865         1.09754636
           7.6e+09    0.000583002154         13.5983313        0.957403331         3.84442837        0.957403331         3.84442837     0.000583002154         13.5983313
           7.8e+09    0.000773383133         125.620014        0.956310847        -5.48538869        0.956310847        -5.48538869     0.000773383133         125.620014
             8e+09     0.00191340683         130.634757        0.955220643        -14.8142025        0.955220643        -14.8142025      0.00191340683         130.634757
           8.2e+09     0.00304772351         124.411121        0.954132213        -24.1420537        0.954132213        -24.1420537      0.00304772351         124.411121
           8.4e+09     0.00411857686         116.188907        0.953045004        -33.4689706        0.953045004        -33.4689706      0.00411857686         116.188907
           8.6e+09     0.00509285557         107.290267        0.951958481        -42.7949686        0.951958481        -42.7949686      0.00509285557         107.290267
           8.8e+09     0.00594245256         98.0995582        0.950872195        -52.1200513        0.950872195        -52.1200513      0.00594245256         98.0995582
             9e+09     0.00664301337         88.7707895        0.949785837        -61.4442133        0.949785837        -61.4442133      0.00664301337         88.7707895
           9.2e+09     0.00717419006         79.3796644        0.948699274         -70.767443        0.948699274         -70.767443      0.00717419006         79.3796644
           9.4e+09     0.00752009796         69.9702979        0.947612566         -80.089727        0.947612566         -80.089727      0.00752009796         69.9702979
           9.6e+09     0.00766974148         60.5734693        0.946525959        -89.4110542        0.946525959        -89.4110542      0.00766974148         60.5734693
           9.8e+09      0.0076173424          51.215662        0.945439858        -98.7314192        0.945439858        -98.7314192       0.0076173424          51.215662
             1e+10     0.00736254595         41.9253536        0.944354777        -108.050825        0.944354777        -108.050825      0.00736254595         41.9253536
          1.02e+10     0.00691049759         32.7399149        0.943271281        -117.369287        0.943271281        -117.369287      0.00691049759         32.7399149
          1.04e+10     0.00627179853         23.7168536        0.942189919        -126.686829        0.942189919        -126.686829      0.00627179853         23.7168536
          1.06e+10      0.0054623761         14.9573988        0.941111158        -136.003486        0.941111158        -136.003486       0.0054623761         14.9573988
          1.08e+10     0.00450338393          6.6662238        0.940035331        -145.319303        0.940035331        -145.319303      0.00450338393          6.6662238
           1.1e+10     0.00342156776       -0.661833002        0.938962595        -154.634326        0.938962595        -154.634326      0.00342156776       -0.661833002
          1.12e+10     0.00225242299        -5.44260475        0.937892914        -163.948607        0.937892914        -163.948607      0.00225242299        -5.44260475
          1.14e+10       0.001069968         1.13386876        0.936826058         -173.26219        0.936826058         -173.26219        0.001069968         1.13386876
          1.16e+10    0.000641755938         86.6613713        0.935761634         177.424885        0.935761634         177.424885     0.000641755938         86.6613713
          1.18e+10     0.00174159703         115.016195        0.934699128         168.112589        0.934699128         168.112589      0.00174159703         115.016195
           1.2e+10     0.00296875001         113.033163        0.933637963         158.800903        0.933637963         158.800903      0.00296875001         113.033163
          1.22e+10     0.00414954787         106.604257        0.932577564         149.489823        0.932577564         149.489823      0.00414954787         106.604257
          1.24e+10     0.00523714992         98.7961238        0.931517428         140.179355        0.931517428         140.179355      0.00523714992         98.7961238
          1.26e+10     0.00619798737         90.4013502        0.930457178         130.869515        0.930457178         130.869515      0.00619798737         90.4013502
          1.28e+10     0.00700407909         81.7165778        0.929396608         121.560327        0.929396608         121.560327      0.00700407909         81.7165778
           1.3e+10     0.00763218966         72.8804577        0.928335708         112.251817        0.928335708         112.251817      0.00763218966         72.8804577
          1.32e+10     0.00806402446         63.9697968        0.927274664          102.94401        0.927274664          102.94401      0.00806402446         63.9697968
          1.34e+10     0.00828659181         55.0347725        0.926213842         93.6369238        0.926213842         93.6369238      0.00828659181         55.0347725
          1.36e+10     0.00829252536         46.1149396        0.925153742         84.3305709        0.925153742         84.3305709      0.00829252536         46.1149396
          1.38e+10     0.00808030264         37.2488496        0.924094948         75.0249506        0.924094948         75.0249506      0.00808030264         37.2488496
           1.4e+10     0.00765434086         28.4827881        0.923038056         65.7200504        0.923038056         65.7200504      0.00765434086         28.4827881
          1.42e+10     0.00702497751         19.8830945        0.921983611         56.4158461        0.921983611         56.4158461      0.00702497751         19.8830945
          1.44e+10     0.00620838101         11.5598003        0.920932046         47.1123032        0.920932046         47.1123032      0.00620838101         11.5598003
          1.46e+10     0.00522653146         3.72224291        0.919883629         37.8093797        0.919883629         37.8093797      0.00522653146         3.72224291
          1.48e+10     0.00410776094        -3.16234414        0.918838434         28.5070301        0.918838434         28.5070301      0.00410776094        -3.16234414
           1.5e+10     0.00289008938        -7.78524184        0.917796331         19.2052093        0.917796331         19.2052093      0.00289008938        -7.78524184
          1.52e+10     0.00164362687        -4.76075105        0.916757001         9.90387685        0.916757001         9.90387685      0.00164362687        -4.76075105
          1.54e+10     0.00075934793          42.425085        0.915719968        0.603000581        0.915719968        0.603000581      0.00075934793          42.425085
          1.56e+10     0.00150643849         99.5178809        0.914684652        -8.69744039        0.914684652        -8.69744039      0.00150643849         99.5178809
          1.58e+10     0.00276971159          104.63532        0.913650435        -17.9974542        0.913650435        -17.9974542      0.00276971159          104.63532
           1.6e+10     0.00403496768         100.554121        0.912616725         -27.297036        0.912616725         -27.297036      0.00403496768         100.554121
          1.62e+10      0.0052203832         93.9380632        0.911583027        -36.5961693        0.911583027        -36.5961693       0.0052203832         93.9380632
          1.64e+10     0.00628337547         86.3050218        0.910548993         -45.894828        0.910548993         -45.894828      0.00628337547         86.3050218
          1.66e+10     0.00719141578         78.1792108        0.909514467        -55.1929805        0.909514467        -55.1929805      0.00719141578         78.1792108
          1.68e+10     0.00791803152         69.7918849        0.908479496        -64.4905938        0.908479496        -64.4905938      0.00791803152         69.7918849
           1.7e+10     0.00844226986         61.2646193        0.907444334        -73.7876374        0.907444334        -73.7876374      0.00844226986         61.2646193
          1.72e+10     0.00874885624         52.6722188        0.906409408        -83.0840878        0.906409408        -83.0840878      0.00874885624         52.6722188
          1.74e+10     0.00882846558         44.0693446        0.905375273        -92.3799317        0.905375273        -92.3799317      0.00882846558         44.0693446
          1.76e+10     0.00867794191         35.5047746        0.904342553        -101.675168        0.904342553        -101.675168      0.00867794191         35.5047746
          1.78e+10     0.00830041621         27.0322815        0.903311873        -110.969809        0.903311873        -110.969809      0.00830041621         27.0322815
           1.8e+10     0.00770532029          18.723628        0.902283787        -120.263879        0.902283787        -120.263879      0.00770532029          18.723628
          1.82e+10     0.00690834223         10.6909393        0.901258718        -129.557413        0.901258718        -129.557413      0.00690834223         10.6909393
          1.84e+10     0.00593146924         3.13534223        0.900236913        -138.850455        0.900236913        -138.850455      0.00593146924         3.13534223
          1.86e+10     0.00480359364        -3.52586754        0.899218412        -148.143049        0.899218412        -148.143049      0.00480359364        -3.52586754
          1.88e+10     0.00356358533        -8.24782689        0.898203044         -157.43524        0.898203044         -157.43524      0.00356358533        -8.24782689
           1.9e+10     0.00227662267        -7.55410571        0.897190445        -166.727067        0.897190445        -166.727067      0.00227662267        -7.55410571
          1.92e+10     0.00116715219         15.8328868        0.896180095         -176.01856        0.896180095         -176.01856      0.00116715219         15.8328868
          1.94e+10     0.00130068146          78.992201        0.895171378         174.690264        0.895171378         174.690264      0.00130068146          78.992201
          1.96e+10     0.00248881242          96.242478        0.894163644           165.3994        0.894163644           165.3994      0.00248881242          96.242478
          1.98e+10     0.00380180112         95.6729671        0.893156282         156.108859        0.893156282         156.108859      0.00380180112         95.6729671
             2e+10      0.0050651922         90.5992665        0.892148786         146.818661        0.892148786         146.818661       0.0050651922         90.5992665
