! Created Fri Jun  3 09:20:15 2022
# hz S ma R 50
! 2 Port Network Data from SP1.SP block
! freq  magS11  angS11  magS21  angS21  magS12  angS12  magS22  angS22  
!     
         200000000     0.00241158018        -134.108082        0.998648366        -10.2796118        0.998648366        -10.2796118      0.00241158018        -134.108082
         400000000     0.00382763473        -154.055418        0.997301874        -20.4907596        0.997301874        -20.4907596      0.00382763473        -154.055418
         600000000      0.0049098302        -172.232761         0.99596105        -30.6761768         0.99596105        -30.6761768       0.0049098302        -172.232761
         800000000     0.00577592625         170.592869          0.9946248        -40.8450151          0.9946248        -40.8450151      0.00577592625         170.592869
             1e+09     0.00646679186         154.171811        0.993291481        -51.0016244        0.993291481        -51.0016244      0.00646679186         154.171811
           1.2e+09     0.00699395937         138.387876        0.991959349        -61.1485411        0.991959349        -61.1485411      0.00699395937         138.387876
           1.4e+09      0.0073552056         123.169788        0.990626861        -71.2874025        0.990626861        -71.2874025       0.0073552056         123.169788
           1.6e+09       0.007542167         108.463709        0.989292902        -81.4193322        0.989292902        -81.4193322        0.007542167         108.463709
           1.8e+09     0.00754499739         94.2243767        0.987956916        -91.5451371        0.987956916        -91.5451371      0.00754499739         94.2243767
             2e+09     0.00735553412         80.4130528        0.986618936        -101.665422        0.986618936        -101.665422      0.00735553412         80.4130528
           2.2e+09     0.00696950778         66.9984884        0.985279531        -111.780663        0.985279531        -111.780663      0.00696950778         66.9984884
           2.4e+09     0.00638803669         53.9602851        0.983939681        -121.891255        0.983939681        -121.891255      0.00638803669         53.9602851
           2.6e+09     0.00561854283         41.2966053        0.982600599        -131.997546        0.982600599        -131.997546      0.00561854283         41.2966053
           2.8e+09     0.00467519034         29.0439938        0.981263532        -142.099853        0.981263532        -142.099853      0.00467519034         29.0439938
             3e+09     0.00357896549         17.3401891        0.979929576        -152.198477        0.979929576        -152.198477      0.00357896549         17.3401891
           3.2e+09     0.00235773823         6.70080335         0.97859952        -162.293702         0.97859952        -162.293702      0.00235773823         6.70080335
           3.4e+09     0.00104958028        0.446221818        0.977273743        -172.385795        0.977273743        -172.385795      0.00104958028        0.446221818
           3.6e+09    0.000390659215         129.334251        0.975952186            177.525        0.975952186            177.525     0.000390659215         129.334251
           3.8e+09     0.00174308006         140.307833        0.974634375         167.438465        0.974634375         167.438465      0.00174308006         140.307833
             4e+09     0.00310319254          131.47278        0.973319521         157.354416        0.973319521         157.354416      0.00310319254          131.47278
           4.2e+09     0.00439687422         121.063903         0.97200665         147.272706         0.97200665         147.272706      0.00439687422         121.063903
           4.4e+09     0.00558003765         110.270624        0.970694761         137.193223        0.970694761         137.193223      0.00558003765         110.270624
           4.6e+09     0.00661255448         99.3724833        0.969382984          127.11589        0.969382984          127.11589      0.00661255448         99.3724833
           4.8e+09     0.00745848965         88.4675603        0.968070712         117.040654        0.968070712         117.040654      0.00745848965         88.4675603
             5e+09     0.00808721623         77.5991613        0.966757691         106.967485        0.966757691         106.967485      0.00808721623         77.5991613
           5.2e+09     0.00847451833         66.7908661         0.96544406         96.8963586         0.96544406         96.8963586      0.00847451833         66.7908661
           5.4e+09     0.00860352574         56.0596262        0.964130327         86.8272511        0.964130327         86.8272511      0.00860352574         56.0596262
           5.6e+09      0.0084654219         45.4226045        0.962817296         76.7601295        0.962817296         76.7601295       0.0084654219         45.4226045
           5.8e+09     0.00805989572         34.9030604         0.96150595         66.6949456         0.96150595         66.6949456      0.00805989572         34.9030604
             6e+09       0.007395327         24.5389385        0.960197308         56.6316327        0.960197308         56.6316327        0.007395327         24.5389385
           6.2e+09      0.0064887207         14.4005411        0.958892278         46.5701057        0.958892278         46.5701057       0.0064887207         14.4005411
           6.4e+09     0.00536546533         4.63593206         0.95759153          36.510265         0.95759153          36.510265      0.00536546533         4.63593206
           6.6e+09     0.00405921672        -4.38235266        0.956295393         26.4520023        0.956295393         26.4520023      0.00405921672        -4.38235266
           6.8e+09     0.00261360118           -11.3868        0.955003817         16.3952088        0.955003817         16.3952088      0.00261360118           -11.3868
             7e+09     0.00110663376        -7.91852408        0.953716368         6.33978318        0.953716368         6.33978318      0.00110663376        -7.91852408
           7.2e+09    0.000752233069          101.42559        0.952432293        -3.71435997        0.952432293        -3.71435997     0.000752233069          101.42559
           7.4e+09     0.00227273665         116.089927        0.951150625        -13.7672845        0.951150625        -13.7672845      0.00227273665         116.089927
           7.6e+09     0.00383155571          110.35374        0.949870309        -23.8190293        0.949870309        -23.8190293      0.00383155571          110.35374
           7.8e+09     0.00530491845         101.887136        0.948590355        -33.8696078        0.948590355        -33.8696078      0.00530491845         101.887136
             8e+09     0.00663753075         92.5750704        0.947309974        -43.9190108        0.947309974        -43.9190108      0.00663753075         92.5750704
           8.2e+09     0.00778359594         82.9133172        0.946028684        -53.9672128        0.946028684        -53.9672128      0.00778359594         82.9133172
           8.4e+09     0.00870399053         73.0910841        0.944746385        -64.0141791        0.944746385        -64.0141791      0.00870399053         73.0910841
           8.6e+09     0.00936674376         63.1994749        0.943463372        -74.0598753        0.943463372        -74.0598753      0.00936674376         63.1994749
           8.8e+09     0.00974789422         53.2920424          0.9421803        -84.1042755          0.9421803        -84.1042755      0.00974789422         53.2920424
             9e+09     0.00983225499         43.4080085        0.940898098        -94.1473704        0.940898098        -94.1473704      0.00983225499         43.4080085
           9.2e+09     0.00961396232         33.5843626        0.939617849        -104.189172        0.939617849        -104.189172      0.00961396232         33.5843626
           9.4e+09     0.00909676809         23.8658751         0.93834064        -114.229714         0.93834064        -114.229714      0.00909676809         23.8658751
           9.6e+09     0.00829407829         14.3191264        0.937067422        -124.269057        0.937067422        -124.269057      0.00829407829         14.3191264
           9.8e+09     0.00722879435         5.06090232        0.935798881        -134.307274        0.935798881        -134.307274      0.00722879435         5.06090232
             1e+10     0.00593316129        -3.66889751         0.93453534        -144.344452         0.93453534        -144.344452      0.00593316129        -3.66889751
          1.02e+10     0.00444943343        -11.2703144        0.933276719        -154.380681        0.933276719        -154.380681      0.00444943343        -11.2703144
          1.04e+10     0.00283603365        -15.6953512        0.932022536        -164.416045        0.932022536        -164.416045      0.00283603365        -15.6953512
          1.06e+10     0.00123579921        -3.81991993        0.930771973         -174.45061        0.930771973         -174.45061      0.00123579921        -3.81991993
          1.08e+10     0.00110369299         86.4924612        0.929523977         175.515576        0.929523977         175.515576      0.00110369299         86.4924612
           1.1e+10      0.0027079792         103.059914        0.928277395         165.482492        0.928277395         165.482492       0.0027079792         103.059914
          1.12e+10     0.00439295776          99.323489        0.927031128         155.450144        0.927031128         155.450144      0.00439295776          99.323489
          1.14e+10     0.00598371429         92.0203341        0.925784274         145.418559        0.925784274         145.418559      0.00598371429         92.0203341
          1.16e+10     0.00741358095         83.5281488        0.924536245         135.387784        0.924536245         135.387784      0.00741358095         83.5281488
          1.18e+10      0.0086322377         74.5163342        0.923286848         125.357875        0.923286848         125.357875       0.0086322377         74.5163342
           1.2e+10     0.00959843482         65.2488053        0.922036314         115.328891        0.922036314         115.328891      0.00959843482         65.2488053
          1.22e+10      0.0102794979         55.8551821        0.920785268         105.300879        0.920785268         105.300879       0.0102794979         55.8551821
          1.24e+10      0.0106518629         46.4124939        0.919534654         95.2738706        0.919534654         95.2738706       0.0106518629         46.4124939
          1.26e+10      0.0107016838          36.977169        0.918285612         85.2478759        0.918285612         85.2478759       0.0107016838          36.977169
          1.28e+10      0.0104252733         27.6018569        0.917039335         75.2228771        0.917039335         75.2228771       0.0104252733         27.6018569
           1.3e+10     0.00982931044         18.3493057        0.915796914         65.1988316        0.915796914         65.1988316      0.00982931044         18.3493057
          1.32e+10     0.00893083048         9.31164647        0.914559196         55.1756742        0.914559196         55.1756742      0.00893083048         9.31164647
          1.34e+10      0.0077571096        0.649236619        0.913326675         45.1533246        0.913326675         45.1533246       0.0077571096        0.649236619
          1.36e+10     0.00634583974        -7.30990996        0.912099427         35.1316957        0.912099427         35.1316957      0.00634583974        -7.30990996
          1.38e+10     0.00474716802        -13.7490539        0.910877092         25.1107029        0.910877092         25.1107029      0.00474716802        -13.7490539
           1.4e+10     0.00303659367        -15.9234963        0.909658925         15.0902741        0.909658925         15.0902741      0.00303659367        -15.9234963
          1.42e+10     0.00143593729         1.72301114        0.908443882         5.07035745        0.908443882         5.07035745      0.00143593729         1.72301114
          1.44e+10     0.00143576465         76.0632628        0.907230753        -4.94907337        0.907230753        -4.94907337      0.00143576465         76.0632628
          1.46e+10     0.00305886791         93.8998533        0.906018317        -14.9680166        0.906018317        -14.9680166      0.00305886791         93.8998533
          1.48e+10      0.0048158465         91.8097889        0.904805494        -24.9864439        0.904805494        -24.9864439       0.0048158465         91.8097889
           1.5e+10     0.00648098015          85.465741        0.903591484        -35.0043046        0.903591484        -35.0043046      0.00648098015          85.465741
          1.52e+10     0.00797472649         77.6283352        0.902375869        -45.0215335        0.902375869        -45.0215335      0.00797472649         77.6283352
          1.54e+10     0.00924197872         69.1198218         0.90115867        -55.0380599         0.90115867        -55.0380599      0.00924197872         69.1198218
          1.56e+10      0.0102393222         60.2725771        0.899940346        -65.0538179        0.899940346        -65.0538179       0.0102393222         60.2725771
          1.58e+10      0.0109332502         51.2520754        0.898721733        -75.0687558        0.898721733        -75.0687558       0.0109332502         51.2520754
           1.6e+10       0.011300281         42.1573221        0.897503949        -85.0828435        0.897503949        -85.0828435        0.011300281         42.1573221
          1.62e+10      0.0113273878         33.0608902        0.896288243        -95.0960779        0.896288243        -95.0960779       0.0113273878         33.0608902
          1.64e+10      0.0110123446         24.0301724        0.895075848        -105.108485        0.895075848        -105.108485       0.0110123446         24.0301724
          1.66e+10      0.0103638854         15.1449112        0.893867819        -115.120115        0.893867819        -115.120115       0.0103638854         15.1449112
          1.68e+10     0.00940170052         6.52140778        0.892664901        -125.131042        0.892664901        -125.131042      0.00940170052         6.52140778
           1.7e+10      0.0081564553        -1.63907093        0.891467433        -135.141352        0.891467433        -135.141352       0.0081564553        -1.63907093
          1.72e+10     0.00667046486        -8.92753323        0.890275307        -145.151133        0.890275307        -145.151133      0.00667046486        -8.92753323
          1.74e+10     0.00500153191        -14.3379225        0.889087975        -155.160467        0.889087975        -155.160467      0.00500153191        -14.3379225
          1.76e+10     0.00324376075        -14.6037663        0.887904517        -165.169419        0.887904517        -165.169419      0.00324376075        -14.6037663
          1.78e+10     0.00169165163         5.97345844        0.886723757        -175.178031        0.886723757        -175.178031      0.00169165163         5.97345844
           1.8e+10     0.00175042212         67.8915675        0.885544405         174.813684        0.885544405         174.813684      0.00175042212         67.8915675
          1.82e+10     0.00334799971         86.6196725         0.88436522         164.805744         0.88436522         164.805744      0.00334799971         86.6196725
          1.84e+10      0.0051391191         85.9963261        0.883185166         154.798192        0.883185166         154.798192       0.0051391191         85.9963261
          1.86e+10     0.00684948967         80.5291371         0.88200354         144.791092         0.88200354         144.791092      0.00684948967         80.5291371
          1.88e+10     0.00838522185         73.2849725         0.88082006         134.784521         0.88082006         134.784521      0.00838522185         73.2849725
           1.9e+10      0.0096859498         65.2255499        0.879634904         124.778557        0.879634904         124.778557       0.0096859498         65.2255499
          1.92e+10      0.0107059061         56.7482607        0.878448686         114.773268        0.878448686         114.773268       0.0107059061         56.7482607
          1.94e+10       0.011410567         48.0531901        0.877262383         104.768708        0.877262383         104.768708        0.011410567         48.0531901
          1.96e+10      0.0117762562         39.2606771        0.876077212         94.7649018        0.876077212         94.7649018       0.0117762562         39.2606771
          1.98e+10      0.0117903691         30.4589389        0.874894478         84.7618468        0.874894478         84.7618468       0.0117903691         30.4589389
             2e+10      0.0114516281         21.7295357        0.873715415         74.7595101        0.873715415         74.7595101       0.0114516281         21.7295357
