! Created Wed Jun  1 10:21:40 2022
# hz S ma R 50
! 2 Port Network Data from SP1.SP block
! freq  magS11  angS11  magS21  angS21  magS12  angS12  magS22  angS22  
!     
         200000000     0.00909837632        -101.781434        0.997480821         -10.186922        0.997480821         -10.186922      0.00909837632        -101.781434
         400000000      0.0173265799        -114.096842        0.995586092        -20.2674544        0.995586092        -20.2674544       0.0173265799        -114.096842
         600000000      0.0246847336          -125.1759        0.993759602        -30.3127961        0.993759602        -30.3127961       0.0246847336          -125.1759
         800000000      0.0310737012          -135.8313        0.991979047        -40.3345102        0.991979047        -40.3345102       0.0310737012          -135.8313
             1e+09      0.0363756961        -146.268882        0.990250096        -50.3381615        0.990250096        -50.3381615       0.0363756961        -146.268882
           1.2e+09       0.040485621        -156.569534        0.988583991        -60.3274458        0.988583991        -60.3274458        0.040485621        -156.569534
           1.4e+09      0.0433231896        -166.772315        0.986990463        -70.3053131        0.986990463        -70.3053131       0.0433231896        -166.772315
           1.6e+09      0.0448388516        -176.897938        0.985474481        -80.2743334        0.985474481        -80.2743334       0.0448388516        -176.897938
           1.8e+09      0.0450168373         173.042985        0.984034778          -90.23679        0.984034778          -90.23679       0.0450168373         173.042985
             2e+09      0.0438764502         163.047059        0.982663597        -100.194662        0.982663597        -100.194662       0.0438764502         163.047059
           2.2e+09      0.0414720646         153.117964        0.981347398        -110.149569        0.981347398        -110.149569       0.0414720646         153.117964
           2.4e+09       0.037892023         143.268826        0.980068303        -120.102707        0.980068303        -120.102707        0.037892023         143.268826
           2.6e+09      0.0332565385         133.528955        0.978806075        -130.054816        0.978806075        -130.054816       0.0332565385         133.528955
           2.8e+09      0.0277147129         123.961594        0.977540346         -140.00617        0.977540346         -140.00617       0.0277147129         123.961594
             3e+09        0.02144098         114.717558        0.976252843        -149.956618        0.976252843        -149.956618         0.02144098         114.717558
           3.2e+09      0.0146323409         106.247857        0.974929329        -159.905654        0.974929329        -159.905654       0.0146323409         106.247857
           3.4e+09     0.00751767396         100.741932        0.973561061        -169.852523        0.973561061        -169.852523      0.00751767396         100.741932
           3.6e+09     0.00119338359         165.017351        0.972145564        -179.796348        0.972145564        -179.796348      0.00119338359         165.017351
           3.8e+09     0.00715054565        -117.673643        0.970686678         170.263738        0.970686678         170.263738      0.00715054565        -117.673643
             4e+09      0.0139923845        -122.862388        0.969193866         160.328468        0.969193866         160.328468       0.0139923845        -122.862388
           4.2e+09      0.0203678332        -131.184964        0.967680893         150.398337        0.967680893         150.398337       0.0203678332        -131.184964
           4.4e+09      0.0260715167        -140.272526        0.966164052         140.473536        0.966164052         140.473536       0.0260715167        -140.272526
           4.6e+09      0.0309399885        -149.649162        0.964660157         130.553918        0.964660157         130.553918       0.0309399885        -149.649162
           4.8e+09      0.0348394699        -159.154742         0.96318454         120.639014         0.96318454         120.639014       0.0348394699        -159.154742
             5e+09      0.0376668232        -168.718443        0.961749295         110.728079        0.961749295         110.728079       0.0376668232        -168.718443
           5.2e+09      0.0393513969        -178.301681        0.960361939         100.820175        0.960361939         100.820175       0.0393513969        -178.301681
           5.4e+09      0.0398563789          172.12167        0.959024654         90.9142755        0.959024654         90.9142755       0.0398563789          172.12167
           5.6e+09      0.0391794019         162.574458        0.957734153         81.0093776        0.957734153         81.0093776       0.0391794019         162.574458
           5.8e+09      0.0373523465         153.082629         0.95648219         71.1046067         0.95648219         71.1046067       0.0373523465         153.082629
             6e+09      0.0344403447         143.682649        0.955256619         61.1993095        0.955256619         61.1993095       0.0344403447         143.682649
           6.2e+09       0.030540034         134.434608        0.954042894         51.2931177        0.954042894         51.2931177        0.030540034         134.434608
           6.4e+09      0.0257772604          125.45216        0.952825808         41.3859778        0.952825808         41.3859778       0.0257772604          125.45216
           6.6e+09      0.0203049311         116.987027        0.951591283         31.4781453        0.951591283         31.4781453       0.0203049311         116.987027
           6.8e+09      0.0143042218         109.740013        0.950327991         21.5701418        0.950327991         21.5701418       0.0143042218         109.740013
             7e+09     0.00801264626         106.660895        0.949028627         11.6626833        0.949028627         11.6626833      0.00801264626         106.660895
           7.2e+09     0.00236424882         142.760075        0.947690676         1.75658599        0.947690676         1.75658599      0.00236424882         142.760075
           7.4e+09     0.00578658002        -128.502478        0.946316604        -8.14733652        0.946316604        -8.14733652      0.00578658002        -128.502478
           7.6e+09      0.0119335366        -127.242003        0.944913452        -18.0483744        0.944913452        -18.0483744       0.0119335366        -127.242003
           7.8e+09      0.0178192627        -133.579214        0.943491903         -27.946008        0.943491903         -27.946008       0.0178192627        -133.579214
             8e+09      0.0231635312         -141.65567        0.942064937        -37.8399695        0.942064937        -37.8399695       0.0231635312         -141.65567
           8.2e+09      0.0277936528        -150.383085         0.94064625        -47.7302741         0.94064625        -47.7302741       0.0277936528        -150.383085
           8.4e+09      0.0315732958        -159.410804        0.939248632         -57.617217        0.939248632         -57.617217       0.0315732958        -159.410804
           8.6e+09      0.0343961399        -168.588722        0.937882482        -67.5013371        0.937882482        -67.5013371       0.0343961399        -168.588722
           8.8e+09      0.0361861895        -177.838218        0.936554643        -77.3833533        0.936554643        -77.3833533       0.0361861895        -177.838218
             9e+09      0.0368988433         172.890638        0.935267675         -87.264081        0.935267675         -87.264081       0.0368988433         172.890638
           9.2e+09      0.0365216091         163.637466         0.93401963         -97.144338         0.93401963         -97.144338       0.0365216091         163.637466
           9.4e+09      0.0350741868         154.442621        0.932804369        -107.024852        0.932804369        -107.024852       0.0350741868         154.442621
           9.6e+09      0.0326078688         145.357961        0.931612341         -116.90618        0.931612341         -116.90618       0.0326078688         145.357961
           9.8e+09      0.0292043273         136.463721         0.93043176        -126.788649         0.93043176        -126.788649       0.0292043273         136.463721
             1e+10      0.0249740868         127.904601        0.929250014        -136.672322        0.929250014        -136.672322       0.0249740868         127.904601
          1.02e+10      0.0200557151         119.985881        0.928055154        -146.556999        0.928055154        -146.556999       0.0200557151         119.985881
          1.04e+10      0.0146200865         113.499224        0.926837284        -156.442245        0.926837284        -156.442245       0.0146200865         113.499224
          1.06e+10     0.00890693708         111.320134        0.925589687        -166.327449        0.925589687        -166.327449      0.00890693708         111.320134
          1.08e+10     0.00366952228         133.678422        0.924309561        -176.211898        0.924309561        -176.211898      0.00366952228         133.678422
           1.1e+10        0.00473277        -142.928395        0.922998281         173.905133        0.922998281         173.905133         0.00473277        -142.928395
          1.12e+10      0.0101763248        -131.882389        0.921661157         164.024296        0.921661157         164.024296       0.0101763248        -131.882389
          1.14e+10      0.0156832539        -135.621195        0.920306744          154.14609        0.920306744          154.14609       0.0156832539        -135.621195
          1.16e+10      0.0207764002        -142.510067        0.918945771         144.270804        0.918945771         144.270804       0.0207764002        -142.510067
          1.18e+10      0.0252567409        -150.530544        0.917589841         134.398482        0.917589841         134.398482       0.0252567409        -150.530544
           1.2e+10      0.0289811451        -159.066567        0.916250056         124.528926        0.916250056         124.528926       0.0289811451        -159.066567
          1.22e+10      0.0318392862         -167.86453        0.914935728         114.661712        0.914935728         114.661712       0.0318392862         -167.86453
          1.24e+10      0.0337504682        -176.796468        0.913653321          104.79625        0.913653321          104.79625       0.0337504682        -176.796468
          1.26e+10      0.0346637908         174.215061        0.912405749         94.9318463        0.912405749         94.9318463       0.0346637908         174.215061
          1.28e+10      0.0345586969         165.227511         0.91119209         85.0677905         0.91119209         85.0677905       0.0345586969         165.227511
           1.3e+10       0.033445177         156.294908        0.910007759         75.2034327        0.910007759         75.2034327        0.033445177         156.294908
          1.32e+10      0.0313634488         147.481763         0.90884509         65.3382591         0.90884509         65.3382591       0.0313634488         147.481763
          1.34e+10      0.0283831619         138.882324         0.90769428         55.4719485         0.90769428         55.4719485       0.0283831619         138.882324
          1.36e+10       0.024602478         130.658699        0.906544558          45.604406        0.906544558          45.604406        0.024602478         130.658699
          1.38e+10       0.020148217         123.136117        0.905385459         35.7357705        0.905385459         35.7357705        0.020148217         123.136117
           1.4e+10      0.0151817232         117.099654         0.90420804         25.8663937         0.90420804         25.8663937       0.0151817232         117.099654
          1.42e+10     0.00993539402         115.042517        0.903005911         15.9967956        0.903005911         15.9967956      0.00993539402         115.042517
          1.44e+10     0.00501256163         129.446099        0.901775941         6.12759981        0.901775941         6.12759981      0.00501256163         129.446099
          1.46e+10     0.00415307338        -162.206622        0.900518582        -3.74054182        0.900518582        -3.74054182      0.00415307338        -162.206622
          1.48e+10      0.0086506782        -137.760406        0.899237755        -13.6070274        0.899237755        -13.6070274       0.0086506782        -137.760406
           1.5e+10      0.0137841302        -137.907277        0.897940337        -23.4713763        0.897940337        -23.4713763       0.0137841302        -137.907277
          1.52e+10      0.0186616386        -143.302091        0.896635305        -33.3332844        0.896635305        -33.3332844       0.0186616386        -143.302091
          1.54e+10      0.0230276457        -150.493275         0.89533265        -43.1926592         0.89533265        -43.1926592       0.0230276457        -150.493275
          1.56e+10      0.0267247446         -158.48263        0.894042195        -53.0496284        0.894042195        -53.0496284       0.0267247446         -158.48263
          1.58e+10      0.0296360902        -166.876136        0.892772444        -62.9045233        0.892772444        -62.9045233       0.0296360902        -166.876136
           1.6e+10      0.0316754929        -175.482302        0.891529619        -72.7578385        0.891529619        -72.7578385       0.0316754929        -175.482302
          1.62e+10      0.0327857918         175.809826        0.890316965        -82.6101729        0.890316965        -82.6101729       0.0327857918         175.809826
          1.64e+10      0.0329389114         167.077884        0.889134421        -92.4621598        0.889134421        -92.4621598       0.0329389114         167.077884
          1.66e+10      0.0321360293         158.389782        0.887978671        -102.314394        0.887978671        -102.314394       0.0321360293         158.389782
          1.68e+10      0.0304074303         149.820968        0.886843577        -112.167361        0.886843577        -112.167361       0.0304074303         149.820968
           1.7e+10       0.027812026         141.475252        0.885720928        -122.021389        0.885720928        -122.021389        0.027812026         141.475252
          1.72e+10      0.0244368835         133.522448        0.884601423        -131.876606        0.884601423        -131.876606       0.0244368835         133.522448
          1.74e+10      0.0203979609         126.286136        0.883475768         -141.73293        0.883475768         -141.73293       0.0203979609         126.286136
          1.76e+10        0.01584642         120.495293        0.882335763        -151.590084        0.882335763        -151.590084         0.01584642         120.495293
          1.78e+10      0.0110009084         118.208785        0.881175243         -161.44763        0.881175243         -161.44763       0.0110009084         118.208785
           1.8e+10     0.00634882857         127.524825        0.879990777        -171.305021        0.879990777        -171.305021      0.00634882857         127.524825
          1.82e+10     0.00418973866           176.8788        0.878782026         178.838331        0.878782026         178.838331      0.00418973866           176.8788
          1.84e+10     0.00738143143        -145.668094        0.877551744         168.982985        0.877551744         168.982985      0.00738143143        -145.668094
          1.86e+10      0.0120768854        -140.829858        0.876305411         159.129408        0.876305411         159.129408       0.0120768854        -140.829858
          1.88e+10      0.0167367586        -144.286643        0.875050547         149.277915        0.875050547         149.277915       0.0167367586        -144.286643
           1.9e+10      0.0209976226        -150.470478        0.873795804         139.428639        0.873795804         139.428639       0.0209976226        -150.470478
          1.92e+10      0.0246762364        -157.829695        0.872549942         129.581515        0.872549942         129.581515       0.0246762364        -157.829695
          1.94e+10       0.027645574        -165.776752        0.871320801         119.736287        0.871320801         119.736287        0.027645574        -165.776752
          1.96e+10      0.0298126323        -174.036599        0.870114404         109.892542        0.870114404         109.892542       0.0298126323        -174.036599
          1.98e+10      0.0311136194         177.543742        0.868934286         100.049761        0.868934286         100.049761       0.0311136194         177.543742
             2e+10      0.0315130602         169.065758        0.867781112         90.2073743        0.867781112         90.2073743       0.0315130602         169.065758
