! Created Fri Jul 21 17:20:43 2023
# mhz S ri R 50
! 2 Port Network Data from SP1.SP block
! freq  reS11  imS11  reS21  imS21  reS12  imS12  reS22  imS22  
!     
                     0.1    0.000104709038379003     6.28186956373333e-06        0.999895290961621    -6.28186956373333e-06        0.999895290961621    -6.28186956373333e-06     0.000104709038379003     6.28186956373333e-06
                     0.6    0.000104717729945358     3.76912167792086e-05        0.999895282270055    -3.76912167792086e-05        0.999895282270055    -3.76912167792086e-05     0.000104717729945358     3.76912167792086e-05
                     1.1     0.00010473883590989     6.91005614098721e-05         0.99989526116409    -6.91005614098721e-05         0.99989526116409    -6.91005614098721e-05      0.00010473883590989     6.91005614098721e-05
                     1.6    0.000104772350962845     0.000100509901302937        0.999895227649037    -0.000100509901302937        0.999895227649037    -0.000100509901302937     0.000104772350962845     0.000100509901302937
                     2.1    0.000104818266680518     0.000131919234307773        0.999895181733319    -0.000131919234307773        0.999895181733319    -0.000131919234307773     0.000104818266680518     0.000131919234307773
                     2.6    0.000104876571536128     0.000163328558276881        0.999895123428464    -0.000163328558276881        0.999895123428464    -0.000163328558276881     0.000104876571536128     0.000163328558276881
                     3.1    0.000104947250920473     0.000194737871066858         0.99989505274908    -0.000194737871066858         0.99989505274908    -0.000194737871066858     0.000104947250920473     0.000194737871066858
                     3.6    0.000105030287159691      0.00022614717053936         0.99989496971284     -0.00022614717053936         0.99989496971284     -0.00022614717053936     0.000105030287159691      0.00022614717053936
                     4.1    0.000105125659544347      0.00025755645456205        0.999894874340456     -0.00025755645456205        0.999894874340456     -0.00025755645456205     0.000105125659544347      0.00025755645456205
                     4.6    0.000105233344358524      0.00028896572100953        0.999894766655641     -0.00028896572100953        0.999894766655641     -0.00028896572100953     0.000105233344358524      0.00028896572100953
                     5.1    0.000105353314915346      0.00032037496776427        0.999894646685085     -0.00032037496776427        0.999894646685085     -0.00032037496776427     0.000105353314915346      0.00032037496776427
                     5.6    0.000105485541594508     0.000351784192717507        0.999894514458406    -0.000351784192717507        0.999894514458406    -0.000351784192717507     0.000105485541594508     0.000351784192717507
                     6.1    0.000105629991886458     0.000383193393770141        0.999894370008114    -0.000383193393770141        0.999894370008114    -0.000383193393770141     0.000105629991886458     0.000383193393770141
                     6.6    0.000105786630439919     0.000414602568833596         0.99989421336956    -0.000414602568833596         0.99989421336956    -0.000414602568833596     0.000105786630439919     0.000414602568833596
                     7.1    0.000105955419109849     0.000446011715830674         0.99989404458089    -0.000446011715830674         0.99989404458089    -0.000446011715830674     0.000105955419109849     0.000446011715830674
                     7.6    0.000106136317014283     0.000477420832696376        0.999893863682985    -0.000477420832696376        0.999893863682985    -0.000477420832696376     0.000106136317014283     0.000477420832696376
                     8.1    0.000106329280590733     0.000508829917378709        0.999893670719409    -0.000508829917378709        0.999893670719409    -0.000508829917378709     0.000106329280590733     0.000508829917378709
                     8.6    0.000106534263654146     0.000540238967839457        0.999893465736346    -0.000540238967839457        0.999893465736346    -0.000540238967839457     0.000106534263654146     0.000540238967839457
                     9.1    0.000106751217466394     0.000571647982054933        0.999893248782534    -0.000571647982054933        0.999893248782534    -0.000571647982054933     0.000106751217466394     0.000571647982054933
                     9.6    0.000106980090797126     0.000603056958016708        0.999893019909203    -0.000603056958016708        0.999893019909203    -0.000603056958016708     0.000106980090797126     0.000603056958016708
                    10.1    0.000107220829995258     0.000634465893732295        0.999892779170005    -0.000634465893732295        0.999892779170005    -0.000634465893732295     0.000107220829995258     0.000634465893732295
                    10.6    0.000107473379061362     0.000665874787225821        0.999892526620938    -0.000665874787225821        0.999892526620938    -0.000665874787225821     0.000107473379061362     0.000665874787225821
                    11.1    0.000107737679718278     0.000697283636538664        0.999892262320282    -0.000697283636538664        0.999892262320282    -0.000697283636538664     0.000107737679718278     0.000697283636538664
                    11.6    0.000108013671490381     0.000728692439730052         0.99989198632851    -0.000728692439730052         0.99989198632851    -0.000728692439730052     0.000108013671490381     0.000728692439730052
                    12.1     0.00010830129177708      0.00076010119487764        0.999891698708223     -0.00076010119487764        0.999891698708223     -0.00076010119487764      0.00010830129177708      0.00076010119487764
                    12.6    0.000108600475935861     0.000791509900078053        0.999891399524064    -0.000791509900078053        0.999891399524064    -0.000791509900078053     0.000108600475935861     0.000791509900078053
                    13.1    0.000108911157357783     0.000822918553447395        0.999891088842642    -0.000822918553447395        0.999891088842642    -0.000822918553447395     0.000108911157357783     0.000822918553447395
                    13.6    0.000109233267553188     0.000854327153121725        0.999890766732447    -0.000854327153121725        0.999890766732447    -0.000854327153121725     0.000109233267553188     0.000854327153121725
                    14.1    0.000109566736231637     0.000885735697257506        0.999890433263768    -0.000885735697257506        0.999890433263768    -0.000885735697257506     0.000109566736231637     0.000885735697257506
                    14.6    0.000109911491384951     0.000917144184032015        0.999890088508615    -0.000917144184032015        0.999890088508615    -0.000917144184032015     0.000109911491384951     0.000917144184032015
                    15.1    0.000110267459371816     0.000948552611643727        0.999889732540628    -0.000948552611643727        0.999889732540628    -0.000948552611643727     0.000110267459371816     0.000948552611643727
                    15.6    0.000110634564999046     0.000979960978312665        0.999889365435001    -0.000979960978312665        0.999889365435001    -0.000979960978312665     0.000110634564999046     0.000979960978312665
                    16.1    0.000111012731608851      0.00101136928228071        0.999888987268391     -0.00101136928228071        0.999888987268391     -0.00101136928228071     0.000111012731608851      0.00101136928228071
                    16.6    0.000111401881160544       0.0010427775218119        0.999888598118839      -0.0010427775218119        0.999888598118839      -0.0010427775218119     0.000111401881160544       0.0010427775218119
                    17.1    0.000111801934313593      0.00107418569519267        0.999888198065686     -0.00107418569519267        0.999888198065686     -0.00107418569519267     0.000111801934313593      0.00107418569519267
                    17.6    0.000112212810512213      0.00110559380073209        0.999887787189488     -0.00110559380073209        0.999887787189488     -0.00110559380073209     0.000112212810512213      0.00110559380073209
                    18.1    0.000112634428067526      0.00113700183676204        0.999887365571932     -0.00113700183676204        0.999887365571932     -0.00113700183676204     0.000112634428067526      0.00113700183676204
                    18.6    0.000113066704238163      0.00116840980163741        0.999886933295762     -0.00116840980163741        0.999886933295762     -0.00116840980163741     0.000113066704238163      0.00116840980163741
                    19.1    0.000113509555313085      0.00119981769373619        0.999886490444687     -0.00119981769373619        0.999886490444687     -0.00119981769373619     0.000113509555313085      0.00119981769373619
                    19.6    0.000113962896689079       0.0012312255114596        0.999886037103311      -0.0012312255114596        0.999886037103311      -0.0012312255114596     0.000113962896689079       0.0012312255114596
                    20.1     0.00011442664295247      0.00126263325323221        0.999885573357047     -0.00126263325323221        0.999885573357047     -0.00126263325323221      0.00011442664295247      0.00126263325323221
                    20.6    0.000114900707954835      0.00129404091750191        0.999885099292045     -0.00129404091750191        0.999885099292045     -0.00129404091750191     0.000114900707954835      0.00129404091750191
                    21.1    0.000115385004888058      0.00132544850274002        0.999884614995112     -0.00132544850274002        0.999884614995112     -0.00132544850274002     0.000115385004888058      0.00132544850274002
                    21.6     0.00011587944636049      0.00135685600744124         0.99988412055364     -0.00135685600744124         0.99988412055364     -0.00135685600744124      0.00011587944636049      0.00135685600744124
                    22.1    0.000116383944469556      0.00138826343012367         0.99988361605553     -0.00138826343012367         0.99988361605553     -0.00138826343012367     0.000116383944469556      0.00138826343012367
                    22.6    0.000116898410873478      0.00141967076932872        0.999883101589126     -0.00141967076932872        0.999883101589126     -0.00141967076932872     0.000116898410873478      0.00141967076932872
                    23.1    0.000117422756859442      0.00145107802362112         0.99988257724314     -0.00145107802362112         0.99988257724314     -0.00145107802362112     0.000117422756859442      0.00145107802362112
                    23.6    0.000117956893413318      0.00148248519158875        0.999882043106587     -0.00148248519158875        0.999882043106587     -0.00148248519158875     0.000117956893413318      0.00148248519158875
                    24.1    0.000118500731283389      0.00151389227184261        0.999881499268717     -0.00151389227184261        0.999881499268717     -0.00151389227184261     0.000118500731283389      0.00151389227184261
                    24.6    0.000119054181045408      0.00154529926301662        0.999880945818955     -0.00154529926301662        0.999880945818955     -0.00154529926301662     0.000119054181045408      0.00154529926301662
                    25.1    0.000119617153166107      0.00157670616376757        0.999880382846834     -0.00157670616376757        0.999880382846834     -0.00157670616376757     0.000119617153166107      0.00157670616376757
                    25.6    0.000120189558060035      0.00160811297277489         0.99987981044194     -0.00160811297277489         0.99987981044194     -0.00160811297277489     0.000120189558060035      0.00160811297277489
                    26.1    0.000120771306148848       0.0016395196887405        0.999879228693851      -0.0016395196887405        0.999879228693851      -0.0016395196887405     0.000120771306148848       0.0016395196887405
                    26.6    0.000121362307919037      0.00167092631038861        0.999878637692081     -0.00167092631038861        0.999878637692081     -0.00167092631038861     0.000121362307919037      0.00167092631038861
                    27.1    0.000121962473972337      0.00170233283646556        0.999878037526028     -0.00170233283646556        0.999878037526028     -0.00170233283646556     0.000121962473972337      0.00170233283646556
                    27.6    0.000122571715080344      0.00173373926573953         0.99987742828492     -0.00173373926573953         0.99987742828492     -0.00173373926573953     0.000122571715080344      0.00173373926573953
                    28.1     0.00012318994223226       0.0017651455970004        0.999876810057768      -0.0017651455970004        0.999876810057768      -0.0017651455970004      0.00012318994223226       0.0017651455970004
                    28.6    0.000123817066683518      0.00179655182905941        0.999876182933316     -0.00179655182905941        0.999876182933316     -0.00179655182905941     0.000123817066683518      0.00179655182905941
                    29.1    0.000124453000001523      0.00182795796074901        0.999875546999998     -0.00182795796074901        0.999875546999998     -0.00182795796074901     0.000124453000001523      0.00182795796074901
                    29.6     0.00012509765410762      0.00185936399092253        0.999874902345892     -0.00185936399092253        0.999874902345892     -0.00185936399092253      0.00012509765410762      0.00185936399092253
                    30.1    0.000125750941319946      0.00189076991845394         0.99987424905868     -0.00189076991845394         0.99987424905868     -0.00189076991845394     0.000125750941319946      0.00189076991845394
                    30.6    0.000126412774391405      0.00192217574223758        0.999873587225609     -0.00192217574223758        0.999873587225609     -0.00192217574223758     0.000126412774391405      0.00192217574223758
                    31.1    0.000127083066548961      0.00195358146118784        0.999872916933451     -0.00195358146118784        0.999872916933451     -0.00195358146118784     0.000127083066548961      0.00195358146118784
                    31.6    0.000127761731526954      0.00198498707423894        0.999872238268473     -0.00198498707423894        0.999872238268473     -0.00198498707423894     0.000127761731526954      0.00198498707423894
                    32.1      0.0001284486836024      0.00201639258034456        0.999871551316398     -0.00201639258034456        0.999871551316398     -0.00201639258034456       0.0001284486836024      0.00201639258034456
                    32.6     0.00012914383762519      0.00204779797847758        0.999870856162375     -0.00204779797847758        0.999870856162375     -0.00204779797847758      0.00012914383762519      0.00204779797847758
                    33.1    0.000129847109048731      0.00207920326762979        0.999870152890951     -0.00207920326762979        0.999870152890951     -0.00207920326762979     0.000129847109048731      0.00207920326762979
                    33.6    0.000130558413956816      0.00211060844681153        0.999869441586043     -0.00211060844681153        0.999869441586043     -0.00211060844681153     0.000130558413956816      0.00211060844681153
                    34.1    0.000131277669090712      0.00214201351505144        0.999868722330909     -0.00214201351505144        0.999868722330909     -0.00214201351505144     0.000131277669090712      0.00214201351505144
                    34.6    0.000132004791874696       0.0021734184713961        0.999867995208125      -0.0021734184713961        0.999867995208125      -0.0021734184713961     0.000132004791874696       0.0021734184713961
                    35.1    0.000132739700435147      0.00220482331490976        0.999867260299565     -0.00220482331490976        0.999867260299565     -0.00220482331490976     0.000132739700435147      0.00220482331490976
                    35.6    0.000133482313625644      0.00223622804467398        0.999866517686374     -0.00223622804467398        0.999866517686374     -0.00223622804467398     0.000133482313625644      0.00223622804467398
                    36.1    0.000134232551042723      0.00226763265978733        0.999865767448957     -0.00226763265978733        0.999865767448957     -0.00226763265978733     0.000134232551042723      0.00226763265978733
                    36.6    0.000134990333048757      0.00229903715936509        0.999865009666951     -0.00229903715936509        0.999865009666951     -0.00229903715936509     0.000134990333048757      0.00229903715936509
                    37.1    0.000135755580782382      0.00233044154253892        0.999864244419218     -0.00233044154253892        0.999864244419218     -0.00233044154253892     0.000135755580782382      0.00233044154253892
                    37.6    0.000136528216178489      0.00236184580845653        0.999863471783821     -0.00236184580845653        0.999863471783821     -0.00236184580845653     0.000136528216178489      0.00236184580845653
                    38.1    0.000137308161979988      0.00239324995628139         0.99986269183802     -0.00239324995628139         0.99986269183802     -0.00239324995628139     0.000137308161979988      0.00239324995628139
                    38.6      0.0001380953417498      0.00242465398519241         0.99986190465825     -0.00242465398519241         0.99986190465825     -0.00242465398519241       0.0001380953417498      0.00242465398519241
                    39.1    0.000138889679881515      0.00245605789438362        0.999861110320118     -0.00245605789438362        0.999861110320118     -0.00245605789438362     0.000138889679881515      0.00245605789438362
                    39.6    0.000139691101611161      0.00248746168306386        0.999860308898389     -0.00248746168306386        0.999860308898389     -0.00248746168306386     0.000139691101611161      0.00248746168306386
                    40.1     0.00014049953302453      0.00251886535045647        0.999859500466975     -0.00251886535045647        0.999859500466975     -0.00251886535045647      0.00014049953302453      0.00251886535045647
                    40.6    0.000141314901062728      0.00255026889579901        0.999858685098937     -0.00255026889579901        0.999858685098937     -0.00255026889579901     0.000141314901062728      0.00255026889579901
                    41.1     0.00014213713353306      0.00258167231834292        0.999857862866467     -0.00258167231834292        0.999857862866467     -0.00258167231834292      0.00014213713353306      0.00258167231834292
                    41.6    0.000142966159110358      0.00261307561735327         0.99985703384089     -0.00261307561735327         0.99985703384089     -0.00261307561735327     0.000142966159110358      0.00261307561735327
                    42.1    0.000143801907342533      0.00264447879210839        0.999856198092657     -0.00264447879210839        0.999856198092657     -0.00264447879210839     0.000143801907342533      0.00264447879210839
                    42.6    0.000144644308654795      0.00267588184189965        0.999855355691345     -0.00267588184189965        0.999855355691345     -0.00267588184189965     0.000144644308654795      0.00267588184189965
                    43.1    0.000145493294351207      0.00270728476603115        0.999854506705649     -0.00270728476603115        0.999854506705649     -0.00270728476603115     0.000145493294351207      0.00270728476603115
                    43.6    0.000146348796616236      0.00273868756381941        0.999853651203384     -0.00273868756381941        0.999853651203384     -0.00273868756381941     0.000146348796616236      0.00273868756381941
