! Created Wed May 11 08:01:21 2022
# hz S ma R 50
! 2 Port Network Data from SP1.SP block
! freq  magS11  angS11  magS21  angS21  magS12  angS12  magS22  angS22  
!     
         200000000      0.0034750253        -121.654357         0.99804314        -10.9412585         0.99804314        -10.9412585       0.0034750253        -121.654357
         400000000     0.00692210403        -133.984416        0.996281238        -21.8908008        0.996281238        -21.8908008      0.00692210403        -133.984416
         600000000      0.0101593766        -145.477498        0.994555915        -32.8523912        0.994555915        -32.8523912       0.0101593766        -145.477498
         800000000      0.0130485621        -156.713626         0.99285303        -43.8288084         0.99285303        -43.8288084       0.0130485621        -156.713626
             1e+09      0.0154620559        -167.852657        0.991169576        -54.8223833        0.991169576        -54.8223833       0.0154620559        -167.852657
           1.2e+09      0.0172887224        -178.961942        0.989504907        -65.8351676        0.989504907        -65.8351676       0.0172887224        -178.961942
           1.4e+09      0.0184410986         169.923816        0.987858048        -76.8689933        0.987858048        -76.8689933       0.0184410986         169.923816
           1.6e+09      0.0188618309         158.785335        0.986226566        -87.9254801        0.986226566        -87.9254801       0.0188618309         158.785335
           1.8e+09      0.0185285729         147.613039        0.984606243        -99.0060149        0.984606243        -99.0060149       0.0185285729         147.613039
             2e+09      0.0174568684         136.406223        0.982991351        -110.111725        0.982991351        -110.111725       0.0174568684         136.406223
           2.2e+09      0.0157007063         125.176451        0.981375392        -121.243456        0.981375392        -121.243456       0.0157007063         125.176451
           2.4e+09      0.0133506064         113.958955         0.97975213        -132.401778         0.97975213        -132.401778       0.0133506064         113.958955
           2.6e+09       0.010529308         102.847595        0.978116673        -143.587008        0.978116673        -143.587008        0.010529308         102.847595
           2.8e+09     0.00738554028         92.1257644        0.976466353        -154.799269        0.976466353        -154.799269      0.00738554028         92.1257644
             3e+09     0.00408835593          83.028616        0.974801198        -166.038558        0.974801198        -166.038558      0.00408835593          83.028616
           3.2e+09    0.000887213819         94.9791631        0.973123845        -177.304838        0.973123845        -177.304838     0.000887213819         94.9791631
           3.4e+09     0.00239737035        -138.374181        0.971438893         171.401904        0.971438893         171.401904      0.00239737035        -138.374181
           3.6e+09     0.00516725111        -145.070928        0.969751823         160.081596        0.969751823         160.081596      0.00516725111        -145.070928
           3.8e+09     0.00749865732        -156.274318        0.968067718         148.734078        0.968067718         148.734078      0.00749865732        -156.274318
             4e+09     0.00928483392        -168.675902        0.966390076         137.359119        0.966390076         137.359119      0.00928483392        -168.675902
           4.2e+09       0.010469599         178.204165        0.964720015         125.956474        0.964720015         125.956474        0.010469599         178.204165
           4.4e+09      0.0110412879         164.445763        0.963056056         114.525957        0.963056056         114.525957       0.0110412879         164.445763
           4.6e+09      0.0110320093         150.004609        0.961394565         103.067503        0.961394565         103.067503       0.0110320093         150.004609
           4.8e+09      0.0105141338         134.772611        0.959730739         91.5812246        0.959730739         91.5812246       0.0105141338         134.772611
             5e+09     0.00959285604         118.600063        0.958059907         80.0674188        0.958059907         80.0674188      0.00959285604         118.600063
           5.2e+09     0.00839404391         101.321802        0.956378789          68.526542        0.956378789          68.526542      0.00839404391         101.321802
           5.4e+09     0.00704645902         82.8170027        0.954686393         56.9591464        0.954686393         56.9591464      0.00704645902         82.8170027
           5.6e+09     0.00565787861         63.1392313        0.952984256         45.3657958        0.952984256         45.3657958      0.00565787861         63.1392313
           5.8e+09     0.00428774311         42.7608615        0.951275966         33.7469845        0.951275966         33.7469845      0.00428774311         42.7608615
             6e+09     0.00292730282         23.0938881        0.949566036         22.1030794        0.949566036         22.1030794      0.00292730282         23.0938881
           6.2e+09     0.00151433151         9.46436655        0.947858433         10.4343045        0.947858433         10.4343045      0.00151433151         9.46436655
           6.4e+09    0.000513191543         83.2014886        0.946155177        -1.25922401        0.946155177        -1.25922401     0.000513191543         83.2014886
           6.6e+09     0.00219284276         117.142025        0.944455417        -12.9774213        0.944455417        -12.9774213      0.00219284276         117.142025
           6.8e+09     0.00444421004         104.681071        0.942755338        -24.7201328        0.942755338        -24.7201328      0.00444421004         104.681071
             7e+09     0.00702589939         89.4618089        0.941048996        -36.4870376        0.941048996        -36.4870376      0.00702589939         89.4618089
           7.2e+09     0.00982800915         74.2135127         0.93932997        -48.2775885         0.93932997        -48.2775885      0.00982800915         74.2135127
           7.4e+09      0.0126894861         59.3968144        0.937593438        -60.0910094        0.937593438        -60.0910094       0.0126894861         59.3968144
           7.6e+09      0.0154055732         45.0742559        0.935838113        -71.9263637        0.935838113        -71.9263637       0.0154055732         45.0742559
           7.8e+09      0.0177440967         31.2195146        0.934067445        -83.7826821        0.934067445        -83.7826821       0.0177440967         31.2195146
             8e+09      0.0194641089         17.7974737        0.932289621        -95.6591252        0.932289621        -95.6591252       0.0194641089         17.7974737
           8.2e+09      0.0203354347         4.79332693        0.930516151        -107.555138        0.930516151        -107.555138       0.0203354347         4.79332693
           8.4e+09      0.0201582055        -7.76519674        0.928759216        -119.470552        0.928759216        -119.470552       0.0201582055        -7.76519674
           8.6e+09      0.0187817397        -19.7658911        0.927028308        -131.405597        0.927028308        -131.405597       0.0187817397        -19.7658911
           8.8e+09       0.016123126        -30.8915867        0.925326957        -143.360803        0.925326957        -143.360803        0.016123126        -30.8915867
             9e+09      0.0121909575        -40.1593524         0.92365046        -155.336804         0.92365046        -155.336804       0.0121909575        -40.1593524
           9.2e+09     0.00716379248        -43.1217065         0.92198538        -167.334066         0.92198538        -167.334066      0.00716379248        -43.1217065
           9.4e+09      0.0027344362         6.37499348        0.920311261        -179.352621        0.920311261        -179.352621       0.0027344362         6.37499348
           9.6e+09     0.00743321424         68.5130545        0.918604506         168.608149        0.918604506         168.608149      0.00743321424         68.5130545
           9.8e+09      0.0148935256         67.2588375        0.916843786         156.549598        0.916843786         156.549598       0.0148935256         67.2588375
             1e+10      0.0226748306         58.7663759        0.915015859         144.473721        0.915015859         144.473721       0.0226748306         58.7663759
          1.02e+10      0.0302129764          48.444472        0.913120391         132.382892        0.913120391         132.382892       0.0302129764          48.444472
          1.04e+10       0.037026726         37.4441603          0.9111724          120.27945          0.9111724          120.27945        0.037026726         37.4441603
          1.06e+10      0.0426571151         26.1626402        0.909201359         108.165235        0.909201359         108.165235       0.0426571151         26.1626402
          1.08e+10      0.0466818522         14.7854453         0.90724669         96.0411553         0.90724669         96.0411553       0.0466818522         14.7854453
           1.1e+10      0.0487388142         3.42880403        0.905350228         83.9069097        0.905350228         83.9069097       0.0487388142         3.42880403
          1.12e+10      0.0485497848        -7.80312053        0.903547039         71.7609517        0.903547039         71.7609517       0.0485497848        -7.80312053
          1.14e+10      0.0459423641        -18.7743026        0.901856456         59.6007289        0.901856456         59.6007289       0.0459423641        -18.7743026
          1.16e+10      0.0408704452        -29.2443745        0.900275406         47.4231869        0.900275406         47.4231869       0.0408704452        -29.2443745
          1.18e+10      0.0334381124        -38.6727904        0.898775797         35.2254579        0.898775797         35.2254579       0.0334381124        -38.6727904
           1.2e+10      0.0239541584        -45.4632295        0.897307117         23.0056069        0.897307117         23.0056069       0.0239541584        -45.4632295
          1.22e+10      0.0132520543        -42.2473229        0.895804398         10.7632727        0.895804398         10.7632727       0.0132520543        -42.2473229
          1.24e+10     0.00726718881          18.540615        0.894200541        -1.49995183        0.894200541        -1.49995183      0.00726718881          18.540615
          1.26e+10      0.0172166671         58.0355714        0.892440816        -13.7805282        0.892440816        -13.7805282       0.0172166671         58.0355714
          1.28e+10      0.0305619821         57.0798935        0.890496493        -26.0734168        0.890496493        -26.0734168       0.0305619821         57.0798935
           1.3e+10      0.0437652801         49.4198338         0.88837432        -38.3729155         0.88837432        -38.3729155       0.0437652801         49.4198338
          1.32e+10      0.0557975222         39.7796488        0.886119155        -50.6737442        0.886119155        -50.6737442       0.0557975222         39.7796488
          1.34e+10      0.0658929592         29.3482997         0.88380848        -62.9721594         0.88380848        -62.9721594       0.0658929592         29.3482997
          1.36e+10      0.0734057792         18.5720857        0.881539319        -75.2668523        0.881539319        -75.2668523       0.0734057792         18.5720857
          1.38e+10      0.0778124194         7.67324995        0.879409871        -87.5594161        0.879409871        -87.5594161       0.0778124194         7.67324995
           1.4e+10      0.0787316924        -3.19910874        0.877499369        -99.8542507        0.877499369        -99.8542507       0.0787316924        -3.19910874
          1.42e+10      0.0759456811        -13.8996365         0.87585012        -112.157878         0.87585012        -112.157878       0.0759456811        -13.8996365
          1.44e+10      0.0694201112        -24.2213892         0.87445542        -124.477757         0.87445542        -124.477757       0.0694201112        -24.2213892
          1.46e+10      0.0593291608        -33.7695472        0.873256155        -136.820796        0.873256155        -136.820796       0.0593291608        -33.7695472
          1.48e+10      0.0461057208        -41.5831386        0.872147642        -149.191823        0.872147642        -149.191823       0.0461057208        -41.5831386
           1.5e+10      0.0306394597         -44.506149        0.870996545        -161.592324        0.870996545        -161.592324       0.0306394597         -44.506149
          1.52e+10      0.0158415025        -26.4646756        0.869665678        -174.019745        0.869665678        -174.019745       0.0158415025        -26.4646756
          1.54e+10       0.016782717         36.9741936        0.868042375          173.53241        0.868042375          173.53241        0.016782717         36.9741936
          1.56e+10      0.0335284471         52.9785565        0.866064477         161.073648        0.866064477         161.073648       0.0335284471         52.9785565
          1.58e+10      0.0520992295         49.6753894        0.863737679         148.614795        0.863737679         148.614795       0.0520992295         49.6753894
           1.6e+10      0.0695098936          41.791022        0.861139385         136.165903        0.861139385         136.165903       0.0695098936          41.791022
          1.62e+10      0.0844637796          32.288357         0.85840734         123.734155         0.85840734         123.734155       0.0844637796          32.288357
          1.64e+10      0.0960258012         22.0971128         0.85571496         111.322251         0.85571496         111.322251       0.0960258012         22.0971128
          1.66e+10       0.103482779         11.6142469        0.853238434         98.9276284        0.853238434         98.9276284        0.103482779         11.6142469
          1.68e+10       0.106332293         1.06103427         0.85112217          86.542682         0.85112217          86.542682        0.106332293         1.06103427
           1.7e+10       0.104291541        -9.39056214        0.849449089         74.1559947        0.849449089         74.1559947        0.104291541        -9.39056214
          1.72e+10      0.0973120603        -19.5399669         0.84822111          61.754363         0.84822111          61.754363       0.0973120603        -19.5399669
          1.74e+10      0.0856039597        -29.0537923        0.847353513         49.3252981        0.847353513         49.3252981       0.0856039597        -29.0537923
          1.76e+10      0.0696878476        -37.2153019        0.846685153         36.8595756        0.846685153         36.8595756       0.0696878476        -37.2153019
          1.78e+10      0.0505603903         -42.056708        0.846004348         24.3533568        0.846004348         24.3533568       0.0505603903         -42.056708
           1.8e+10      0.0305754734        -36.1347924        0.845087503         11.8094158        0.845087503         11.8094158       0.0305754734        -36.1347924
          1.82e+10      0.0199954852         7.26789003        0.843744166       -0.762891695        0.843744166       -0.762891695       0.0199954852         7.26789003
          1.84e+10       0.034142815         44.4994177        0.841859194        -13.3490564        0.841859194        -13.3490564        0.034142815         44.4994177
          1.86e+10      0.0565182418          48.022203        0.839421682        -25.9320581        0.839421682        -25.9320581       0.0565182418          48.022203
          1.88e+10      0.0786682168         42.5551629        0.836532541        -38.4957128        0.836532541        -38.4957128       0.0786682168         42.5551629
           1.9e+10      0.0982106301         34.2163522        0.833387891        -51.0279975        0.833387891        -51.0279975       0.0982106301         34.2163522
          1.92e+10       0.113803491         24.7136472        0.830241902        -63.5236124        0.830241902        -63.5236124        0.113803491         24.7136472
          1.94e+10        0.12451008         14.7025695        0.827357725        -75.9852342        0.827357725        -75.9852342         0.12451008         14.7025695
          1.96e+10       0.129693497         4.50750505        0.824956965        -88.4232278        0.824956965        -88.4232278        0.129693497         4.50750505
          1.98e+10       0.128994381        -5.65727188        0.823177036        -100.853896        0.823177036        -100.853896        0.128994381        -5.65727188
             2e+10       0.122331343        -15.5823694        0.822043077        -113.296589        0.822043077        -113.296589        0.122331343        -15.5823694
