! Created Wed May 11 08:05:52 2022
# hz S ma R 50
! 2 Port Network Data from SP1.SP block
! freq  magS11  angS11  magS21  angS21  magS12  angS12  magS22  angS22  
!     
         200000000     0.00478762352        -117.109173        0.998133421        -11.0491122        0.998133421        -11.0491122      0.00478762352        -117.109173
         400000000      0.0082990884         -131.23251        0.996402795        -22.0185243        0.996402795        -22.0185243       0.0082990884         -131.23251
         600000000      0.0111437404        -144.305794        0.994703608        -32.9682972        0.994703608        -32.9682972       0.0111437404        -144.305794
         800000000      0.0133904126        -156.916345        0.993027229        -43.9125989        0.993027229        -43.9125989       0.0133904126        -156.916345
             1e+09      0.0150382648        -169.274819        0.991370325        -54.8590805        0.991370325        -54.8590805       0.0150382648        -169.274819
           1.2e+09      0.0160731154         178.507955        0.989730021        -65.8128309        0.989730021        -65.8128309       0.0160731154         178.507955
           1.4e+09      0.0164874299         166.360928        0.988102621         -76.777572        0.988102621         -76.777572       0.0164874299         166.360928
           1.6e+09      0.0162901283         154.232794         0.98648341        -87.7561439         0.98648341        -87.7561439       0.0162901283         154.232794
           1.8e+09      0.0155117268         142.083998        0.984866981        -98.7507385        0.984866981        -98.7507385       0.0155117268         142.083998
             2e+09      0.0142063908         129.883965        0.983247861        -109.763034        0.983247861        -109.763034       0.0142063908         129.883965
           2.2e+09      0.0124514446         117.612549         0.98162127        -120.794289         0.98162127        -120.794289       0.0124514446         117.612549
           2.4e+09      0.0103446174          105.26881        0.979983829         -131.84543        0.979983829         -131.84543       0.0103446174          105.26881
           2.6e+09     0.00799931096         92.9007795        0.978334069        -142.917134        0.978334069        -142.917134      0.00799931096         92.9007795
           2.8e+09     0.00553837169         80.7182507        0.976672594        -154.009912        0.976672594        -154.009912      0.00553837169         80.7182507
             3e+09     0.00308793704          69.720004        0.975001834        -165.124186        0.975001834        -165.124186      0.00308793704          69.720004
           3.2e+09    0.000798725197         72.6116874        0.973325423         -176.26035        0.973325423         -176.26035     0.000798725197         72.6116874
           3.4e+09     0.00140957854        -157.008478        0.971647307         172.581192        0.971647307         172.581192      0.00140957854        -157.008478
           3.6e+09     0.00320796574        -165.122082        0.969970776         161.400018        0.969970776         161.400018      0.00320796574        -165.122082
           3.8e+09     0.00468198365        -179.386145        0.968297644         150.195712        0.968297644         150.195712      0.00468198365        -179.386145
             4e+09     0.00581391832         164.408578        0.966627782           138.9679        0.966627782           138.9679      0.00581391832         164.408578
           4.2e+09     0.00663326682         146.796181        0.964959137         127.716309        0.964959137         127.716309      0.00663326682         146.796181
           4.4e+09     0.00720160805          127.95747        0.963288261         116.440811        0.963288261         116.440811      0.00720160805          127.95747
           4.6e+09     0.00759574643         108.130254        0.961611249         105.141451        0.961611249         105.141451      0.00759574643         108.130254
           4.8e+09     0.00788178005         87.7264066        0.959924855         93.8184413        0.959924855         93.8184413      0.00788178005         87.7264066
             5e+09     0.00808641974         67.3048436        0.958227515          82.472127        0.958227515          82.472127      0.00808641974         67.3048436
           5.2e+09     0.00817900821         47.4341536        0.956519962         71.1029155        0.956519962         71.1029155      0.00817900821         47.4341536
           5.4e+09      0.0080744258         28.5515013        0.954805242         59.7111974        0.954805242         59.7111974       0.0080744258         28.5515013
           5.6e+09     0.00765423132         10.9291756        0.953088038         48.2972705        0.953088038         48.2972705      0.00765423132         10.9291756
           5.8e+09     0.00679475201         -5.2149452        0.951373421         36.8612916        0.951373421         36.8612916      0.00679475201         -5.2149452
             6e+09     0.00539368793        -19.3784491        0.949665293         25.4032702        0.949665293         25.4032702      0.00539368793        -19.3784491
           6.2e+09     0.00339998677        -29.1950955        0.947964931         13.9231137        0.947964931         13.9231137      0.00339998677        -29.1950955
           6.4e+09     0.00105733698        -3.91998949        0.946270038         2.42071674        0.946270038         2.42071674      0.00105733698        -3.91998949
           6.6e+09      0.0028081232         89.3991248        0.944574672        -9.10392293        0.944574672        -9.10392293       0.0028081232         89.3991248
           6.8e+09     0.00652902785         85.9661138        0.942870198        -20.6505906        0.942870198        -20.6505906      0.00652902785         85.9661138
             7e+09      0.0106724703          75.549279        0.941147186        -32.2187752        0.941147186        -32.2187752       0.0106724703          75.549279
           7.2e+09       0.014994902         63.8146508        0.939397921        -43.8076523        0.939397921        -43.8076523        0.014994902         63.8146508
           7.4e+09       0.019247685         51.7305109        0.937618932        -55.4161467        0.937618932        -55.4161467        0.019247685         51.7305109
           7.6e+09      0.0231589025         39.5837489        0.935812893        -67.0430726        0.935812893        -67.0430726       0.0231589025         39.5837489
           7.8e+09       0.026445147         27.4872608        0.933989281        -78.6873292        0.933989281        -78.6873292        0.026445147         27.4872608
             8e+09      0.0288281657         15.5000107        0.932163394        -90.3481111        0.932163394        -90.3481111       0.0288281657         15.5000107
           8.2e+09      0.0300530194         3.66897706        0.930353712        -102.025084        0.930353712        -102.025084       0.0300530194         3.66897706
           8.4e+09      0.0299063444        -7.94623265        0.928577959        -113.718477        0.928577959        -113.718477       0.0299063444        -7.94623265
           8.6e+09      0.0282338609         -19.242685        0.926848637        -125.429046        0.926848637        -125.429046       0.0282338609         -19.242685
           8.8e+09       0.024957049        -30.0061445        0.925169002        -137.157914        0.925169002        -137.157914        0.024957049        -30.0061445
             9e+09      0.0200915794        -39.7004047        0.923530524        -148.906284        0.923530524        -148.906284       0.0200915794        -39.7004047
           9.2e+09      0.0137859765        -46.5382008        0.921912659        -160.675082        0.921912659        -160.675082       0.0137859765        -46.5382008
           9.4e+09     0.00659552943        -39.8223281        0.920285385        -172.464611        0.920285385        -172.464611      0.00659552943        -39.8223281
           9.6e+09     0.00503113828         47.2411458        0.918614369         175.725728        0.918614369         175.725728      0.00503113828         47.2411458
           9.8e+09      0.0135307508          66.846242        0.916867997         163.897537        0.916867997         163.897537       0.0135307508          66.846242
             1e+10      0.0231872973         61.8120597        0.915024943         152.053324        0.915024943         152.053324       0.0231872973         61.8120597
          1.02e+10      0.0327662635         52.8479197        0.913080602         140.196175        0.913080602         140.196175       0.0327662635         52.8479197
          1.04e+10      0.0416685668         42.6418733        0.911050742         128.329251        0.911050742         128.329251       0.0416685668         42.6418733
          1.06e+10      0.0493605381         31.9265534        0.908971153          116.45519        0.908971153          116.45519       0.0493605381         31.9265534
          1.08e+10      0.0553521829         20.9918731        0.906892867         104.575533        0.906892867         104.575533       0.0553521829         20.9918731
           1.1e+10      0.0592149339         9.98839621        0.904873477         92.6903206        0.904873477         92.6903206       0.0592149339         9.98839621
          1.12e+10      0.0606040909       -0.979244568        0.902965988         80.7979371        0.902965988         80.7979371       0.0606040909       -0.979244568
          1.14e+10      0.0592801341        -11.8074333        0.901207273         68.8952978        0.901207273         68.8952978       0.0592801341        -11.8074333
          1.16e+10       0.055128035         -22.350496        0.899608457         56.9783556        0.899608457         56.9783556        0.055128035         -22.350496
          1.18e+10      0.0481762111        -32.3392811        0.898149378         45.0428732        0.898149378         45.0428732       0.0481762111        -32.3392811
           1.2e+10      0.0386229381        -41.1486716        0.896778727         33.0853311        0.896778727         33.0853311       0.0386229381        -41.1486716
          1.22e+10      0.0269128218         -46.860565        0.895420571         21.1038044        0.895420571         21.1038044       0.0269128218         -46.860565
          1.24e+10       0.014256719        -40.0666654         0.89398679         9.09862137         0.89398679         9.09862137        0.014256719        -40.0666654
          1.26e+10     0.00944505476         27.1773904        0.892393651        -2.92736394        0.892393651        -2.92736394      0.00944505476         27.1773904
          1.28e+10      0.0219777362         57.3901709         0.89057952        -14.9689932         0.89057952        -14.9689932       0.0219777362         57.3901709
           1.3e+10      0.0373890056         55.5700154        0.888519986        -27.0195352        0.888519986        -27.0195352       0.0373890056         55.5700154
          1.32e+10      0.0524119462           47.97017        0.886236734        -39.0718271        0.886236734        -39.0718271       0.0524119462           47.97017
          1.34e+10      0.0659565632         38.5591463        0.883797604        -51.1196221        0.883797604        -51.1196221       0.0659565632         38.5591463
          1.36e+10      0.0772120686         28.4049994          0.8813071        -63.1588744          0.8813071        -63.1588744       0.0772120686         28.4049994
          1.38e+10      0.0855078319         17.9225811         0.87888877        -75.1886888         0.87888877        -75.1886888       0.0855078319         17.9225811
           1.4e+10      0.0903116304         7.32178412         0.87666266        -87.2117216         0.87666266        -87.2117216       0.0903116304         7.32178412
          1.42e+10       0.091245491        -3.25664103         0.87472199        -99.2339195         0.87472199        -99.2339195        0.091245491        -3.25664103
          1.44e+10      0.0881028027        -13.6774351        0.873113347        -111.263609        0.873113347        -111.263609       0.0881028027        -13.6774351
          1.46e+10      0.0808660382        -23.7521211        0.871824102        -123.310058        0.871824102        -123.310058       0.0808660382        -23.7521211
          1.48e+10      0.0697301357        -33.1309607        0.870779737        -135.381739        0.870779737        -135.381739       0.0697301357        -33.1309607
           1.5e+10      0.0551501273        -40.9976983        0.869852513        -147.484581        0.869852513        -147.484581       0.0551501273        -40.9976983
          1.52e+10      0.0380119107        -44.8586475        0.868881209        -159.620539        0.868881209        -159.620539       0.0380119107        -44.8586475
          1.54e+10      0.0207831303        -33.3383665        0.867699578        -171.786807        0.867699578        -171.786807       0.0207831303        -33.3383665
          1.56e+10      0.0167797937         26.1024264        0.866168893         176.024095        0.866168893         176.024095       0.0167797937         26.1024264
          1.58e+10      0.0335898939         51.3779081        0.864208066         163.823275        0.864208066         163.823275       0.0335898939         51.3779081
           1.6e+10      0.0540640502         50.4234209        0.861814304          151.62358        0.861814304          151.62358       0.0540640502         50.4234209
          1.62e+10      0.0736862674         43.5043081        0.859068789         139.437215        0.859068789         139.437215       0.0736862674         43.5043081
          1.64e+10      0.0908972222         34.5831373        0.856125225         127.273347        0.856125225         127.273347       0.0908972222         34.5831373
          1.66e+10       0.104653697         24.8234287        0.853183287         115.136184        0.853183287         115.136184        0.104653697         24.8234287
          1.68e+10       0.114169067         14.6948904         0.85045245          103.02396         0.85045245          103.02396        0.114169067         14.6948904
           1.7e+10       0.118877912         4.44057025        0.848113382         90.9289965        0.848113382         90.9289965        0.118877912         4.44057025
          1.72e+10       0.118435235        -5.77211053        0.846283812         78.8388665        0.846283812         78.8388665        0.118435235        -5.77211053
          1.74e+10       0.112724592        -15.7747077        0.844994425         66.7384553        0.844994425         66.7384553        0.112724592        -15.7747077
          1.76e+10       0.101875714        -25.3200153        0.844178618         54.6126123        0.844178618         54.6126123        0.101875714        -25.3200153
          1.78e+10      0.0863023451        -33.9302042        0.843678368         42.4489798        0.843678368         42.4489798       0.0863023451        -33.9302042
           1.8e+10      0.0668019554        -40.4537282        0.843266846         30.2405294        0.843266846         30.2405294       0.0668019554        -40.4537282
          1.82e+10      0.0449516529        -41.2870531        0.842686047         17.9873165        0.842686047         17.9873165       0.0449516529        -41.2870531
          1.84e+10      0.0257005489        -21.4182391        0.841694479         5.69701438        0.841694479         5.69701438       0.0257005489        -21.4182391
          1.86e+10      0.0273108658          30.556422        0.840116299        -6.61603182        0.840116299        -6.61603182       0.0273108658          30.556422
          1.88e+10      0.0487753774         47.3401288        0.837880866        -18.9331957        0.837880866        -18.9331957       0.0487753774         47.3401288
           1.9e+10      0.0732451593         45.7280133        0.835042349        -31.2350016        0.835042349        -31.2350016       0.0732451593         45.7280133
          1.92e+10       0.096119403         38.9881181        0.831773484        -43.5048943        0.831773484        -43.5048943        0.096119403         38.9881181
          1.94e+10       0.115559123         30.3568523        0.828334444        -55.7325294        0.828334444        -55.7325294        0.115559123         30.3568523
          1.96e+10       0.130390647         20.9075174        0.825024309        -67.9158898        0.825024309        -67.9158898        0.130390647         20.9075174
          1.98e+10       0.139798168         11.1039606        0.822125995        -80.0618352        0.822125995        -80.0618352        0.139798168         11.1039606
             2e+10        0.14325649          1.1999482         0.81985531        -92.1850388         0.81985531        -92.1850388         0.14325649          1.1999482
