! Created Tue May 10 10:03:44 2022
# hz S ma R 50
! 2 Port Network Data from SP1.SP block
! freq  magS11  angS11  magS21  angS21  magS12  angS12  magS22  angS22  
!     
         200000000     0.00478657687        -117.111857        0.998133485        -11.0489187        0.998133485        -11.0489187      0.00478657687        -117.111857
         400000000     0.00829508001        -131.239533        0.996403082        -22.0176801        0.996403082        -22.0176801      0.00829508001        -131.239533
         600000000      0.0111340879        -144.319331         0.99470441        -32.9659218         0.99470441        -32.9659218       0.0111340879        -144.319331
         800000000      0.0133719819        -156.938369         0.99302903        -43.9071283         0.99302903        -43.9071283       0.0133719819        -156.938369
             1e+09      0.0150089737        -169.305403         0.99137378        -54.8481745         0.99137378        -54.8481745       0.0150089737        -169.305403
           1.2e+09      0.0160335235         178.472126        0.989735914        -65.7933724        0.989735914        -65.7933724       0.0160335235         178.472126
           1.4e+09      0.0164417196          166.32774        0.988111838        -76.7457185        0.988111838        -76.7457185       0.0164417196          166.32774
           1.6e+09      0.0162461106         154.215675        0.986496954        -87.7074086        0.986496954        -87.7074086       0.0162461106         154.215675
           1.8e+09      0.0154797806         142.102816        0.984886019        -98.6800885        0.984886019        -98.6800885       0.0154797806         142.102816
             2e+09      0.0141974825         129.966016        0.983273773        -109.664996        0.983273773        -109.664996       0.0141974825         129.966016
           2.2e+09      0.0124745593         117.793725        0.981655665        -120.663059        0.981655665        -120.663059       0.0124745593         117.793725
           2.4e+09      0.0104040589         105.594947        0.980028498        -131.674977        0.980028498        -131.674977       0.0104040589         105.594947
           2.6e+09     0.00809239272         93.4285539        0.978390868        -142.701295        0.978390868        -142.701295      0.00809239272         93.4285539
           2.8e+09     0.00565401905         81.5115817        0.976743282        -153.742475        0.976743282        -153.742475      0.00565401905         81.5115817
             3e+09     0.00320660439         70.8046064        0.975087923        -164.798958        0.975087923        -164.798958      0.00320660439         70.8046064
           3.2e+09    0.000890227293         72.3432557        0.973428088        -175.871213        0.973428088        -175.871213     0.000890227293         72.3432557
           3.4e+09     0.00136826698        -155.326755        0.971767416         173.040241        0.971767416         173.040241      0.00136826698        -155.326755
           3.6e+09      0.0032419777        -161.938484        0.970109051         161.934831        0.970109051         161.934831       0.0032419777        -161.938484
           3.8e+09      0.0048081027        -174.979674        0.968454923          150.81195        0.968454923          150.81195       0.0048081027        -174.979674
             4e+09     0.00602780852         170.281261        0.966805306         139.671004        0.966805306         139.671004      0.00602780852         170.281261
           4.2e+09     0.00690290304         154.425592        0.965158764         128.511452        0.965158764         128.511452      0.00690290304         154.425592
           4.4e+09     0.00746348167         137.580982         0.96351251          117.33286         0.96351251          117.33286      0.00746348167         137.580982
           4.6e+09     0.00776015583          119.81602          0.9618631         106.134926          0.9618631         106.134926      0.00776015583          119.81602
           4.8e+09     0.00785160327         101.260589        0.960207329         94.9174915        0.960207329         94.9174915      0.00785160327         101.260589
             5e+09     0.00778754957         82.1625861        0.958543093         83.6805217        0.958543093         83.6805217      0.00778754957         82.1625861
           5.2e+09     0.00759100253         62.8913193         0.95687001          72.424061         0.95687001          72.424061      0.00759100253         62.8913193
           5.4e+09     0.00724666289         43.8844655        0.955189623         61.1481753        0.955189623         61.1481753      0.00724666289         43.8844655
           5.6e+09     0.00670161591         25.5755125        0.953505079         49.8528906        0.953505079         49.8528906      0.00670161591         25.5755125
           5.8e+09      0.0058787438         8.38172135        0.951820335         38.5381472        0.951820335         38.5381472       0.0058787438         8.38172135
             6e+09     0.00469784539        -7.10708515        0.950139042         27.2037809        0.950139042         27.2037809      0.00469784539        -7.10708515
           6.2e+09     0.00310195974        -19.0460287        0.948463373         15.8495403        0.948463373         15.8495403      0.00310195974        -19.0460287
           6.4e+09     0.00116272321        -10.7460987        0.946793099         4.47513979        0.946793099         4.47513979      0.00116272321        -10.7460987
           6.6e+09     0.00177643943         94.0151306        0.945125204        -6.91966123        0.945125204        -6.91966123      0.00177643943         94.0151306
           6.8e+09     0.00466619872         94.1246164        0.943454204        -18.3349709        0.943454204        -18.3349709      0.00466619872         94.1246164
             7e+09     0.00794938674          83.703195        0.941773221        -29.7706909        0.941773221        -29.7706909      0.00794938674          83.703195
           7.2e+09      0.0114302734         71.6468385        0.940075627        -41.2264796        0.940075627        -41.2264796       0.0114302734         71.6468385
           7.4e+09      0.0149233443         59.2161204        0.938356927        -52.7017668        0.938356927        -52.7017668       0.0149233443         59.2161204
           7.6e+09      0.0182196821         46.7515917        0.936616437        -64.1958275        0.936616437        -64.1958275       0.0182196821         46.7515917
           7.8e+09      0.0210942025         34.3748548         0.93485828        -75.7079055         0.93485828        -75.7079055       0.0210942025         34.3748548
             8e+09      0.0233182331           22.14112        0.933091328        -87.2373639        0.933091328        -87.2373639       0.0233182331           22.14112
           8.2e+09      0.0246739629         10.0883638        0.931327934        -98.7838306        0.931327934        -98.7838306       0.0246739629         10.0883638
           8.4e+09      0.0249695243        -1.73801779        0.929581551        -110.347302        0.929581551        -110.347302       0.0249695243        -1.73801779
           8.6e+09      0.0240539049         -13.260142        0.927863643         -121.92817        0.927863643         -121.92817       0.0240539049         -13.260142
           8.8e+09      0.0218313244        -24.3188886        0.926180511        -133.527158        0.926180511        -133.527158       0.0218313244        -24.3188886
             9e+09      0.0182760402        -34.5369406        0.924530773         -145.14516        0.924530773         -145.14516       0.0182760402        -34.5369406
           9.2e+09       0.013455277        -42.7926001        0.922904202        -156.783008        0.922904202        -156.783008        0.013455277        -42.7926001
           9.4e+09     0.00762874407        -43.9223284        0.921282417        -168.441212        0.921282417        -168.441212      0.00762874407        -43.9223284
           9.6e+09     0.00310736829         13.3957833        0.919641589         179.880283        0.919641589         179.880283      0.00310736829         13.3957833
           9.8e+09     0.00862845674         67.4862806        0.917956862         168.182242        0.917956862         168.182242      0.00862845674         67.4862806
             1e+10      0.0166412906         66.1120219        0.916207763          156.46616        0.916207763          156.46616       0.0166412906         66.1120219
          1.02e+10      0.0248714823         58.0349811         0.91438353         144.734116         0.91438353         144.734116       0.0248714823         58.0349811
          1.04e+10      0.0327618009         48.1708034        0.912487108          132.98848        0.912487108          132.98848       0.0327618009         48.1708034
          1.06e+10      0.0398489666         37.6193457        0.910536723         121.231498        0.910536723         121.231498       0.0398489666         37.6193457
          1.08e+10      0.0456988557         26.7690938        0.908564337         109.464855        0.908564337         109.464855       0.0456988557         26.7690938
           1.1e+10      0.0499163061         15.8029295         0.90661091         97.6892861         0.90661091         97.6892861       0.0499163061         15.8029295
          1.12e+10      0.0521643803         4.83364247        0.904719096         85.9043368        0.904719096         85.9043368       0.0521643803         4.83364247
          1.14e+10      0.0521841894        -6.04243525        0.902924614         74.1083472        0.902924614         74.1083472       0.0521841894        -6.04243525
          1.16e+10      0.0498132725        -16.7078172        0.901247945         62.2986813        0.901247945         62.2986813       0.0498132725        -16.7078172
          1.18e+10      0.0450026955        -26.9690582        0.899688076         50.4721923        0.899688076         50.4721923       0.0450026955        -26.9690582
           1.2e+10      0.0378359794        -36.4238156        0.898219829         38.6258558        0.898219829         38.6258558       0.0378359794        -36.4238156
          1.22e+10      0.0285653326        -44.0099272        0.896795769         26.7574627        0.896795769         26.7574627       0.0285653326        -44.0099272
          1.24e+10      0.0177709926        -45.7351917         0.89535293         14.8662371         0.89535293         14.8662371       0.0177709926        -45.7351917
          1.26e+10     0.00810637004        -15.1411558        0.893823635         2.95324073        0.893823635         2.95324073      0.00810637004        -15.1411558
          1.28e+10      0.0130503825          51.805421        0.892148712        -8.97855171        0.892148712        -8.97855171       0.0130503825          51.805421
           1.3e+10      0.0260598868         58.5873614        0.890290594        -20.9245636        0.890290594        -20.9245636       0.0260598868         58.5873614
          1.32e+10      0.0396184301         52.9717657        0.888243464        -32.8792984        0.888243464        -32.8792984       0.0396184301         52.9717657
          1.34e+10      0.0523765137         44.2987244        0.886037898        -44.8372902        0.886037898        -44.8372902       0.0523765137         44.2987244
          1.36e+10      0.0635360869         34.4893761        0.883738444        -56.7941479        0.883738444        -56.7941479       0.0635360869         34.4893761
          1.38e+10      0.0724394472         24.1806586        0.881434077        -68.7474863        0.881434077        -68.7474863       0.0724394472         24.1806586
           1.4e+10      0.0785388342         13.6566781        0.879222974        -80.6975412        0.879222974        -80.6975412       0.0785388342         13.6566781
          1.42e+10      0.0814087624         3.08164626        0.877194322        -92.6473242        0.877194322        -92.6473242       0.0814087624         3.08164626
          1.44e+10      0.0807636723        -7.41466236        0.875410453        -104.602251        0.875410453        -104.602251       0.0807636723        -7.41466236
          1.46e+10       0.076475243         -17.683743         0.87389265        -116.569278         0.87389265        -116.569278        0.076475243         -17.683743
          1.48e+10      0.0685906971        -27.4893676        0.872613428        -128.555662        0.872613428        -128.555662       0.0685906971        -27.4893676
           1.5e+10      0.0573594298        -36.3499932        0.871497248        -140.567555        0.871497248        -140.567555       0.0573594298        -36.3499932
          1.52e+10      0.0432995719        -43.0265343        0.870430405        -152.608656        0.870430405        -152.608656       0.0432995719        -43.0265343
          1.54e+10      0.0275050747        -43.1409524        0.869279359         -164.67922        0.869279359         -164.67922       0.0275050747        -43.1409524
          1.56e+10      0.0143251149        -14.0409512        0.867914979         -176.77563        0.867914979         -176.77563       0.0143251149        -14.0409512
          1.58e+10      0.0201811657          43.267232        0.866238467         171.109292        0.866238467         171.109292       0.0201811657          43.267232
           1.6e+10      0.0376875662          52.795314        0.864203612         158.985222        0.864203612         158.985222       0.0376875662          52.795314
          1.62e+10      0.0561325714         48.5592727        0.861830073         146.862676        0.861830073         146.862676       0.0561325714         48.5592727
          1.64e+10      0.0732226482         40.6414476        0.859204025         134.751047        0.859204025         134.751047       0.0732226482         40.6414476
          1.66e+10      0.0878000995         31.3337769        0.856465322         122.656746        0.856465322         122.656746       0.0878000995         31.3337769
          1.68e+10       0.099009729         21.4145696        0.853783452         110.581819        0.853783452         110.581819        0.099009729         21.4145696
           1.7e+10       0.106198747         11.2327409        0.851326991         98.5233382        0.851326991         98.5233382        0.106198747         11.2327409
          1.72e+10       0.108908304        0.989410111        0.849232314         86.4737023        0.849232314         86.4737023        0.108908304        0.989410111
          1.74e+10       0.106880719        -9.15611245        0.847577076         74.4218049        0.847577076         74.4218049        0.106880719        -9.15611245
          1.76e+10       0.100072184        -19.0182904        0.846362892         62.3549044        0.846362892         62.3549044        0.100072184        -19.0182904
          1.78e+10      0.0886743444        -28.2947775        0.845510289         50.2609043        0.845510289         50.2609043       0.0886743444        -28.2947775
           1.8e+10      0.0731598445        -36.3568275          0.8448676         38.1306811          0.8448676         38.1306811       0.0731598445        -36.3568275
          1.82e+10      0.0544183117        -41.5653743        0.844233757         25.9600538        0.844233757         25.9600538       0.0544183117        -41.5653743
          1.84e+10      0.0344047327        -38.2051885        0.843392677         13.7509877        0.843392677         13.7509877       0.0344047327        -38.2051885
          1.86e+10      0.0207878408        -3.81882858        0.842154098         1.51170482        0.842154098         1.51170482       0.0207878408        -3.81882858
          1.88e+10      0.0308131966         40.5636794        0.840393041        -10.7444489        0.840393041        -10.7444489       0.0308131966         40.5636794
           1.9e+10      0.0524131348         48.1715704        0.838078847        -23.0012659        0.838078847        -23.0012659       0.0524131348         48.1715704
          1.92e+10      0.0747666009         44.1830038         0.83528614        -35.2426686         0.83528614        -35.2426686       0.0747666009         44.1830038
          1.94e+10      0.0950436191         36.6317168        0.832184237        -47.4558173        0.832184237        -47.4558173       0.0950436191         36.6317168
          1.96e+10       0.111818068         27.6642391        0.829007036        -59.6336767        0.829007036        -59.6336767        0.111818068         27.6642391
          1.98e+10       0.124111532         18.0664676        0.826010156         -71.776512        0.826010156         -71.776512        0.124111532         18.0664676
             2e+10       0.131238117         8.20675918        0.823424315        -83.8920389        0.823424315        -83.8920389        0.131238117         8.20675918
