! Created Wed May 11 08:06:12 2022
# hz S ma R 50
! 2 Port Network Data from SP1.SP block
! freq  magS11  angS11  magS21  angS21  magS12  angS12  magS22  angS22  
!     
         200000000     0.00478774462        -117.108862        0.998133414        -11.0491346        0.998133414        -11.0491346      0.00478774462        -117.108862
         400000000     0.00829703787        -131.236101        0.996402942        -22.0180925        0.996402942        -22.0180925      0.00829703787        -131.236101
         600000000      0.0111355161        -144.317326        0.994704292        -32.9662732        0.994704292        -32.9662732       0.0111355161        -144.317326
         800000000      0.0133725785        -156.937655        0.993028972        -43.9073054        0.993028972        -43.9073054       0.0133725785        -156.937655
             1e+09      0.0150095329        -169.304818        0.991373714        -54.8483827        0.991373714        -54.8483827       0.0150095329        -169.304818
           1.2e+09      0.0160352076         178.473656        0.989735663        -65.7942001        0.989735663        -65.7942001       0.0160352076         178.473656
           1.4e+09      0.0164451917         166.330275        0.988111138        -76.7481379        0.988111138        -76.7481379       0.0164451917         166.330275
           1.6e+09      0.0162509283         154.217568        0.986495472        -87.7127407        0.986495472        -87.7127407       0.0162509283         154.217568
           1.8e+09      0.0154842436         142.100207        0.984883361        -98.6899486        0.984883361        -98.6899486       0.0154842436         142.100207
             2e+09      0.0141989642         129.952432        0.983269482        -109.681229        0.983269482        -109.681229       0.0141989642         129.952432
           2.2e+09      0.0124702264         117.759737        0.981649213        -120.687671        0.981649213        -120.687671       0.0124702264         117.759737
           2.4e+09      0.0103918025         105.527846          0.9800193        -131.710068          0.9800193        -131.710068       0.0103918025         105.527846
           2.6e+09     0.00807175015          93.312184        0.978378313        -142.748996        0.978378313        -142.748996      0.00807175015          93.312184
           2.8e+09     0.00562686497         81.3273051         0.97672678        -153.804893         0.97672678        -153.804893      0.00562686497         81.3273051
             3e+09     0.00317743154         70.5424925        0.975066959        -164.878128        0.975066959        -164.878128      0.00317743154         70.5424925
           3.2e+09    0.000866757524         72.3845891         0.97340226        -175.969059         0.97340226        -175.969059     0.000866757524         72.3845891
           3.4e+09     0.00137922279        -155.740759        0.971736441         172.921935        0.971736441         172.921935      0.00137922279        -155.740759
           3.6e+09     0.00323295727        -162.754168         0.97007273         161.794447         0.97007273         161.794447      0.00323295727        -162.754168
           3.8e+09     0.00477322609        -176.119405        0.968413071         150.648056        0.968413071         150.648056      0.00477322609        -176.119405
             4e+09     0.00596642312         168.754196        0.966757674          139.48237        0.966757674          139.48237      0.00596642312         168.754196
           4.2e+09     0.00682139074         152.433362        0.965104978         128.297067        0.965104978         128.297067      0.00682139074         152.433362
           4.4e+09     0.00737647836         135.053406        0.963452049          117.09194        0.963452049          117.09194      0.00737647836         135.053406
           4.6e+09     0.00768973797         116.716412         0.96179535         105.866929         0.96179535         105.866929      0.00768973797         116.716412
           4.8e+09     0.00782333444         97.6161704        0.960131692         94.6221191        0.960131692         94.6221191      0.00782333444         97.6161704
             5e+09      0.0078232998         78.0843907        0.958459141         83.3577146        0.958459141         83.3577146       0.0078232998         78.0843907
           5.2e+09      0.0077005979         58.5634439        0.956777637         72.0739906        0.956777637         72.0739906       0.0077005979         58.5634439
           5.4e+09     0.00742214081         39.5196802        0.955089139         60.7712253        0.955089139         60.7712253      0.00742214081         39.5196802
           5.6e+09     0.00691689014         21.3625274        0.953397214         49.4496355        0.953397214         49.4496355      0.00691689014         21.3625274
           5.8e+09     0.00609430275         4.45658789        0.951706126         38.1093295        0.951706126         38.1093295      0.00609430275         4.45658789
             6e+09     0.00486793312        -10.6465822        0.950019618         26.7502918        0.950019618         26.7502918      0.00486793312        -10.6465822
           6.2e+09     0.00318259815        -22.0121837        0.948339675         15.3724071        0.948339675         15.3724071      0.00318259815        -22.0121837
           6.4e+09     0.00114065988        -10.4316698        0.946665614         3.97552183        0.946665614         3.97552183      0.00114065988        -10.4316698
           6.6e+09     0.00199639377         92.8135345        0.944993786        -7.44046853        0.944993786        -7.44046853      0.00199639377         92.8135345
           6.8e+09     0.00507084753         91.9396573        0.943318048        -18.8755269        0.943318048        -18.8755269      0.00507084753         91.9396573
             7e+09     0.00853905592         81.5818373        0.941631026        -30.3294007        0.941631026        -30.3294007      0.00853905592         81.5818373
           7.2e+09      0.0121941851         69.6702671        0.939925932        -41.8015909        0.939925932        -41.8015909       0.0121941851         69.6702671
           7.4e+09      0.0158367477         57.3861429        0.938198558        -53.2913772        0.938198558        -53.2913772       0.0158367477         57.3861429
           7.6e+09      0.0192452756         45.0565007        0.936448958        -64.7979064        0.936448958        -64.7979064       0.0192452756         45.0565007
           7.8e+09      0.0221845695         32.8013044        0.934682338        -76.3203282        0.934682338        -76.3203282       0.0221845695         32.8013044
             8e+09      0.0244190206         20.6771819        0.932908782        -87.8579551        0.932908782        -87.8579551       0.0244190206         20.6771819
           8.2e+09      0.0257275758         8.72454386        0.931141701        -99.4104102        0.931141701        -99.4104102       0.0257275758         8.72454386
           8.4e+09      0.0259190836        -3.00807203         0.92939519        -110.977722         0.92939519        -110.977722       0.0259190836        -3.00807203
           8.6e+09      0.0248472182        -14.4382662        0.927680732        -122.560341        0.927680732        -122.560341       0.0248472182        -14.4382662
           8.8e+09      0.0224246734        -25.3985512        0.926003957        -134.159051        0.926003957        -134.159051       0.0224246734        -25.3985512
             9e+09      0.0186378058        -35.4903303        0.924362205        -145.774788        0.924362205        -145.774788       0.0186378058        -35.4903303
           9.2e+09      0.0135705527        -43.5123274        0.922743613        -157.408395        0.922743613        -157.408395       0.0135705527        -43.5123274
           9.4e+09     0.00751833208        -43.7490882        0.921128146        -169.060346        0.921128146        -169.060346      0.00751833208        -43.7490882
           9.6e+09     0.00324186751         19.6651789        0.919490687         179.269486        0.919490687         179.269486      0.00324186751         19.6651789
           9.8e+09     0.00925004771          67.546983        0.917805782         167.581969        0.917805782         167.581969      0.00925004771          67.546983
             1e+10      0.0174579167         65.5339787        0.916053243         155.878702        0.916053243         155.878702       0.0174579167         65.5339787
          1.02e+10      0.0258235436         57.3563555        0.914223457          144.16185        0.914223457          144.16185       0.0258235436         57.3563555
          1.04e+10      0.0337921667         47.4858278        0.912321168         132.433819        0.912321168         132.433819       0.0337921667         47.4858278
          1.06e+10      0.0408988821         36.9565647        0.910366667         120.696834        0.910366667         120.696834       0.0408988821         36.9565647
          1.08e+10      0.0467113253         26.1402806        0.908393786         108.952491        0.908393786         108.952491       0.0467113253         26.1402806
           1.1e+10      0.0508399529         15.2142338        0.906444725         97.2013862        0.906444725         97.2013862       0.0508399529         15.2142338
          1.12e+10      0.0529568921         4.28914877        0.904562465         85.4428997        0.904562465         85.4428997       0.0529568921         4.28914877
          1.14e+10       0.052815029        -6.53911638        0.902782062         73.6752058        0.902782062         73.6752058        0.052815029        -6.53911638
          1.16e+10      0.0502655015        -17.1523101        0.901122499         61.8955349        0.901122499         61.8955349       0.0502655015        -17.1523101
          1.18e+10      0.0452738786        -27.3543006        0.899580781         50.1006599        0.899580781         50.1006599       0.0452738786        -27.3543006
           1.2e+10      0.0379383142        -36.7351796        0.898129738         38.2875379        0.898129738         38.2875379       0.0379383142        -36.7351796
          1.22e+10       0.028525811        -44.2074082        0.896720412          26.453997        0.896720412          26.453997        0.028525811        -44.2074082
          1.24e+10      0.0176376279        -45.6512363        0.895289151         14.5993327        0.895289151         14.5993327       0.0176376279        -45.6512363
          1.26e+10     0.00805302908         -13.684588        0.893768592         2.72468172        0.893768592         2.72468172      0.00805302908         -13.684588
          1.28e+10       0.013293014         52.1463565        0.892100767        -9.16693517        0.892100767        -9.16693517        0.013293014         52.1463565
           1.3e+10      0.0263123093         58.5343194        0.890249859        -21.0709501        0.890249859        -21.0709501       0.0263123093         58.5343194
          1.32e+10      0.0398203776         52.8917195        0.888211816        -32.9819415        0.888211816        -32.9819415       0.0398203776         52.8917195
          1.34e+10      0.0524969063         44.2464661        0.886018451        -44.8945762        0.886018451        -44.8945762       0.0524969063         44.2464661
          1.36e+10      0.0635584207         34.4792737        0.883734608        -56.8046287        0.883734608        -56.8046287       0.0635584207         34.4792737
          1.38e+10        0.07236213         24.2176562        0.881448474        -68.7098753        0.881448474        -68.7098753         0.07236213         24.2176562
           1.4e+10      0.0783755887         13.7424272        0.879256529        -80.6106708        0.879256529        -80.6106708       0.0783755887         13.7424272
          1.42e+10      0.0811879494         3.21604242        0.877245815         -92.510074        0.877245815         -92.510074       0.0811879494         3.21604242
          1.44e+10      0.0805264309        -7.23337467         0.87547672        -104.413466         0.87547672        -104.413466       0.0805264309        -7.23337467
          1.46e+10      0.0762724575        -17.4599708        0.873969441        -116.327697        0.873969441        -116.327697       0.0762724575        -17.4599708
          1.48e+10      0.0684786776        -27.2333664        0.872696778        -128.259885        0.872696778        -128.259885       0.0684786776        -27.2333664
           1.5e+10      0.0573937137        -36.0878928         0.87158506        -140.216053         0.87158506        -140.216053       0.0573937137        -36.0878928
          1.52e+10      0.0435238393        -42.8391256        0.870523826        -152.199851        0.870523826        -152.199851       0.0435238393        -42.8391256
          1.54e+10      0.0279129268        -43.3798379        0.869383517        -164.211594        0.869383517        -164.211594       0.0279129268        -43.3798379
          1.56e+10      0.0145221567         -16.666026        0.868038721        -176.247871        0.868038721        -176.247871       0.0145221567         -16.666026
          1.58e+10      0.0192834006         41.9412544        0.866392968         171.698163        0.866392968         171.698163       0.0192834006         41.9412544
           1.6e+10      0.0363449271         52.8578398        0.864400006         159.635778        0.864400006         159.635778       0.0363449271         52.8578398
          1.62e+10      0.0545183728         48.9972196        0.862076617         147.575085        0.862076617         147.575085       0.0545183728         48.9972196
          1.64e+10      0.0714248474         41.2509897         0.85950349         135.525181         0.85950349         135.525181       0.0714248474         41.2509897
          1.66e+10      0.0859137359          32.051695        0.856813337         123.492362        0.856813337         123.492362       0.0859137359          32.051695
          1.68e+10      0.0971440759         22.2133377        0.854168327         111.478797        0.854168327         111.478797       0.0971440759         22.2133377
           1.7e+10       0.104474074         12.0963285        0.851731213         99.4819143        0.851731213         99.4819143        0.104474074         12.0963285
          1.72e+10       0.107450209         1.90501472        0.849635551         87.4946478        0.849635551         87.4946478        0.107450209         1.90501472
          1.74e+10       0.105813323        -8.20301009        0.847960213         75.5065089        0.847960213         75.5065089        0.105813323        -8.20301009
          1.76e+10      0.0995099848         -18.050212        0.846712418         63.5053235        0.846712418         63.5053235       0.0995099848         -18.050212
          1.78e+10      0.0887115526        -27.3556723        0.845822201         51.4793733        0.845822201         51.4793733       0.0887115526        -27.3556723
           1.8e+10      0.0738534391        -35.5502208         0.84514994         39.4196012         0.84514994         39.4196012       0.0738534391        -35.5502208
          1.82e+10      0.0557480367        -41.1952647        0.844506955         27.3215044        0.844506955         27.3215044       0.0557480367        -41.1952647
          1.84e+10      0.0360937539        -39.4836042         0.84368715         15.1863361         0.84368715         15.1863361       0.0360937539        -39.4836042
          1.86e+10      0.0210551481        -10.7131338        0.842505108         3.02130539        0.842505108         3.02130539       0.0210551481        -10.7131338
          1.88e+10      0.0279398596          37.628192        0.840833571        -9.16137689        0.840833571        -9.16137689       0.0279398596          37.628192
           1.9e+10      0.0484974555         48.2370917        0.838631999        -21.3465248        0.838631999        -21.3465248       0.0484974555         48.2370917
          1.92e+10      0.0704378091         45.1188664        0.835958927        -33.5187289        0.835958927        -33.5187289       0.0704378091         45.1188664
          1.94e+10      0.0906032362         37.9276325        0.832964432        -45.6652845        0.832964432        -45.6652845       0.0906032362         37.9276325
          1.96e+10       0.107524751         29.1522087        0.829864002        -57.7786858        0.829864002        -57.7786858        0.107524751         29.1522087
          1.98e+10       0.120212911         19.6728084        0.826899551        -69.8581772        0.826899551        -69.8581772        0.120212911         19.6728084
             2e+10       0.127969284          9.8898954        0.824295773        -81.9100727        0.824295773        -81.9100727        0.127969284          9.8898954
