! Created Wed May 11 08:01:02 2022
# hz S ma R 50
! 2 Port Network Data from SP1.SP block
! freq  magS11  angS11  magS21  angS21  magS12  angS12  magS22  angS22  
!     
         200000000     0.00347515841        -121.653692        0.998043132        -10.9412841        0.998043132        -10.9412841      0.00347515841        -121.653692
         400000000     0.00692020409        -133.989317        0.996281376          -21.89039        0.996281376          -21.89039      0.00692020409        -133.989317
         600000000        0.01015143        -145.490952         0.99455658        -32.8504081         0.99455658        -32.8504081         0.01015143        -145.490952
         800000000      0.0130309125        -156.735155        0.992854759        -43.8235565        0.992854759        -43.8235565       0.0130309125        -156.735155
             1e+09      0.0154331029        -167.878869        0.991172983        -54.8116861        0.991172983        -54.8116861       0.0154331029        -167.878869
           1.2e+09      0.0172499755        -178.986981        0.989510626        -65.8164323        0.989510626        -65.8164323       0.0172499755        -178.986981
           1.4e+09      0.0183974866         169.907948        0.987866707        -76.8392638        0.987866707        -76.8392638       0.0183974866         169.907948
           1.6e+09      0.0188212432         158.788574        0.986238812        -87.8814834        0.986238812        -87.8814834       0.0188212432         158.788574
           1.8e+09      0.0185006983         147.647162          0.9846228        -98.9442049          0.9846228        -98.9442049       0.0185006983         147.647162
             2e+09      0.0174514803         136.484831        0.983013089        -110.028325        0.983013089        -110.028325       0.0174514803         136.484831
           2.2e+09      0.0157256152         125.314989         0.98140337        -121.134501         0.98140337        -121.134501       0.0157256152         125.314989
           2.4e+09      0.0134095518         114.174581        0.979787585        -132.263156        0.979787585        -132.263156       0.0134095518         114.174581
           2.6e+09      0.0106200866         103.158217        0.978160941        -143.414496        0.978160941        -143.414496       0.0106200866         103.158217
           2.8e+09     0.00749865642         92.5444181        0.976520738        -154.588563        0.976520738        -154.588563      0.00749865642         92.5444181
             3e+09      0.0042063438         83.5167322        0.974866818        -165.785305        0.974866818        -165.785305       0.0042063438         83.5167322
           3.2e+09    0.000976409145         93.1611434        0.973201514        -177.004644        0.973201514        -177.004644     0.000976409145         93.1611434
           3.4e+09     0.00235123067        -137.749397        0.971529089         171.753456        0.971529089         171.753456      0.00235123067        -137.749397
           3.6e+09     0.00520320715        -143.819372        0.969854773         160.488944        0.969854773         160.488944      0.00520320715        -143.819372
           3.8e+09     0.00765130426        -154.608324        0.968183596         149.201663        0.968183596         149.201663      0.00765130426        -154.608324
             4e+09      0.0095827105        -166.537226         0.96651928         137.891377         0.96651928         137.891377       0.0095827105        -166.537226
           4.2e+09      0.0109314119        -179.075865        0.964863439         126.557808        0.964863439         126.557808       0.0109314119        -179.075865
           4.4e+09      0.0116711454         167.896937        0.963215269         115.200706        0.963215269         115.200706       0.0116711454         167.896937
           4.6e+09      0.0118151284         154.386243        0.961571815         103.819911        0.961571815         103.819911       0.0118151284         154.386243
           4.8e+09      0.0114138214         140.345333        0.959928741         92.4154038        0.959928741         92.4154038       0.0114138214         140.345333
             5e+09      0.0105498238         125.695851        0.958281436         80.9873291        0.958281436         80.9873291       0.0105498238         125.695851
           5.2e+09     0.00932966466         110.339973        0.956626172          69.535982        0.956626172          69.535982      0.00932966466         110.339973
           5.4e+09     0.00787238588          94.181231        0.954961025         58.0617634        0.954961025         58.0617634      0.00787238588          94.181231
           5.6e+09     0.00629495502          77.176297        0.953286317         46.5651132        0.953286317         46.5651132      0.00629495502          77.176297
           5.8e+09     0.00469510115         59.4711107         0.95160445         35.0464371         0.95160445         35.0464371      0.00469510115         59.4711107
             6e+09     0.00313426229         41.8240817         0.94991916         23.5060476         0.94991916         23.5060476      0.00313426229         41.8240817
           6.2e+09     0.00163209524         27.9141178        0.948234374         11.9441343        0.948234374         11.9441343      0.00163209524         27.9141178
           6.4e+09      0.0004266028          75.565124        0.946552976        0.360773449        0.946552976        0.360773449       0.0004266028          75.565124
           6.6e+09     0.00163081038         134.689556         0.94487582        -11.2440245         0.94487582        -11.2440245      0.00163081038         134.689556
           6.8e+09     0.00337409536         121.938721        0.943201288          -22.87024        0.943201288          -22.87024      0.00337409536         121.938721
             7e+09     0.00532805799         105.128397        0.941525575        -34.5177627        0.941525575        -34.5177627      0.00532805799         105.128397
           7.2e+09     0.00745460418         88.1954984        0.939843672        -46.1863258        0.939843672        -46.1863258      0.00745460418         88.1954984
           7.4e+09     0.00966676747         71.8585454        0.938150848        -57.8754782        0.938150848        -57.8754782      0.00966676747         71.8585454
           7.6e+09       0.011828613         56.2436331         0.93644425        -69.5846074         0.93644425        -69.5846074        0.011828613         56.2436331
           7.8e+09      0.0137687371         41.3182023         0.93472417        -81.3130134         0.93472417        -81.3130134       0.0137687371         41.3182023
             8e+09      0.0152968509         27.0158559        0.932994576        -93.0600198        0.932994576        -93.0600198       0.0152968509         27.0158559
           8.2e+09      0.0162211493         13.2829256        0.931262633        -104.825096        0.931262633        -104.825096       0.0162211493         13.2829256
           8.4e+09      0.0163655572        0.104410248        0.929537213        -116.607959        0.929537213        -116.607959       0.0163655572        0.104410248
           8.6e+09      0.0155863396        -12.4620177        0.927826649        -128.408617        0.927826649        -128.408617       0.0155863396        -12.4620177
           8.8e+09      0.0137880976        -24.2002407        0.926136225         -140.22735        0.926136225         -140.22735       0.0137880976        -24.2002407
             9e+09      0.0109416143        -34.4371553        0.924466051        -152.064594        0.924466051        -152.064594       0.0109416143        -34.4371553
           9.2e+09     0.00712362225        -40.5166636         0.92280994        -163.920777         0.92280994        -163.920777      0.00712362225        -40.5166636
           9.4e+09     0.00290739568        -21.0191415        0.921155762        -175.796117        0.921155762        -175.796117      0.00290739568        -21.0191415
           9.6e+09     0.00444238386         66.1187988        0.919487414         172.309563        0.919487414         172.309563      0.00444238386         66.1187988
           9.8e+09      0.0103387102         71.5615263        0.917788187         160.396947        0.917788187         160.396947       0.0103387102         71.5615263
             1e+10      0.0167638779         64.1917785         0.91604489         148.467236         0.91604489         148.467236       0.0167638779         64.1917785
          1.02e+10      0.0231675696         54.2181864        0.914251828         136.522023        0.914251828         136.522023       0.0231675696         54.2181864
          1.04e+10      0.0291476422         43.3594164        0.912413601         124.563051        0.912413601         124.563051       0.0291476422         43.3594164
          1.06e+10      0.0343173115         32.1423375        0.910545863         112.591898        0.910545863         112.591898       0.0343173115         32.1423375
          1.08e+10      0.0383095683         20.7911428        0.908673546         100.609633        0.908673546         100.609633       0.0383095683         20.7911428
           1.1e+10      0.0407957173         9.43184008        0.906826606          88.616557        0.906826606          88.616557       0.0407957173         9.43184008
          1.12e+10      0.0415057956        -1.83710702        0.905033963         76.6120648        0.905033963         76.6120648       0.0415057956        -1.83710702
          1.14e+10      0.0402480674        -12.9035665        0.903316779         64.5947039        0.903316779         64.5947039       0.0402480674        -12.9035665
          1.16e+10      0.0369270034        -23.5903436        0.901682513         52.5624301        0.901682513         52.5624301       0.0369270034        -23.5903436
          1.18e+10      0.0315614412        -33.5384516        0.900121188         40.5130356        0.900121188         40.5130356       0.0315614412        -33.5384516
           1.2e+10        0.02431298        -41.8249337        0.898605001         28.4446756        0.898605001         28.4446756         0.02431298        -41.8249337
          1.22e+10      0.0155916868        -45.1188392        0.897091815         16.3563893        0.897091815         16.3563893       0.0155916868        -45.1188392
          1.24e+10     0.00711859526         -21.803889        0.895532325         4.24850038        0.895532325         4.24850038      0.00711859526         -21.803889
          1.26e+10     0.00980790145         50.9493283        0.893879809        -7.87721186        0.893879809        -7.87721186      0.00980790145         50.9493283
          1.28e+10      0.0206342872         60.1580208        0.892100626          -20.01764        0.892100626          -20.01764       0.0206342872         60.1580208
           1.3e+10      0.0321601298         54.6799248        0.890183202        -32.1687855        0.890183202        -32.1687855       0.0321601298         54.6799248
          1.32e+10      0.0431208707         45.8475671        0.888143243        -44.3264473        0.888143243        -44.3264473       0.0431208707         45.8475671
          1.34e+10      0.0527962727         35.8103624        0.886023609        -56.4870367        0.886023609        -56.4870367       0.0527962727         35.8103624
          1.36e+10      0.0605847981         25.2527502        0.883888309        -68.6483541        0.883888309        -68.6483541       0.0605847981         25.2527502
          1.38e+10      0.0659766069          14.473518        0.881811424        -80.8101543        0.881811424        -80.8101543       0.0659766069          14.473518
           1.4e+10      0.0685682009         3.64398785         0.87986289        -92.9743604         0.87986289        -92.9743604       0.0685682009         3.64398785
          1.42e+10      0.0680821087        -7.09981331        0.878093833        -105.144852        0.878093833        -105.144852       0.0680821087        -7.09981331
          1.44e+10      0.0643857179        -17.6002088        0.876524366         -117.32683        0.876524366         -117.32683       0.0643857179        -17.6002088
          1.46e+10      0.0575100612        -27.6020963        0.875136443        -129.525855        0.875136443        -129.525855       0.0575100612        -27.6020963
          1.48e+10      0.0476756643        -36.5728318        0.873873647        -141.746706        0.873873647        -141.746706       0.0476756643        -36.5728318
           1.5e+10       0.035358928        -43.0866896        0.872648679        -153.992283        0.872648679        -153.992283        0.035358928        -43.0866896
          1.52e+10      0.0216293897        -41.7362036        0.871357969        -166.262784        0.871357969        -166.262784       0.0216293897        -41.7362036
          1.54e+10      0.0114324988        -3.67765215        0.869901252        -178.555337        0.869901252        -178.555337       0.0114324988        -3.67765215
          1.56e+10      0.0193846606         48.0720287        0.868202546         169.135745        0.868202546         169.135745       0.0193846606         48.0720287
          1.58e+10      0.0351673951         53.4487076        0.866228077         156.818105        0.866228077         156.818105       0.0351673951         53.4487076
           1.6e+10      0.0512617843         47.9752073        0.863996822         144.499989        0.863996822         144.499989       0.0512617843         47.9752073
          1.62e+10       0.065962875         39.4469488        0.861580671         132.188649        0.861580671         132.188649        0.065962875         39.4469488
          1.64e+10      0.0782873263          29.731115         0.85909352         119.888839         0.85909352         119.888839       0.0782873263          29.731115
          1.66e+10      0.0874823325         19.4911419        0.856671127         107.601718        0.856671127         107.601718       0.0874823325         19.4911419
          1.68e+10      0.0929718466         9.03830169        0.854445642         95.3244068        0.854445642         95.3244068       0.0929718466         9.03830169
           1.7e+10      0.0943599011        -1.43520885        0.852519692         83.0503223        0.852519692         83.0503223       0.0943599011        -1.43520885
          1.72e+10       0.091443311         -11.760705         0.85094486         70.7702379         0.85094486         70.7702379        0.091443311         -11.760705
          1.74e+10      0.0842278544        -21.7196106        0.849708521         58.4739267        0.849708521         58.4739267       0.0842278544        -21.7196106
          1.76e+10      0.0729529663        -30.9240504          0.8487318         46.1521091          0.8487318         46.1521091       0.0729529663        -30.9240504
          1.78e+10      0.0581471092        -38.4985889         0.84787988         33.7983706         0.84787988         33.7983706       0.0581471092        -38.4985889
           1.8e+10      0.0408272305         -41.892304        0.846984049         21.4106803        0.846984049         21.4106803       0.0408272305         -41.892304
          1.82e+10      0.0237042194          -30.75332         0.84587262         8.99216842         0.84587262         8.99216842       0.0237042194          -30.75332
          1.84e+10      0.0188840888         20.2499948        0.844405415        -3.44908173        0.844405415        -3.44908173       0.0188840888         20.2499948
          1.86e+10      0.0343837847         47.2337151        0.842504666        -15.9012853        0.842504666        -15.9012853       0.0343837847         47.2337151
          1.88e+10      0.0545205841         47.8496074        0.840174898        -28.3510761        0.840174898        -28.3510761       0.0545205841         47.8496074
           1.9e+10       0.073931895         41.6179772        0.837506361        -40.7860894        0.837506361        -40.7860894        0.073931895         41.6179772
          1.92e+10      0.0908321727         33.0394889        0.834660449        -53.1974666        0.834660449        -53.1974666       0.0908321727         33.0394889
          1.94e+10       0.104116815         23.4720119        0.831840081         -65.581741        0.831840081         -65.581741        0.104116815         23.4720119
          1.96e+10       0.112994039         13.4681535        0.829251418        -77.9417087        0.829251418        -77.9417087        0.112994039         13.4681535
          1.98e+10       0.116923857         3.31706326        0.827064671        -90.2861122        0.827064671        -90.2861122        0.116923857         3.31706326
             2e+10       0.115609315         -6.7770464         0.82538113        -102.628197         0.82538113        -102.628197        0.115609315         -6.7770464
