! Created Tue May 10 10:04:49 2022
# hz S ma R 50
! 2 Port Network Data from SP1.SP block
! freq  magS11  angS11  magS21  angS21  magS12  angS12  magS22  angS22  
!     
         200000000     0.00347405772        -121.659191        0.998043201        -10.9410723        0.998043201        -10.9410723      0.00347405772        -121.659191
         400000000     0.00691828769        -133.994264        0.996281515        -21.8899755        0.996281515        -21.8899755      0.00691828769        -133.994264
         600000000       0.010149976        -145.493416        0.994556701        -32.8500452        0.994556701        -32.8500452        0.010149976        -145.493416
         800000000      0.0130302756        -156.735933        0.992854821        -43.8233669        0.992854821        -43.8233669       0.0130302756        -156.735933
             1e+09      0.0154325394        -167.879381         0.99117305        -54.8114779         0.99117305        -54.8114779       0.0154325394        -167.879381
           1.2e+09      0.0172483166        -178.988058        0.989510871        -65.8156302        0.989510871        -65.8156302       0.0172483166        -178.988058
           1.4e+09      0.0183940245         169.906679        0.987867394        -76.8369041        0.987867394        -76.8369041       0.0183940245         169.906679
           1.6e+09      0.0188164096         158.788946         0.98624027        -87.8762465         0.98624027        -87.8762465       0.0188164096         158.788946
           1.8e+09      0.0184963014         147.652527        0.984625409        -98.9344685        0.984625409        -98.9344685       0.0184963014         147.652527
             2e+09      0.0174504316         136.500005        0.983017286        -110.012228        0.983017286        -110.012228       0.0174504316         136.500005
           2.2e+09        0.01573121         125.346135         0.98140966        -121.110013         0.98140966        -121.110013         0.01573121         125.346135
           2.4e+09      0.0134244613          114.22902        0.979796542        -132.228144        0.979796542        -132.228144       0.0134244613          114.22902
           2.6e+09      0.0106452729         103.243959        0.978173184        -143.366792        0.978173184        -143.366792       0.0106452729         103.243959
           2.8e+09     0.00753243093         92.6682257        0.976536883        -154.526023        0.976536883        -154.526023      0.00753243093         92.6682257
             3e+09     0.00424373645         83.6693477        0.974887411        -165.705854        0.974887411        -165.705854      0.00424373645         83.6693477
           3.2e+09     0.00100654858         92.6492235        0.973226968        -176.906323        0.973226968        -176.906323      0.00100654858         92.6492235
           3.4e+09     0.00233485024        -137.551601         0.97155965         171.872462         0.97155965         171.872462      0.00233485024        -137.551601
           3.6e+09     0.00521478825        -143.396533        0.969890532         160.630277        0.969890532         160.630277      0.00521478825        -143.396533
           3.8e+09     0.00770451889        -154.038544        0.968224557         149.366782        0.968224557         149.366782      0.00770451889        -154.038544
             4e+09     0.00968922397        -165.803647        0.966565461         138.081533        0.966565461         138.081533      0.00968922397        -165.803647
           4.2e+09      0.0110992958        -178.146826         0.96491498         126.774036         0.96491498         126.774036       0.0110992958        -178.146826
           4.4e+09      0.0119030525         169.063466        0.963272508          115.44381        0.963272508          115.44381       0.0119030525         169.063466
           4.6e+09      0.0121068164         155.843903        0.961635296          104.09045        0.961635296          104.09045       0.0121068164         155.843903
           4.8e+09      0.0117533143         142.161917        0.959999145         92.7136891        0.959999145         92.7136891       0.0117533143         142.161917
             5e+09      0.0109174894         127.955929        0.958359438         81.3134179        0.958359438         81.3134179       0.0109174894         127.955929
           5.2e+09     0.00969951077         113.145966        0.956712254         69.8896853        0.956712254         69.8896853      0.00969951077         113.145966
           5.4e+09     0.00821492726         97.6493279        0.955055312           58.44266        0.955055312           58.44266      0.00821492726         97.6493279
           5.6e+09     0.00658203724         81.4200659        0.953388477         46.9725701        0.953388477         46.9725701      0.00658203724         81.4200659
           5.8e+09     0.00490688803         64.5606359        0.951713709         35.4796342        0.951713709         35.4796342      0.00490688803         64.5606359
             6e+09     0.00326766073          47.698377        0.950034438         23.9640019        0.950034438         23.9640019      0.00326766073          47.698377
           6.2e+09      0.0017070583          34.079139        0.948354525          12.425719        0.948354525          12.425719       0.0017070583          34.079139
           6.4e+09    0.000433693594         73.7978321        0.946677065        0.864729858        0.946677065        0.864729858     0.000433693594         73.7978321
           6.6e+09     0.00151300323         141.001499        0.945003365        -10.7190842        0.945003365        -10.7190842      0.00151300323         141.001499
           6.8e+09       0.003142628         128.322889        0.943332393         -22.325837        0.943332393         -22.325837        0.003142628         128.322889
             7e+09     0.00494212226         110.929495        0.941660891         -33.955559        0.941660891         -33.955559      0.00494212226         110.929495
           7.2e+09     0.00689776178         93.2802927        0.939984188        -45.6081292        0.939984188        -45.6081292      0.00689776178         93.2802927
           7.4e+09      0.0089478926         76.2460016        0.938297541        -57.2832396        0.938297541        -57.2832396       0.0089478926         76.2460016
           7.6e+09      0.0109777059         60.0127615        0.936597684         -68.980406        0.936597684         -68.980406       0.0109777059         60.0127615
           7.8e+09      0.0128313486         44.5628568        0.934884147        -80.6990302        0.934884147        -80.6990302       0.0128313486         44.5628568
             8e+09      0.0143284218          29.823886        0.933159948        -92.4385013        0.933159948        -92.4385013       0.0143284218          29.823886
           8.2e+09      0.0152816128         15.7283771        0.931431346        -104.198314        0.931431346        -104.198314       0.0152816128         15.7283771
           8.4e+09      0.0155142803         2.24543378        0.929706597        -115.978173        0.929706597        -115.978173       0.0155142803         2.24543378
           8.6e+09      0.0148774638        -10.5842913        0.927993902        -127.778052        0.927993902        -127.778052       0.0148774638        -10.5842913
           8.8e+09      0.0132663142        -22.5670383        0.926298982        -139.598186        0.926298982        -139.598186       0.0132663142        -22.5670383
             9e+09      0.0106380722        -33.0784586        0.924622895        -151.438978        0.924622895        -151.438978       0.0106380722        -33.0784586
           9.2e+09     0.00704877936        -39.6809901        0.922960722        -163.300849        0.922960722        -163.300849      0.00704877936        -39.6809901
           9.4e+09     0.00297362217        -23.6571461        0.921301621        -175.184041        0.921301621        -175.184041      0.00297362217        -23.6571461
           9.6e+09     0.00403804202         65.2270277        0.919630471         172.911564        0.919630471         172.911564      0.00403804202         65.2270277
           9.8e+09      0.0097098808         72.2648149         0.91793097         160.986576         0.91793097         160.986576       0.0097098808         72.2648149
             1e+10      0.0159713019         65.0509767         0.91618961         149.042117         0.91618961         149.042117       0.0159713019         65.0509767
          1.02e+10      0.0222624498         55.0707963        0.914399688         137.079726        0.914399688         137.079726       0.0222624498         55.0707963
          1.04e+10      0.0281855914          44.168323        0.912564314         125.101135        0.912564314         125.101135       0.0281855914          44.168323
          1.06e+10      0.0333551212         32.8962975        0.910697515         113.107956        0.910697515         113.107956       0.0333551212         32.8962975
          1.08e+10      0.0374010234         21.4862754        0.908822857         101.101353        0.908822857         101.101353       0.0374010234         21.4862754
           1.1e+10      0.0399876281         10.0665254        0.906969529          89.081755        0.906969529          89.081755       0.0399876281         10.0665254
          1.12e+10      0.0408346539        -1.26414751        0.905166485         77.0487016        0.905166485         77.0487016       0.0408346539        -1.26414751
          1.14e+10      0.0397375701         -12.394469        0.903435715         65.0008745        0.903435715         65.0008745       0.0397375701         -12.394469
          1.16e+10      0.0365865663        -23.1497248        0.901786097           52.93633        0.901786097           52.93633       0.0365865663        -23.1497248
          1.18e+10       0.031385667        -33.1773522        0.900209304         40.8529115        0.900209304         40.8529115        0.031385667        -33.1773522
           1.2e+10      0.0242815919        -41.5747223        0.898678985         28.7487751        0.898678985         28.7487751       0.0242815919        -41.5747223
          1.22e+10      0.0156663766        -45.1068091        0.897153878         16.6229233        0.897153878         16.6229233       0.0156663766        -45.1068091
          1.24e+10     0.00718374131        -22.9369504        0.895584744         4.47562856        0.895584744         4.47562856      0.00718374131        -22.9369504
          1.26e+10     0.00961456776         50.5118177        0.893924113         -7.6913664        0.893924113         -7.6913664      0.00961456776         50.5118177
          1.28e+10      0.0204209127         60.2099815        0.892137014        -19.8749508        0.892137014        -19.8749508       0.0204209127         60.2099815
           1.3e+10      0.0319880084         54.7608864        0.890210377         -32.071068        0.890210377         -32.071068       0.0319880084         54.7608864
          1.32e+10      0.0430225601          45.896825        0.888158738        -44.2754051        0.888158738        -44.2754051       0.0430225601          45.896825
          1.34e+10      0.0527906803         35.8132123        0.886024527        -56.4842271        0.886024527        -56.4842271       0.0527906803         35.8132123
          1.36e+10      0.0606762367         25.2044907        0.883872261        -68.6951835        0.883872261        -68.6951835       0.0606762367         25.2044907
          1.38e+10       0.066153927         14.3728034        0.881777387        -80.9079095        0.881777387        -80.9079095        0.066153927         14.3728034
           1.4e+10      0.0688051329         3.49125911        0.879811688        -93.1242687        0.879811688        -93.1242687       0.0688051329         3.49125911
          1.42e+10      0.0683389378        -7.30235582        0.878028052        -105.348154        0.878028052        -105.348154       0.0683389378        -7.30235582
          1.44e+10       0.064612293         -17.847396        0.876447648        -117.584848        0.876447648        -117.584848        0.064612293         -17.847396
          1.46e+10      0.0576502326        -27.8819619        0.875052276        -129.840023        0.875052276        -129.840023       0.0576502326        -27.8819619
          1.48e+10      0.0476737744         -36.854164        0.873783922        -142.118566        0.873783922        -142.118566       0.0476737744         -36.854164
           1.5e+10      0.0351719195        -43.2675027        0.872552417        -154.423421        0.872552417        -154.423421       0.0351719195        -43.2675027
          1.52e+10      0.0212747534        -41.3231028        0.871250624         -166.75472        0.871250624         -166.75472       0.0212747534        -41.3231028
          1.54e+10      0.0114530793       -0.361207884        0.869774938        -179.109403        0.869774938        -179.109403       0.0114530793       -0.361207884
          1.56e+10      0.0203261247         48.9007329        0.868047324         168.518528        0.868047324         168.518528       0.0203261247         48.9007329
          1.58e+10      0.0364799362         53.2365674        0.866034131          156.13709        0.866034131          156.13709       0.0364799362         53.2365674
           1.6e+10      0.0528302854         47.4540862        0.863757066         143.754894        0.863757066         143.754894       0.0528302854         47.4540862
          1.62e+10      0.0677066338         38.7718384        0.861293123          131.37946        0.861293123          131.37946       0.0677066338         38.7718384
          1.64e+10      0.0801118181         28.9535166        0.858762751          119.01563        0.858762751          119.01563       0.0801118181         28.9535166
          1.66e+10      0.0892770676         18.6349907        0.856308289         106.664432        0.856308289         106.664432       0.0892770676         18.6349907
          1.68e+10      0.0946148584         8.11879447        0.854066899         94.3226435        0.854066899         94.3226435       0.0946148584         8.11879447
           1.7e+10      0.0957242611        -2.40438555        0.852143223         81.9831783        0.852143223         81.9831783       0.0957242611        -2.40438555
          1.72e+10      0.0924049257        -12.7618982        0.850586936         69.6362525        0.850586936         69.6362525       0.0924049257        -12.7618982
          1.74e+10      0.0846749283        -22.7223963        0.849379389         57.2711562        0.849379389         57.2711562       0.0846749283        -22.7223963
          1.76e+10      0.0727988391        -31.8634179        0.848432239         44.8783351        0.848432239         44.8783351       0.0727988391        -31.8634179
          1.78e+10      0.0573531346        -39.2038064        0.847599324         32.4514164        0.847599324         32.4514164       0.0573531346        -39.2038064
           1.8e+10      0.0394738975        -41.7728726        0.846701033         19.9887824        0.846701033         19.9887824       0.0394738975        -41.7728726
          1.82e+10      0.0224514786        -27.0287268        0.845557908         7.49432111        0.845557908         7.49432111       0.0224514786        -27.0287268
          1.84e+10      0.0204861932         26.4420327        0.844027551        -5.02289647        0.844027551        -5.02289647       0.0204861932         26.4420327
          1.86e+10      0.0377139735         48.0064298        0.842036933        -17.5500619        0.842036933        -17.5500619       0.0377139735         48.0064298
          1.88e+10      0.0584536956         47.1391829        0.839602079        -30.0729797        0.839602079        -30.0729797       0.0584536956         47.1391829
           1.9e+10      0.0781224454         40.3932746        0.836829527        -42.5788621        0.836829527        -42.5788621       0.0781224454         40.3932746
          1.92e+10      0.0950212009          31.566884        0.833898428         -55.058967        0.833898428         -55.058967       0.0950212009          31.566884
          1.94e+10       0.108055552         21.8540857        0.831027059        -67.5105035        0.831027059        -67.5105035        0.108055552         21.8540857
          1.96e+10       0.116440402         11.7569047        0.828431076        -79.9373998        0.828431076        -79.9373998        0.116440402         11.7569047
          1.98e+10       0.119650232         1.54770096        0.826281967        -92.3497827        0.826281967        -92.3497827        0.119650232         1.54770096
             2e+10       0.117412981        -8.57034924        0.824673198        -104.762265        0.824673198        -104.762265        0.117412981        -8.57034924
