!Created with skrf (http://scikit-rf.org).
# MHz S RI R 50.0 
!freq ReS11 ImS11 ReS21 ImS21 ReS12 ImS12 ReS22 ImS22
1.0 -1.4744187218032337e-05 -0.0004632919479320199 0.9995423722262698 -0.005862387830551137 0.9995423722262698 -0.005862387830551135 -1.6711571910003875e-05 -0.0004629514089066707
2.0 -2.4707966880421968e-05 -0.0008865777503722315 0.9992894389438983 -0.011682319365050538 0.9992894389438983 -0.01168231936505054 -3.2544206943118205e-05 -0.000885533557398451
3.0 -3.647477518220472e-05 -0.0012947146107601033 0.9990410788510822 -0.01748512066529822 0.9990410788510822 -0.01748512066529822 -5.404596162410394e-05 -0.0012926229940332186
4.0 -5.037027104577159e-05 -0.0016929791735442016 0.9987788522059876 -0.02327611674500699 0.9987788522059876 -0.02327611674500699 -8.152083390874924e-05 -0.0016894601443877039
5.0 -6.646530529786919e-05 -0.002083872663372574 0.9984957040120721 -0.029057759410887323 0.9984957040120721 -0.029057759410887323 -0.0001150223611549304 -0.0020784974401334613
6.0 -8.476707505901785e-05 -0.0024688647857722184 0.9981880613404323 -0.03483142554361231 0.9981880613404323 -0.03483142554361231 -0.00015454242039507858 -0.0024611503675653337
7.0 -0.00010526148394014266 -0.002848924023157049 0.997853830906268 -0.040597966936972193 0.997853830906268 -0.040597966936972193 -0.00020005257871885088 -0.0028383303096382395
8.0 -0.00012792659963906084 -0.0032247366240150148 0.9974916699750142 -0.046357938362629476 0.9974916699750142 -0.046357938362629476 -0.00025151701881399077 -0.003210664708382804
9.0 -0.0001527377841720783 -0.0035968140000252466 0.9971006623879078 -0.05211170984984854 0.9971006623879078 -0.05211170984984854 -0.0003088973531305552 -0.003578605089153414
10.0 -0.00017966985758091002 -0.003965551704672026 0.9966801546518239 -0.05785952856090756 0.9966801546518239 -0.05785952856090756 -0.00037215458419677497 -0.003942486409550708
11.0 -0.00020869805437940547 -0.004331264552905788 0.9962296649870171 -0.06360155575492314 0.9962296649870171 -0.06360155575492313 -0.0004412499224518684 -0.004302562414240124
12.0 -0.00023979844346958695 -0.004694208851264133 0.9957488292272954 -0.06933789025656605 0.9957488292272954 -0.06933789025656605 -0.0005161451075326681 -0.004659028023062847
13.0 -0.0002729480955781402 -0.005054597159494751 0.9952373668438222 -0.07506858408543113 0.9952373668438222 -0.07506858408543113 -0.0005968025031414226 -0.005012034203758975
14.0 -0.0003081251280207157 -0.005412608478794321 0.9946950586531615 -0.08079365327340064 0.9946950586531615 -0.08079365327340064 -0.0006831850869765694 -0.005361698241379333
15.0 -0.0003453086895256878 -0.005768395511039827 0.9941217316552221 -0.08651308559316284 0.9941217316552221 -0.08651308559316283 -0.0007752563932306037 -0.005708111058809754
16.0 -0.00038447891664442004 -0.0061220899711112164 0.9935172484046456 -0.09222684622912411 0.9935172484046456 -0.09222684622912411 -0.000872980435752242 -0.006051342576737569
17.0 -0.00042561687799802425 -0.006473806563908286 0.9928814993663466 -0.0979348820341652 0.9928814993663466 -0.0979348820341652 -0.0009763216258062164 -0.006391445728675062
18.0 -0.00046870451482318594 -0.006823646020666806 0.9922143972943485 -0.10363712478815845 0.9922143972943485 -0.10363712478815845 -0.0010852446912725463 -0.00672845952831361
19.0 -0.0005137245821803837 -0.007171697457019625 0.9915158730180301 -0.10933349373536434 0.9915158730180301 -0.10933349373536434 -0.0011997146004913738 -0.007062411453478606
20.0 -0.0005606605929947015 -0.00751804023201857 0.990785872229435 -0.11502389759025933 0.990785872229435 -0.11502389759025931 -0.0013196964920817041 -0.0073933193271776484
21.0 -0.0006094967659089998 -0.00786274543335599 0.9900243529968445 -0.12070823614448474 0.9900243529968445 -0.12070823614448474 -0.0014451556110791934 -0.007721192821894699
22.0 -0.0006602179772724837 -0.008205877078115402 0.9892312838144913 -0.12638640156970643 0.9892312838144913 -0.12638640156970643 -0.0015760572512440558 -0.008046034677124385
23.0 -0.0007128097172544367 -0.008547493093932105 0.9884066420543284 -0.13205827948534316 0.9884066420543284 -0.13205827948534316 -0.0017123667031631012 -0.008367841695519287
24.0 -0.0007672580498856792 -0.008887646128469142 0.9875504127235519 -0.13772374984215355 0.9875504127235519 -0.13772374984215355 -0.0018540492076572468 -0.008686605565926318
25.0 -0.0008235495767453222 -0.009226384223099043 0.9866625874576429 -0.14338268765994283 0.9866625874576429 -0.14338268765994283 -0.002001069913996113 -0.009002313549483219
26.0 -0.000881671403994115 -0.009563751378041684 0.9857431636968996 -0.1490349636484783 0.9857431636968996 -0.1490349636484783 -0.002153393842435019 -0.009314949056243048
27.0 -0.0009416111124328166 -0.009899788029906442 0.9847921440074824 -0.15468044473400824 0.9847921440074824 -0.15468044473400824 -0.002310985850610749 -0.009624492133443853
28.0 -0.0010033567303006747 -0.01023453145791402 0.9838095355173385 -0.1603189945088073 0.9838095355173385 -0.16031899450880727 -0.0024738106033961736 -0.009930919881830872
29.0 -0.0010668967085303055 -0.010568016131579948 0.9827953494443047 -0.1659504736174506 0.9827953494443047 -0.1659504736174506 -0.0026418325458300524 -0.010234206812919864
30.0 -0.0011322198982113096 -0.010900274009987776 0.9817496006987398 -0.1715747400906857 0.9817496006987398 -0.1715747400906857 -0.0028150158787993524 -0.010534325157413007
31.0 -0.0011993155300404497 -0.011231334800750222 0.9806723075469171 -0.17719164963560877 0.9806723075469171 -0.1771916496356088 -0.0029933245371820834 -0.01083124513293404
32.0 -0.0012681731955480886 -0.011561226185184702 0.9795634913242579 -0.18280105588916304 0.9795634913242579 -0.18280105588916304 -0.003176722170187905 -0.01112493517766424
33.0 -0.0013387828299272504 -0.011889974015001685 0.978423176189778 -0.18840281064067724 0.978423176189778 -0.18840281064067727 -0.003365172123675951 -0.01141536215522289
34.0 -0.0014111346962977736 -0.012217602484839931 0.9772513889147403 -0.19399676402810845 0.9772513889147403 -0.19399676402810845 -0.0035586374242411673 -0.01170249153516285
35.0 -0.0014852193712682092 -0.012544134284214812 0.9760481586999493 -0.1995827647118506 0.9760481586999493 -0.1995827647118506 -0.0037570807649018817 -0.011986287552678665
36.0 -0.0015610277316628592 -0.012869590731832787 0.974813517017071 -0.2051606600292939 0.974813517017071 -0.2051606600292939 -0.0039604644922229286 -0.012266713350505233
37.0 -0.0016385509423048812 -0.01319399189473088 0.9735474974702982 -0.2107302961328068 0.9735474974702982 -0.2107302961328068 -0.004168750594744 -0.0125437311054879
38.0 -0.0017177804447527426 -0.013517356694302776 0.9722501356752214 -0.21629151811336253 0.9722501356752214 -0.21629151811336253 -0.004381900692587088 -0.01281730214190174
39.0 -0.0017987079468998492 -0.013839703000943001 0.9709214691524228 -0.22184417011170096 0.9709214691524228 -0.22184417011170096 -0.004599876028136533 -0.013087387033268413
40.0 -0.001881325413358318 -0.014161047718776217 0.9695615372336336 -0.2273880954186114 0.9695615372336336 -0.2273880954186114 -0.004822637457692369 -0.013353945694148961
41.0 -0.001965625056556452 -0.01448140686171551 0.9681703809787048 -0.2329231365656921 0.9681703809787048 -0.2329231365656921 -0.005050145444018643 -0.013616937463167235
42.0 -0.0020515993284813917 -0.01480079562191568 0.9667480431019115 -0.23844913540774723 0.9667480431019115 -0.23844913540774723 -0.0052823600496987545 -0.013876321178339264
43.0 -0.002139240913016734 -0.015119228431526415 0.965294567906317 -0.24396593319780538 0.965294567906317 -0.24396593319780538 -0.0055192409312424355 -0.014132055245621583
44.0 -0.0022285427188174184 -0.01543671901853284 0.9638100012251599 -0.24947337065562192 0.9638100012251599 -0.24947337065562197 -0.005760747333873464 -0.014384097701471402
45.0 -0.00231949787267917 -0.01575328045735663 0.9622943903693391 -0.25497128803039487 0.9622943903693391 -0.25497128803039487 -0.006006838086948268 -0.014632406270098604
46.0 -0.002412099713358948 -0.016068925214803444 0.9607477840802562 -0.26045952515834314 0.9607477840802562 -0.26045952515834314 -0.00625747159995399 -0.014876938415999533
47.0 -0.0025063417858113782 -0.01638366519186523 0.9591702324873206 -0.26593792151569495 0.9591702324873206 -0.26593792151569495 -0.0065126058590448035 -0.0151176513922853
48.0 -0.0026022178358045744 -0.01669751176182131 0.9575617870695765 -0.27140631626757544 0.9575617870695765 -0.27140631626757544 -0.006772198424071107 -0.015354502285252258
49.0 -0.002699721804885806 -0.017010475805024773 0.9559225006209591 -0.2768645483132241 0.9559225006209591 -0.2768645483132241 -0.007036206426070485 -0.015587448055584315
50.0 -0.002798847825670025 -0.017322567740715437 0.9542524272187412 -0.2823124563279025 0.9542524272187412 -0.2823124563279025 -0.007304586565185675 -0.015816445576529836
51.0 -0.0028995902174242037 -0.01763379755615877 0.952551622194829 -0.2877498788018352 0.952551622194829 -0.2877498788018352 -0.007577295108979057 -0.01604145166935682
52.0 -0.0030019434819270243 -0.017944174833372222 0.9508201421095652 -0.29317665407646415 0.9508201421095652 -0.29317665407646415 -0.007854287891118925 -0.016262423136347497
53.0 -0.0031059022995806596 -0.01825370877367528 0.9490580447277698 -0.2985926203782751 0.9490580447277698 -0.2985926203782751 -0.008135520310409584 -0.01647931679157219
54.0 -0.003211461525755372 -0.018562408220267505 0.9472653889967811 -0.30399761585042706 0.9472653889967811 -0.30399761585042706 -0.008420947330146592 -0.016692089489646383
55.0 -0.0033186161873532028 -0.01887028167901942 0.9454422350262759 -0.30939147858238414 0.9454422350262759 -0.30939147858238414 -0.008710523477773463 -0.016900698152658655
56.0 -0.0034273614795705745 -0.01917733733763883 0.943588644069679 -0.3147740466377299 0.943588644069679 -0.3147740466377299 -0.009004202844824501 -0.01710509979543171
57.0 -0.0035376927628474803 -0.019483583083358968 0.9417046785070028 -0.32014515808032723 0.9417046785070028 -0.3201451580803272 -0.009301939087133063 -0.017305251549264898
58.0 -0.003649605559988261 -0.019789026519280092 0.9397904018289711 -0.3255046509989663 0.9397904018289711 -0.3255046509989663 -0.009603685425290248 -0.01750111068428943
59.0 -0.0037630955534451913 -0.020093674979477536 0.9378458786222904 -0.33085236353063097 0.9378458786222904 -0.330852363530631 -0.009909394645344958 -0.017692634630550805
60.0 -0.0038781585827485387 -0.020397535542986147 0.935871174555965 -0.3361881338824995 0.935871174555965 -0.3361881338824995 -0.010219019099720351 -0.017879780997928724
61.0 -0.003994790642076366 -0.02070061504675199 0.9338663563685402 -0.34151180035278206 0.9338663563685402 -0.34151180035278206 -0.010532510708348762 -0.01806250759498476
62.0 -0.004112987877953869 -0.021002920097636976 0.9318314918561973 -0.3468232013504941 0.9318314918561973 -0.34682320135049416 -0.010849820960001375 -0.01824077244682571
63.0 -0.004232746587072242 -0.021304457083554638 0.9297666498616106 -0.3521221754142455 0.9297666498616106 -0.3521221754142455 -0.011170900913810136 -0.018414533812058535
64.0 -0.0043540632142194235 -0.021605232183804494 0.9276719002634967 -0.35740856123012593 0.9276719002634967 -0.35740856123012593 -0.01149570120096782 -0.018583750198907224
65.0 -0.004476934350315859 -0.02190525137866891 0.9255473139667864 -0.36268219764875387 0.9255473139667864 -0.36268219764875387 -0.011824172026600514 -0.01874838038055295
66.0 -0.004601356730546711 -0.022204520458330636 0.9233929628933729 -0.3679429237015564 0.9233929628933729 -0.3679429237015564 -0.012156263171800246 -0.01890838340975842
67.0 -0.004727327232586608 -0.022503045031158544 0.9212089199733777 -0.3731905786163336 0.9212089199733777 -0.37319057861633353 -0.012491923995814815 -0.019063718632821438
68.0 -0.00485484287490719 -0.022800830531415225 0.9189952591368731 -0.3784250018321592 0.9189952591368731 -0.3784250018321592 -0.012831103438383219 -0.019214345702913273
69.0 -0.0049839008151641405 -0.023097882226423706 0.9167520553060516 -0.38364603301367317 0.9167520553060516 -0.38364603301367317 -0.013173750022211776 -0.019360224592837205
70.0 -0.005114498348661172 -0.023394205223234495 0.9144793843877695 -0.38885351206479807 0.9144793843877695 -0.388853512064798 -0.013519811855586879 -0.019501315607251463
71.0 -0.0052466329068770225 -0.02368980447483053 0.9121773232664604 -0.3940472791419312 0.9121773232664604 -0.3940472791419312 -0.013869236635112345 -0.019637579394389378
72.0 -0.0053803020560642964 -0.023984684785898974 0.9098459497973539 -0.3992271746666371 0.9098459497973539 -0.3992271746666371 -0.014221971648575419 -0.019768976957309697
73.0 -0.005515503495901915 -0.024278850818205456 0.9074853428000108 -0.404393039337887 0.9074853428000108 -0.404393039337887 -0.014577963777924474 -0.01989546966471108
74.0 -0.005652235058208584 -0.024572307095589774 0.9050955820521156 -0.40954471414386195 0.9050955820521156 -0.40954471414386195 -0.014937159502364811 -0.0200170192613288
75.0 -0.005790494705705503 -0.024865058008619278 0.9026767482835204 -0.414682040373362 0.9026767482835204 -0.414682040373362 -0.015299504901559614 -0.02013358787795051
76.0 -0.005930280530831132 -0.025157107818913123 0.900228923170512 -0.41980485962683395 0.900228923170512 -0.41980485962683395 -0.01566494565893856 -0.020245138041063922
77.0 -0.0060715907545989 -0.025448460663165254 0.8977521893302937 -0.4249130138270531 0.8977521893302937 -0.4249130138270531 -0.016033427065103554 -0.02035163268216425
78.0 -0.006214423725499559 -0.025739120556883467 0.8952466303156466 -0.4300063452294739 0.8952466303156466 -0.4300063452294739 -0.016404894021332626 -0.02045303514673786
79.0 -0.006358777918443851 -0.026029091397861852 0.8927123306097693 -0.43508469643227166 0.8927123306097693 -0.43508469643227166 -0.016779291043177845 -0.020549309202940007
80.0 -0.006504651933739817 -0.02631837696940658 0.8901493756212786 -0.4401479103860957 0.8901493756212786 -0.4401479103860957 -0.017156562264150237 -0.020640419049985488
81.0 -0.006652044496107135 -0.026606980943326555 0.8875578516793464 -0.44519583040354893 0.8875578516793464 -0.44519583040354893 -0.017536651439492887 -0.020726329326264597
82.0 -0.006800954453722866 -0.02689490688270665 0.884937846028984 -0.45022830016841286 0.884937846028984 -0.45022830016841286 -0.017919501950037584 -0.020807005117200683
83.0 -0.00695138077729839 -0.02718215824447632 0.8822894468264315 -0.45524516374462953 0.8822894468264315 -0.45524516374462953 -0.01830505680614251 -0.020882411962861995
84.0 -0.007103322559181074 -0.027468738381782418 0.8796127431346745 -0.4602462655850573 0.8796127431346745 -0.4602462655850573 -0.018693258651705402 -0.020952515865337425
85.0 -0.007256779012485784 -0.027754650546183368 0.8769078249190497 -0.4652314505400098 0.8769078249190497 -0.4652314505400098 -0.019084049768254185 -0.021017283295892225
86.0 -0.007411749470247383 -0.02803989788967231 0.8741747830429575 -0.4702005638655982 0.8741747830429575 -0.4702005638655982 -0.019477372079110693 -0.021076681201910186
87.0 -0.007568233384597037 -0.02832448346653681 0.8714137092636436 -0.47515345123187086 0.8714137092636436 -0.47515345123187086 -0.01987316715362302 -0.02113067701363089
88.0 -0.007726230325959416 -0.02860841023506997 0.8686246962280737 -0.4800899587307846 0.8686246962280739 -0.48008995873078464 -0.020271376211468663 -0.02117923865069724
89.0 -0.007885739982266698 -0.028891681059137156 0.8658078374688742 -0.4850099328839947 0.8658078374688742 -0.4850099328839947 -0.02067194012702102 -0.021222334528513676
90.0 -0.008046762158192125 -0.029174298709606986 0.8629632274003306 -0.4899132206504852 0.8629632274003306 -0.4899132206504853 -0.021074799433782612 -0.021259933564428332
91.0 -0.008209296774399275 -0.029456265865657066 0.8600909613144637 -0.4947996694340502 0.8600909613144637 -0.4947996694340502 -0.021479894328879694 -0.021292005183744828
92.0 -0.008373343866804042 -0.029737585115956675 0.8571911353771374 -0.499669127090617 0.8571911353771374 -0.4996691270906171 -0.021887164677616134 -0.0213185193255688
93.0 -0.008538903585852534 -0.03001825895973722 0.8542638466242318 -0.5045214419354409 0.8542638466242318 -0.5045214419354409 -0.02229655001808706 -0.021339446448497664
94.0 -0.008705976195809973 -0.03029828980775434 0.8513091929578566 -0.5093564627501637 0.8513091929578566 -0.5093564627501637 -0.022707989565850205 -0.021354757536158515
95.0 -0.008874562074059487 -0.030577679983148053 0.8483272731426011 -0.5141740387897443 0.8483272731426011 -0.5141740387897443 -0.02312142221865006 -0.021364424102599186
96.0 -0.009044661710412601 -0.03085643172220571 0.8453181868018275 -0.5189740197892722 0.8453181868018276 -0.518974019789272 -0.023536786561197783 -0.02136841819753745
97.0 -0.00921627570642751 -0.03113454717503459 0.8422820344139887 -0.5237562559706648 0.8422820344139887 -0.5237562559706648 -0.023954020870002667 -0.021366712411475836
98.0 -0.009389404774734865 -0.03141202840614595 0.8392189173089865 -0.528520598049257 0.8392189173089865 -0.528520598049257 -0.02437306311825419 -0.021359279880680235
99.0 -0.009564049738371232 -0.03168887739495844 0.8361289376645439 -0.5332668972402839 0.8361289376645439 -0.5332668972402839 -0.02479385098075346 -0.021346094292034976
100.0 -0.009740211530117742 -0.031965096036220234 0.8330121985026141 -0.5379950052652681 0.8330121985026141 -0.5379950052652682 -0.025216321838892393 -0.021327129887769303
101.0 -0.009917891191843501 -0.03224068614036198 0.829868803685795 -0.542704774358306 0.829868803685795 -0.542704774358306 -0.025640412785679408 -0.021302361470067713
102.0 -0.010097089873854652 -0.03251564943377417 0.8266988579137814 -0.5473960572722706 0.8266988579137814 -0.5473960572722706 -0.02606606063081208 -0.02127176440555957
103.0 -0.010277808834245715 -0.032789987559018366 0.8235024667198126 -0.5520687072849162 0.8235024667198126 -0.5520687072849162 -0.026493201905791193 -0.02123531462969508
104.0 -0.010460049438253108 -0.03306370207497863 0.8202797364671547 -0.5567225782049126 0.8202797364671547 -0.5567225782049126 -0.02692177286907973 -0.021192988651013663
105.0 -0.010643813157610944 -0.033336794456946026 0.817030774345575 -0.5613575243777863 0.817030774345575 -0.5613575243777863 -0.027351709511302537 -0.02114476355529907
106.0 -0.010829101569910092 -0.033609266096650596 0.81375568836784 -0.5659734006917919 0.81375568836784 -0.5659734006917919 -0.027782947560488082 -0.021090617009633564
107.0 -0.011015916357954406 -0.03388111830223579 0.8104545873662198 -0.5705700625837083 0.8104545873662198 -0.5705700625837083 -0.0282154224873479 -0.021030527266345894
108.0 -0.011204259309118449 -0.03415235229818072 0.8071275809889942 -0.5751473660445624 0.8071275809889942 -0.5751473660445624 -0.02864906951059563 -0.020964473166859777
109.0 -0.011394132314706425 -0.03442296922517332 0.8037747796969655 -0.5797051676252813 0.8037747796969655 -0.5797051676252813 -0.029083823602304167 -0.02089243414544391
110.0 -0.011585537369305364 -0.03469297013993572 0.8003962947599843 -0.5842433244422882 0.8003962947599843 -0.5842433244422882 -0.02951961949329637 -0.020814390232865396
111.0 -0.011778476570141336 -0.03496235601500411 0.7969922382534617 -0.5887616941830212 0.7969922382534617 -0.5887616941830212 -0.029956391678576142 -0.020730322059947997
112.0 -0.011972952116429736 -0.03523112773846515 0.7935627230548938 -0.5932601351114002 0.7935627230548938 -0.5932601351114002 -0.030394074422788256 -0.020640210861037744
113.0 -0.012168966308724466 -0.03549928611365359 0.79010786284039 -0.5977385060732344 0.79010786284039 -0.5977385060732343 -0.030832601765716845 -0.020544038477379845
114.0 -0.012366521548264167 -0.03576683185880622 0.7866277720811841 -0.6021966665015633 0.7866277720811841 -0.6021966665015633 -0.03127190752781373 -0.0204417873604014
115.0 -0.012565620336311294 -0.03603376560668311 0.7831225660401602 -0.6066344764219533 0.7831225660401602 -0.6066344764219533 -0.031711925315757894 -0.020333440574911255
