!Created with skrf (http://scikit-rf.org).
# MHz S RI R 50.0 
!freq ReS11 ImS11
1.0 0.9996908307700494 -0.00415206721639922
2.0 0.9995285531360054 -0.008250947473718311
3.0 0.999375781694206 -0.01232926811812526
4.0 0.9992199847537807 -0.01639395596493822
5.0 0.9990563797454662 -0.02044827689343478
6.0 0.9988825489586644 -0.02449413259421143
7.0 0.9986970776543012 -0.028532760411488632
8.0 0.9984990588619628 -0.03256502283804363
9.0 0.9982878735935216 -0.036591549705533605
10.0 0.9980630797658463 -0.040612816380371425
11.0 0.9978243506287132 -0.044629190388875466
12.0 0.9975714381776501 -0.0486409609682021
13.0 0.997304150199069 -0.05264835871391072
14.0 0.9970223352244092 -0.0566515691571585
15.0 0.9967258723068435 -0.06065074245045114
16.0 0.9964146638619708 -0.06464600046436074
17.0 0.9960886305239187 -0.06863744210693334
18.0 0.9957477073668803 -0.07262514738990218
19.0 0.9953918410757483 -0.07660918059055487
20.0 0.995020987791309 -0.08058959274763838
21.0 0.9946351114444719 -0.08456642365801487
22.0 0.9942341824512186 -0.08853970349305873
23.0 0.9938181766778675 -0.09250945412128066
24.0 0.9933870746117379 -0.09647569020108074
25.0 0.9929408606899219 -0.10043842009153645
26.0 0.9924795227511188 -0.10439764661762505
27.0 0.9920030515843332 -0.10835336771787792
28.0 0.9915114405545014 -0.11230557699623607
29.0 0.9910046852898046 -0.11625426419521444
30.0 0.9904827834187971 -0.12019941560393466
31.0 0.9899457343481474 -0.12414101441188563
32.0 0.9893935390736279 -0.12807904101715556
33.0 0.988826200018595 -0.1320134732962517
34.0 0.9882437208952787 -0.13594428684132398
35.0 0.9876461065851213 -0.1398714551695833
36.0 0.987033363035117 -0.14379494990888655
37.0 0.9864054971676589 -0.14771474096279585
38.0 0.9857625168018336 -0.1516307966578852
39.0 0.9851044305844607 -0.15554308387562885
40.0 0.9844312479294897 -0.15945156817084963
41.0 0.9837429789645348 -0.1633562138783999
42.0 0.9830396344836116 -0.16725698420952131
43.0 0.9823212259051803 -0.17115384133909733
44.0 0.9815877652348549 -0.17504674648486984
45.0 0.9808392650321202 -0.17893565997952388
46.0 0.9800757383805944 -0.18282054133643824
47.0 0.9792971988613632 -0.1867013493097868
48.0 0.9785036605290292 -0.19057804194959302
49.0 0.9776951378901476 -0.19445057665226237
50.0 0.9768716458837716 -0.19831891020705497
51.0 0.9760331998638629 -0.2021829988389047
52.0 0.9751798155833489 -0.2060427982479395
53.0 0.9743115091796554 -0.2098982636460246
54.0 0.9734282971615493 -0.21374934979060659
55.0 0.9725301963971513 -0.21759601101610956
56.0 0.9716172241029885 -0.22143820126310423
57.0 0.9706893978339841 -0.2252758741054502
58.0 0.9697467354742949 -0.2291089827755896
59.0 0.9687892552288944 -0.23293748018814917
60.0 0.9678169756158449 -0.2367613189619973
61.0 0.9668299154591736 -0.2405804514408803
62.0 0.9658280938823106 -0.24439482971275886
63.0 0.9648115303020303 -0.2482044056279487
64.0 0.9637802444228357 -0.2520091308161555
65.0 0.9627342562317627 -0.2558089567024965
66.0 0.961673585993556 -0.25960383452258484
67.0 0.9605982542461915 -0.2633937153367449
68.0 0.9595082817966895 -0.2671785500434253
69.0 0.9584036897172378 -0.2709582893918726
70.0 0.9572844993415414 -0.27473288399410883
71.0 0.9561507322614372 -0.2785022843362758
72.0 0.9550024103236973 -0.2822664407893766
73.0 0.9538395556270456 -0.2860253036194717
74.0 0.9526621905193464 -0.2897788229973475
75.0 0.9514703375949625 -0.29352694900771603
76.0 0.9502640196922625 -0.29726963165795534
77.0 0.949043259891262 -0.3010068208864341
78.0 0.9478080815114073 -0.3047384665704438
79.0 0.9465585081094545 -0.3084645185337607
80.0 0.9452945634774789 -0.3121849265538661
81.0 0.9440162716409651 -0.3158996403688407
82.0 0.9427236568570019 -0.3196086096839566
83.0 0.9414167436125548 -0.32331178417798684
84.0 0.9400955566228189 -0.32700911350924267
85.0 0.9387601208296399 -0.3307005473213605
86.0 0.9374104614000067 -0.3343860352488554
87.0 0.9360466037246027 -0.3380655269224416
88.0 0.9346685734164076 -0.34173897197415287
89.0 0.9332763963093662 -0.3454063200422566
90.0 0.9318700984570853 -0.3490675207759792
91.0 0.9304497061316008 -0.35272252384006436
92.0 0.9290152458221543 -0.3563712789191448
93.0 0.9275667442340398 -0.3600137357219738
94.0 0.9261042282874586 -0.36364984398549227
95.0 0.9246277251164281 -0.36727955347876196
96.0 0.9231372620677101 -0.3709028140067577
97.0 0.9216328666997611 -0.37451957541403275
98.0 0.9201145667817283 -0.37812978758826415
99.0 0.9185823902924457 -0.38173340046367915
100.0 0.917036365419473 -0.3853303640243724
101.0 0.9154765205581341 -0.388920628307518
102.0 0.9139028843106016 -0.3925041434064868
103.0 0.9123154854849678 -0.3960808594738561
104.0 0.9107143530943606 -0.39965072672434554
105.0 0.90909951635605 -0.4032136954376508
106.0 0.9074710046905847 -0.40676971596120565
107.0 0.9058288477209369 -0.41031873871286173
108.0 0.9041730752716549 -0.41386071418349135
109.0 0.9025037173680278 -0.41739559293952094
110.0 0.9008208042352677 -0.4209233256253962
111.0 0.8991243662976903 -0.42444386296597975
112.0 0.8974144341779072 -0.42795715576888566
113.0 0.8956910386960321 -0.4314631549267587
114.0 0.8939542108688847 -0.43496181141948753
115.0 0.8922039819092038 -0.4384530763163689
116.0 0.8904403832248733 -0.44193690077821857
117.0 0.8886634464181417 -0.4454132360594274
118.0 0.886873203284858 -0.4488820335099744
119.0 0.8850696858136984 -0.45234324457738434
120.0 0.8832529261854152 -0.45579682080865147
121.0 0.8814229567720671 -0.45924271385210913
122.0 0.8795798101362772 -0.4626808754592646
123.0 0.8777235190304657 -0.4661112574865907
124.0 0.8758541163961155 -0.46953381189728083
125.0 0.8739716353630133 -0.47294849076296336
126.0 0.8720761092485075 -0.47635524626538417
127.0 0.8701675715567667 -0.4797540306980511
128.0 0.8682460559780342 -0.48314479646784986
129.0 0.8663115963878828 -0.48652749609661833
130.0 0.8643642268464797 -0.4899020822227012
131.0 0.8624039815978478 -0.4932685076024688
132.0 0.8604308950691142 -0.4966267251118028
133.0 0.8584450018697858 -0.4999766877475643
134.0 0.8564463367909995 -0.5033183486290237
135.0 0.8544349348047837 -0.50665166099927
136.0 0.8524108310633284 -0.5099765782265983
137.0 0.8503740608982328 -0.5132930538058617
138.0 0.8483246598197706 -0.5166010413598102
139.0 0.846262663516154 -0.519900494640401
140.0 0.8441881078527841 -0.5231913675300865
141.0 0.8421010288715128 -0.52647361404308
142.0 0.8400014627899026 -0.5297471883266058
143.0 0.837889446000476 -0.5330120446621198
144.0 0.8357650150699779 -0.5362681374665172
145.0 0.8336282067386264 -0.5395154212933169
146.0 0.8314790579193655 -0.5427538508338302
147.0 0.8293176056971171 -0.5459833809183079
148.0 0.8271438873280302 -0.5492039665170687
149.0 0.8249579402387396 -0.5524155627416191
150.0 0.822759802025598 -0.5556181248457406
151.0 0.8205495104539359 -0.5588116082265777
152.0 0.8183271034573005 -0.5619959684256959
153.0 0.8160926191367014 -0.5651711611301312
154.0 0.8138460957598488 -0.5683371421734218
155.0 0.8115875717604031 -0.5714938675366309
156.0 0.8093170857372043 -0.5746412933493379
157.0 0.8070346764535133 -0.5777793758906412
158.0 0.8047403828362495 -0.5809080715901226
159.0 0.8024342439752247 -0.5840273370288112
160.0 0.8001162991223696 -0.5871371289401326
161.0 0.7977865876909753 -0.5902374042108435
162.0 0.7954451492549139 -0.5933281198819502
163.0 0.7930920235478683 -0.5964092331496228
164.0 0.7907272504625584 -0.5994807013660881
165.0 0.7883508700499688 -0.6025424820405179
166.0 0.7859629225185658 -0.6055945328399004
167.0 0.7835634482335188 -0.6086368115899025
168.0 0.7811524877159243 -0.611669276275723
169.0 0.7787300816420183 -0.6146918850429273
170.0 0.7762962708423929 -0.6177045961982792
171.0 0.7738510963012105 -0.6207073682105602
172.0 0.7713945991554199 -0.6237001597113733
173.0 0.7689268206939587 -0.6266829294959424
174.0 0.7664478023569705 -0.6296556365239011
175.0 0.7639575857350059 -0.6326182399200647
176.0 0.7614562125682308 -0.6355706989752038
177.0 0.7589437247456312 -0.6385129731467953
178.0 0.7564201643042112 -0.641445022059779
179.0 0.7538855734281992 -0.6443668055072891
180.0 0.7513399944482433 -0.6472782834513864
181.0 0.748783469840607 -0.6501794160237825
182.0 0.7462160422263681 -0.6530701635265453
183.0 0.743637754370612 -0.6559504864328097
184.0 0.7410486491816257 -0.6588203453874649
185.0 0.7384487697100819 -0.6616797012078451
186.0 0.7358381591482356 -0.6645285148844046
187.0 0.7332168608291104 -0.6673667475813893
188.0 0.7305849182256838 -0.6701943606374984
189.0 0.7279423749500686 -0.6730113155665308
190.0 0.7252892747527041 -0.6758175740580405
191.0 0.7226256615215307 -0.6786130979779668
192.0 0.7199515792811724 -0.6813978493692647
193.0 0.717267072192118 -0.684171790452532
194.0 0.7145721845498969 -0.6869348836266134
195.0 0.7118669607842512 -0.6896870914692191
196.0 0.7091514454583198 -0.6924283767375154
197.0 0.706425683267803 -0.6951587023687228
198.0 0.7036897190401379 -0.6978780314806956
199.0 0.7009435977336702 -0.7005863273725046
200.0 0.698187364436821 -0.703283553525003
201.0 0.6954210643672574 -0.7059696736013964
202.0 0.6926447428710579 -0.7086446514477933
203.0 0.6898584454218789 -0.7113084510937583
204.0 0.6870622176201155 -0.7139610367528547
205.0 0.6842561051920723 -0.7166023728231796
206.0 0.6814401539891173 -0.7192324238878967
207.0 0.6786144099868486 -0.721851154715759
208.0 0.6757789192842497 -0.7244585302616183
209.0 0.672933728102852 -0.7270545156669488
210.0 0.6700788827858912 -0.7296390762603389
211.0 0.6672144297974602 -0.7322121775579923
212.0 0.6643404157216695 -0.7347737852642225
213.0 0.6614568872617999 -0.7373238652719337
214.0 0.6585638912394546 -0.7398623836631022
215.0 0.6556614745937114 -0.7423893067092442
216.0 0.6527496843802785 -0.7449046008718913
217.0 0.6498285677706391 -0.7474082328030368
218.0 0.6468981720512036 -0.7499001693456069
219.0 0.6439585446224592 -0.7523803775338969
220.0 0.6410097329981178 -0.7548488245940169
221.0 0.6380517848042594 -0.7573054779443295
222.0 0.635084747778483 -0.7597503051958813
223.0 0.632108669769048 -0.7621832741528258
224.0 0.6291235987340225 -0.7646043528128441
225.0 0.6261295827404247 -0.767013509367561
226.0 0.6231266699633645 -0.7694107122029431
227.0 0.6201149086851897 -0.7717959298997169
228.0 0.617094347294625 -0.77416913123375
229.0 0.614065034285914 -0.7765302851764538
230.0 0.6110270182579575 -0.7788793608951607
231.0 0.6079803479134573 -0.781216327753512
232.0 0.6049250720580505 -0.7835411553118276
233.0 0.6018612395994525 -0.7858538133274746
234.0 0.5987888995465913 -0.7881542717552369
235.0 0.5957081010087475 -0.790442500747668
236.0 0.5926188931946894 -0.7927184706554478
237.0 0.5895213254118093 -0.7949821520277304
238.0 0.5864154470652614 -0.7972335156124825
239.0 0.5833013076570969 -0.7994725323568295
240.0 0.5801789567853971 -0.8016991734073801
241.0 0.5770484441434083 -0.8039134101105577
242.0 0.5739098195186785 -0.8061152140129213
243.0 0.570763132792188 -0.8083045568614814
244.0 0.5676084339374882 -0.8104814106040141
245.0 0.564445773019826 -0.8126457473893686
246.0 0.5612752001952889 -0.8147975395677653
247.0 0.5580967657099232 -0.8169367596910956
248.0 0.554910519898878 -0.8190633805132143
249.0 0.5517165131855339 -0.8211773749902231
250.0 0.548514796080634 -0.8232787162807585
251.0 0.5453054191814144 -0.8253673777462635
252.0 0.5420884331707381 -0.827443332951261
253.0 0.5388638888162252 -0.8295065556636255
254.0 0.5356318369693877 -0.8315570198548374
255.0 0.532392328564753 -0.833594699700252
256.0 0.5291454146190042 -0.8356195695793415
257.0 0.5258911462301025 -0.8376316040759519
258.0 0.5226295745764252 -0.8396307779785396
259.0 0.5193607509158927 -0.8416170662804183
260.0 0.5160847265851014 -0.8435904441799835
261.0 0.5128015529984509 -0.8455508870809486
262.0 0.509511281647282 -0.847498370592574
263.0 0.5062139640989993 -0.8494328705298722
264.0 0.5029096519962097 -0.8513543629138398
265.0 0.49959839705584946 -0.8532628239716615
266.0 0.49628025106831836 -0.8551582301369155
267.0 0.49295526589660554 -0.857040558049777
268.0 0.48962349347542633 -0.8589097845572139
269.0 0.4862849858103557 -0.8607658867131855
270.0 0.4829397949769558 -0.8626088417788274
271.0 0.47958797311990586 -0.864438627222631
272.0 0.4762295724521436 -0.8662552207206309
273.0 0.47286464525398936 -0.8680586001565757
274.0 0.46949324387228386 -0.869848743622102
275.0 0.4661154207195188 -0.8716256294168956
276.0 0.4627312282729747 -0.873389236048859
277.0 0.45934071907384544 -0.8751395422342642
278.0 0.4559439457263858 -0.8768765268979126
279.0 0.4525409608970338 -0.878600169173278
280.0 0.44913181731355306 -0.8803104484026557
281.0 0.4457165677641636 -0.8820073441372968
282.0 0.44229526509668377 -0.883690836137555
283.0 0.43886796221766006 -0.8853609043730089
284.0 0.4354347120915048 -0.887017529022593
285.0 0.43199556773964004 -0.8886606904747255
286.0 0.4285505822396239 -0.8902903693274191
287.0 0.4250998087242994 -0.891906546388407
288.0 0.4216433003809261 -0.8935092026752451
289.0 0.41818111045032225 -0.8950983194154221
290.0 0.4147132922260053 -0.8966738780464675
291.0 0.41123989905333086 -0.8982358602160415
292.0 0.40776098432863145 -0.8997842477820346
293.0 0.4042766014983647 -0.9013190228126599
294.0 0.4007868040582468 -0.9028401675865376
295.0 0.39729164555240526 -0.9043476645927757
296.0 0.3937911795725133 -0.9058414965310565
297.0 0.39028545975693796 -0.9073216463116983
298.0 0.3867745397898872 -0.9087880970557395
299.0 0.38325847340055347 -0.9102408320949968
300.0 0.3797373143622573 -0.9116798349721302
301.0 0.376211116491598 -0.9131050894407033
302.0 0.3726799336476029 -0.9145165794652391
303.0 0.36914381973087135 -0.9159142892212659
304.0 0.3656028286827266 -0.917298203095372
305.0 0.36205701448436817 -0.9186683056852409
306.0 0.3585064311560184 -0.9200245817996967
307.0 0.3549511327560781 -0.9213670164587386
308.0 0.3513911733802761 -0.9226955948935746
309.0 0.34782660716082847 -0.9240103025466425
310.0 0.3442574882655872 -0.9253111250716396
311.0 0.34068387089719715 -0.9265980483335473
312.0 0.3371058092922543 -0.9278710584086387
313.0 0.33352335772046476 -0.9291301415844991
314.0 0.3299365704837952 -0.9303752843600285
315.0 0.3263455019156408 -0.9316064734454573
316.0 0.3227502063799818 -0.9328236957623386
317.0 0.31915073827054347 -0.93402693844355
318.0 0.3155471520099603 -0.9352161888332905
319.0 0.3119395020489393 -0.9363914344870684
320.0 0.30832784286542464 -0.93755266317169
321.0 0.30471222896375966 -0.9386998628652437
322.0 0.30109271487385814 -0.939833021757079
323.0 0.2974693551503679 -0.9409521282477855
324.0 0.2938422043718425 -0.9420571709491646
325.0 0.2902113171399082 -0.9431481386841973
326.0 0.2865767480784353 -0.9442250204870136
327.0 0.28293855183271377 -0.9452878056028522
328.0 0.27929678306862077 -0.9463364834880227
329.0 0.27565149647179926 -0.9473710438098557
330.0 0.2720027467468307 -0.9483914764466641
331.0 0.26835058861641325 -0.9493977714876813
332.0 0.26469507682054055 -0.9503899192330117
333.0 0.2610362661156785 -0.9513679101935744
334.0 0.2573742112739441 -0.9523317350910366
335.0 0.25370896708229607 -0.953281384857755
336.0 0.2500405883417028 -0.9542168506367003
337.0 0.24636912986634132 -0.9551381237813873
338.0 0.2426946464827714 -0.9560451958558069
339.0 0.23901719302913194 -0.9569380586343392
340.0 0.23533682435431644 -0.957816704101674
341.0 0.23165359531717716 -0.9586811244527281
342.0 0.2279675607857032 -0.9595313120925552
343.0 0.22427877563622142 -0.960367259636256
344.0 0.2205872947525795 -0.9611889599088803
345.0 0.21689317302535288 -0.9619964059453314
346.0 0.21319646535103046 -0.9627895909902672
347.0 0.20949722663121903 -0.9635685084979881
348.0 0.20579551177183683 -0.9643331521323376
349.0 0.20209137568231872 -0.965083515766589
350.0 0.19838487327481152 -0.9658195934833276
351.0 0.1946760594633844 -0.9665413795743378
352.0 0.19096498916322682 -0.9672488685404838
353.0 0.187251717289859 -0.9679420550915829
354.0 0.1835362987583379 -0.968620934146278
355.0 0.1798187884824617 -0.9692855008319139
356.0 0.17609924137399133 -0.9699357504844015
357.0 0.17237771234184857 -0.9705716786480778
358.0 0.16865425629134112 -0.9711932810755758
359.0 0.16492892812336762 -0.9718005537276767
360.0 0.1612017827336432 -0.9723934927731663
361.0 0.1574728750119099 -0.9729720945886885
362.0 0.15374225984115952 -0.9735363557585969
363.0 0.15000999209685734 -0.9740862730747916
364.0 0.14627612664615797 -0.9746218435365736
365.0 0.14254071834713541 -0.9751430643504845
366.0 0.1388038220480037 -0.975649932930134
367.0 0.13506549258635236 -0.9761424468960445
368.0 0.13132578478836476 -0.9766206040754792
369.0 0.12758475346805642 -0.9770844025022701
370.0 0.12384245342650418 -0.9775338404166483
371.0 0.12009893945108002 -0.9779689162650598
372.0 0.1163542663146875 -0.9783896286999937
373.0 0.1126084887749977 -0.9787959765797953
374.0 0.10886166157368929 -0.9791879589684831
375.0 0.1051138394356856 -0.9795655751355541
376.0 0.10136507706840103 -0.9799288245558041
377.0 0.09761542916098337 -0.9802777069091279
378.0 0.09386495038355479 -0.9806122220803208
379.0 0.09011369538646645 -0.980932370158884
380.0 0.0863617187995424 -0.9812381514388203
381.0 0.08260907523132999 -0.9815295664184303
382.0 0.07885581926835414 -0.9818066158001076
383.0 0.0751020054743698 -0.9820693004901219
384.0 0.07134768838961861 -0.9823176215984191
385.0 0.06759292253008457 -0.9825515804383927
386.0 0.06383776238675605 -0.9827711785266733
387.0 0.06008226242488438 -0.9829764175829059
388.0 0.056326477083246694 -0.9831672995295311
389.0 0.05257046077341082 -0.9833438264915542
390.0 0.048814267879001755 -0.9835060007963198
391.0 0.04505795275496827 -0.9836538249732806
392.0 0.04130156972685588 -0.9837873017537667
393.0 0.0375451730900733 -0.9839064340707445
394.0 0.03378881710917064 -0.9840112250585831
395.0 0.030032556017113472 -0.9841016780528112
396.0 0.02627644401455631 -0.9841777965898774
397.0 0.022520535269127014 -0.9842395844069
398.0 0.018764883914700162 -0.9842870454414206
399.0 0.015009544050689251 -0.9843201838311562
400.0 0.011254569741320563 -0.9843390039137399
401.0 0.007500015014927747 -0.9843435102264743
402.0 0.0037459338632342166 -0.984333707506068
403.0 -7.619759352693947e-06 -0.9843096006883719
404.0 -0.0037605919364572145 -0.9842711949081283
405.0 -0.007512928790430837 -0.9842184954986929
406.0 -0.011264576483066252 -0.9841515079917762
407.0 -0.015015481216293204 -0.9840702381171722
408.0 -0.01876558923288881 -0.9839746918024862
409.0 -0.022514846817162003 -0.9838648751728581
410.0 -0.02626320029566482 -0.9837407945506891
411.0 -0.030010596037881747 -0.9836024564553619
412.0 -0.03375698045691785 -0.9834498676029593
413.0 -0.03750230001019835 -0.9832830349059831
414.0 -0.04124650120015579 -0.9831019654730668
415.0 -0.044989530574912284 -0.9829066666086875
416.0 -0.04873133472897541 -0.9826971458128776
417.0 -0.052471860303910066 -0.9824734107809292
418.0 -0.05621105398902747 -0.9822354694031079
419.0 -0.05994886252206497 -0.9819833297643468
420.0 -0.06368523268985958 -0.9817170001439555
421.0 -0.06742011132902892 -0.9814364890153138
422.0 -0.07115344532664294 -0.9811418050455746
423.0 -0.0748851816208923 -0.9808329570953502
424.0 -0.07861526720176502 -0.9805099542184198
425.0 -0.082343649111713 -0.9801728056614049
426.0 -0.0860702744463135 -0.9798215208634662
427.0 -0.08979509035493717 -0.9794561094559923
428.0 -0.09351804404141033 -0.9790765812622779
429.0 -0.0972390827646768 -0.9786829462972144
430.0 -0.10095815383944799 -0.978275214766962
431.0 -0.10467520463686998 -0.9778533970686349
432.0 -0.10839018258517363 -0.9774175037899769
433.0 -0.11210303517032223 -0.976967545709035
434.0 -0.11581370993666971 -0.9765035337938321
435.0 -0.11952215448760281 -0.9760254792020384
436.0 -0.1232283164861903 -0.9755333932806444
437.0 -0.12693214365582858 -0.9750272875656154
438.0 -0.13063358378088186 -0.9745071737815746
439.0 -0.13433258470731965 -0.9739730638414525
440.0 -0.13802909434336283 -0.9734249698461527
441.0 -0.14172306066011647 -0.9728629040842145
