!Created with skrf (http://scikit-rf.org).
# MHz S RI R 50.0 
!freq ReS11 ImS11
1.0 -0.9997219315398513 0.0037446945935056077
2.0 -0.9995749898853574 0.0074883959122479075
3.0 -0.9994375547763998 0.011231318565692266
4.0 -0.9992982351405351 0.014973506035179295
5.0 -0.9991526344079383 0.01871496194815612
6.0 -0.998998504301715 0.022455672212120414
7.0 -0.9988345129513054 0.026195612971801514
8.0 -0.9986597950709278 0.02993475430523506
9.0 -0.9984737515206427 0.03367306221243875
10.0 -0.9982759476108304 0.037410499795186486
11.0 -0.998066056509486 0.041147028007855586
12.0 -0.9978438254802332 0.044882606161428515
13.0 -0.9976090546141578 0.04861719227627107
14.0 -0.9973615828317581 0.05235074333756623
15.0 -0.9971012783312532 0.05608321548551843
16.0 -0.9968280318705048 0.059814564160360274
17.0 -0.9965417519186155 0.063544744215153
18.0 -0.996242361078246 0.06727371000507276
19.0 -0.9959297933940492 0.0710014154591718
20.0 -0.9956039922929751 0.07472781413883264
21.0 -0.9952649089842153 0.07845285928595924
22.0 -0.9949125011993317 0.08217650386313417
23.0 -0.9945467321882273 0.08589870058740934
24.0 -0.9941675699101941 0.08961940195898938
25.0 -0.9937749863756826 0.09333856028577944
26.0 -0.9933689571058198 0.09705612770454722
27.0 -0.9929494606849596 0.10077205619929369
28.0 -0.9925164783874 0.10448629761729923
29.0 -0.9920699938638183 0.10819880368322675
30.0 -0.9916099928761147 0.11190952601158002
31.0 -0.9911364630718869 0.11561841611777161
32.0 -0.9906493937914914 0.11932542542799873
33.0 -0.9901487759021534 0.1230305052880993
34.0 -0.9896346016546198 0.1267336069715274
35.0 -0.9891068645587254 0.13043468168656372
36.0 -0.9885655592749137 0.13413368058286126
37.0 -0.9880106815192882 0.1378305547574112
38.0 -0.9874422279801831 0.14152525525999637
39.0 -0.9868601962445903 0.14521773309819547
40.0 -0.9862645847330734 0.14890793924199172
41.0 -0.9856553926419752 0.15259582462802532
42.0 -0.9850326198919829 0.15628134016353643
43.0 -0.9843962670821689 0.15996443673002322
44.0 -0.9837463354488687 0.16364506518665456
45.0 -0.9830828268287342 0.16732317637345223
46.0 -0.9824057436254987 0.17099872111427614
47.0 -0.9817150887799821 0.1746716502196234
48.0 -0.9810108657429676 0.17834191448926254
49.0 -0.9802930784506222 0.18200946471472107
50.0 -0.9795617313021747 0.1856742516816339
51.0 -0.9788168291396044 0.18933622617197093
52.0 -0.978058377229114 0.19299533896615015
53.0 -0.9772863812442122 0.19665154084504927
54.0 -0.9765008472502297 0.2003047825919222
55.0 -0.97570178169013 0.20395501499423105
56.0 -0.9748891913714729 0.2076021888453975
57.0 -0.9740630834544258 0.21124625494648136
58.0 -0.97322346544073 0.21488716410779318
59.0 -0.9723703451635096 0.21852486715044475
60.0 -0.9715037307778681 0.2221593149078431
61.0 -0.9706236307521757 0.22579045822712906
62.0 -0.9697300538600094 0.22941824797057092
63.0 -0.9688230091726755 0.2330426350169112
64.0 -0.9679025060522544 0.2366635702626694
65.0 -0.9669685541451418 0.24028100462340896
66.0 -0.9660211633760323 0.24389488903496576
67.0 -0.965060343942313 0.24750517445464418
68.0 -0.9640861063088209 0.2511118118623791
69.0 -0.9630984612029634 0.25471475226187307
70.0 -0.9620974196101292 0.25831394668169944
71.0 -0.9610829927694201 0.26190934617638756
72.0 -0.9600551921696225 0.26550090182747627
73.0 -0.9590140295454481 0.26908856474455073
74.0 -0.9579595168739875 0.2726722860662532
75.0 -0.956891666371389 0.27625201696127966
76.0 -0.9558104904897253 0.27982770862935175
77.0 -0.9547160019140393 0.2833993123021755
78.0 -0.9536082135595708 0.2869667792443819
79.0 -0.9524871385691216 0.29053006075445137
80.0 -0.9513527903105851 0.2940891081656255
81.0 -0.950205182374593 0.29764387284680255
82.0 -0.9490443285723015 0.30119430620342214
83.0 -0.9478702429332889 0.3047403596783362
84.0 -0.9466829397035634 0.3082819847526695
85.0 -0.9454824333436695 0.3118191329466674
86.0 -0.944268738526897 0.31535175582053604
87.0 -0.943041870137574 0.3188798049752689
88.0 -0.9418018432694388 0.32240323205346766
89.0 -0.9405486732241038 0.3259219887401526
90.0 -0.9392823755095718 0.3294360267635628
91.0 -0.9380029658388469 0.3329452978959555
92.0 -0.9367104601285792 0.336449753954386
93.0 -0.9354048744977971 0.33994934680149247
94.0 -0.9340862252666743 0.3434440283462656
95.0 -0.9327545289553667 0.34693375054481657
96.0 -0.93140980228289 0.35041846540113775
97.0 -0.9300520621660409 0.353898124967854
98.0 -0.9286813257183754 0.35737268134697514
99.0 -0.9272976102492124 0.36084208669063633
100.0 -0.9259009332626918 0.3643062932018393
101.0 -0.9244913124568507 0.36776525313518166
102.0 -0.9230687657227595 0.37121891879759156
103.0 -0.9216333111436616 0.37466724254904654
104.0 -0.9201849669941732 0.3781101768032988
105.0 -0.9187237517394831 0.38154767402858836
106.0 -0.917249684034603 0.38497968674835653
107.0 -0.9157627827236339 0.3884061675419553
108.0 -0.9142630668390539 0.39182706904535275
109.0 -0.9127505556010348 0.3952423439518335
110.0 -0.9112252684167806 0.3986519450127012
111.0 -0.9096872248798821 0.4020558250379697
112.0 -0.9081364447696917 0.4054539368970605
113.0 -0.9065729480507223 0.40884623351948973
114.0 -0.9049967548720571 0.41223266789555746
115.0 -0.9034078855667741 0.4156131930770301
116.0 -0.9018063606513977 0.4189877621778257
117.0 -0.900192200825351 0.4223563283746922
118.0 -0.898565426970433 0.42571884490788625
119.0 -0.8969260601502972 0.42907526508184685
120.0 -0.8952741216099593 0.43242554226587143
121.0 -0.8936096327752974 0.4357696298947842
122.0 -0.8919326152525805 0.4391074814696096
123.0 -0.8902430908279929 0.44243905055823496
124.0 -0.8885410814671821 0.44576429079608115
125.0 -0.886826609314805 0.4490831558867637
126.0 -0.885099696694087 0.4523955996027547
127.0 -0.8833603661063941 0.4557015757860471
128.0 -0.881608640230806 0.4590010383488113
129.0 -0.8798445419236968 0.4622939412740513
130.0 -0.878068094218329 0.46558023861626535
131.0 -0.8762793203244543 0.4688598845020988
132.0 -0.8744782436279042 0.47213283313099524
133.0 -0.8726648876902151 0.47539903877585443
134.0 -0.8708392762482305 0.4786584557836776
135.0 -0.8690014332137259 0.4819110385762192
136.0 -0.867151382673039 0.48515674165063993
137.0 -0.8652891488866904 0.4883955195801465
138.0 -0.8634147562890216 0.49162732701464357
139.0 -0.8615282294878379 0.4948521186813788
140.0 -0.8596295932640428 0.49806984938558435
141.0 -0.8577188725712885 0.5012804740111223
142.0 -0.8557960925356264 0.5044839475211275
143.0 -0.8538612784551529 0.5076802249586466
144.0 -0.8519144557996732 0.5108692614472822
145.0 -0.8499556502103531 0.5140510121918281
146.0 -0.8479848874993843 0.5172254324789132
147.0 -0.8460021936496422 0.5203924776776334
148.0 -0.844007594814354 0.5235521032401924
149.0 -0.8420011173167717 0.5267042647025413
150.0 -0.8399827876498281 0.5298489176850045
151.0 -0.8379526324758219 0.5329860178929247
152.0 -0.8359106786260804 0.53611552111729
153.0 -0.833856953100637 0.539237383235371
154.0 -0.8317914830679053 0.5423515602113492
155.0 -0.8297142958643601 0.5454580080969558
156.0 -0.8276254189942058 0.5485566830320942
157.0 -0.8255248801290642 0.551647541245478
158.0 -0.8234127071076472 0.5547305390552569
159.0 -0.8212889279354395 0.5578056328696459
160.0 -0.8191535707843773 0.5608727791875551
161.0 -0.8170066639925325 0.5639319345992184
162.0 -0.8148482360637894 0.5669830557868183
163.0 -0.8126783156675287 0.5700260995251143
164.0 -0.8104969316383087 0.5730610226820677
165.0 -0.8083041129755484 0.5760877822194698
166.0 -0.8060998888432085 0.5791063351935644
167.0 -0.8038842885694697 0.5821166387556715
168.0 -0.8016573416464232 0.5851186501528144
169.0 -0.7994190777297417 0.58811232672834
170.0 -0.7971695266383677 0.5910976259225419
171.0 -0.7949087183541899 0.5940745052732834
172.0 -0.7926366830217295 0.5970429224166202
173.0 -0.7903534509478122 0.6000028350874165
174.0 -0.788059052601255 0.6029542011199726
175.0 -0.7857535186125376 0.6058969784486379
176.0 -0.7834368797734872 0.6088311251084363
177.0 -0.7811091670369519 0.6117565992356795
178.0 -0.7787704115164776 0.6146733590685896
179.0 -0.7764206444859858 0.6175813629479153
180.0 -0.7740598973794451 0.6204805693175496
181.0 -0.7716882017905479 0.6233709367251448
182.0 -0.7693055894723813 0.6262524238227298
183.0 -0.7669120923371003 0.629124989367329
184.0 -0.7645077424555996 0.6319885922215726
185.0 -0.7620925720571782 0.6348431913543121
186.0 -0.7596666135292137 0.6376887458412361
187.0 -0.7572298994168276 0.6405252148654846
188.0 -0.7547824624225508 0.64335255771826
189.0 -0.7523243354059863 0.6461707337994377
190.0 -0.749855551383478 0.6489797026181849
191.0 -0.7473761435277684 0.6517794237935638
192.0 -0.7448861451676604 0.654569857055149
193.0 -0.7423855897876777 0.6573509622436341
194.0 -0.7398745110277206 0.6601226993114427
195.0 -0.7373529426827238 0.6628850283233372
196.0 -0.734820918702312 0.6656379094570283
197.0 -0.7322784731904511 0.6683813030037836
198.0 -0.7297256404051012 0.6711151693690323
199.0 -0.7271624547578681 0.6738394690729755
200.0 -0.7245889508136468 0.6765541627511905
201.0 -0.7220051632902746 0.6792592111552387
202.0 -0.7194111270581743 0.6819545751532686
203.0 -0.7168068771399946 0.6846402157306226
204.0 -0.7141924487102534 0.6873160939904382
205.0 -0.7115678770949813 0.6899821711542545
206.0 -0.7089331977713543 0.692638408562615
207.0 -0.7062884463673361 0.6952847676756686
208.0 -0.7036336586613047 0.6979212100737692
209.0 -0.7009688705816948 0.7005476974580835
210.0 -0.6982941182066223 0.7031641916511853
211.0 -0.6956094377635124 0.7057706545976549
212.0 -0.6929148656287318 0.7083670483646846
213.0 -0.6902104383272109 0.7109533351426714
214.0 -0.6874961925320672 0.7135294772458178
215.0 -0.6847721650642244 0.7160954371127265
216.0 -0.6820383928920403 0.7186511773070021
217.0 -0.6792949131309106 0.7211966605178391
218.0 -0.676541763042896 0.7237318495606255
219.0 -0.6737789800363309 0.7262567073775326
220.0 -0.6710066016654331 0.7287711970381093
221.0 -0.6682246656299163 0.7312752817398757
222.0 -0.6654332097745944 0.7337689248089168
223.0 -0.6626322720889894 0.7362520897004717
224.0 -0.6598218907069314 0.7387247399995284
225.0 -0.657002103906164 0.7411868394214108
226.0 -0.6541729501079341 0.7436383518123678
227.0 -0.6513344678766005 0.7460792411501671
228.0 -0.6484866959192178 0.7485094715446762
229.0 -0.6456296730851363 0.7509290072384563
230.0 -0.642763438365585 0.7533378126073427
231.0 -0.639888030893267 0.7557358521610373
232.0 -0.6370034899419399 0.758123090543688
233.0 -0.634109854926 0.7604994925344738
234.0 -0.6312071654000668 0.762865023048192
235.0 -0.628295461058558 0.765219647135835
236.0 -0.6253747817352687 0.7675633299851768
237.0 -0.622445167402945 0.7698960369213508
238.0 -0.6195066581728559 0.7722177334074302
239.0 -0.6165592942943656 0.7745283850450095
240.0 -0.6136031161544989 0.7768279575747801
241.0 -0.6106381642775064 0.779116416877109
242.0 -0.6076644793244295 0.7813937289726137
243.0 -0.6046821020926597 0.7836598600227392
244.0 -0.6016910735154976 0.7859147763303341
245.0 -0.59869143466171 0.7881584443402208
246.0 -0.5956832267350829 0.7903908306397718
247.0 -0.5926664910739705 0.7926119019594777
248.0 -0.589641269150849 0.794821625173523
249.0 -0.5866076025718607 0.7970199673003501
250.0 -0.5835655330763592 0.7992068955032359
251.0 -0.5805151025364508 0.8013823770908525
252.0 -0.5774563529565331 0.8035463795178371
253.0 -0.574389326472836 0.8056988703853597
254.0 -0.5713140653529518 0.8078398174416846
255.0 -0.5682306119953712 0.8099691885827388
256.0 -0.5651390089290134 0.8120869518526688
257.0 -0.5620392988127498 0.8141930754444098
258.0 -0.5589315244349337 0.8162875277002379
259.0 -0.5558157287129222 0.8183702771123398
260.0 -0.5526919546925936 0.8204412923233613
261.0 -0.549560245547867 0.8225005421269707
262.0 -0.5464206445802242 0.8245479954684178
263.0 -0.5432731952182085 0.8265836214450792
264.0 -0.5401179410169484 0.828607389307023
265.0 -0.5369549256576613 0.8306192684575564
266.0 -0.5337841929471575 0.8326192284537794
267.0 -0.5306057868173454 0.8346072390071323
268.0 -0.527419751324729 0.836583269983947
269.0 -0.5242261306499125 0.8385472914059976
270.0 -0.5210249690970922 0.8404992734510477
271.0 -0.5178163110935464 0.8424391864533881
272.0 -0.5146002011891339 0.8443670009043913
273.0 -0.5113766840557744 0.8462826874530489
274.0 -0.5081458044869422 0.8481862169065184
275.0 -0.5049076073971422 0.850077560230658
276.0 -0.5016621378213976 0.8519566885505714
277.0 -0.49840944091472 0.85382357315114
278.0 -0.4951495619515941 0.8556781854775691
279.0 -0.491882546325445 0.8575204971359143
280.0 -0.4886084395481115 0.8593504798936223
281.0 -0.4853272872493124 0.8611681056800556
282.0 -0.4820391351761165 0.8629733465870356
283.0 -0.47874402919240155 0.8647661748693631
284.0 -0.4754420152783143 0.8665465629453499
285.0 -0.4721331395297365 0.8683144833973491
286.0 -0.4688174481577282 0.870069908972274
287.0 -0.465494987487994 0.871812812582133
288.0 -0.46216580396032275 0.8735431673045416
289.0 -0.4588299441280429 0.8752609463832502
290.0 -0.45548745465746676 0.8769661232286663
291.0 -0.4521383823273288 0.8786586714183663
292.0 -0.4487827740282317 0.8803385646976156
293.0 -0.4454206767620836 0.8820057769798874
294.0 -0.4420521376415292 0.8836602823473733
295.0 -0.4386772038893886 0.8853020550514935
296.0 -0.43529592283808516 0.8869310695134177
297.0 -0.43190834192906985 0.8885473003245593
298.0 -0.4285145087122528 0.8901507222470978
299.0 -0.42511447084542336 0.8917413102144754
300.0 -0.42170827609366585 0.8933190393319059
301.0 -0.41829597232878557 0.894883884876875
302.0 -0.41487760752871894 0.8964358222996471
303.0 -0.4114532297769465 0.8979748272237571
304.0 -0.40802288726190267 0.8995008754465152
305.0 -0.404586628276385 0.9010139429394981
306.0 -0.40114450121695844 0.9025140058490466
307.0 -0.39769655458335673 0.9040010404967581
308.0 -0.39424283697788415 0.9054750233799789
309.0 -0.3907833971048115 0.9069359311722892
310.0 -0.3873182837697705 0.9083837407239931
311.0 -0.38384754587914877 0.9098184290626098
312.0 -0.38037123243947574 0.911239973393348
313.0 -0.3768893925568144 0.9126483510995969
314.0 -0.37340207543614173 0.9140435397433971
315.0 -0.369909330380734 0.9154255170659328
316.0 -0.36641120679154615 0.9167942609879959
317.0 -0.3629077541665847 0.9181497496104662
318.0 -0.35939902210028946 0.9194919612147854
319.0 -0.3558850602829002 0.9208208742634266
320.0 -0.3523659184998287 0.922136467400363
321.0 -0.3488416466310236 0.9234387194515381
322.0 -0.34531229465033986 0.924727609425326
323.0 -0.34177791262489277 0.9260031165130013
324.0 -0.338238550714427 0.9272652200891967
325.0 -0.3346942591706661 0.9285138997123612
326.0 -0.3311450883366692 0.9297491351252212
327.0 -0.32759108864618625 0.9309709062552333
328.0 -0.32403231062300275 0.9321791932150408
329.0 -0.32046880488028967 0.9333739763029196
330.0 -0.3169006221199483 0.9345552360032362
331.0 -0.31332781313195057 0.9357229529868849
332.0 -0.30975042879367853 0.9368771081117403
333.0 -0.30616852006926376 0.9380176824230989
334.0 -0.3025821380089201 0.9391446571541164
335.0 -0.29899133374827763 0.9402580137262552
336.0 -0.2953961585077088 0.9413577337497092
337.0 -0.29179666359165884 0.9424437990238453
338.0 -0.2881929003879705 0.9435161915376398
339.0 -0.2845849203672056 0.9445748934701003
340.0 -0.2809727750819622 0.9456198871906963
341.0 -0.27735651616619844 0.946651155259788
342.0 -0.2737361953345399 0.9476686804290466
343.0 -0.2701118643815999 0.948672445641878
344.0 -0.2664835751812821 0.9496624340338375
345.0 -0.26285137968609384 0.9506386289330507
346.0 -0.2592153299264482 0.9516010138606288
347.0 -0.25557547800996877 0.9525495725310738
348.0 -0.25193187612078843 0.9534842888526959
349.0 -0.24828457651884928 0.9544051469280184
350.0 -0.2446336315391957 0.955312131054179
351.0 -0.24097909359126982 0.9562052257233374
352.0 -0.23732101515820217 0.9570844156230743
353.0 -0.2336594487960991 0.9579496856367884
354.0 -0.22999444713332762 0.9588010208440895
355.0 -0.22632606286980272 0.9596384065211968
356.0 -0.22265434877626802 0.9604618281413277
357.0 -0.21897935769356947 0.9612712713750793
358.0 -0.21530114253194033 0.9620667220908241
359.0 -0.21161975627026816 0.9628481663550872
360.0 -0.20793525195537058 0.9636155904329269
361.0 -0.20424768270126398 0.9643689807883138
362.0 -0.20055710168843283 0.9651083240845092
363.0 -0.19686356216308953 0.9658336071844287
364.0 -0.19316711743644185 0.9665448171510221
365.0 -0.18946782088395256 0.9672419412476415
366.0 -0.18576572594459503 0.9679249669383957
367.0 -0.18206088612011073 0.9685938818885235
368.0 -0.1783533549742651 0.9692486739647472
369.0 -0.17464318613209182 0.9698893312356338
370.0 -0.17093043327915047 0.9705158419719472
371.0 -0.1672151501607669 0.971128194646999
372.0 -0.16349739058128007 0.971726377937001
373.0 -0.15977720840328402 0.9723103807214087
374.0 -0.15605465754686831 0.9728801920832669
375.0 -0.15232979198885443 0.9734358013095443
376.0 -0.14860266576203213 0.9739771978914826
377.0 -0.144873332954395 0.9745043715249248
378.0 -0.1411418477083656 0.9750173121106467
379.0 -0.13740826422003144 0.9755160097546896
380.0 -0.1336726367383667 0.9760004547686858
381.0 -0.1299350195644603 0.9764706376701832
382.0 -0.1261954670507363 0.9769265491829682
383.0 -0.12245403360017179 0.9773681802373768
384.0 -0.11871077366552213 0.9777955219706235
385.0 -0.11496574174853104 0.9782085657270987
386.0 -0.11121899239914484 0.978607303058687
387.0 -0.10747058021472665 0.978991725725071
388.0 -0.10372055983926601 0.9793618256940392
389.0 -0.09996898596258375 0.9797175951417798
390.0 -0.09621591331953792 0.9800590264531835
391.0 -0.09246139668923298 0.9803861122221362
392.0 -0.0887054908942126 0.9806988452518138
393.0 -0.08494825079966449 0.9809972185549637
394.0 -0.08118973131261562 0.9812812253541985
395.0 -0.07742998738112906 0.9815508590822729
396.0 -0.07366907399349597 0.981806113382368
397.0 -0.06990704617742677 0.9820469821083638
398.0 -0.0661439589992398 0.9822734593251128
399.0 -0.06237986756305142 0.982485539308714
400.0 -0.05861482700995781 0.9826832165467727
401.0 -0.05484889251721993 0.9828664857386746
402.0 -0.05108211929744636 0.9830353417958387
403.0 -0.04731456259776883 0.9831897798419739
404.0 -0.0435462776990218 0.983329795213342
405.0 -0.03977731991492117 0.9834553834589992
406.0 -0.03600774459123215 0.9835665403410491
407.0 -0.032237607104945214 0.9836632618348888
408.0 -0.028466962863444016 0.9837455441294486
409.0 -0.024695867303675963 0.9838133836274264
410.0 -0.020924375891313733 0.9838667769455283
411.0 -0.017152544119923806 0.9839057209146982
412.0 -0.013380427510128478 0.9839302125803441
413.0 -0.00960808160876442 0.9839402492025678
414.0 -0.005835561988044228 0.9839358282563826
415.0 -0.002062924244710624 0.983916947431932
416.0 0.0017097760008056833 0.9838836046347071
417.0 0.0054824831052327685 0.9838357979857526
418.0 0.009255141403307507 0.983773525821885
419.0 0.013027695208623447 0.9836967866958863
420.0 0.01680008881448187 0.9836055793767134
421.0 0.020572266494749032 0.9834999028496907
422.0 0.024344172504707405 0.9833797563167096
423.0 0.028115751081911965 0.9832451391964112
424.0 0.03188694644705209 0.9830960511243879
425.0 0.035657702804809344 0.9829324919533522
426.0 0.03942796434471888 0.982754461753325
427.0 0.04319767524203172 0.9825619608118148
428.0 0.046966779658583306 0.9823549896339845
429.0 0.050735221743658375 0.982133548942828
430.0 0.054502945634854555 0.9818976396793305
431.0 0.05826989545895894 0.9816472630026348
432.0 0.06203601533281626 0.981382420290202
433.0 0.06580124936419944 0.9811031131379632
434.0 0.06956554165268682 0.9808093433604743
435.0 0.07332883629053688 0.9805011129910624
436.0 0.07709107736356423 0.9801784242819757
437.0 0.08085220895202089 0.9798412797045127
438.0 0.08461217513147382 0.9794896819491765
439.0 0.08837091997368779 0.9791236339257943
440.0 0.09212838754750806 0.9787431387636528
441.0 0.09588452191974538 0.9783481998116293
442.0 0.09963926715605978 0.977938820638303
