!Created with skrf (http://scikit-rf.org).
# MHz S RI R 50.0 
!freq ReS11 ImS11
1.0 -0.0258184039977816 1.3552527156068805e-20
2.0 -0.024249463382950594 0.0
3.0 -0.023327042406877524 -5.421010862427522e-20
4.0 -0.02267048523655704 0.0
5.0 -0.02216002550877356 -5.421010862427522e-20
6.0 -0.021742176335674903 0.0
7.0 -0.02138834918107535 -1.0842021724855044e-19
8.0 -0.021081451476398092 1.0842021724855044e-19
9.0 -0.020810442984267607 1.0842021724855044e-19
10.0 -0.020567776492306948 -1.0842021724855044e-19
11.0 -0.020348063182717264 4.336808689942018e-19
12.0 -0.02014732037034948 -2.168404344971009e-19
13.0 -0.019962520950497827 2.168404344971009e-19
14.0 -0.01979131004658723 -2.168404344971009e-19
15.0 -0.019631819504576202 0.0
16.0 -0.019482542287083543 4.336808689942018e-19
17.0 -0.019342244954226203 4.336808689942018e-19
18.0 -0.019209905158744264 -2.168404344971009e-19
19.0 -0.019084666036252022 0.0
20.0 -0.018965802289278633 -4.336808689942018e-19
21.0 -0.018852694541359283 -4.336808689942018e-19
22.0 -0.018744809652885504 -2.168404344971009e-19
23.0 -0.018641685408883377 4.336808689942018e-19
24.0 -0.01854291846262805 2.168404344971009e-19
25.0 -0.018448154737927165 4.336808689942018e-19
26.0 -0.018357081711759413 -4.336808689942018e-19
27.0 -0.01826942215171007 4.336808689942018e-19
28.0 -0.01818492899095415 -4.336808689942018e-19
29.0 -0.018103381101440053 0.0
30.0 -0.01802457978270618 -4.336808689942018e-19
31.0 -0.017948345825651687 -8.673617379884035e-19
32.0 -0.017874517041825345 4.336808689942018e-19
33.0 -0.017802946172360827 0.0
34.0 -0.017733499108617854 0.0
35.0 -0.017666053370370853 8.673617379884035e-19
36.0 -0.01760049679805291 4.336808689942018e-19
37.0 -0.017536726423900226 -4.336808689942018e-19
38.0 -0.017474647493406045 1.3010426069826053e-18
39.0 -0.01741417261367831 -8.673617379884035e-19
40.0 -0.017355221009446573 0.0
41.0 -0.017297717870785448 -1.734723475976807e-18
42.0 -0.017241593779312843 0.0
43.0 -0.01718678420179128 -8.673617379884035e-19
44.0 -0.017133229041848136 4.336808689942018e-19
45.0 -0.01708087224199005 -4.336808689942018e-19
46.0 -0.01702966142928108 -4.336808689942018e-19
47.0 -0.01697954759906311 4.336808689942018e-19
48.0 -0.01693048483191732 0.0
49.0 -0.016882430039754676 8.673617379884035e-19
50.0 -0.01683534273751671 4.336808689942018e-19
51.0 -0.016789184837443162 0.0
52.0 -0.01674392046327916 1.734723475976807e-18
53.0 -0.016699515782150256 8.673617379884035e-19
54.0 -0.01665593885212344 1.734723475976807e-18
55.0 -0.016613159483730024 0.0
56.0 -0.016571149113942973 -4.336808689942018e-19
57.0 -0.016529880691289002 8.673617379884035e-19
58.0 -0.016489328570933503 4.336808689942018e-19
59.0 -0.01644946841871712 -4.336808689942018e-19
60.0 -0.01641027712324306 4.336808689942018e-19
61.0 -0.016371732715218114 1.3010426069826053e-18
62.0 -0.016333814293338335 0.0
63.0 -0.01629650195609576 -8.673617379884035e-19
64.0 -0.016259776738943927 -8.673617379884035e-19
65.0 -0.01622362055632581 -8.673617379884035e-19
66.0 -0.016188016148121258 -2.6020852139652106e-18
67.0 -0.016152947030110644 8.673617379884035e-19
68.0 -0.016118397448104303 1.734723475976807e-18
69.0 -0.01608435233541284 1.734723475976807e-18
70.0 -0.016050797273372414 -1.734723475976807e-18
71.0 -0.01601771845466366 0.0
72.0 -0.015985102649191608 -2.6020852139652106e-18
73.0 -0.015952937172316932 0.0
74.0 -0.015921209855238354 8.673617379884035e-19
75.0 -0.015889909017366324 0.0
76.0 -0.015859023440518275 0.0
77.0 -0.01582854234479865 0.0
78.0 -0.015798455366033047 0.0
79.0 -0.015768752534636207 0.0
80.0 -0.015739424255806565 0.0
81.0 -0.015710461290949263 8.673617379884035e-19
82.0 -0.015681854740235545 1.734723475976807e-18
83.0 -0.015653596026220337 8.673617379884035e-19
84.0 -0.015625676878434108 1.734723475976807e-18
85.0 -0.015598089318888612 0.0
86.0 -0.01557082564842853 -1.734723475976807e-18
87.0 -0.015543878433867024 -8.673617379884035e-19
88.0 -0.01551724049586036 -1.734723475976807e-18
89.0 -0.015490904897461388 1.734723475976807e-18
90.0 -0.015464864933313862 -1.734723475976807e-18
91.0 -0.015439114119443126 -2.6020852139652106e-18
92.0 -0.015413646183601132 0.0
93.0 -0.015388455056135193 8.673617379884035e-19
94.0 -0.01536353486134184 8.673617379884035e-19
95.0 -0.015338879909279124 -1.734723475976807e-18
96.0 -0.01531448468800467 -8.673617379884035e-19
97.0 -0.01529034385621803 0.0
98.0 -0.015266452236276087 -1.734723475976807e-18
99.0 -0.015242804807566365 -1.734723475976807e-18
100.0 -0.015219396700207584 2.6020852139652106e-18
101.0 -0.015196223189069236 -8.673617379884035e-19
102.0 -0.015173279688080143 8.673617379884035e-19
103.0 -0.015150561744815187 -2.6020852139652106e-18
104.0 -0.015128065035346262 -8.673617379884035e-19
105.0 -0.015105785359333419 1.734723475976807e-18
106.0 -0.015083718635354052 -8.673617379884035e-19
107.0 -0.015061860896447295 8.673617379884035e-19
108.0 -0.01504020828586551 1.734723475976807e-18
109.0 -0.01501875705302344 4.336808689942018e-18
110.0 -0.014997503549628576 1.734723475976807e-18
111.0 -0.014976444225990464 8.673617379884035e-19
112.0 -0.01495557562748977 -1.734723475976807e-18
113.0 -0.01493489439121074 -2.6020852139652106e-18
114.0 -0.014914397242714796 0.0
115.0 -0.01489408099295972 8.673617379884035e-19
116.0 -0.014873942535350142 0.0
117.0 -0.01485397884291318 8.673617379884035e-19
118.0 -0.014834186965597252 8.673617379884035e-19
119.0 -0.0148145640276804 0.0
120.0 -0.014795107225291045 1.734723475976807e-18
121.0 -0.014775813824028993 -8.673617379884035e-19
122.0 -0.014756681156682532 1.734723475976807e-18
123.0 -0.014737706621044407 0.0
124.0 -0.014718887677808877 8.673617379884035e-19
125.0 -0.014700221848557847 1.734723475976807e-18
126.0 -0.014681706713826117 0.0
127.0 -0.014663339911240659 -8.673617379884035e-19
128.0 -0.014645119133736693 1.734723475976807e-18
129.0 -0.014627042127839386 2.6020852139652106e-18
130.0 -0.01460910669201339 -8.673617379884035e-19
131.0 -0.014591310675076219 0.0
132.0 -0.014573651974669777 -8.673617379884035e-19
133.0 -0.014556128535791683 0.0
134.0 -0.014538738349379483 3.469446951953614e-18
135.0 -0.014521479450948989 -1.734723475976807e-18
136.0 -0.014504349919281432 -8.673617379884035e-19
137.0 -0.014487347875160097 1.734723475976807e-18
138.0 -0.01447047148015166 -8.673617379884035e-19
139.0 -0.014453718935430999 -1.734723475976807e-18
140.0 -0.014437088480650083 0.0
141.0 -0.014420578392844339 -1.734723475976807e-18
142.0 -0.014404186985380492 8.673617379884035e-19
143.0 -0.01438791260693845 -1.734723475976807e-18
144.0 -0.01437175364053012 8.673617379884035e-19
145.0 -0.01435570850255215 -1.734723475976807e-18
146.0 -0.014339775641871092 2.6020852139652106e-18
147.0 -0.014323953538939033 1.734723475976807e-18
148.0 -0.014308240704939619 -1.734723475976807e-18
149.0 -0.014292635680962404 -8.673617379884035e-19
150.0 -0.014277137037205843 -1.734723475976807e-18
151.0 -0.014261743372205975 -2.6020852139652106e-18
152.0 -0.014246453312089792 -1.734723475976807e-18
153.0 -0.01423126550985365 1.734723475976807e-18
154.0 -0.01421617864466629 -1.734723475976807e-18
155.0 -0.014201191421192798 1.734723475976807e-18
156.0 -0.014186302568939298 1.734723475976807e-18
157.0 -0.014171510841623143 0.0
158.0 -0.014156815016556867 3.469446951953614e-18
159.0 -0.01414221389405558 1.734723475976807e-18
160.0 -0.014127706296863005 -1.734723475976807e-18
161.0 -0.014113291069592696 -3.469446951953614e-18
162.0 -0.014098967078188173 0.0
163.0 -0.014084733209401066 0.0
164.0 -0.014070588370282395 -1.734723475976807e-18
165.0 -0.014056531487689672 1.734723475976807e-18
166.0 -0.014042561507811658 -1.734723475976807e-18
167.0 -0.014028677395704221 0.0
168.0 -0.014014878134842099 -1.734723475976807e-18
169.0 -0.014001162726681103 6.938893903907228e-18
170.0 -0.013987530190237555 3.469446951953614e-18
171.0 -0.013973979561676458 -1.734723475976807e-18
172.0 -0.013960509893912032 1.734723475976807e-18
173.0 -0.013947120256222773 0.0
174.0 -0.013933809733873127 1.734723475976807e-18
175.0 -0.013920577427749364 -1.734723475976807e-18
176.0 -0.013907422454004769 1.734723475976807e-18
177.0 -0.013894343943713862 -1.734723475976807e-18
178.0 -0.013881341042539375 0.0
179.0 -0.013868412910403447 0.0
180.0 -0.013855558721172322 0.0
181.0 -0.013842777662350144 3.469446951953614e-18
182.0 -0.013830068934776353 -1.734723475976807e-18
183.0 -0.013817431752336162 0.0
184.0 -0.013804865341676159 1.734723475976807e-18
185.0 -0.013792368941930047 1.734723475976807e-18
186.0 -0.013779941804448902 0.0
187.0 -0.013767583192540315 -5.204170427930421e-18
188.0 -0.013755292381214913 1.734723475976807e-18
189.0 -0.013743068656937783 0.0
190.0 -0.013730911317387792 -1.734723475976807e-18
191.0 -0.013718819671224241 -3.469446951953614e-18
192.0 -0.013706793037856303 -1.734723475976807e-18
193.0 -0.013694830747222175 0.0
194.0 -0.013682932139569875 3.469446951953614e-18
195.0 -0.013671096565249537 0.0
196.0 -0.013659323384503586 -1.734723475976807e-18
197.0 -0.013647611967268719 0.0
198.0 -0.013635961692979098 -1.734723475976807e-18
199.0 -0.013624371950376402 1.734723475976807e-18
200.0 -0.013612842137322128 1.734723475976807e-18
201.0 -0.013601371660618939 -1.734723475976807e-18
202.0 -0.013589959935831984 0.0
203.0 -0.01357860638711632 0.0
204.0 -0.013567310447050162 1.734723475976807e-18
205.0 -0.013556071556468844 1.734723475976807e-18
206.0 -0.013544889164306047 -3.469446951953614e-18
207.0 -0.013533762727437585 3.469446951953614e-18
208.0 -0.013522691710526927 -1.734723475976807e-18
209.0 -0.013511675585879457 0.0
210.0 -0.013500713833294086 -1.734723475976807e-18
211.0 -0.013489805939923315 -1.734723475976807e-18
212.0 -0.013478951400133976 0.0
213.0 -0.013468149715371759 -1.734723475976807e-18
214.0 -0.013457400394029964 -1.734723475976807e-18
215.0 -0.013446702951318893 -1.734723475976807e-18
216.0 -0.013436056909141871 3.469446951953614e-18
217.0 -0.01342546179596902 -1.734723475976807e-18
218.0 -0.013414917146720941 -1.734723475976807e-18
219.0 -0.013404422502647922 0.0
220.0 -0.013393977411215542 0.0
221.0 -0.013383581425993803 -1.734723475976807e-18
222.0 -0.013373234106545643 3.469446951953614e-18
223.0 -0.013362935018321165 -3.469446951953614e-18
224.0 -0.013352683732550708 0.0
225.0 -0.013342479826144883 0.0
226.0 -0.01333232288159091 -6.938893903907228e-18
227.0 -0.013322212486858113 -1.734723475976807e-18
228.0 -0.013312148235298735 0.0
229.0 -0.013302129725556486 0.0
230.0 -0.013292156561472944 -1.734723475976807e-18
231.0 -0.013282228351998824 0.0
232.0 -0.013272344711105909 1.734723475976807e-18
233.0 -0.013262505257699902 0.0
234.0 -0.013252709615537922 -1.734723475976807e-18
235.0 -0.013242957413144825 0.0
236.0 -0.013233248283733146 0.0
237.0 -0.013223581865124436 1.734723475976807e-18
238.0 -0.01321395779967044 0.0
239.0 -0.013204375734179322 -1.734723475976807e-18
240.0 -0.01319483531984036 -1.734723475976807e-18
241.0 -0.01318533621215186 -1.734723475976807e-18
242.0 -0.01317587807085018 1.734723475976807e-18
243.0 -0.013166460559839575 1.734723475976807e-18
244.0 -0.013157083347123746 -3.469446951953614e-18
245.0 -0.013147746104741221 0.0
246.0 -0.013138448508696247 3.469446951953614e-18
247.0 -0.013129190238898636 1.734723475976807e-18
248.0 -0.013119970979097988 3.469446951953614e-18
249.0 -0.013110790416823361 -1.734723475976807e-18
250.0 -0.013101648243322602 1.734723475976807e-18
251.0 -0.013092544153503997 3.469446951953614e-18
252.0 -0.0130834778458771 1.734723475976807e-18
253.0 -0.013074449022497207 3.469446951953614e-18
254.0 -0.013065457388907405 0.0
255.0 -0.01305650265408732 3.469446951953614e-18
256.0 -0.013047584530396953 -1.734723475976807e-18
257.0 -0.01303870273352519 0.0
258.0 -0.013029856982437702 -1.734723475976807e-18
259.0 -0.013021046999327893 1.734723475976807e-18
260.0 -0.01301227250956507 3.469446951953614e-18
261.0 -0.013003533241647991 0.0
262.0 -0.012994828927157021 6.938893903907228e-18
263.0 -0.01298615930070544 3.469446951953614e-18
264.0 -0.012977524099895672 -1.734723475976807e-18
265.0 -0.012968923065273925 -6.938893903907228e-18
266.0 -0.012960355940284479 -3.469446951953614e-18
267.0 -0.012951822471229179 1.734723475976807e-18
268.0 -0.012943322407222093 0.0
269.0 -0.012934855500149445 -3.469446951953614e-18
270.0 -0.012926421504627944 0.0
271.0 -0.012918020177965756 1.734723475976807e-18
272.0 -0.012909651280121188 0.0
273.0 -0.012901314573665286 -3.469446951953614e-18
274.0 -0.012893009823743739 0.0
275.0 -0.012884736798038934 1.734723475976807e-18
276.0 -0.012876495266733417 8.673617379884035e-18
277.0 -0.01286828500247502 0.0
278.0 -0.012860105780339186 0.0
279.0 -0.012851957377796932 0.0
280.0 -0.012843839574678738 1.734723475976807e-18
281.0 -0.012835752153142201 -6.938893903907228e-18
282.0 -0.012827694897638301 -3.469446951953614e-18
283.0 -0.012819667594879739 -1.734723475976807e-18
284.0 -0.012811670033808856 -3.469446951953614e-18
285.0 -0.012803702005566513 -1.734723475976807e-18
286.0 -0.012795763303461277 -1.734723475976807e-18
287.0 -0.012787853722939894 -1.734723475976807e-18
288.0 -0.012779973061556706 0.0
289.0 -0.012772121118945618 -5.204170427930421e-18
290.0 -0.012764297696791022 -3.469446951953614e-18
291.0 -0.012756502598798847 -1.734723475976807e-18
292.0 -0.012748735630671037 -1.734723475976807e-18
293.0 -0.01274099660007621 -3.469446951953614e-18
294.0 -0.012733285316624546 1.734723475976807e-18
295.0 -0.012725601591840286 -5.204170427930421e-18
296.0 -0.0127179452391375 1.734723475976807e-18
297.0 -0.01271031607379324 0.0
298.0 -0.012702713912923292 3.469446951953614e-18
299.0 -0.012695138575457697 1.734723475976807e-18
300.0 -0.012687589882116063 -1.734723475976807e-18
301.0 -0.012680067655385398 0.0
302.0 -0.012672571719494603 -3.469446951953614e-18
303.0 -0.012665101900393426 -3.469446951953614e-18
304.0 -0.012657658025728893 0.0
305.0 -0.012650239924822995 1.734723475976807e-18
306.0 -0.012642847428652026 -3.469446951953614e-18
307.0 -0.012635480369823747 -6.938893903907228e-18
308.0 -0.01262813858255774 0.0
309.0 -0.012620821902662577 0.0
310.0 -0.012613530167517031 -5.204170427930421e-18
311.0 -0.012606263216050162 1.734723475976807e-18
312.0 -0.012599020888720096 -1.734723475976807e-18
313.0 -0.012591803027495123 6.938893903907228e-18
314.0 -0.012584609475835708 -1.734723475976807e-18
315.0 -0.012577440078673934 0.0
316.0 -0.012570294682395986 0.0
317.0 -0.012563173134823014 -1.734723475976807e-18
318.0 -0.01255607528519453 -3.469446951953614e-18
319.0 -0.012549000984149107 0.0
320.0 -0.012541950083707938 -1.734723475976807e-18
321.0 -0.012534922437257458 3.469446951953614e-18
322.0 -0.01252791789953279 -1.734723475976807e-18
323.0 -0.012520936326599959 -3.469446951953614e-18
324.0 -0.012513977575841113 1.734723475976807e-18
325.0 -0.012507041505937292 0.0
326.0 -0.012500127976852926 1.734723475976807e-18
327.0 -0.012493236849820014 1.734723475976807e-18
328.0 -0.012486367987322989 3.469446951953614e-18
329.0 -0.012479521253083253 -3.469446951953614e-18
330.0 -0.012472696512044926 0.0
331.0 -0.012465893630359395 5.204170427930421e-18
332.0 -0.012459112475370383 1.734723475976807e-18
333.0 -0.0124523529156011 -1.734723475976807e-18
334.0 -0.012445614820739997 0.0
335.0 -0.012438898061624827 1.734723475976807e-18
336.0 -0.012432202510232311 5.204170427930421e-18
337.0 -0.012425528039661389 0.0
338.0 -0.01241887452412288 0.0
339.0 -0.012412241838923924 1.734723475976807e-18
340.0 -0.01240562986045749 -1.734723475976807e-18
341.0 -0.012399038466187505 -3.469446951953614e-18
342.0 -0.012392467534637717 -5.204170427930421e-18
343.0 -0.012385916945379065 -1.734723475976807e-18
344.0 -0.012379386579018256 -1.734723475976807e-18
345.0 -0.012372876317184055 -3.469446951953614e-18
346.0 -0.012366386042517405 1.734723475976807e-18
347.0 -0.012359915638658485 -3.469446951953614e-18
348.0 -0.012353464990236152 -1.734723475976807e-18
349.0 -0.012347033982855984 0.0
350.0 -0.012340622503090025 1.734723475976807e-18
351.0 -0.012334230438464574 -1.734723475976807e-18
352.0 -0.012327857677450978 -1.734723475976807e-18
353.0 -0.012321504109453584 1.734723475976807e-18
354.0 -0.012315169624799307 1.734723475976807e-18
355.0 -0.012308854114729248 -1.734723475976807e-18
356.0 -0.012302557471385518 1.734723475976807e-18
357.0 -0.012296279587803384 3.469446951953614e-18
358.0 -0.012290020357900402 -3.469446951953614e-18
359.0 -0.012283779676467283 5.204170427930421e-18
360.0 -0.01227755743915693 1.734723475976807e-18
361.0 -0.012271353542476604 1.734723475976807e-18
362.0 -0.012265167883778117 3.469446951953614e-18
363.0 -0.012259000361246688 3.469446951953614e-18
364.0 -0.012252850873894662 -1.734723475976807e-18
365.0 -0.012246719321550803 -1.734723475976807e-18
366.0 -0.012240605604852193 -1.734723475976807e-18
367.0 -0.012234509625233661 1.734723475976807e-18
368.0 -0.012228431284922698 -1.734723475976807e-18
369.0 -0.012222370486926825 1.734723475976807e-18
370.0 -0.012216327135028513 3.469446951953614e-18
371.0 -0.01221030113377497 -1.734723475976807e-18
372.0 -0.012204292388470496 -3.469446951953614e-18
373.0 -0.012198300805168543 -3.469446951953614e-18
374.0 -0.012192326290663504 1.734723475976807e-18
375.0 -0.012186368752483384 3.469446951953614e-18
376.0 -0.012180428098881126 -5.204170427930421e-18
377.0 -0.012174504238827783 1.734723475976807e-18
378.0 -0.012168597082004694 0.0
379.0 -0.012162706538795828 3.469446951953614e-18
380.0 -0.012156832520280368 1.734723475976807e-18
381.0 -0.012150974938226373 1.734723475976807e-18
382.0 -0.012145133705082571 -1.734723475976807e-18
383.0 -0.012139308733971056 -5.204170427930421e-18
384.0 -0.012133499938681805 -3.469446951953614e-18
385.0 -0.012127707233664797 1.734723475976807e-18
386.0 -0.012121930534022522 1.734723475976807e-18
387.0 -0.012116169755504466 0.0
388.0 -0.012110424814500427 -1.734723475976807e-18
389.0 -0.012104695628033168 1.734723475976807e-18
390.0 -0.01209898211375202 -1.734723475976807e-18
391.0 -0.01209328418992825 -1.734723475976807e-18
392.0 -0.012087601775445819 0.0
393.0 -0.0120819347897979 1.734723475976807e-18
394.0 -0.012076283153078897 1.734723475976807e-18
395.0 -0.012070646785979139 -1.734723475976807e-18
396.0 -0.01206502560977944 -1.734723475976807e-18
397.0 -0.012059419546343758 5.204170427930421e-18
398.0 -0.012053828518115081 -3.469446951953614e-18
399.0 -0.012048252448107855 1.734723475976807e-18
400.0 -0.012042691259904165 -3.469446951953614e-18
401.0 -0.012037144877646249 -1.734723475976807e-18
402.0 -0.012031613226032863 1.734723475976807e-18
403.0 -0.012026096230311702 -1.734723475976807e-18
404.0 -0.012020593816276244 5.204170427930421e-18
405.0 -0.012015105910258615 1.734723475976807e-18
406.0 -0.012009632439125112 5.204170427930421e-18
407.0 -0.012004173330270337 -5.204170427930421e-18
408.0 -0.01199872851161394 -1.734723475976807e-18
409.0 -0.011993297911592562 -5.204170427930421e-18
410.0 -0.011987881459157171 5.204170427930421e-18
411.0 -0.011982479083767705 6.938893903907228e-18
412.0 -0.011977090715386777 3.469446951953614e-18
413.0 -0.011971716284476316 0.0
414.0 -0.011966355721992934 -3.469446951953614e-18
415.0 -0.011961008959381084 1.734723475976807e-18
416.0 -0.01195567592857169 8.673617379884035e-18
417.0 -0.011950356561974412 0.0
418.0 -0.011945050792474415 -1.734723475976807e-18
419.0 -0.011939758553428485 0.0
420.0 -0.011934479778659518 -1.734723475976807e-18
421.0 -0.011929214402452468 0.0
422.0 -0.011923962359550316 3.469446951953614e-18
423.0 -0.011918723585149086 -5.204170427930421e-18
424.0 -0.01191349801489415 1.734723475976807e-18
425.0 -0.01190828558487642 0.0
426.0 -0.01190308623162691 -1.734723475976807e-18
427.0 -0.011897899892113959 0.0
428.0 -0.011892726503738205 -3.469446951953614e-18
429.0 -0.01188756600432938 -1.734723475976807e-18
430.0 -0.011882418332141457 1.734723475976807e-18
431.0 -0.01187728342584964 0.0
432.0 -0.01187216122454622 1.734723475976807e-18
433.0 -0.011867051667736082 0.0
434.0 -0.011861954695334145 1.734723475976807e-18
