!Created with skrf (http://scikit-rf.org).
# GHz S RI R 50.0 
!freq ReS11 ImS11 ReS21 ImS21 ReS12 ImS12 ReS22 ImS22
0.001 -1.7743723490060612e-05 -0.00019881590320781705 0.9996899974750475 -0.004554679599876648 0.9996899974750475 -0.004554679599876648 -1.7743723490060606e-05 -0.00019881590320781702
0.002 -2.6285587031142338e-05 -0.00036859996584875476 0.9995166807890005 -0.009072577458225496 0.9995166807890005 -0.009072577458225496 -2.6285587031145804e-05 -0.00036859996584875476
0.003 -3.472774182407071e-05 -0.0005273828847635728 0.9993482516106815 -0.01357596497165288 0.9993482516106815 -0.01357596497165288 -3.472774182406032e-05 -0.000527382884763573
0.004 -4.372464454881021e-05 -0.0006789942737563356 0.9991726048493875 -0.018069560948917394 0.9991726048493875 -0.018069560948917394 -4.3724644548820604e-05 -0.0006789942737563356
0.005 -5.349551978824828e-05 -0.0008252496790962804 0.9989851113741136 -0.02255557296893531 0.9989851113741136 -0.02255557296893531 -5.3495519788241354e-05 -0.0008252496790962806
0.006 -6.413512062481527e-05 -0.0009672157777017155 0.9987834267744644 -0.027035271105953804 0.9987834267744644 -0.0270352711059538 -6.413512062480139e-05 -0.0009672157777017159
0.007 -7.568868227240704e-05 -0.0011055952083107168 0.9985661768233857 -0.03150946823120607 0.9985661768233857 -0.03150946823120606 -7.568868227241052e-05 -0.0011055952083107172
0.008 -8.817802763812781e-05 -0.0012408855296410228 0.9983324790684012 -0.03597871893942039 0.9983324790684012 -0.03597871893942038 -8.817802763812434e-05 -0.0012408855296410224
0.009 -0.0001016126656112958 -0.001373457196347899 0.9980817303295013 -0.04044341735716035 0.9980817303295013 -0.04044341735716035 -0.00010161266561128544 -0.0013734571963478993
0.01 -0.00011599515458080453 -0.001503596391471867 0.9978134992213502 -0.04490385098094038 0.9978134992213502 -0.04490385098094039 -0.0001159951545808011 -0.0015035963914718671
0.011 -0.00013132393775960906 -0.0016315305383314406 0.9975274665317888 -0.049360232805538806 0.9975274665317888 -0.0493602328055388 -0.00013132393775960562 -0.0016315305383314414
0.012 -0.00014759494431501464 -0.0017574444535177537 0.997223389767178 -0.05381272170246926 0.997223389767178 -0.05381272170246926 -0.00014759494431500434 -0.0017574444535177539
0.013 -0.00016480254001274874 -0.0018814910761569027 0.9969010808911634 -0.05826143597872262 0.9969010808911634 -0.05826143597872262 -0.00016480254001275914 -0.0018814910761569025
0.014 -0.00018294011393700808 -0.002003798875309477 0.9965603917222369 -0.06270646275267415 0.9965603917222369 -0.06270646275267415 -0.00018294011393699773 -0.0020037988753094775
0.015 -0.00020200045166782728 -0.002124477129501484 0.9962012040038699 -0.067147864646994 0.9962012040038699 -0.067147864646994 -0.0002020004516678342 -0.002124477129501483
0.016 -0.0002219759782052462 -0.0022436197915938834 0.9958234224451068 -0.07158568469554281 0.9958234224451068 -0.07158568469554283 -0.00022197597820523924 -0.002243619791593883
0.017 -0.0002428589188654014 -0.0023613083832073503 0.9954269697161353 -0.07601995002357331 0.9954269697161353 -0.07601995002357331 -0.00024285891886540486 -0.00236130838320735
0.018 -0.00026464140713238957 -0.0024776142053478936 0.9950117827691464 -0.08045067466255458 0.9950117827691464 -0.08045067466255457 -0.00026464140713237575 -0.0024776142053478958
0.019 -0.00028731555744197996 -0.0025926000559074896 0.9945778100809334 -0.08487786174021841 0.9945778100809334 -0.08487786174021841 -0.0002873155574419903 -0.0025926000559074896
0.02 -0.00031087351435227586 -0.0027063215842631876 0.9941250095510146 -0.08930150521031227 0.9941250095510146 -0.08930150521031226 -0.0003108735143522621 -0.0027063215842631884
0.021 -0.00033530748557204375 -0.0028188283739915563 0.9936533468752627 -0.09372159123713654 0.9936533468752627 -0.09372159123713654 -0.0003353074855720436 -0.0028188283739915554
0.022 -0.0003606097638186843 -0.0029301648186266047 0.99316279427053 -0.09813809931703606 0.99316279427053 -0.09813809931703606 -0.00036060976381868096 -0.002930164818626605
0.023 -0.00038677274087129684 -0.003040370837630221 0.992653329462442 -0.10255100319659322 0.992653329462442 -0.10255100319659322 -0.00038677274087130014 -0.00304037083763022
0.024 -0.00041378891613426627 -0.0031494824674037822 0.992124934873319 -0.10696027163168224 0.992124934873319 -0.10696027163168224 -0.0004137889161342629 -0.003149482467403782
0.025 -0.000441650901322754 -0.0032575323534420214 0.991577596964218 -0.11136586902050274 0.991577596964218 -0.11136586902050274 -0.00044165090132274694 -0.003257532353442021
0.026 -0.0004703514224060311 -0.0033645501634501154 0.9910113056970522 -0.11576775593576695 0.9910113056970522 -0.11576775593576695 -0.0004703514224060378 -0.0033645501634501133
0.027 -0.0004998833196163886 -0.0034705629366600646 0.9904260540912706 -0.12016588957540754 0.9904260540912706 -0.12016588957540754 -0.0004998833196163749 -0.003470562936660064
0.028 -0.0005302395461024068 -0.0035755953811912157 0.9898218378556894 -0.12456022414687087 0.9898218378556894 -0.12456022414687087 -0.0005302395461024071 -0.003575595381191217
0.029 -0.0005614131656447627 -0.00367967012875427 0.9891986550806354 -0.12895071119683818 0.9891986550806354 -0.12895071119683818 -0.0005614131656447697 -0.003679670128754268
0.03 -0.0005933973497369067 -0.0037828079540712326 0.9885565059788399 -0.13333729989576518 0.9885565059788399 -0.13333729989576518 -0.0005933973497368933 -0.003782807954071234
0.031 -0.0006261853742514436 -0.003885027964906764 0.9878953926660714 -0.13771993728475798 0.9878953926660714 -0.13771993728475798 -0.0006261853742514471 -0.003885027964906764
0.032 -0.0006597706158525077 -0.0039863477674623735 0.9872153189743884 -0.14209856849085006 0.9872153189743884 -0.14209856849085006 -0.0006597706158524976 -0.003986347767462376
0.033 -0.0006941465482704404 -0.00408678361099302 0.9865162902923182 -0.14647313691560485 0.9865162902923182 -0.14647313691560485 -0.0006941465482704436 -0.00408678361099302
0.034 -0.0007293067385245164 -0.004186350514802133 0.9857983134274356 -0.15084358440108037 0.9857983134274356 -0.1508435844010804 -0.0007293067385245232 -0.004186350514802135
0.035 -0.0007652448431537362 -0.004285062380213567 0.985061396487657 -0.15520985137647825 0.985061396487657 -0.15520985137647828 -0.0007652448431537431 -0.004285062380213566
0.036 -0.0008019546044998921 -0.004382932089671948 0.9843055487782572 -0.15957187698822758 0.9843055487782572 -0.15957187698822758 -0.0008019546044998885 -0.004382932089671948
0.037 -0.000839429847073458 -0.004479971594764715 0.9835307807121828 -0.16392959921580486 0.9835307807121828 -0.16392959921580486 -0.0008394298470734646 -0.004479971594764714
0.038 -0.0008776644740231923 -0.0045761919946675274 0.9827371037316301 -0.16828295497520837 0.9827371037316301 -0.16828295497520837 -0.0008776644740231891 -0.004576191994667529
0.039 -0.0009166524637232217 -0.00467160360627571 0.9819245302392415 -0.17263188021171216 0.9819245302392415 -0.17263188021171216 -0.0009166524637232184 -0.004671603606275713
0.04 -0.000956387866486202 -0.004766216027092117 0.9810930735375316 -0.17697630998326846 0.9810930735375317 -0.1769763099832685 -0.0009563878664861917 -0.0047662160270921195
0.041 -0.0009968648014067024 -0.0048600381917790906 0.9802427477753726 -0.18131617853572493 0.9802427477753726 -0.18131617853572493 -0.0009968648014067056 -0.00486003819177909
0.042 -0.0010380774533370804 -0.004953078423150606 0.9793735679005994 -0.18565141937085722 0.9793735679005993 -0.18565141937085722 -0.0010380774533370802 -0.004953078423150607
0.043 -0.0010800200699945539 -0.005045344478267337 0.9784855496178783 -0.18998196530806274 0.9784855496178784 -0.18998196530806277 -0.001080020069994551 -0.005045344478267338
0.044 -0.0011226869591979334 -0.005136843590208015 0.9775787093511746 -0.19430774854045904 0.9775787093511746 -0.19430774854045904 -0.001122686959197937 -0.005136843590208014
0.045 -0.0011660724862308219 -0.005227582506008053 0.9766530642102162 -0.1986287006860147 0.9766530642102162 -0.19862870068601468 -0.001166072486230822 -0.005227582506008054
0.046 -0.0012101710713268918 -0.0053175675211951795 0.9757086319604522 -0.20294475283426977 0.9757086319604522 -0.20294475283426977 -0.0012101710713268822 -0.005317567521195182
0.047 -0.001254977187274002 -0.005406804511292266 0.9747454309960774 -0.20725583558911842 0.9747454309960774 -0.20725583558911842 -0.0012549771872740056 -0.005406804511292267
0.048 -0.0013004853571308725 -0.005495298960610493 0.9737634803157477 -0.2115618791080748 0.9737634803157477 -0.2115618791080748 -0.0013004853571308664 -0.005495298960610497
0.049 -0.0013466901520530667 -0.005583055988619043 0.9727627995006748 -0.21586281313838854 0.9727627995006748 -0.21586281313838854 -0.00134669015205306 -0.005583055988619045
0.05 -0.001393586189222217 -0.0056700803741366506 0.9717434086948206 -0.22015856705032905 0.9717434086948206 -0.22015856705032905 -0.0013935861892222237 -0.00567008037413665
0.051 -0.0014411681298742438 -0.005756376577565754 0.9707053285869385 -0.22444906986791935 0.9707053285869385 -0.22444906986791932 -0.0014411681298742408 -0.0057563765775657545
0.052 -0.0014894306774216413 -0.005841948761361975 0.9696485803942839 -0.2287342502973749 0.9696485803942839 -0.2287342502973749 -0.0014894306774216482 -0.005841948761361975
0.053 -0.0015383685756650697 -0.0059268008089080814 0.9685731858477764 -0.23301403675346008 0.9685731858477764 -0.23301403675346008 -0.0015383685756650658 -0.0059268008089080814
0.054 -0.0015879766070900768 -0.006010936341946374 0.9674791671784845 -0.23728835738396628 0.9674791671784845 -0.23728835738396628 -0.0015879766070900775 -0.006010936341946376
0.055 -0.0016382495912438421 -0.006094358736699946 0.9663665471052684 -0.241557140092476 0.9663665471052684 -0.241557140092476 -0.0016382495912438514 -0.006094358736699944
0.056 -0.0016891823831890077 -0.006177071138807003 0.9652353488234827 -0.245820312559579 0.9652353488234827 -0.245820312559579 -0.0016891823831890213 -0.006177071138807002
0.057 -0.0017407698720294693 -0.00625907647717106 0.9640855959946056 -0.25007780226266785 0.9640855959946056 -0.25007780226266785 -0.0017407698720294722 -0.0062590764771710584
0.058 -0.0017930069795048219 -0.006340377476825011 0.9629173127367233 -0.2543295364944456 0.9629173127367233 -0.2543295364944456 -0.0017930069795048123 -0.0063403774768250095
0.059 -0.001845888658650151 -0.00642097667089384 0.9617305236157665 -0.2585754423802524 0.9617305236157665 -0.2585754423802524 -0.0018458886586501574 -0.006420976670893836
0.06 -0.0018994098925174136 -0.006500876411732892 0.9605252536374326 -0.2628154468943089 0.9605252536374326 -0.2628154468943089 -0.0018994098925174203 -0.006500876411732892
0.061 -0.0019535656929550583 -0.006580078881311135 0.9593015282397309 -0.26704947687497355 0.9593015282397309 -0.2670494768749736 -0.001953565692955065 -0.006580078881311132
0.062 -0.002008351099443263 -0.0066585861009009 0.9580593732860796 -0.2712774590390858 0.9580593732860796 -0.2712774590390858 -0.002008351099443262 -0.006658586100900901
0.063 -0.0020637611779814723 -0.006736399940131567 0.9567988150589128 -0.27549931999547467 0.9567988150589128 -0.2754993199954746 -0.0020637611779814723 -0.006736399940131566
0.064 -0.0021197910200260735 -0.0068135221254579095 0.9555198802537458 -0.27971498625769714 0.9555198802537458 -0.27971498625769714 -0.00211979102002608 -0.006813522125457908
0.065 -0.0021764357414747353 -0.006889954248087415 0.9542225959736561 -0.2839243842560656 0.9542225959736561 -0.2839243842560656 -0.002176435741474742 -0.0068899542480874145
0.066 -0.002233690481696213 -0.006965697771411942 0.9529069897241447 -0.2881274403490192 0.9529069897241447 -0.2881274403490192 -0.0022336904816962063 -0.006965697771411946
0.067 -0.0022915504026017482 -0.007040754037977422 0.951573089408338 -0.29232408083388817 0.951573089408338 -0.29232408083388817 -0.002291550402601745 -0.007040754037977424
0.068 -0.002350010687757825 -0.007115124276030432 0.9502209233225096 -0.2965142319570998 0.9502209233225095 -0.29651423195709975 -0.0023500106877578117 -0.007115124276030434
0.069 -0.0024090665415364026 -0.007188809605670413 0.9488505201518794 -0.3006978199238587 0.9488505201518794 -0.3006978199238587 -0.0024090665415364056 -0.0071888096056704175
0.07 -0.002468713188301804 -0.007261811044636211 0.9474619089666876 -0.30487477090735093 0.9474619089666876 -0.30487477090735093 -0.0024687131883018073 -0.007261811044636211
0.071 -0.00252894587163203 -0.007334129513755415 0.9460551192184922 -0.30904501105749393 0.9460551192184922 -0.309045011057494 -0.0025289458716320247 -0.007334129513755417
0.072 -0.0025897598535731337 -0.007405765842079244 0.9446301807366999 -0.31320846650927364 0.9446301807366999 -0.31320846650927364 -0.002589759853573144 -0.007405765842079238
0.073 -0.0026511504139245124 -0.00747672077172402 0.9431871237252837 -0.3173650633906902 0.9431871237252837 -0.3173650633906902 -0.0026511504139245237 -0.007476720771724021
0.074 -0.0027131128495540106 -0.007546994962441694 0.9417259787596934 -0.3215147278303448 0.9417259787596934 -0.32151472783034474 -0.002713112849554009 -0.007546994962441695
0.075 -0.0027756424737410937 -0.007616588995936041 0.9402467767839331 -0.3256573859646871 0.9402467767839331 -0.3256573859646871 -0.0027756424737411067 -0.007616588995936033
0.076 -0.0028387346155471943 -0.007685503379943036 0.9387495491077881 -0.32979296394494817 0.9387495491077881 -0.3297929639449481 -0.0028387346155471912 -0.00768550337994304
0.077 -0.0029023846192111464 -0.007753738552089883 0.9372343274042001 -0.3339213879437794 0.9372343274042001 -0.3339213879437794 -0.0029023846192111425 -0.007753738552089883
0.078 -0.0029665878435693586 -0.007821294883548513 0.9357011437067673 -0.3380425841616143 0.9357011437067673 -0.3380425841616143 -0.002966587843569372 -0.007821294883548508
0.079 -0.0030313396614992604 -0.007888172682496353 0.9341500304073684 -0.3421564788327741 0.9341500304073684 -0.3421564788327741 -0.0030313396614992777 -0.007888172682496348
0.08 -0.003096635459384282 -0.00795437219739558 0.9325810202538986 -0.3462629982313308 0.9325810202538986 -0.3462629982313308 -0.0030966354593842966 -0.007954372197395577
0.081 -0.0031624706366002887 -0.008019893620104284 0.9309941463480976 -0.3503620686767414 0.9309941463480976 -0.35036206867674136 -0.003162470636600282 -0.008019893620104284
0.082 -0.0032288406050226173 -0.008084737088829909 0.9293894421434872 -0.35445361653927365 0.9293894421434872 -0.3544536165392737 -0.003228840605022612 -0.008084737088829909
0.083 -0.003295740788551125 -0.008148902690932226 0.9277669414433787 -0.3585375682452264 0.9277669414433787 -0.35853756824522637 -0.0032957407885511277 -0.008148902690932228
0.084 -0.003363166622654329 -0.00821239046558775 0.9261266783989724 -0.36261385028196397 0.9261266783989724 -0.362613850281964 -0.003363166622654319 -0.008212390465587754
0.085 -0.003431113553931258 -0.008275200406324018 0.9244686875075241 -0.3666823892027752 0.9244686875075241 -0.3666823892027752 -0.0034311135539312502 -0.00827520040632402
0.086 -0.0034995770396891147 -0.008337332463428732 0.9227930036105816 -0.3707431116315612 0.9227930036105817 -0.37074311163156115 -0.0034995770396891186 -0.008337332463428737
0.087 -0.003568552547537593 -0.008398786546244211 0.9210996618922829 -0.37479594426736834 0.921099661892283 -0.37479594426736834 -0.0035685525475375917 -0.00839878654624421
0.088 -0.003638035554998169 -0.008459562525352373 0.9193886978777158 -0.37884081388877455 0.9193886978777158 -0.3788408138887745 -0.003638035554998175 -0.008459562525352366
0.089 -0.0037080215491279355 -0.008519660234656456 0.9176601474313225 -0.3828776473581296 0.9176601474313225 -0.3828776473581296 -0.003708021549127931 -0.008519660234656454
0.09 -0.003778506026157431 -0.008579079473366325 0.9159140467553657 -0.3869063716256698 0.9159140467553657 -0.3869063716256699 -0.0037785060261574343 -0.008579079473366327
0.091 -0.0038494844911417525 -0.00863782000789186 0.9141504323884269 -0.3909269137335001 0.9141504323884269 -0.3909269137335 -0.003849484491141755 -0.008637820007891858
0.092 -0.003920952457624708 -0.008695881573650546 0.9123693412039586 -0.39493920081946454 0.9123693412039586 -0.3949392008194646 -0.003920952457624702 -0.00869588157365055
0.093 -0.003992905447314434 -0.008753263876792346 0.9105708104088668 -0.39894316012090003 0.9105708104088668 -0.39894316012090003 -0.003992905447314427 -0.00875326387679235
0.094 -0.004065338989771659 -0.008809966595848812 0.908754877542135 -0.40293871897828376 0.908754877542135 -0.4029387189782838 -0.004065338989771672 -0.008809966595848803
0.095 -0.004138248622108582 -0.008865989383308704 0.9069215804734777 -0.4069258048387828 0.9069215804734777 -0.4069258048387828 -0.004138248622108592 -0.008865989383308702
0.096 -0.004211629888698322 -0.008921331867123874 0.9050709574020279 -0.4109043452597033 0.9050709574020279 -0.4109043452597033 -0.004211629888698328 -0.008921331867123874
0.097 -0.004285478340895297 -0.008975993652151468 0.9032030468550483 -0.4148742679118535 0.9032030468550483 -0.4148742679118536 -0.0042854783408953 -0.008975993652151463
0.098 -0.004359789536765149 -0.009029974321533336 0.9013178876866732 -0.41883550058281677 0.9013178876866732 -0.41883550058281677 -0.00435978953676514 -0.009029974321533338
0.099 -0.004434559040823615 -0.009083273438015849 0.8994155190766712 -0.4227879711801433 0.8994155190766712 -0.4227879711801433 -0.004434559040823613 -0.00908327343801585
0.1 -0.004509782423785791 -0.009135890545217172 0.8974959805292303 -0.4267316077344646 0.8974959805292303 -0.4267316077344646 -0.004509782423785804 -0.009135890545217172
0.101 -0.004585455262322386 -0.009187825168837684 0.8955593118717675 -0.43066633840253327 0.8955593118717675 -0.43066633840253327 -0.004585455262322382 -0.009187825168837687
0.102 -0.004661573138825997 -0.009239076817824241 0.8936055532537515 -0.4345920914701903 0.8936055532537515 -0.43459209147019023 -0.004661573138825998 -0.009239076817824241
0.103 -0.004738131641184122 -0.009289644985484034 0.8916347451455442 -0.43850879535526655 0.8916347451455442 -0.43850879535526655 -0.004738131641184114 -0.009289644985484034
0.104 -0.004815126362561144 -0.009339529150555973 0.8896469283372614 -0.4424163786104196 0.8896469283372614 -0.4424163786104196 -0.004815126362561145 -0.009339529150555973
0.105 -0.0048925529011862555 -0.009388728778236063 0.8876421439376443 -0.4463147699259072 0.8876421439376443 -0.4463147699259072 -0.0048925529011862486 -0.009388728778236068
0.106 -0.004970406860149899 -0.009437243321165014 0.8856204333729405 -0.4502038981323024 0.8856204333729405 -0.45020389813230244 -0.004970406860149903 -0.009437243321165014
0.107 -0.0050486838472062 -0.009485072220374917 0.8835818383858144 -0.4540836922031574 0.8835818383858144 -0.4540836922031574 -0.005048683847206204 -0.009485072220374913
0.108 -0.005127379474582433 -0.009532214906200303 0.881526401034242 -0.4579540812576044 0.881526401034242 -0.4579540812576044 -0.005127379474582433 -0.009532214906200301
0.109 -0.0052064893587947525 -0.009578670799153872 0.8794541636904395 -0.46181499456291275 0.8794541636904395 -0.4618149945629127 -0.00520648935879475 -0.00957867079915387
0.11 -0.0052860091204696555 -0.009624439310767521 0.8773651690397872 -0.46566636153699437 0.8773651690397872 -0.4656663615369944 -0.005286009120469649 -0.009624439310767521
0.111 -0.005365934384172313 -0.009669519844403856 0.8752594600797693 -0.46950811175086093 0.8752594600797693 -0.469508111750861 -0.005365934384172311 -0.009669519844403859
0.112 -0.00544626077823929 -0.009713911796034903 0.8731370801189136 -0.47334017493103725 0.8731370801189136 -0.47334017493103725 -0.005446260778239288 -0.009713911796034909
0.113 -0.005526983934617457 -0.00975761455499291 0.8709980727757463 -0.4771624809619302 0.8709980727757463 -0.4771624809619302 -0.005526983934617457 -0.00975761455499291
