!Created with skrf (http://scikit-rf.org).
# GHz S RI R 50.0 
!freq ReS11 ImS11 ReS21 ImS21 ReS12 ImS12 ReS22 ImS22
0.001 -3.883235166645663e-05 -0.00019492668539255174 0.9998138983382556 -0.004484472266458268 0.9998138983382556 -0.004484472266458269 -3.8832351666456626e-05 -0.00019492668539255166
0.002 -7.388159465003019e-05 -0.00036324817640521714 0.9996899901482938 -0.008941185567567 0.9996899901482938 -0.008941185567567 -7.38815946500406e-05 -0.0003632481764052172
0.003 -0.00010956511503501149 -0.0005212047988420372 0.9995596649911812 -0.013386923183214026 0.9995596649911812 -0.013386923183214026 -0.00010956511503500455 -0.0005212047988420391
0.004 -0.0001461703128670348 -0.0006723012922572252 0.9994165525470633 -0.017825214675682814 0.9994165525470633 -0.017825214675682814 -0.0001461703128670348 -0.0006723012922572253
0.005 -0.00018377889222864752 -0.0008182026382001214 0.9992582174138142 -0.022257698029175037 0.9992582174138142 -0.02225769802917504 -0.0001837788922286406 -0.0008182026382001224
0.006 -0.0002224164309915957 -0.0009598880153976275 0.9990834285595507 -0.02668530603179905 0.9990834285595507 -0.026685306031799052 -0.0002224164309915922 -0.0009598880153976284
0.007 -0.0002620874821161762 -0.0010980027409263151 0.9988914667360012 -0.031108627935279257 0.9988914667360012 -0.03110862793527926 -0.0002620874821161762 -0.0010980027409263147
0.008 -0.00030278741055884414 -0.0012330038711884394 0.9986818721964075 -0.03552805910558604 0.9986818721964075 -0.03552805910558604 -0.00030278741055884403 -0.00123300387118844
0.009 -0.00034450723512375665 -0.0013652317031327987 0.9984543325817963 -0.039943874545741116 0.9984543325817963 -0.03994387454574112 -0.0003445072351237566 -0.0013652317031327982
0.01 -0.0003872358622858179 -0.0014949490820999535 0.9982086262053939 -0.04435626933823518 0.9982086262053939 -0.04435626933823518 -0.0003872358622858074 -0.0014949490820999546
0.011 -0.0004309612022840561 -0.0016223648294258059 0.9979445905908142 -0.04876538276443678 0.9979445905908142 -0.04876538276443678 -0.00043096120228406655 -0.0016223648294258048
0.012 -0.00047567075703340176 -0.0017476485835290546 0.9976621037661858 -0.05317131359453659 0.9976621037661858 -0.05317131359453659 -0.00047567075703340176 -0.001747648583529056
0.013 -0.0005213519399371363 -0.0018709406620901093 0.997361072522869 -0.057574130255399945 0.997361072522869 -0.05757413025539995 -0.0005213519399371433 -0.0018709406620901093
0.014 -0.000567992252136034 -0.0019923588733694523 0.9970414247170878 -0.061973877858309254 0.9970414247170878 -0.061973877858309254 -0.0005679922521360409 -0.001992358873369451
0.015 -0.0006155793787416124 -0.0021120033724624913 0.9967031040378249 -0.06637058321343697 0.9967031040378249 -0.06637058321343697 -0.0006155793787416191 -0.00211200337246249
0.016 -0.0006641012391543408 -0.002229960217322965 0.9963460663422833 -0.07076425850468727 0.9963460663422833 -0.07076425850468727 -0.0006641012391543372 -0.0022299602173229648
0.017 -0.000713546010518367 -0.0023463040325635612 0.9959702770227206 -0.07515490404479606 0.9959702770227206 -0.07515490404479608 -0.0007135460105183636 -0.002346304032563561
0.018 -0.0007639021353046087 -0.0024611000444033043 0.9955757090722305 -0.07954251038183939 0.9955757090722305 -0.07954251038183938 -0.0007639021353046055 -0.0024611000444033056
0.019 -0.000815158319529029 -0.002574405662002125 0.9951623416364265 -0.08392705993764263 0.9951623416364265 -0.08392705993764263 -0.0008151583195290429 -0.0025744056620021234
0.02 -0.0008673035255346867 -0.0026862717248984018 0.9947301589105344 -0.08830852830144482 0.9947301589105344 -0.08830852830144482 -0.0008673035255346796 -0.002686271724898403
0.021 -0.0009203269617413989 -0.0027967435002414246 0.9942791492868962 -0.09268688526509213 0.9942791492868962 -0.09268688526509211 -0.0009203269617414024 -0.002796743500241425
0.022 -0.0009742180708495348 -0.002905861489534459 0.9938093046872144 -0.09706209566134438 0.9938093046872144 -0.09706209566134438 -0.0009742180708495313 -0.0029058614895344573
0.023 -0.001028966517414945 -0.003013662088279031 0.9933206200332201 -0.10143412005006172 0.9933206200332201 -0.10143412005006172 -0.0010289665174149309 -0.0030136620882790298
0.024 -0.0010845621753618102 -0.0031201781305662648 0.9928130928225185 -0.10580291528534701 0.9928130928225185 -0.10580291528534701 -0.0010845621753618206 -0.0031201781305662626
0.025 -0.0011409951157739118 -0.0032254393426327786 0.9922867227853961 -0.11016843498844746 0.9922867227853961 -0.11016843498844746 -0.0011409951157739118 -0.003225439342632779
0.026 -0.0011982555951649057 -0.0033294727236245786 0.9917415116046365 -0.11453062994525959 0.9917415116046365 -0.1145306299452596 -0.0011982555951649194 -0.003329472723624576
0.027 -0.0012563340443359928 -0.0034323028675938153 0.9911774626849178 -0.11888944844293364 0.9911774626849178 -0.11888944844293364 -0.001256334044335986 -0.0034323028675938157
0.028 -0.001315221057872306 -0.0035339522376321353 0.9905945809615934 -0.12324483655685117 0.9905945809615934 -0.12324483655685117 -0.0013152210578723194 -0.0035339522376321344
0.029 -0.0013749073842917992 -0.0036344414007042267 0.9899928727410173 -0.1275967383968326 0.9899928727410173 -0.1275967383968326 -0.0013749073842917892 -0.003634441400704227
0.03 -0.0014353839168389784 -0.003733789229968781 0.9893723455663865 -0.13194509631960158 0.9893723455663865 -0.13194509631960158 -0.0014353839168389712 -0.0037337892299687827
0.031 -0.0014966416848999989 -0.0038320130800182854 0.9887330081043219 -0.13628985111312467 0.9887330081043219 -0.13628985111312467 -0.001496641684900013 -0.0038320130800182867
0.032 -0.0015586718460098787 -0.003929128939412224 0.9880748700484738 -0.14063094215736122 0.9880748700484738 -0.14063094215736122 -0.0015586718460098752 -0.003929128939412223
0.033 -0.0016214656784166433 -0.004025151564059474 0.9873979420371698 -0.14496830756510556 0.9873979420371698 -0.14496830756510556 -0.0016214656784166396 -0.004025151564059477
0.034 -0.001685014574166943 -0.0041200945943579235 0.9867022355827062 -0.14930188430593522 0.9867022355827062 -0.14930188430593522 -0.0016850145741669428 -0.004120094594357925
0.035 -0.0017493100326773444 -0.004213970658483916 0.9859877630103907 -0.1536316083157495 0.9859877630103907 -0.1536316083157495 -0.0017493100326773584 -0.004213970658483917
0.036 -0.0018143436547555234 -0.0043067914638155866 0.9852545374057318 -0.15795741459395235 0.9852545374057318 -0.15795741459395235 -0.0018143436547555301 -0.004306791463815586
0.037 -0.0018801071370393352 -0.004398567878141051 0.9845025725685339 -0.1622792372899973 0.9845025725685339 -0.1622792372899973 -0.0018801071370393484 -0.004398567878141048
0.038 -0.0019465922668212227 -0.004489310002035565 0.9837318829728244 -0.16659700978072836 0.9837318829728244 -0.16659700978072833 -0.0019465922668212257 -0.004489310002035564
0.039 -0.0020137909172292376 -0.004579027233572271 0.9829424837317554 -0.1709106647397283 0.9829424837317554 -0.1709106647397283 -0.0020137909172292376 -0.004579027233572267
0.04 -0.002081695042737062 -0.0046677283263518105 0.9821343905667468 -0.17522013419969742 0.9821343905667468 -0.17522013419969742 -0.002081695042737055 -0.004667728326351814
0.041 -0.002150296674978445 -0.00475542144168876 0.9813076197802828 -0.17952534960873384 0.9813076197802828 -0.17952534960873384 -0.0021502966749784385 -0.0047554214416887595
0.042 -0.0022195879188418874 -0.004842114195667847 0.9804621882318482 -0.18382624188125787 0.9804621882318482 -0.18382624188125787 -0.0022195879188418835 -0.004842114195667846
0.043 -0.002289560948825257 -0.004927813701684614 0.9795981133165763 -0.18812274144421878 0.9795981133165763 -0.18812274144421878 -0.00228956094882525 -0.004927813701684613
0.044 -0.0023602080056299986 -0.005012526608995173 0.9787154129462498 -0.1924147782791294 0.9787154129462499 -0.19241477827912937 -0.002360208005629992 -0.00501252660899517
0.045 -0.002431521392976979 -0.005096259137730832 0.9778141055323535 -0.1967022819604054 0.9778141055323535 -0.19670228196040543 -0.0024315213929769755 -0.0050962591377308325
0.046 -0.002503493474628341 -0.005179017110771893 0.9768942099709127 -0.20098518169041793 0.9768942099709127 -0.20098518169041796 -0.0025034934746283413 -0.005179017110771891
0.047 -0.002576116671598886 -0.0052608059828220975 0.9759557456288942 -0.20526340633161627 0.9759557456288942 -0.20526340633161627 -0.0025761166715988926 -0.005260805982822097
0.048 -0.002649383459544084 -0.005341630866983643 0.9749987323319771 -0.20953688443603205 0.9749987323319771 -0.20953688443603208 -0.002649383459544087 -0.00534163086698364
0.049 -0.002723286366312023 -0.00542149655909296 0.9740231903535382 -0.21380554427243975 0.9740231903535382 -0.21380554427243975 -0.0027232863663120125 -0.0054214965590929625
0.05 -0.0027978179696467355 -0.005500407560048295 0.9730291404046905 -0.21806931385140813 0.9730291404046905 -0.21806931385140813 -0.0027978179696467372 -0.005500407560048298
0.051 -0.0028729708950333164 -0.005578368096327132 0.972016603625274 -0.22232812094845766 0.972016603625274 -0.22232812094845764 -0.0028729708950333043 -0.005578368096327136
0.052 -0.002948737813674245 -0.0056553821388771386 0.9709856015756706 -0.2265818931255067 0.9709856015756706 -0.22658189312550672 -0.002948737813674245 -0.005655382138877138
0.053 -0.003025111440587847 -0.005731453420531503 0.969936156229361 -0.2308305577507722 0.969936156229361 -0.2308305577507722 -0.0030251114405878466 -0.005731453420531504
0.054 -0.0031020845328213493 -0.0058065854520927464 0.9688682899661457 -0.23507404201726997 0.9688682899661457 -0.23507404201726995 -0.0031020845328213528 -0.005806585452092746
0.055 -0.003179649887769621 -0.00588078153720773 0.9677820255659412 -0.23931227296004365 0.9677820255659412 -0.2393122729600436 -0.0031796498877696253 -0.005880781537207734
0.056 -0.003257800341593598 -0.005954044786142314 0.9666773862031075 -0.24354517747223867 0.9666773862031075 -0.24354517747223867 -0.003257800341593604 -0.005954044786142316
0.057 -0.0033365287677317667 -0.006026378128558106 0.9655543954412453 -0.24777268232012528 0.9655543954412453 -0.24777268232012528 -0.0033365287677317645 -0.006026378128558106
0.058 -0.0034158280754975692 -0.006097784325374696 0.9644130772284033 -0.2519947141571588 0.9644130772284033 -0.2519947141571588 -0.003415828075497556 -0.0060977843253747005
0.059 -0.0034956912087587585 -0.006168265979800599 0.9632534558926711 -0.2562111995371639 0.9632534558926711 -0.2562111995371639 -0.0034956912087587555 -0.0061682659798006
0.06 -0.003576111144692697 -0.006237825547601224 0.9620755561381054 -0.2604220649267163 0.9620755561381054 -0.2604220649267163 -0.0035761111446927026 -0.006237825547601225
0.061 -0.0036570808926124376 -0.006306465346668468 0.9608794030409599 -0.2646272367167861 0.9608794030409599 -0.26462723671678606 -0.003657080892612441 -0.006306465346668466
0.062 -0.003738593492860349 -0.006374187565949389 0.9596650220461962 -0.26882664123370775 0.9596650220461962 -0.26882664123370775 -0.0037385934928603555 -0.006374187565949386
0.063 -0.003820642015764051 -0.006440994273786805 0.9584324389642301 -0.2730202047495244 0.9584324389642301 -0.2730202047495244 -0.003820642015764043 -0.0064409942737868086
0.064 -0.003903219560651535 -0.006506887425716153 0.9571816799679128 -0.2772078534917636 0.9571816799679128 -0.2772078534917636 -0.003903219560651537 -0.006506887425716152
0.065 -0.003986319254921759 -0.006571868871764963 0.955912771589705 -0.28138951365268305 0.955912771589705 -0.28138951365268305 -0.003986319254921759 -0.006571868871764965
0.066 -0.0040699342531674634 -0.006635940363290118 0.9546257407190438 -0.2855651113980292 0.9546257407190438 -0.28556511139802926 -0.004069934253167451 -0.006635940363290123
0.067 -0.0041540577363467415 -0.0066991035593900565 0.9533206145998615 -0.28973457287534476 0.9533206145998615 -0.2897345728753448 -0.004154057736346749 -0.0066991035593900565
0.068 -0.0042386829110014936 -0.006761360032922484 0.9519974208282742 -0.2938978242218617 0.9519974208282742 -0.2938978242218617 -0.0042386829110014936 -0.0067613600329224826
0.069 -0.004323803008518907 -0.006822711276158528 0.9506561873503814 -0.2980547915720023 0.9506561873503813 -0.2980547915720023 -0.00432380300851891 -0.006822711276158529
0.07 -0.004409411284434611 -0.006883158706098038 0.9492969424602143 -0.30220540106452887 0.9492969424602143 -0.3022054010645288 -0.004409411284434611 -0.00688315870609804
0.071 -0.004495501017774251 -0.006942703669470443 0.9479197147977838 -0.3063495788493534 0.9479197147977837 -0.30634957884935343 -0.004495501017774259 -0.006942703669470442
0.072 -0.004582065510431956 -0.007001347447445531 0.9465245333472286 -0.31048725109404185 0.9465245333472286 -0.3104872510940419 -0.0045820655104319595 -0.0070013474474455335
0.073 -0.004669098086583551 -0.007059091260071825 0.9451114274350676 -0.314618343990028 0.9451114274350676 -0.31461834399002797 -0.0046690980865835546 -0.007059091260071821
0.074 -0.004756592092132369 -0.00711593627046267 0.943680426728528 -0.3187427837585599 0.943680426728528 -0.31874278375855997 -0.004756592092132366 -0.0071159362704626685
0.075 -0.0048445408941861215 -0.007171883588746627 0.9422315612339554 -0.3228604966563942 0.9422315612339552 -0.32286049665639416 -0.004844540894186121 -0.007171883588746622
0.076 -0.004932937880562966 -0.007226934275798865 0.9407648612952891 -0.32697140898125515 0.9407648612952891 -0.32697140898125515 -0.004932937880562953 -0.007226934275798869
0.077 -0.005021776459325934 -0.007281089346766958 0.9392803575926099 -0.331075447077079 0.9392803575926097 -0.33107544707707903 -0.005021776459325937 -0.007281089346766956
0.078 -0.005111050058342949 -0.007334349774404863 0.9377780811407442 -0.33517253733905006 0.9377780811407442 -0.33517253733905006 -0.005111050058342949 -0.007334349774404862
0.079 -0.005200752124871995 -0.007386716492227652 0.9362580632879152 -0.33926260621844473 0.9362580632879152 -0.33926260621844473 -0.005200752124872001 -0.007386716492227654
0.08 -0.005290876125170706 -0.00743819039749918 0.9347203357144512 -0.3433455802272982 0.9347203357144512 -0.3433455802272982 -0.005290876125170709 -0.007438190397499186
0.081 -0.005381415544127136 -0.007488772354060067 0.9331649304315345 -0.34742138594289906 0.9331649304315345 -0.3474213859428991 -0.005381415544127144 -0.007488772354060063
0.082 -0.00547236388491275 -0.007538463195010706 0.9315918797799925 -0.35148995001213035 0.9315918797799925 -0.35148995001213035 -0.005472363884912743 -0.007538463195010706
0.083 -0.005563714668655383 -0.007587263725253723 0.9300012164291237 -0.35555119915565603 0.9300012164291237 -0.3555511991556561 -0.005563714668655383 -0.00758726372525372
0.084 -0.00565546143413155 -0.007635174723907496 0.92839297337556 -0.3596050601719708 0.92839297337556 -0.3596050601719708 -0.005655461434131551 -0.007635174723907496
0.085 -0.005747597737476717 -0.007682196946596445 0.9267671839421633 -0.3636514599413188 0.9267671839421633 -0.3636514599413188 -0.005747597737476736 -0.007682196946596435
0.086 -0.005840117151913056 -0.007728331127626182 0.925123881776934 -0.3676903254294827 0.925123881776934 -0.36769032542948266 -0.005840117151913063 -0.007728331127626172
0.087 -0.005933013267494145 -0.007773577982051379 0.9234631008519734 -0.3717215836914649 0.9234631008519734 -0.3717215836914649 -0.0059330132674941475 -0.007773577982051382
0.088 -0.006026279690864508 -0.007817938207639487 0.9217848754624395 -0.3757451618750479 0.9217848754624395 -0.3757451618750479 -0.006026279690864513 -0.007817938207639487
0.089 -0.006119910045034973 -0.007861412486739923 0.9200892402255446 -0.3797609872242569 0.9200892402255446 -0.3797609872242569 -0.006119910045034978 -0.007861412486739924
0.09 -0.006213897969171832 -0.007904001488061618 0.9183762300795638 -0.3837689870827217 0.9183762300795638 -0.3837689870827217 -0.006213897969171841 -0.007904001488061613
0.091 -0.006308237118399227 -0.007945705868364197 0.91664588028286 -0.3877690888969449 0.91664588028286 -0.3877690888969449 -0.006308237118399236 -0.007945705868364194
0.092 -0.0064029211636152175 -0.007986526274069075 0.914898226412928 -0.3917612202194807 0.914898226412928 -0.3917612202194807 -0.006402921163615221 -0.007986526274069074
0.093 -0.00649794379131972 -0.00802646334279361 0.9131333043654551 -0.3957453087120341 0.9131333043654551 -0.3957453087120341 -0.006497943791319712 -0.008026463342793614
0.094 -0.006593298703453659 -0.008065517704811762 0.9113511503533851 -0.3997212821484748 0.9113511503533851 -0.3997212821484748 -0.006593298703453656 -0.008065517704811766
0.095 -0.006688979617250503 -0.008103689984448168 0.9095518009060041 -0.40368906841778035 0.909551800906004 -0.40368906841778035 -0.0066889796172504975 -0.008103689984448164
0.096 -0.006784980265097155 -0.008140980801404813 0.9077352928680283 -0.40764859552690513 0.9077352928680283 -0.4076485955269051 -0.006784980265097154 -0.008140980801404817
0.097 -0.006881294394405648 -0.008177390772027567 0.9059016633987106 -0.4115997916035827 0.9059016633987106 -0.4115997916035827 -0.006881294394405644 -0.008177390772027565
0.098 -0.00697791576749463 -0.008212920510513992 0.9040509499709469 -0.41554258489906476 0.904050949970947 -0.41554258489906476 -0.006977915767494632 -0.00821292051051399
0.099 -0.007074838161479861 -0.008247570630066066 0.9021831903703885 -0.41947690379079366 0.9021831903703885 -0.41947690379079366 -0.007074838161479854 -0.008247570630066066
0.1 -0.007172055368173111 -0.008281341743989066 0.9002984226945702 -0.423402676785022 0.9002984226945702 -0.423402676785022 -0.007172055368173107 -0.00828134174398907
0.101 -0.007269561193990349 -0.008314234466741777 0.8983966853520408 -0.42731983251937594 0.8983966853520408 -0.4273198325193759 -0.007269561193990349 -0.008314234466741776
0.102 -0.007367349459867516 -0.008346249414939302 0.8964780170614842 -0.4312282997653586 0.8964780170614842 -0.4312282997653586 -0.00736734945986751 -0.008346249414939309
0.103 -0.007465414001183475 -0.008377387208308853 0.8945424568508751 -0.4351280074308149 0.8945424568508751 -0.43512800743081487 -0.007465414001183486 -0.008377387208308848
0.104 -0.0075637486676910365 -0.008407648470604896 0.8925900440565994 -0.4390188845623334 0.8925900440565994 -0.43901888456233334 -0.007563748667691033 -0.008407648470604897
0.105 -0.007662347323454497 -0.008437033830481725 0.8906208183226136 -0.4429008603476158 0.8906208183226136 -0.4429008603476158 -0.007662347323454501 -0.008437033830481727
0.106 -0.007761203846794219 -0.008465543922328615 0.8886348195995835 -0.44677386411779213 0.8886348195995835 -0.44677386411779213 -0.0077612038467942054 -0.00846554392232862
0.107 -0.007860312130237215 -0.00849317938706647 0.8866320881440319 -0.45063782534970026 0.8866320881440319 -0.45063782534970026 -0.007860312130237206 -0.00849317938706647
0.108 -0.007959666080473634 -0.008519940872909307 0.884612664517489 -0.4544926736681196 0.8846126645174889 -0.4544926736681195 -0.007959666080473627 -0.008519940872909311
0.109 -0.008059259618319745 -0.008545829036093251 0.8825765895856412 -0.45833833884797026 0.8825765895856413 -0.45833833884797026 -0.008059259618319738 -0.00854582903609326
0.11 -0.008159086678686027 -0.008570844541572333 0.8805239045174831 -0.4621747508164742 0.8805239045174831 -0.4621747508164742 -0.008159086678686027 -0.008570844541572333
0.111 -0.008259141210550408 -0.008594988063683801 0.8784546507844636 -0.46600183965527797 0.8784546507844637 -0.46600183965527797 -0.008259141210550401 -0.008594988063683803
0.112 -0.008359417176936865 -0.008618260286783893 0.876368870159642 -0.4698195356025472 0.876368870159642 -0.4698195356025472 -0.00835941717693687 -0.008618260286783896
0.113 -0.008459908554898282 -0.008640661905855763 0.8742666047168314 -0.47362776905501963 0.8742666047168314 -0.47362776905501963 -0.008459908554898275 -0.008640661905855766
0.114 -0.008560609335505386 -0.008662193627092179 0.8721478968297511 -0.47742647057003756 0.8721478968297511 -0.47742647057003756 -0.008560609335505384 -0.008662193627092184
