!Created with skrf (http://scikit-rf.org).
# GHz S RI R 50.0 
!freq ReS11 ImS11 ReS21 ImS21 ReS12 ImS12 ReS22 ImS22
0.001 -1.1174945732003671e-05 -0.00021778429159004432 0.9998129733696067 -0.00450635329806391 0.9998129733696067 -0.004506353298063911 -1.117494573201061e-05 -0.00021778429159004432
0.002 -1.7981194766800113e-05 -0.00040502063791329957 0.9996883895546124 -0.00898130840073963 0.9996883895546124 -0.00898130840073963 -1.798119476680011e-05 -0.00040502063791329957
0.003 -2.5431724907404768e-05 -0.0005806836007267694 0.9995572378090063 -0.013443923043970617 0.9995572378090063 -0.013443923043970619 -2.5431724907390894e-05 -0.0005806836007267696
0.004 -3.386743012651963e-05 -0.0007488014958100469 0.9994131450688276 -0.017898204934376386 0.9994131450688276 -0.017898204934376386 -3.3867430126523096e-05 -0.0007488014958100469
0.005 -4.339045649442286e-05 -0.0009112833619791646 0.9992536814153443 -0.022346018260756457 0.9992536814153443 -0.022346018260756457 -4.3390456494415934e-05 -0.0009112833619791645
0.006 -5.403674228865013e-05 -0.001069250340007255 0.9990776218055022 -0.02678842852435472 0.9990776218055022 -0.02678842852435472 -5.403674228865014e-05 -0.001069250340007255
0.007 -6.581699481883353e-05 -0.0012234405952962397 0.9988842524324854 -0.03122611230343616 0.9988842524324854 -0.03122611230343616 -6.581699481883355e-05 -0.0012234405952962395
0.008 -7.873066492060852e-05 -0.0013743765623689319 0.99867311834287 -0.03565952674942874 0.99867311834287 -0.03565952674942874 -7.873066492060501e-05 -0.0013743765623689317
0.009 -9.277173071177337e-05 -0.0015224469803171463 0.9984439113953771 -0.04008899283537143 0.9984439113953771 -0.04008899283537142 -9.27717307117699e-05 -0.001522446980317147
0.01 -0.00010793140091186422 -0.0016679519525543615 0.9981964136392903 -0.04451474113628869 0.9981964136392903 -0.04451474113628869 -0.00010793140091185728 -0.0016679519525543618
0.011 -0.00012419948606205562 -0.0018111297839507254 0.9979304659360884 -0.04893693912571011 0.9979304659360884 -0.0489369391257101 -0.00012419948606206597 -0.001811129783950725
0.012 -0.0001415651341805358 -0.0019521739721141966 0.9976459493216984 -0.05335570847591291 0.9976459493216984 -0.053355708475912915 -0.00014156513418053232 -0.0019521739721141968
0.013 -0.0001600172403760264 -0.0020912444929820826 0.9973427733196363 -0.057771136560272385 0.9973427733196363 -0.057771136560272385 -0.00016001724037602985 -0.002091244492982082
0.014 -0.00017954467976744807 -0.0022284755920009207 0.9970208682860038 -0.06218328440181806 0.9970208682860038 -0.06218328440181806 -0.00017954467976745499 -0.0022284755920009207
0.015 -0.000200136440544523 -0.0023639813369935535 0.9966801802121424 -0.06659219234366176 0.9966801802121424 -0.06659219234366176 -0.0002001364405445299 -0.0023639813369935527
0.016 -0.00022178169877108125 -0.0024978596829928097 0.9963206670881897 -0.07099788420379229 0.9963206670881897 -0.07099788420379229 -0.00022178169877108128 -0.00249785968299281
0.017 -0.0002444698584035058 -0.0026301955163314135 0.9959422962928322 -0.07540037038944579 0.9959422962928322 -0.07540037038944579 -0.00024446985840350245 -0.0026301955163314144
0.018 -0.0002681905702198341 -0.0027610629795153732 0.9955450426779632 -0.07979965027788471 0.9955450426779632 -0.07979965027788471 -0.0002681905702198238 -0.0027610629795153732
0.019 -0.0002929337378704976 -0.0028905272774464594 0.9951288871360517 -0.0841957140678042 0.9951288871360517 -0.0841957140678042 -0.000292933737870508 -0.002890527277446458
0.02 -0.00031868951608288756 -0.003018646101969201 0.9946938155103899 -0.08858854424091997 0.9946938155103899 -0.08858854424091998 -0.0003186895160828808 -0.0030186461019692016
0.021 -0.0003454483041547777 -0.0031454707704765216 0.99423981775371 -0.09297811673132667 0.99423981775371 -0.09297811673132667 -0.00034544830415478446 -0.0031454707704765194
0.022 -0.0003732007367171883 -0.003271047146864739 0.9937668872698934 -0.09736440187228484 0.9937668872698934 -0.09736440187228484 -0.0003732007367171917 -0.003271047146864739
0.023 -0.0004019376730236155 -0.0033954163944483196 0.9932750203927467 -0.10174736517106182 0.9932750203927467 -0.10174736517106181 -0.0004019376730236019 -0.0033954163944483204
0.024 -0.0004316501855693304 -0.003518615597466053 0.9927642159688598 -0.10612696794923132 0.9927642159688598 -0.10612696794923132 -0.00043165018556933735 -0.0035186155974660524
0.025 -0.0004623295485497895 -0.0036406782786288262 0.9922344750204785 -0.11050316787647445 0.9922344750204785 -0.11050316787647445 -0.00046232954854978945 -0.003640678278628829
0.026 -0.0004939672264780858 -0.003761634833554557 0.9916858004706376 -0.11487591941918864 0.9916858004706376 -0.11487591941918864 -0.0004939672264780993 -0.003761634833554556
0.027 -0.0005265548631575632 -0.0038815128981145104 0.9911181969172083 -0.11924517422029053 0.9911181969172083 -0.11924517422029053 -0.0005265548631575563 -0.0038815128981145126
0.028 -0.000560084271123878 -0.004000337661146016 0.9905316704457848 -0.12361088142295688 0.9905316704457848 -0.12361088142295688 -0.0005600842711238849 -0.004000337661146014
0.029 -0.0005945474216170482 -0.004118132132312436 0.9899262284736483 -0.1279729879483132 0.9899262284736483 -0.1279729879483132 -0.0005945474216170344 -0.004118132132312437
0.03 -0.0006299364351103368 -0.004234917372862327 0.9893018796188391 -0.1323314387350116 0.9893018796188391 -0.1323314387350116 -0.0006299364351103337 -0.004234917372862329
0.031 -0.0006662435723982583 -0.004350712695487891 0.9886586335896259 -0.13668617694704752 0.9886586335896259 -0.1366861769470475 -0.000666243572398272 -0.004350712695487889
0.032 -0.0007034612262332623 -0.0044655358382788175 0.9879965010906993 -0.14103714415493748 0.9879965010906993 -0.14103714415493748 -0.0007034612262332521 -0.004465535838278819
0.033 -0.0007415819134906689 -0.004579403116830074 0.9873154937431441 -0.14538428049442148 0.9873154937431441 -0.14538428049442148 -0.0007415819134906691 -0.004579403116830076
0.034 -0.0007805982678368387 -0.004692329557822287 0.9866156240158296 -0.14972752480609036 0.9866156240158296 -0.14972752480609036 -0.0007805982678368351 -0.004692329557822287
0.035 -0.0008205030328727595 -0.004804329016806669 0.9858969051663521 -0.15406681475874864 0.9858969051663521 -0.15406681475874864 -0.0008205030328727627 -0.004804329016806667
0.036 -0.0008612890557236675 -0.004915414282457921 0.9851593511899419 -0.15840208695882932 0.9851593511899419 -0.15840208695882932 -0.0008612890557236745 -0.004915414282457919
0.037 -0.0009029492810465456 -0.005025597169179018 0.9844029767751344 -0.16273327704780377 0.9844029767751344 -0.16273327704780377 -0.0009029492810465627 -0.005025597169179015
0.038 -0.0009454767454268158 -0.005134888599637502 0.9836277972651191 -0.16706031978920344 0.9836277972651191 -0.16706031978920344 -0.0009454767454268263 -0.005134888599637501
0.039 -0.0009888645721376058 -0.005243298678561621 0.9828338286239507 -0.17138314914662345 0.9828338286239507 -0.17138314914662345 -0.000988864572137609 -0.005243298678561622
0.04 -0.001033105966235709 -0.005350836758920621 0.9820210874068926 -0.17570169835386176 0.9820210874068926 -0.1757016983538617 -0.0010331059662357027 -0.005350836758920623
0.041 -0.0010781942099708384 -0.005457511501444307 0.9811895907343114 -0.18001589997817835 0.9811895907343114 -0.18001589997817835 -0.0010781942099708317 -0.00545751150144431
0.042 -0.0011241226584852032 -0.005563330928296598 0.980339356268624 -0.18432568597751303 0.980339356268624 -0.18432568597751303 -0.0011241226584851965 -0.0055633309282965985
0.043 -0.0011708847357827935 -0.005668302471601916 0.9794704021938802 -0.18863098775237994 0.9794704021938802 -0.18863098775237994 -0.0011708847357827833 -0.0056683024716019164
0.044 -0.0012184739309491388 -0.0057724330174249334 0.9785827471976294 -0.19293173619305956 0.9785827471976294 -0.19293173619305956 -0.0012184739309491319 -0.005772433017424934
0.045 -0.0012668837946032984 -0.005875728945721878 0.9776764104547636 -0.1972278617226194 0.9776764104547636 -0.1972278617226194 -0.001266883794603302 -0.005875728945721876
0.046 -0.0013161079355662572 -0.00597819616671326 0.9767514116131017 -0.2015192943362312 0.9767514116131016 -0.2015192943362312 -0.0013161079355662544 -0.005978196166713262
0.047 -0.0013661400177295735 -0.006079840154068581 0.9758077707804754 -0.20580596363718429 0.9758077707804754 -0.2058059636371843 -0.001366140017729577 -0.00607984015406858
0.048 -0.0014169737571107762 -0.006180665975242826 0.9748455085131347 -0.21008779886994458 0.9748455085131347 -0.21008779886994455 -0.0014169737571107825 -0.006180665975242822
0.049 -0.0014686029190829285 -0.006280678319263947 0.9738646458053323 -0.21436472895057365 0.9738646458053323 -0.21436472895057365 -0.0014686029190829218 -0.00628067831926395
0.05 -0.001521021315764957 -0.006379881522231152 0.9728652040799126 -0.21863668249476956 0.9728652040799126 -0.21863668249476956 -0.0015210213157649502 -0.006379881522231154
0.051 -0.0015742228035637703 -0.006478279590755285 0.9718472051798215 -0.22290358784377287 0.9718472051798216 -0.22290358784377287 -0.0015742228035637573 -0.006478279590755286
0.052 -0.0016282012808560772 -0.006575876223542987 0.970810671360404 -0.2271653730883439 0.970810671360404 -0.2271653730883439 -0.0016282012808560703 -0.006575876223542986
0.053 -0.001682950685801662 -0.006672674831304632 0.9697556252824133 -0.2314219660909982 0.9697556252824133 -0.2314219660909982 -0.0016829506858016582 -0.006672674831304633
0.054 -0.0017384649942795113 -0.0067686785551448175 0.9686820900056557 -0.23567329450666455 0.9686820900056557 -0.23567329450666452 -0.0017384649942795215 -0.006768678555144816
0.055 -0.0017947382179377273 -0.00686389028357641 0.9675900889831823 -0.23991928580190985 0.9675900889831823 -0.23991928580190988 -0.0017947382179377242 -0.006863890283576412
0.056 -0.0018517644023510662 -0.006958312668284196 0.9664796460559949 -0.24415986727286476 0.9664796460559949 -0.24415986727286476 -0.0018517644023510658 -0.006958312668284193
0.057 -0.0019095376252788636 -0.007051948138750055 0.9653507854481859 -0.248394966061961 0.9653507854481859 -0.248394966061961 -0.0019095376252788636 -0.007051948138750054
0.058 -0.0019680519950164483 -0.007144798915840851 0.9642035317624825 -0.2526245091735897 0.9642035317624825 -0.2526245091735897 -0.0019680519950164383 -0.007144798915840852
0.059 -0.002027301648834966 -0.007236867024447984 0.9630379099761455 -0.2568484234887692 0.9630379099761455 -0.2568484234887692 -0.0020273016488349667 -0.007236867024447982
0.06 -0.0020872807515040634 -0.007328154305260107 0.9618539454371909 -0.26106663577891126 0.9618539454371909 -0.26106663577891126 -0.0020872807515040603 -0.007328154305260112
0.061 -0.0021479834938916602 -0.007418662425741683 0.9606516638608928 -0.2652790727187538 0.9606516638608928 -0.26527907271875384 -0.0021479834938916633 -0.007418662425741678
0.062 -0.0022094040916374163 -0.00750839289038216 0.9594310913265586 -0.26948566089853787 0.9594310913265586 -0.26948566089853787 -0.002209404091637423 -0.0075083928903821595
0.063 -0.0022715367838940796 -0.007597347050276175 0.9581922542745132 -0.2736863268354775 0.9581922542745132 -0.2736863268354775 -0.00227153678389407 -0.007597347050276178
0.064 -0.0023343758321341013 -0.007685526112087084 0.9569351795033232 -0.277880996984593 0.9569351795033232 -0.277880996984593 -0.002334375832134101 -0.007685526112087087
0.065 -0.002397915519016703 -0.007772931146443272 0.9556598941671816 -0.28206959774894375 0.9556598941671816 -0.28206959774894375 -0.0023979155190167138 -0.00777293114644327
0.066 -0.002462150147312476 -0.007859563095810021 0.954366425773489 -0.28625205548931615 0.954366425773489 -0.28625205548931615 -0.0024621501473124697 -0.00785956309581002
0.067 -0.002527074038881851 -0.007945422781878417 0.9530548021805629 -0.2904282965334013 0.9530548021805629 -0.29042829653340124 -0.0025270740388818576 -0.007945422781878413
0.068 -0.002592681533704972 -0.008030510912506113 0.9517250515955199 -0.2945982471845087 0.9517250515955199 -0.2945982471845088 -0.002592681533704972 -0.008030510912506115
0.069 -0.002658966988959407 -0.00811482808824432 0.9503772025722462 -0.2987618337298371 0.9503772025722461 -0.2987618337298371 -0.0026589669889594035 -0.00811482808824432
0.07 -0.0027259247781438152 -0.008198374808480999 0.9490112840095153 -0.3029189824483497 0.9490112840095153 -0.3029189824483497 -0.0027259247781438144 -0.008198374808481
0.071 -0.0027935492902444355 -0.008281151477226509 0.9476273251491975 -0.3070696196182714 0.9476273251491976 -0.3070696196182714 -0.0027935492902444415 -0.008281151477226507
0.072 -0.0028618349289424145 -0.008363158408569778 0.9462253555745547 -0.3112136715242347 0.9462253555745547 -0.3112136715242347 -0.002861834928942412 -0.008363158408569783
0.073 -0.0029307761118598664 -0.008444395831825276 0.9448054052086389 -0.3153510644641066 0.9448054052086388 -0.3153510644641066 -0.0029307761118598664 -0.008444395831825281
0.074 -0.0030003672698423215 -0.008524863896393838 0.9433675043127561 -0.3194817247555102 0.9433675043127562 -0.3194817247555101 -0.003000367269842317 -0.008524863896393843
0.075 -0.003070602846276299 -0.008604562676356887 0.9419116834850042 -0.32360557874206475 0.9419116834850042 -0.32360557874206475 -0.003070602846276302 -0.008604562676356887
0.076 -0.003141477296438823 -0.008683492174820232 0.9404379736588744 -0.3277225527993617 0.9404379736588745 -0.3277225527993618 -0.0031414772964388207 -0.00868349217482023
0.077 -0.0032129850868794665 -0.008761652328026564 0.9389464061019137 -0.331832573340697 0.9389464061019137 -0.331832573340697 -0.003212985086879466 -0.008761652328026562
0.078 -0.003285120694831115 -0.008839043009249956 0.9374370124144396 -0.33593556682257164 0.9374370124144396 -0.33593556682257164 -0.0032851206948311187 -0.008839043009249955
0.079 -0.0033578786076489463 -0.008915664032486826 0.9359098245282977 -0.3400314597499761 0.9359098245282977 -0.3400314597499761 -0.0033578786076489528 -0.00891566403248682
0.08 -0.0034312533222766546 -0.008991515155957086 0.9343648747056732 -0.3441201786814746 0.9343648747056732 -0.34412017868147454 -0.003431253322276655 -0.008991515155957086
0.081 -0.0035052393447379975 -0.009066596085426816 0.9328021955379336 -0.34820165023409777 0.9328021955379336 -0.34820165023409777 -0.0035052393447380075 -0.009066596085426815
0.082 -0.003579831189652053 -0.009140906477363363 0.9312218199445091 -0.3522758010880596 0.9312218199445091 -0.3522758010880596 -0.00357983118965206 -0.009140906477363363
0.083 -0.0036550233797724273 -0.0092144459419342 0.9296237811718091 -0.3563425579913048 0.9296237811718091 -0.3563425579913048 -0.003655023379772425 -0.009214445941934204
0.084 -0.0037308104455475995 -0.009287214045857478 0.9280081127921657 -0.36040184776390083 0.9280081127921657 -0.3604018477639009 -0.0037308104455476034 -0.009287214045857478
0.085 -0.003807186924702874 -0.009359210315115109 0.9263748487028071 -0.36445359730228133 0.9263748487028071 -0.3644535973022814 -0.0038071869247028925 -0.009359210315115102
0.086 -0.0038841473618419038 -0.009430434237534917 0.9247240231248457 -0.3684977335833478 0.9247240231248457 -0.3684977335833478 -0.00388414736184191 -0.009430434237534919
0.087 -0.0039616863080673016 -0.009500885265250274 0.923055670602308 -0.372534183668446 0.9230556706023081 -0.372534183668446 -0.003961686308067303 -0.009500885265250272
0.088 -0.004039798320619617 -0.009570562817044142 0.9213698260011601 -0.37656287470721006 0.9213698260011602 -0.37656287470721006 -0.004039798320619622 -0.00957056281704414
0.089 -0.0041184779625335404 -0.0096394662805847 0.9196665245083682 -0.3805837339412948 0.9196665245083682 -0.3805837339412948 -0.004118477962533544 -0.009639466280584699
0.09 -0.004197719802310648 -0.009707595014557653 0.9179458016309717 -0.3845966887079971 0.9179458016309717 -0.38459668870799707 -0.004197719802310654 -0.009707595014557648
0.091 -0.004277518413607871 -0.009774948350701942 0.9162076931951653 -0.38860166644376976 0.9162076931951654 -0.3886016664437698 -0.004277518413607879 -0.009774948350701938
0.092 -0.004357868374941545 -0.009841525595754123 0.9144522353453994 -0.3925985946876386 0.9144522353453994 -0.3925985946876386 -0.004357868374941548 -0.00984152559575412
0.093 -0.004438764269405561 -0.009907326033305847 0.9126794645434938 -0.3965874010845261 0.9126794645434938 -0.3965874010845261 -0.004438764269405551 -0.009907326033305852
0.094 -0.004520200684403101 -0.009972348925579348 0.9108894175677513 -0.4005680133884827 0.9108894175677513 -0.4005680133884827 -0.004520200684403099 -0.009972348925579353
0.095 -0.004602172211392531 -0.010036593515126698 0.9090821315120926 -0.40454035946583766 0.9090821315120926 -0.40454035946583766 -0.004602172211392527 -0.010036593515126698
0.096 -0.0046846734456448096 -0.010100059026453962 0.907257643785193 -0.4085043672982675 0.9072576437851929 -0.40850436729826756 -0.0046846734456448096 -0.010100059026453959
0.097 -0.004767698986014146 -0.010162744667577642 0.9054159921096253 -0.4124599649857886 0.9054159921096253 -0.4124599649857886 -0.004767698986014148 -0.01016274466757764
0.098 -0.004851243434719698 -0.010224649631514496 0.9035572145210128 -0.4164070807496795 0.9035572145210128 -0.4164070807496795 -0.004851243434719705 -0.0102246496315145
0.099 -0.004935301397138288 -0.010285773097708704 0.9016813493671824 -0.4203456429353309 0.9016813493671824 -0.42034564293533094 -0.004935301397138286 -0.010285773097708707
0.1 -0.005019867481608143 -0.01034611423340043 0.899788435307326 -0.4242755800150325 0.899788435307326 -0.4242755800150325 -0.0050198674816081396 -0.010346114233400438
0.101 -0.005104936299243106 -0.010405672194937932 0.8978785113111672 -0.4281968205906986 0.8978785113111672 -0.4281968205906986 -0.0051049362992431095 -0.01040567219493793
0.102 -0.005190502463756156 -0.010464446129036367 0.8959516166581182 -0.43210929339653004 0.8959516166581182 -0.4321092933965301 -0.005190502463756146 -0.010464446129036376
0.103 -0.005276560591292552 -0.010522435173985368 0.8940077909364642 -0.43601292730162594 0.8940077909364642 -0.436012927301626 -0.005276560591292562 -0.010522435173985364
0.104 -0.005363105300272316 -0.010579638460809214 0.8920470740425172 -0.439907651312533 0.8920470740425172 -0.439907651312533 -0.005363105300272314 -0.010579638460809216
0.105 -0.005450131211241262 -0.01063605511438058 0.8900695061798037 -0.4437933945757538 0.8900695061798037 -0.4437933945757538 -0.005450131211241271 -0.010636055114380578
0.106 -0.005537632946729968 -0.01069168425449 0.8880751278582253 -0.4476700863801931 0.8880751278582253 -0.4476700863801931 -0.005537632946729955 -0.010691684254490005
0.107 -0.005625605131121838 -0.010746524996875673 0.8860639798932387 -0.45153765615957037 0.8860639798932387 -0.4515376561595704 -0.005625605131121833 -0.010746524996875671
0.108 -0.005714042390527643 -0.010800576454211057 0.8840361034050265 -0.4553960334947756 0.8840361034050263 -0.4553960334947755 -0.005714042390527642 -0.01080057645421106
0.109 -0.005802939352668551 -0.010853837737057021 0.881991539817669 -0.45924514811618966 0.881991539817669 -0.45924514811618966 -0.005802939352668537 -0.010853837737057028
0.11 -0.005892290646765502 -0.010906307954776193 0.8799303308583176 -0.46308492990595995 0.8799303308583176 -0.46308492990595995 -0.0058922906467655 -0.010906307954776194
0.111 -0.005982090903436161 -0.010957986216414486 0.8778525185563614 -0.4669153089002357 0.8778525185563615 -0.46691530890023564 -0.005982090903436153 -0.01095798621641449
0.112 -0.006072334754598037 -0.01100887163154861 0.875758145242603 -0.4707362152913706 0.875758145242603 -0.4707362152913706 -0.006072334754598036 -0.011008871631548612
0.113 -0.006163016833378007 -0.011058963311102876 0.8736472535484143 -0.474547579430079 0.8736472535484142 -0.474547579430079 -0.006163016833378 -0.011058963311102878
0.114 -0.006254131774028127 -0.01110826036813594 0.8715198864049146 -0.4783493318275692 0.8715198864049146 -0.4783493318275692 -0.006254131774028126 -0.011108260368135938
