!Created with skrf (http://scikit-rf.org).
# GHz S RI R 50.0 
!freq ReS11 ImS11 ReS21 ImS21 ReS12 ImS12 ReS22 ImS22
0.001 -5.273963341192841e-05 -0.0004719427915254499 0.9997106961800073 -0.006391320935038252 0.9997106961800073 -0.006391320935038251 -5.466115300115097e-05 -0.00047174035492813935
0.002 -0.00010550988667937188 -0.000902953507927802 0.999508142359532 -0.012739384568708746 0.999508142359532 -0.012739384568708746 -0.00011314774116153596 -0.0009022871115538109
0.003 -0.00016117764190695495 -0.001317917754327481 0.9992860936454302 -0.019069954310337683 0.9992860936454302 -0.01906995431033768 -0.00017829236060406257 -0.001316500569661127
0.004 -0.0002197773454588862 -0.0017222034006351618 0.999034733389088 -0.025388369711578738 0.999034733389088 -0.025388369711578738 -0.0002501083323334237 -0.00171969410386476
0.005 -0.00028126157467306 -0.0021183598078173657 0.9987503305851816 -0.03169705055084848 0.9987503305851816 -0.03169705055084849 -0.0003285311417259809 -0.002114356094547443
0.006 -0.00034557166767241175 -0.002507886102146512 0.9984310140019589 -0.0379973271962944 0.9984310140019589 -0.0379973271962944 -0.0004134867875963463 -0.0025019219653798644
0.007 -0.00041265010565765133 -0.0028917703716600314 0.9980757015527864 -0.044289999038268774 0.9980757015527864 -0.044289999038268774 -0.0005049031912353854 -0.0028833147150683462
0.008 -0.0004824431049720048 -0.0032707126910158047 0.9976837108020948 -0.05057556571188619 0.9976837108020948 -0.05057556571188619 -0.000602712278061095 -0.003259168555685422
0.009 -0.0005549009055078576 -0.003645234619726294 0.997254586114271 -0.05685434075781223 0.997254586114271 -0.056854340757812226 -0.0007068499641509617 -0.0036299387384477444
0.01 -0.0006299774658086865 -0.004015739384424316 0.9967880113433456 -0.06312651417309138 0.9967880113433456 -0.06312651417309138 -0.0008172556579355811 -0.003995961929703383
0.011 -0.0007076300342092467 -0.004382547738216307 0.9962837614770731 -0.06939218973182512 0.9962837614770731 -0.06939218973182511 -0.0009338717001209601 -0.004357492193960815
0.012 -0.0007878187331908634 -0.004745920670520381 0.9957416739355983 -0.07565140865320238 0.9957416739355983 -0.07565140865320237 -0.0010566428551239595 -0.00471472378764262
0.013 -0.0008705061935750683 -0.005106074493344796 0.9951616305887413 -0.08190416534680708 0.9951616305887413 -0.08190416534680708 -0.0011855158772526777 -0.0050678063052729495
0.014 -0.0009556572431879835 -0.005463191256959589 0.9945435459876846 -0.0881504182994412 0.9945435459876846 -0.0881504182994412 -0.0013204391482787275 -0.005416855139838892
0.015 -0.001043238644838262 -0.005817426173058133 0.9938873593826156 -0.09439009784612315 0.9938873593826156 -0.09439009784612315 -0.0014613623762344803 -0.005761958940604165
0.016 -0.001133218876192301 -0.006168913048092135 0.9931930291434659 -0.10062311186732838 0.9931930291434659 -0.10062311186732836 -0.0016082363447426562 -0.0061031850742561695
0.017 -0.0012255679443901298 -0.006517768351443511 0.9924605287594557 -0.10684935006216321 0.9924605287594557 -0.1068493500621632 -0.0017610127035107054 -0.006440583716097497
0.018 -0.0013202572292116044 -0.006864094321601132 0.9916898439069909 -0.11306868721711963 0.9916898439069909 -0.11306868721711962 -0.0019196437922556703 -0.0067741909758049345
0.019 -0.0014172593496843884 -0.007207981378563323 0.9908809702590862 -0.11928098574980571 0.9908809702590862 -0.11928098574980571 -0.0020840824918526074 -0.007104031326896812
0.02 -0.0015165480499822 -0.007549510025675629 0.9900339118210707 -0.12548609771863672 0.9900339118210707 -0.12548609771863672 -0.002254282097750904 -0.007430119523758964
0.021 -0.001618098101269595 -0.007888752368963785 0.9891486796471609 -0.1316838664320824 0.9891486796471609 -0.1316838664320824 -0.0024301962117197176 -0.007752462134743888
0.022 -0.0017218852167965695 -0.008225773345322096 0.9882252908375522 -0.13787412775285388 0.9882252908375522 -0.13787412775285388 -0.0026117786487745527 -0.008071058783032067
0.023 -0.0018278859780692094 -0.008560631725928502 0.9872637677452744 -0.1440567111663667 0.9872637677452744 -0.1440567111663667 -0.0027989833567653127 -0.008385903161868182
0.024 -0.0019360777703251802 -0.008893380943898419 0.9862641373421649 -0.15023144066472646 0.9862641373421649 -0.15023144066472646 -0.0029917643465844613 -0.008696983873364695
0.025 -0.0020464387258771607 -0.009224069782902989 0.9852264307070638 -0.15639813548466303 0.9852264307070638 -0.15639813548466303 -0.0031900756313489203 -0.009004285127733921
0.026 -0.0021589476741436095 -0.009552742954643357 0.984150682608931 -0.16255661072861172 0.984150682608931 -0.16255661072861172 -0.0033938711732030727 -0.009307787330944093
0.027 -0.002273584097390749 -0.009879441586619894 0.9830369311645197 -0.16870667789140922 0.9830369311645197 -0.16870667789140922 -0.0036031048366355948 -0.009607467582318393
0.028 -0.0023903280913823207 -0.010204203636859862 0.9818852175550914 -0.17484814531006784 0.9818852175550914 -0.17484814531006784 -0.003817730347392276 -0.009903300098801934
0.029 -0.0025091603302609686 -0.010527064248688833 0.9806955857903957 -0.18098081855036596 0.9806955857903957 -0.18098081855036596 -0.0040377012562207775 -0.010195256579032618
0.03 -0.0026300620350983386 -0.010848056055915909 0.9794680825106933 -0.18710450074113372 0.9794680825106933 -0.18710450074113372 -0.004262970906811188 -0.010483306517622004
0.031 -0.0027530149456397725 -0.011167209446726696 0.978202756819709 -0.19321899286495287 0.978202756819709 -0.19321899286495284 -0.004493492407393799 -0.010767417477972965
0.032 -0.002878001294837477 -0.011484552792966342 0.9768996601428479 -0.19932409401229123 0.9768996601428479 -0.19932409401229123 -0.0047292186055413596 -0.01104755533033966
0.033 -0.0030050037858344687 -0.011800112650240242 0.9755588461062351 -0.2054196016047877 0.9755588461062351 -0.2054196016047877 -0.004970102065785786 -0.011323684460578291
0.034 -0.003134005571101903 -0.012113913933271716 0.9741803704329499 -0.21150531159235064 0.9741803704329499 -0.21150531159235064 -0.005216095049726189 -0.011595767954042803
0.035 -0.0032649902334811456 -0.012425980070168503 0.9727642908536241 -0.21758101862792809 0.9727642908536241 -0.2175810186279281 -0.005467149498339393 -0.011863767758291177
0.036 -0.0033979417689141995 -0.01273633313862395 0.9713106670290084 -0.22364651622312665 0.9713106670290084 -0.22364651622312662 -0.005723217016255466 -0.012127644827637984
0.037 -0.0035328445706728773 -0.013044993986573081 0.9698195604826576 -0.22970159688734854 0.9698195604826576 -0.22970159688734856 -0.005984248857781514 -0.012387359252082937
0.038 -0.00366968341492457 -0.013351982339413308 0.9682910345421151 -0.23574605225266318 0.9682910345421151 -0.2357460522526632 -0.006250195914495759 -0.012642870372731048
0.039 -0.0038084434474934727 -0.013657316895565635 0.9667251542873307 -0.2417796731862929 0.9667251542873307 -0.2417796731862929 -0.006521008704248526 -0.012894136885486985
0.04 -0.003949110171693411 -0.013961015411878521 0.965121986505245 -0.24780224989230096 0.965121986505245 -0.24780224989230093 -0.006796637361437053 -0.013141116934529922
0.041 -0.0040916694371204935 -0.014263094780151225 0.9634815996496207 -0.2538135720038261 0.9634815996496207 -0.2538135720038261 -0.0070770316284234375 -0.013383768196849666
0.042 -0.004236107429313664 -0.014563571095863542 0.9618040638054106 -0.2598134286670222 0.9618040638054105 -0.2598134286670221 -0.007362140847997247 -0.013622047958933948
0.043 -0.004382410660190952 -0.014862459720047745 0.9600894506569957 -0.26580160861768165 0.9600894506569957 -0.26580160861768165 -0.007651913956776043 -0.013855913186545893
0.044 -0.004530565959199777 -0.015159775335101083 0.958337833459785 -0.2717779002513967 0.958337833459785 -0.2717779002513968 -0.007946299479476856 -0.014085320588390746
0.045 -0.004680560465097738 -0.015455531995234863 0.9565492870147226 -0.2777420916879943 0.9565492870147226 -0.27774209168799435 -0.008245245523964032 -0.014310226674370664
0.046 -0.004832381618318245 -0.01574974317215798 0.9547238876453223 -0.28369397083087433 0.9547238876453223 -0.2836939708308743 -0.008548699777023005 -0.014530587809026708
0.047 -0.004986017153861033 -0.01604242179651648 0.9528617131768907 -0.289633325421808 0.9528617131768907 -0.289633325421808 -0.008856609500790898 -0.014746360260689716
0.048 -0.005141455094661409 -0.016333580295544013 0.9509628429176747 -0.2955599430916778 0.9509628429176747 -0.2955599430916778 -0.009168921529796124 -0.014957500246796774
0.049 -0.005298683745397923 -0.016623230627320427 0.9490273576416821 -0.3014736114075815 0.9490273576416821 -0.3014736114075815 -0.009485582268557804 -0.015163963975769345
0.05 -0.005457691686697432 -0.016911384311988034 0.9470553395729739 -0.3073741179166664 0.9470553395729739 -0.3073741179166664 -0.00980653768969848 -0.01536570768580663
0.051 -0.005618467769701381 -0.017198052460230383 0.9450468723712477 -0.3132612501870272 0.9450468723712477 -0.3132612501870273 -0.010131733332536945 -0.015562687680893991
0.052 -0.005781001110971742 -0.017483245799286357 0.9430020411185555 -0.31913479584594706 0.9430020411185555 -0.31913479584594706 -0.010461114302126661 -0.015754860364303826
0.053 -0.005945281087694992 -0.017766974696736576 0.9409209323070162 -0.3249945426157393 0.9409209323070162 -0.3249945426157393 -0.010794625268698009 -0.015942182269824613
0.054 -0.006111297333169135 -0.018049249182275216 0.9388036338274317 -0.3308402783474198 0.9388036338274317 -0.3308402783474198 -0.011132210467491415 -0.016124610090929487
0.055 -0.006279039732547649 -0.018330078967656056 0.9366502349586542 -0.3366717910523988 0.9366502349586542 -0.3366717910523988 -0.011473813698942946 -0.016302100708075182
0.056 -0.006448498418814477 -0.01860947346497848 0.9344608263576657 -0.34248886893238295 0.9344608263576657 -0.34248886893238295 -0.011819378329201276 -0.016474611214296286
0.057 -0.006619663768980599 -0.018887441803465965 0.932235500050263 -0.34829130040763895 0.932235500050263 -0.34829130040763895 -0.012168847290961082 -0.016642098939245783
0.058 -0.0067925264004754906 -0.01916399284486792 0.9299743494222825 -0.35407887414376454 0.9299743494222825 -0.3540788741437646 -0.012522163084582682 -0.01680452147181473
0.059 -0.0069670771677225515 -0.019439135197607028 0.9276774692113101 -0.35985137907709425 0.9276774692113101 -0.35985137907709425 -0.012879267779488132 -0.01696183668145078
0.06 -0.007143307158883453 -0.019712877229778453 0.9253449554988155 -0.36560860443885157 0.9253449554988155 -0.36560860443885157 -0.013240103015814445 -0.017114002738282594
0.061 -0.007321207692755933 -0.01998522708109915 0.9229769057026687 -0.3713503397781565 0.9229769057026687 -0.3713503397781565 -0.01360461000630663 -0.01726097813214777
0.062 -0.007500770315815454 -0.02025619267389253 0.9205734185699934 -0.3770763749839772 0.9205734185699934 -0.3770763749839772 -0.013972729538440254 -0.017402721690609278
0.063 -0.0076819867993865145 -0.020525781723190858 0.9181345941703194 -0.3827865003061088 0.9181345941703193 -0.3827865003061088 -0.01434440197675657 -0.017539192596041725
0.064 -0.007864849136936738 -0.02079400174602099 0.9156605338890031 -0.3884805063752592 0.9156605338890029 -0.3884805063752591 -0.014719567265404594 -0.017670350401853097
0.065 -0.008049349541480693 -0.021060860069945377 0.9131513404208806 -0.394158184222308 0.9131513404208806 -0.39415818422230803 -0.015098164930869584 -0.017796155047913518
0.066 -0.008235480443087159 -0.02132636384091056 0.9106071177641416 -0.39981932529680336 0.9106071177641416 -0.3998193252968033 -0.015480134084888054 -0.01791656687524251
0.067 -0.008423234486480647 -0.021590520030459685 0.908027971214374 -0.40546372148474674 0.908027971214374 -0.40546372148474674 -0.015865413427532876 -0.018031546640010446
0.068 -0.008612604528729468 -0.021853335442357024 0.9054140073587916 -0.41109116512572963 0.9054140073587916 -0.41109116512572963 -0.01625394125046234 -0.018141055526902063
0.069 -0.008803583637013373 -0.022114816718668828 0.9027653340705958 -0.41670144902945566 0.9027653340705958 -0.41670144902945566 -0.01664565544032334 -0.01824505516188675
0.07 -0.008996165086466208 -0.0223749703453402 0.9000820605034701 -0.42229436649169977 0.9000820605034701 -0.42229436649169977 -0.017040493482306476 -0.018343507624431904
0.071 -0.009190342358084396 -0.02263380265730477 0.8973642970861908 -0.42786971130974 0.8973642970861908 -0.4278697113097401 -0.01743839246383671 -0.0184363754591994
0.072 -0.009386109136697145 -0.022891319843163168 0.8946121555173373 -0.43342727779730167 0.8946121555173373 -0.43342727779730167 -0.017839289078401422 -0.018523621687257588
0.073 -0.009583459308995245 -0.023147527949458395 0.8918257487600909 -0.43896686079904035 0.8918257487600909 -0.43896686079904035 -0.018243119629507032 -0.018605209816837553
0.074 -0.009782386961610398 -0.023402432884577117 0.8890051910371096 -0.44448825570460065 0.8890051910371096 -0.44448825570460065 -0.018649820034755793 -0.018681103853663058
0.075 -0.00998288637924158 -0.023656040422305704 0.886150597825471 -0.44999125846227295 0.886150597825471 -0.449991258462273 -0.019059325830040726 -0.018751268310879848
0.076 -0.010184952042827277 -0.023908356205059732 0.8832620858516672 -0.4554756655922755 0.8832620858516672 -0.45547566559227554 -0.019471572173854017 -0.018815668218605988
0.077 -0.010388578627753256 -0.024159385746816652 0.8803397730866592 -0.4609412741996885 0.8803397730866592 -0.4609412741996885 -0.019886493851698696 -0.018874269133128684
0.078 -0.01059376100209954 -0.024409134435763473 0.8773837787409654 -0.46638788198705705 0.8773837787409654 -0.46638788198705705 -0.020304025280607055 -0.0189270371457619
0.079 -0.010800494224918399 -0.024657607536684573 0.8743942232597925 -0.4718152872666847 0.8743942232597924 -0.4718152872666847 -0.020724100513755228 -0.018973938891388112
0.08 -0.011008773544542255 -0.024904810193106218 0.871371228318186 -0.47722328897263755 0.871371228318186 -0.47722328897263755 -0.02114665324517461 -0.019014941556699506
0.081 -0.011218594396916009 -0.02515074742920988 0.8683149168162126 -0.4826116866724704 0.8683149168162126 -0.48261168667247045 -0.021571616814550502 -0.01905001288815161
0.082 -0.01142995240395662 -0.025395424151534115 0.8652254128741577 -0.4879802805787005 0.8652254128741577 -0.4879802805787005 -0.02199892421211127 -0.019079121199648556
0.083 -0.011642843371929987 -0.025638845150476708 0.8621028418277351 -0.4933288715600311 0.8621028418277352 -0.4933288715600311 -0.02242850808360171 -0.019102235379968264
0.084 -0.011857263289848754 -0.025881015101609898 0.8589473302233125 -0.4986572611523496 0.8589473302233125 -0.4986572611523496 -0.022860300735334634 -0.01911932489994474
0.085 -0.01207320832788486 -0.026121938566821667 0.8557590058131395 -0.5039652515695082 0.8557590058131395 -0.5039652515695083 -0.02329423413932218 -0.01913035981941589
0.086 -0.012290674835798177 -0.026361619995291373 0.8525379975505706 -0.5092526457138907 0.8525379975505706 -0.5092526457138906 -0.023730239938481862 -0.01913531079394631
0.087 -0.012509659341375972 -0.02660006372431514 0.8492844355853074 -0.5145192471867959 0.8492844355853072 -0.5145192471867959 -0.024168249451916434 -0.01913414908133882
0.088 -0.012730158548882256 -0.0268372739799855 0.8459984512586102 -0.5197648602986223 0.8459984512586102 -0.5197648602986225 -0.02460819368025923 -0.019126846547941355
0.089 -0.012952169337517198 -0.02707325487773783 0.8426801770985313 -0.5249892900788906 0.8426801770985314 -0.5249892900788906 -0.02505000331109253 -0.01911337567475768
0.09 -0.01317568875988322 -0.02730801042276971 0.8393297468151177 -0.5301923422860851 0.8393297468151177 -0.5301923422860852 -0.02549360872442672 -0.019093709563370313
0.091 -0.013400714040455484 -0.027541544510342124 0.835947295295614 -0.5353738234173447 0.835947295295614 -0.5353738234173447 -0.025938939998244488 -0.019067821941682554
0.092 -0.013627242574055776 -0.027773860925971942 0.8325329585996522 -0.5405335407180011 0.8325329585996522 -0.5405335407180009 -0.026385926914103536 -0.019035687169489102
0.093 -0.013855271924333428 -0.028004963345516314 0.8290868739544223 -0.5456713021909666 0.8290868739544223 -0.5456713021909666 -0.026834498962802707 -0.01899728024387543
0.094 -0.014084799822239919 -0.028234855335163817 0.8256091797498333 -0.5507869166059927 0.8256091797498333 -0.5507869166059927 -0.027284585350097555 -0.018952576804460348
0.095 -0.014315824164511314 -0.02846354035133199 0.8221000155336458 -0.5558801935087849 0.8221000155336458 -0.5558801935087849 -0.027736115002478117 -0.018901553138480104
0.096 -0.014548343012144135 -0.028691021740478946 0.8185595220065968 -0.5609509432300033 0.8185595220065968 -0.5609509432300034 -0.02818901657299452 -0.01884418618572272
0.097 -0.014782354588872781 -0.02891730273883444 0.8149878410175012 -0.5659989768941338 0.8149878410175012 -0.5659989768941338 -0.02864321844713807 -0.018780453543315874
0.098 -0.015017857279640664 -0.02914238647205799 0.8113851155583253 -0.5710241064282474 0.8113851155583253 -0.5710241064282474 -0.02909864874876826 -0.01871033347037575
0.099 -0.015254849629069943 -0.029366275954823107 0.8077514897592383 -0.576026144570643 0.8077514897592383 -0.576026144570643 -0.029555235346090693 -0.018633804892517713
0.1 -0.015493330339925025 -0.029588974090337467 0.8040871088836542 -0.5810049048793916 0.8040871088836542 -0.5810049048793916 -0.030012905857680735 -0.018550847406233636
0.101 -0.01573329827157005 -0.029810483669800117 0.800392119323231 -0.5859602017407717 0.800392119323231 -0.5859602017407717 -0.030471587658552273 -0.018461441283141172
0.102 -0.01597475243842105 -0.03003080737180135 0.7966666685928482 -0.5908918503776017 0.7966666685928482 -0.5908918503776017 -0.030931207886271114 -0.018365567474107104
0.103 -0.016217692008390443 -0.0302499477616675 0.7929109053255756 -0.5957996668574955 0.7929109053255756 -0.5957996668574955 -0.03139169344710926 -0.01826320761324856
0.104 -0.016462116301321852 -0.030467907290756185 0.7891249792675822 -0.600683468100997 0.7891249792675822 -0.600683468100997 -0.031852971022242306 -0.018154344021814137
0.105 -0.016708024787418483 -0.030684688295702457 0.7853090412730509 -0.605543071889653 0.7853090412730509 -0.605543071889653 -0.03231496707398404 -0.018038959711949448
0.106 -0.01695541708566196 -0.030900292997622963 0.7814632432990453 -0.6103782968739848 0.7814632432990453 -0.6103782968739848 -0.032777607852062365 -0.017917038390350293
0.107 -0.01720429296222039 -0.031114723501277388 0.7775877384003521 -0.6151889625813853 0.7775877384003521 -0.6151889625813853 -0.0332408193999316 -0.017788564461801878
0.108 -0.017454652328846222 -0.03132798179419082 0.7736826807242982 -0.6199748894239275 0.773682680724298 -0.6199748894239274 -0.0337045275611193 -0.01765352303261143
0.109 -0.01770649524126451 -0.031540069745743075 0.76974822550553 -0.624735898706101 0.76974822550553 -0.624735898706101 -0.03416865798561148 -0.01751189991393417
0.11 -0.017959821897548977 -0.03175098910622283 0.7657845290607735 -0.6294718126324759 0.7657845290607733 -0.6294718126324758 -0.03463313613626896 -0.0173636816249955
0.111 -0.01821463263648593 -0.031960741505851424 0.7617917487835545 -0.6341824543152839 0.7617917487835545 -0.6341824543152839 -0.035097887295278275 -0.017208855396209338
0.112 -0.018470927935927018 -0.03216932845377897 0.7577700431388945 -0.6388676477819404 0.7577700431388945 -0.6388676477819404 -0.03556283657063372 -0.017047409172197492
0.113 -0.01872870841112838 -0.03237675133705348 0.753719571657967 -0.6435272179824825 0.753719571657967 -0.6435272179824825 -0.03602790890264963 -0.01687933161471022
0.114 -0.01898797481307965 -0.03258301141956684 0.7496404949327361 -0.6481609907969577 0.7496404949327361 -0.6481609907969577 -0.03649302907050665 -0.01670461210544999
0.115 -0.01924872802681503 -0.03278810984097853 0.7455329746105496 -0.652768793042731 0.7455329746105495 -0.652768793042731 -0.03695812169881903 -0.016523240748799413
