!Created with skrf (http://scikit-rf.org).
# GHz S RI R 50.0 
!freq ReS11 ImS11 ReS21 ImS21 ReS12 ImS12 ReS22 ImS22
0.001 -1.1851021562881994e-05 -0.0005070862287623816 0.9997107208791318 -0.006424843910220946 0.9997107208791318 -0.006424843910220944 -1.3793426379868934e-05 -0.0005068812810705042
0.002 -2.3004195728460836e-05 -0.0009673302602012352 0.9995084673182092 -0.012800909219569216 0.9995084673182092 -0.012800909219569216 -3.0718641852819795e-05 -0.0009666559039478808
0.003 -3.7184944799282424e-05 -0.0014098154788230646 0.9992863865076329 -0.019157424159752832 0.9992863865076329 -0.019157424159752832 -5.446277567179607e-05 -0.001408381613309416
0.004 -5.450045379105005e-05 -0.001840711605523715 0.9990346618832634 -0.025500457575742576 0.9990346618832634 -0.025500457575742576 -8.510972285123215e-05 -0.0018381730206255603
0.005 -7.493059284016216e-05 -0.002262940793081608 0.9987495741221685 -0.031832773491512395 0.9987495741221685 -0.031832773491512395 -0.0001226207214944841 -0.002258890657786756
0.006 -9.843069368872698e-05 -0.002678218273237056 0.9984292637600329 -0.0381559036052945 0.9984292637600329 -0.0381559036052945 -0.00016693454973638043 -0.0026721854181267785
0.007 -0.00012495194096771918 -0.0030876728707597053 0.9980726591594361 -0.044470779263108495 0.9980726591594361 -0.0444707792631085 -0.00021798681740886324 -0.003079120413476037
0.008 -0.00015444679607942534 -0.0034921032409818975 0.9976790869934835 -0.05077799302448769 0.9976790869934835 -0.05077799302448769 -0.0002757148136706171 -0.0034804278271970217
0.009 -0.00018687049395605009 -0.0038921035299434646 0.9972480995924985 -0.05707792719348823 0.9972480995924985 -0.057077927193488226 -0.0003400586631380246 -0.003876634902112817
0.01 -0.00022218131865067494 -0.004288132379564452 0.9967793878372833 -0.06337082453042152 0.9967793878372833 -0.06337082453042152 -0.0004109613833195938 -0.004268133139028354
0.011 -0.0002603404766359351 -0.004680554015770978 0.9962727329735848 -0.0696568304291494 0.9962727329735848 -0.06965683042914939 -0.0004883686099414939 -0.004655219507961934
0.012 -0.0003013118474405236 -0.005069664255066423 0.9957279780465009 -0.07593601965753453 0.9957279780465009 -0.07593601965753453 -0.000572228242798677 -0.00503812253802484
0.013 -0.00034506171288254723 -0.005455707772711227 0.9951450100248918 -0.08220841414185898 0.9951450100248918 -0.08220841414185898 -0.0006624900982785327 -0.00541701964492787
0.014 -0.00039155850131997335 -0.005838890020033218 0.994523748117917 -0.08847399526029603 0.994523748117917 -0.08847399526029603 -0.0007591055959645539 -0.005792049092447367
0.015 -0.00044077255843058566 -0.0062193857148937345 0.9938641358604857 -0.09473271261568218 0.9938641358604857 -0.09473271261568218 -0.0008620274851756774 -0.006163318517064049
0.016 -0.0004926759462904842 -0.006597345054406538 0.9931661355887097 -0.10098449046552732 0.9931661355887097 -0.10098449046552732 -0.0009712096095251272 -0.0065309111680672376
0.017 -0.000547242268868166 -0.006972898365498331 0.9924297244841052 -0.10722923254354254 0.9924297244841052 -0.10722923254354254 -0.0010866067051133964 -0.006894890580758293
0.018 -0.000604446520883295 -0.007346159654996089 0.9916548916782643 -0.11346682574688359 0.9916548916782643 -0.11346682574688359 -0.001208174227571184 -0.007255304145787573
0.019 -0.000664264956832449 -0.0077172293662957515 0.9908416360928897 -0.11969714300477846 0.9908416360928897 -0.11969714300477846 -0.0013358682035141606 -0.007612185882595474
0.02 -0.0007266749772339068 -0.008086196552282966 0.9899899648011813 -0.12592004554428232 0.9899899648011813 -0.12592004554428232 -0.001469645102556849 -0.007965558627263798
0.021 -0.0007916550295023587 -0.008453140611026533 0.9890998917661653 -0.13213538470405328 0.9890998917661653 -0.13213538470405328 -0.0016094617266272577 -0.008315435781748643
0.022 -0.000859184521259796 -0.008818132688745995 0.9881714368563187 -0.138343003403862 0.9881714368563187 -0.138343003403862 -0.0017552751138780512 -0.008661822729322016
0.023 -0.0009292437442179215 -0.00918123682595805 0.9872046250683592 -0.14454273734813142 0.9872046250683592 -0.1445427373481314 -0.0019070424549432396 -0.009004717992364268
0.024 -0.0010018138070846407 -0.00954251090283851 0.9861994859069911 -0.15073441602135815 0.9861994859069911 -0.15073441602135815 -0.00206472101968788 -0.00934411418872228
0.025 -0.0010768765761929627 -0.00990200742578439 0.9851560528850699 -0.15691786351879236 0.9851560528850699 -0.15691786351879236 -0.0022282680929118026 -0.009679998828750739
0.026 -0.0011544146227619116 -0.010259774187053981 0.9840743631172018 -0.16309289924533507 0.9840743631172018 -0.16309289924533507 -0.0023976409177283546 -0.010012354985016098
0.027 -0.0012344111758783504 -0.01061585482198413 0.9829544569866104 -0.16925933850800093 0.9829544569866104 -0.16925933850800093 -0.002572796645552236 -0.010341161859240833
0.028 -0.0013168500804326393 -0.01097028928282437 0.9817963778700078 -0.17541699302166322 0.9817963778700078 -0.17541699302166322 -0.002753692291808411 -0.010666395265587837
0.029 -0.001401715759357888 -0.011323114244136099 0.9806001719087678 -0.1815656713435672 0.9806001719087678 -0.1815656713435672 -0.0029402846966092235 -0.01098802804528076
0.03 -0.0014889931796233425 -0.01167436345160254 0.979365887817392 -0.18770517924889554 0.979365887817392 -0.18770517924889554 -0.0031325304897667178 -0.011306030424443572
0.031 -0.0015786678215155181 -0.01202406802372119 0.9780935767222071 -0.1938353200572132 0.9780935767222071 -0.19383532005721318 -0.0033303860596054645 -0.0116203703246601
0.032 -0.0016707256508093058 -0.012372256714009473 0.9767832920247432 -0.19995589491771334 0.9767832920247432 -0.19995589491771334 -0.0035338075251197918 -0.011931013633908511
0.033 -0.0017651530934822957 -0.012718956139922485 0.9754350892854217 -0.2060667030597084 0.9754350892854217 -0.2060667030597084 -0.003742750711079561 -0.012237924444087866
0.034 -0.0018619370126836034 -0.013064190983547892 0.9740490261239843 -0.2121675420136226 0.9740490261239843 -0.2121675420136226 -0.00395717112575582 -0.012541065260217707
0.035 -0.0019610646876987276 -0.013407984168249901 0.9726251621339007 -0.21825820780683983 0.9726251621339007 -0.21825820780683983 -0.004177023940970239 -0.012840397185494231
0.036 -0.0020625237946925207 -0.013750357014714588 0.9711635588083916 -0.22433849513798454 0.9711635588083916 -0.22433849513798454 -0.004402263974223746 -0.013135880085665505
0.037 -0.002166302389036813 -0.01409132937927256 0.9696642794762591 -0.2304081975326445 0.9696642794762591 -0.23040819753264447 -0.004632845672682774 -0.013427472735609949
0.038 -0.0022723888890579316 -0.014430919776906984 0.9681273892459462 -0.2364671074830351 0.9681273892459462 -0.2364671074830351 -0.004868723098835552 -0.013715132950532316
0.039 -0.0023807720610554864 -0.01476914549097353 0.9665529549565894 -0.2425150165737237 0.9665529549565894 -0.2425150165737237 -0.00510984991765402 -0.013998817703808886
0.04 -0.0024914410054637944 -0.015106022671346444 0.9649410451350122 -0.24855171559520095 0.9649410451350122 -0.24855171559520092 -0.005356179385110917 -0.014278483233201102
0.041 -0.002604385144045285 -0.015441566422445752 0.9632917299577801 -0.2545769946468158 0.9632917299577801 -0.2545769946468158 -0.005607664337930894 -0.014554085136895227
0.042 -0.0027195942080133844 -0.015775790882387997 0.9616050812176006 -0.2605906432303765 0.9616050812176006 -0.2605906432303765 -0.005864257184458384 -0.01482557846061346
0.043 -0.0028370582269976953 -0.016108709294324744 0.9598811722934497 -0.26659245033552403 0.9598811722934497 -0.26659245033552403 -0.006125909896542199 -0.015092917776863654
0.044 -0.0029567675187703738 -0.01644033407088372 0.9581200781239133 -0.2725822045178394 0.9581200781239133 -0.2725822045178394 -0.006392574002349877 -0.015356057257243223
0.045 -0.0030787126796693316 -0.01677067685250131 0.9563218751832958 -0.2785596939705047 0.9563218751832958 -0.2785596939705047 -0.006664200580033373 -0.015614950738587716
0.046 -0.0032028845756486577 -0.017099748560331685 0.9544866414601499 -0.2845247065902424 0.9544866414601499 -0.2845247065902424 -0.00694074025217196 -0.015869551783651212
0.047 -0.0033292743339047286 -0.017427559444327168 0.9526144564378857 -0.29047703003814757 0.9526144564378857 -0.2904770300381476 -0.007222143180932954 -0.016119813736912347
0.048 -0.0034578733350286973 -0.017754119127005565 0.9507054010771874 -0.2964164517959549 0.9507054010771874 -0.2964164517959549 -0.007508359063894102 -0.01636568977602353
0.049 -0.0035886732056367664 -0.018079436643361323 0.9487595578000466 -0.3023427592182275 0.9487595578000466 -0.3023427592182275 -0.007799337130472306 -0.016607132959360487
0.05 -0.0037216658114389103 -0.01840352047731506 0.9467770104751497 -0.3082557395808665 0.9467770104751497 -0.3082557395808665 -0.008095026138917815 -0.01684409627006581
0.051 -0.0038568432507132553 -0.01872637859505215 0.9447578444045077 -0.314155180126326 0.9447578444045077 -0.314155180126326 -0.008395374373830155 -0.017076532656939272
0.052 -0.0039941978481466845 -0.01904801847555843 0.9427021463111267 -0.3200408681058382 0.9427021463111267 -0.32004086810583826 -0.008700329644159836 -0.017304395072480248
0.053 -0.004133722149016533 -0.019368447138625757 0.9406100043276356 -0.32591259081895374 0.9406100043276356 -0.32591259081895374 -0.009009839281660013 -0.017527636508357845
0.054 -0.004275408913684934 -0.019687671170568587 0.9384815079857254 -0.3317701356506359 0.9384815079857254 -0.3317701356506359 -0.009323850139759273 -0.017746210028547406
0.055 -0.004419251112380613 -0.0200056967478658 0.9363167482063083 -0.33761329010613805 0.9363167482063083 -0.33761329010613805 -0.009642308592828525 -0.017960068800347947
0.056 -0.004565241920244011 -0.02032252965892057 0.9341158172903384 -0.3434418418438752 0.9341158172903384 -0.3434418418438752 -0.009965160535810726 -0.01816916612347438
0.057 -0.004713374712620693 -0.020638175324105435 0.9318788089101666 -0.34925557870644774 0.9318788089101666 -0.34925557870644774 -0.010292351384200045 -0.01837345545738856
0.058 -0.004863643060579105 -0.020952638814248473 0.9296058181014167 -0.3550542887500009 0.9296058181014167 -0.3550542887500009 -0.010623826074339359 -0.018572890447028152
0.059 -0.005016040726635625 -0.021265924867695307 0.9272969412552923 -0.36083776027204545 0.9272969412552923 -0.36083776027204545 -0.010959529064023012 -0.01876742494706371
0.06 -0.005170561660675963 -0.021578037906069512 0.9249522761112695 -0.36660578183787956 0.9249522761112695 -0.36660578183787956 -0.011299404333384423 -0.018957013044809862
0.061 -0.005327199996053924 -0.021888982048842348 0.9225719217501392 -0.3723581423057201 0.9225719217501392 -0.3723581423057201 -0.011643395386053084 -0.0191416090818978
0.062 -0.0054859500458549 -0.022198761126811104 0.920155978587349 -0.37809463085065653 0.920155978587349 -0.37809463085065653 -0.01199144525056382 -0.019321167674810454
0.063 -0.005646806299315307 -0.022507378694575277 0.917704548366613 -0.3838150369875112 0.917704548366613 -0.3838150369875112 -0.012343496482009123 -0.01949564373436677
0.064 -0.005809763418383067 -0.022814838042092358 0.9152177341537623 -0.3895191505927019 0.9152177341537623 -0.3895191505927019 -0.012699491163914993 -0.019664992484238586
0.065 -0.005974816234409802 -0.02312114220538639 0.9126956403307983 -0.3952067619251766 0.9126956403307983 -0.3952067619251766 -0.013059370910335348 -0.019829169478570396
0.066 -0.006141959744966781 -0.02342629397647602 0.9101383725901341 -0.40087766164649313 0.9101383725901341 -0.40087766164649313 -0.013423076868147386 -0.01998813061877009
0.067 -0.006311189110774766 -0.023730295912582005 0.9075460379289937 -0.4065316408401069 0.9075460379289937 -0.4065316408401069 -0.013790549719545282 -0.020141832169529326
0.068 -0.006482499652737779 -0.0240331503446713 0.9049187446439637 -0.4121684910299295 0.9049187446439638 -0.4121684910299294 -0.014161729684713444 -0.02029023077412914
0.069 -0.0066558868490776925 -0.02433485938538491 0.902256602325644 -0.41778800419819584 0.902256602325644 -0.41778800419819584 -0.01453655652468051 -0.020433283469079126
0.07 -0.006831346332558435 -0.024635424936398427 0.8995597218534388 -0.423389972802713 0.8995597218534388 -0.423389972802713 -0.014914969544337603 -0.020570947698137984
0.071 -0.007008873887795468 -0.024934848695254502 0.8968282153904207 -0.42897418979350915 0.8968282153904207 -0.4289741897935092 -0.015296907595619006 -0.020703181325752374
0.072 -0.007188465448644195 -0.02523313216170828 0.8940621963782768 -0.4345404486289391 0.8940621963782768 -0.4345404486289391 -0.015682309080833803 -0.020829942649957554
0.073 -0.0073701170956603414 -0.025530276643618535 0.891261779532339 -0.44008854329127894 0.891261779532339 -0.44008854329127894 -0.01607111195614499 -0.020951190414769248
0.074 -0.00755382505363181 -0.02582628326241684 0.8884270808366552 -0.4456182683018398 0.8884270808366552 -0.4456182683018398 -0.016463253735189608 -0.021066883822100094
0.075 -0.007739585689169031 -0.026121152958188266 0.8855582175391244 -0.4511294187356396 0.8855582175391246 -0.4511294187356396 -0.01685867149283051 -0.02117698254323304
0.076 -0.007927395508358423 -0.026414886494384015 0.8826553081466643 -0.45662179023565097 0.8826553081466643 -0.45662179023565097 -0.017257301869040856 -0.021281446729871045
0.077 -0.00811725115446689 -0.026707484462198176 0.879718472420423 -0.4620951790266637 0.879718472420423 -0.4620951790266637 -0.017659081072907725 -0.021380237024796023
0.078 -0.008309149405700537 -0.026998947284626294 0.8767478313710116 -0.4675493819287763 0.8767478313710116 -0.4675493819287763 -0.01806394488676018 -0.02147331457215236
0.079 -0.008503087173005183 -0.02728927522023052 0.8737435072537565 -0.47298419637054145 0.8737435072537565 -0.47298419637054145 -0.0184718286704048 -0.021560641027381186
0.08 -0.00869906149791728 -0.027578468366628937 0.870705623563975 -0.4783994204017898 0.870705623563975 -0.4783994204017898 -0.018882667365479257 -0.021642178566820304
0.081 -0.008897069550449077 -0.02786652666372889 0.8676343050322599 -0.4837948527061476 0.86763430503226 -0.4837948527061476 -0.01929639549990593 -0.021717889896990816
0.082 -0.009097108627014482 -0.028153449896719786 0.8645296776197576 -0.48917029261326045 0.8645296776197576 -0.48917029261326045 -0.01971294719245074 -0.021787738263584072
0.083 -0.00929917614838829 -0.028439237698842497 0.8613918685134707 -0.49452554011075567 0.8613918685134707 -0.49452554011075567 -0.020132256157379142 -0.02185168746016697
0.084 -0.009503269657698524 -0.02872388955394787 0.8582210061215397 -0.4998603958559384 0.8582210061215397 -0.4998603958559384 -0.02055425570920951 -0.02190970183661545
0.085 -0.009709386818446335 -0.029007404798860742 0.8550172200685348 -0.505174661187253 0.8550172200685348 -0.505174661187253 -0.020978878767557264 -0.021961746307293886
0.086 -0.00991752541255565 -0.029289782625558244 0.8517806411907182 -0.5104681381355025 0.8517806411907181 -0.5104681381355026 -0.02140605786206701 -0.02200778635898841
0.087 -0.010127683338445978 -0.02957102208317833 0.8485114015313331 -0.515740629434874 0.8485114015313331 -0.515740629434874 -0.02183572513743474 -0.02204778805860764
0.088 -0.010339858609128316 -0.02985112207986499 0.8452096343358301 -0.5209919385337232 0.8452096343358301 -0.5209919385337232 -0.022267812358508346 -0.022081718060659686
0.089 -0.010554049350323948 -0.030130081384464286 0.8418754740471244 -0.5262218696051972 0.8418754740471244 -0.5262218696051972 -0.022702250915472594 -0.02210954361451678
0.09 -0.010770253798600466 -0.030407898628077173 0.8385090563008029 -0.5314302275576477 0.8385090563008029 -0.5314302275576476 -0.023138971829111853 -0.022131232571473567
0.091 -0.010988470299526924 -0.03068457230548087 0.8351105179203325 -0.5366168180448787 0.8351105179203325 -0.5366168180448787 -0.023577905756147297 -0.022146753391610704
0.092 -0.011208697305844114 -0.03096010077642561 0.831679996912227 -0.5417814474762151 0.831679996912227 -0.5417814474762151 -0.024018982994648386 -0.022156075150469422
0.093 -0.011430933375651 -0.031234482266813145 0.8282176324612168 -0.5469239230264277 0.8282176324612168 -0.5469239230264277 -0.02446213348951748 -0.022159167545544322
0.094 -0.011655177170602353 -0.031507714869766945 0.8247235649253686 -0.552044052645482 0.8247235649253686 -0.552044052645482 -0.024907286838041307 -0.022156000902600774
0.095 -0.011881427454119799 -0.03177979654660025 0.8211979358311956 -0.5571416450681576 0.8211979358311956 -0.5571416450681576 -0.025354372295510935 -0.02214654618182706
0.096 -0.01210968308961312 -0.032050725127685004 0.8176408878687367 -0.5622165098235199 0.8176408878687367 -0.5622165098235199 -0.02580331878090799 -0.022130774983818425
0.097 -0.012339943038711144 -0.03232049831323303 0.8140525648866045 -0.5672684572442566 0.8140525648866045 -0.5672684572442566 -0.02625405488265282 -0.022108659555409645
0.098 -0.012572206359501443 -0.03258911367399074 0.8104331118870126 -0.5722972984758908 0.8104331118870126 -0.5722972984758908 -0.0267065088644168 -0.02208017279535205
0.099 -0.012806472204776334 -0.03285656865185408 0.8067826750207632 -0.5773028454858632 0.8067826750207631 -0.5773028454858632 -0.027160608670992153 -0.022045288259843407
0.1 -0.013042739820287218 -0.03312286056040882 0.8031014015822109 -0.5822849110725 0.8031014015822109 -0.5822849110725 -0.027616281934222747 -0.02200398016791581
0.101 -0.013281008543002128 -0.033387986585402055 0.799389440004196 -0.5872433088738677 0.799389440004196 -0.5872433088738677 -0.028073455978990365 -0.021956223406685262
0.102 -0.013521277799370854 -0.03365194378514467 0.795646939852937 -0.592177853376511 0.7956469398529369 -0.5921778533765109 -0.02853205782925699 -0.021901993536464534
0.103 -0.013763547103591017 -0.03391472909085622 0.7918740518229038 -0.5970883599240956 0.7918740518229038 -0.5970883599240957 -0.028992014214160814 -0.021841266795746658
0.104 -0.014007816055879536 -0.03417633930694877 0.7880709277316479 -0.6019746447259404 0.7880709277316479 -0.6019746447259404 -0.029453251574165413 -0.021774020106059548
0.105 -0.014254084340746181 -0.03443677111125802 0.7842377205146042 -0.606836524865455 0.7842377205146042 -0.6068365248654551 -0.02991569606726011 -0.021700231076696122
0.106 -0.014502351725267312 -0.03469602105522345 0.7803745842198535 -0.6116738183084789 0.7803745842198535 -0.6116738183084789 -0.030379273575208678 -0.02161987800932292
0.107 -0.014752618057363229 -0.034954085564022144 0.7764816740028606 -0.6164863439115355 0.7764816740028605 -0.6164863439115355 -0.03084390970984916 -0.02153293990247135
0.108 -0.015004883264074285 -0.03521096093665577 0.772559146121164 -0.6212739214299876 0.7725591461211639 -0.6212739214299876 -0.03130952981943847 -0.02143939645590932
0.109 -0.01525914734983707 -0.0354666433459999 0.768607157929046 -0.6260363715261158 0.768607157929046 -0.6260363715261158 -0.031776058995045584 -0.021339228074903377
0.11 -0.015515410394762372 -0.03572112883881065 0.7646258678721526 -0.6307735157771065 0.7646258678721526 -0.6307735157771065 -0.03224342207698768 -0.02123241587436592
0.111 -0.015773672552908596 -0.03597441333569895 0.7606154354820888 -0.6354851766829603 0.7606154354820888 -0.6354851766829605 -0.032711543661310905 -0.021118941682896235
0.112 -0.016033934050557135 -0.03622649263106926 0.7565760213709772 -0.6401711776743287 0.7565760213709772 -0.6401711776743286 -0.03318034810631423 -0.0209987880467122
0.113 -0.016296195184483317 -0.036477362393027984 0.7525077872259681 -0.6448313431202578 0.7525077872259681 -0.6448313431202578 -0.03364975953911396 -0.02087193823347827
0.114 -0.016560456320227207 -0.03672701816326223 0.7484108958037375 -0.6494654983358777 0.7484108958037375 -0.6494654983358777 -0.034119701862249836 -0.020738376236029334
0.115 -0.016826717890359888 -0.03697545535689357 0.7442855109249199 -0.6540734695899996 0.7442855109249199 -0.6540734695899996 -0.034590098760329153 -0.02059808677599363
