!Created with skrf (http://scikit-rf.org).
# GHz S RI R 50.0 
!freq ReS11 ImS11 ReS21 ImS21 ReS12 ImS12 ReS22 ImS22
0.001 -1.8484369578885227e-05 -0.00047450604960164183 0.9995209183935679 -0.006484630396293217 0.9995209183935679 -0.006484630396293217 -2.0480736648875512e-05 -0.00047415346426010204
0.002 -3.063465293493306e-05 -0.0009042900775211036 0.9992432427065399 -0.012915152473069362 0.9992432427065399 -0.012915152473069362 -3.8580613110726034e-05 -0.0009032019887130624
0.003 -4.4796216010107455e-05 -0.001317131402280256 0.9989633142283953 -0.019323835730927354 0.9989633142283953 -0.019323835730927354 -6.260495258952159e-05 -0.0013149382864299202
0.004 -6.140867842700008e-05 -0.0017189269444098409 0.998662474503367 -0.025717447555097313 0.998662474503367 -0.02571744755509732 -9.296867715011838e-05 -0.0017152159342411497
0.005 -8.057520371434995e-05 -0.0021124720005620797 0.9983336110403934 -0.03209909441122887 0.9983336110403934 -0.03209909441122887 -0.00012975505761506596 -0.0021067741315278247
0.006 -0.00010231316273610813 -0.0024994091534009904 0.997973137023804 -0.03847051393778288 0.997973137023804 -0.03847051393778288 -0.00017296373167916454 -0.002491193901545402
0.007 -0.00012661045474363344 -0.0028808209035436003 0.997578961596478 -0.04483277548871698 0.997578961596478 -0.04483277548871698 -0.00022256589118236383 -0.0028694933157060775
0.008 -0.00015344366164098046 -0.003257474396510771 0.9971497516669647 -0.051186570600999924 0.9971497516669647 -0.051186570600999924 -0.0002785218395716678 -0.0032423734133849823
0.009 -0.00018278509106184814 -0.0036299414388922683 0.9966846042603503 -0.057532355946898525 0.9966846042603503 -0.05753235594689852 -0.0003407876808547795 -0.0036103388551227515
0.01 -0.0002146058168131584 -0.00399866440433788 0.9961828809379562 -0.06387043208671679 0.9961828809379562 -0.06387043208671679 -0.0004093181324770383 -0.003973764204688207
0.011 -0.0002488770692627259 -0.004363995476235201 0.9956441160257672 -0.07020099050027286 0.9956441160257672 -0.07020099050027286 -0.0004840677608810541 -0.004332933410727686
0.012 -0.00028557088078965564 -0.0047262214860370804 0.9950679620930495 -0.07652414343873544 0.9950679620930495 -0.07652414343873543 -0.0005649915170186097 -0.004688064805920445
0.013 -0.00032466037354205585 -0.005085580405531416 0.9944541557539385 -0.08283994379925043 0.9944541557539385 -0.08283994379925043 -0.0006520449434162234 -0.005039327712680246
0.014 -0.00036611986856951333 -0.005442272728462132 0.9938024952585027 -0.08914839887677904 0.9938024952585027 -0.08914839887677904 -0.0007451842225245838 -0.005386853908013111
0.015 -0.00040992490410945813 -0.005796469579140135 0.9931128252712624 -0.09544948018663484 0.9931128252712624 -0.09544948018663484 -0.0008443661482544088 -0.00573074579534681
0.016 -0.0004560522079362639 -0.006148318645550785 0.9923850262154731 -0.10174313067017215 0.9923850262154731 -0.10174313067017217 -0.0009495480617659628 -0.006071082387138925
0.017 -0.0005044796474479693 -0.0064979486204249605 0.9916190066199163 -0.10802927010238154 0.9916190066199163 -0.10802927010238154 -0.0010606877725833244 -0.006407923785782351
0.018 -0.0005551861702110884 -0.006845472591232345 0.9908146974994001 -0.11430779923052022 0.9908146974994001 -0.1143077992305202 -0.0011777434759408002 -0.0067413146064572525
0.019 -0.0006081517418252959 -0.007190990672369954 0.9899720481484658 -0.12057860299626105 0.9899720481484658 -0.12057860299626103 -0.0013006736719229151 -0.007071286637038749
0.02 -0.0006633572847658759 -0.007534592079805834 0.9890910229392489 -0.12684155308242095 0.989091022939249 -0.12684155308242095 -0.0014294370891125311 -0.0073978609366038214
0.021 -0.00072078462008007 -0.007876356788121599 0.9881715988470046 -0.13309650995297514 0.9881715988470046 -0.13309650995297514 -0.001563992613915288 -0.0077210495133967876
0.022 -0.0007804164128136502 -0.008216356869765708 0.9872137635122771 -0.1393433245068661 0.9872137635122771 -0.1393433245068661 -0.0017042992259050504 -0.008040856682731395
0.023 -0.0008422361214752991 -0.008554657589015538 0.9862175137049922 -0.14558183943324915 0.9862175137049922 -0.14558183943324915 -0.0018503159390865578 -0.008357280177819568
0.024 -0.0009062279515430252 -0.008891318304169754 0.9851828540938721 -0.1518118903329751 0.9851828540938721 -0.15181189033297507 -0.002002001748761662 -0.008670312067416662
0.025 -0.0009723768128412423 -0.00922639321807196 0.9841097962507344 -0.15803330665491913 0.9841097962507344 -0.15803330665491913 -0.0021593155835757274 -0.008979939520664962
0.026 -0.0010406682805434587 -0.009559932007412628 0.982998357837579 -0.1642459124841139 0.982998357837579 -0.1642459124841139 -0.0023222162622989657 -0.00928614544979719
0.027 -0.0011110885595143449 -0.009891980354208766 0.9818485619374524 -0.1704495272101277 0.9818485619374524 -0.1704495272101277 -0.002490662454893836 -0.009588909054267689
0.028 -0.0011836244517054715 -0.01022258039764732 0.9806604364994217 -0.1766439660978097 0.9806604364994217 -0.1766439660978097 -0.00266461264745497 -0.009888206284626803
0.029 -0.0012582633263169272 -0.010551771120569447 0.9794340138750453 -0.18282904077780715 0.9794340138750453 -0.18282904077780715 -0.0028440251106235286 -0.010184010240521384
0.03 -0.0013349930924689887 -0.010879588681909753 0.9781693304286627 -0.1890045596706431 0.9781693304286627 -0.1890045596706431 -0.0030288578711324945 -0.010476291514216963
0.031 -0.0014138021741373144 -0.01120606670413673 0.9768664262078185 -0.19517032835541165 0.9768664262078185 -0.19517032835541165 -0.0032190686861644498 -0.01076501848875481
0.032 -0.0014946794871266511 -0.011531236522984292 0.9755253446629307 -0.2013261498919945 0.9755253446629307 -0.2013261498919945 -0.003414615020231763 -0.011050157598088008
0.033 -0.001577614417889257 -0.011855127405392978 0.9741461324076011 -0.2074718251040487 0.9741461324076011 -0.2074718251040487 -0.003615454024338203 -0.011331673555158085
0.034 -0.001662596804001244 -0.012177766740501202 0.9727288390126351 -0.2136071528286911 0.9727288390126351 -0.21360715282869114 -0.003821542517185666 -0.011609529552789528
0.035 -0.001749616916140694 -0.01249918020766865 0.9712735168282199 -0.2197319301377684 0.9712735168282199 -0.21973193013776837 -0.004032836968237834 -0.011883687441412933
0.036 -0.0018386654414177701 -0.012819391924831306 0.969780220829695 -0.2258459525347576 0.969780220829695 -0.2258459525347576 -0.0042492934824547015 -0.012154107886940905
0.037 -0.001929733467929454 -0.013138424579934062 0.9682490084832569 -0.23194901413067964 0.9682490084832569 -0.23194901413067964 -0.0044708677865465275 -0.012420750511563107
0.038 -0.0020228124704251946 -0.013456299547741718 0.9666799396285106 -0.23804090780184806 0.9666799396285106 -0.23804090780184806 -0.004697515216605141 -0.012683574019778293
0.039 -0.0021178942969739536 -0.013773036993962946 0.9650730763753845 -0.24412142533184292 0.9650730763753845 -0.24412142533184286 -0.004929190706988943 -0.012942536311610919
0.04 -0.0022149711565457564 -0.014088655968325571 0.9634284830133122 -0.25019035753972485 0.9634284830133122 -0.2501903575397248 -0.0051658487803483664 -0.013197594584664388
0.041 -0.002314035607421176 -0.014403174487992085 0.9617462259309173 -0.25624749439620315 0.9617462259309173 -0.25624749439620315 -0.005407443538698162 -0.013448705426407527
0.042 -0.0024150805463534104 -0.01471660961250402 0.9600263735447683 -0.26229262512922824 0.9600263735447683 -0.26229262512922824 -0.00565392865544009 -0.013695824897893137
0.043 -0.002518099198420507 -0.015028977511268497 0.9582689962359469 -0.268325538320259 0.9582689962359469 -0.268325538320259 -0.00590525736826475 -0.013938908609928127
0.044 -0.002623085107500759 -0.01534029352446375 0.9564741662933978 -0.27434602199228925 0.9564741662933978 -0.27434602199228925 -0.006161382472855103 -0.014177911792577854
0.045 -0.0027300321273215295 -0.015650572218115662 0.9546419578631794 -0.2803538636905693 0.9546419578631794 -0.28035386369056936 -0.006422256317330995 -0.014412789358762312
0.046 -0.0028389344130322473 -0.01595982743400068 0.9527724469028376 -0.2863488505568236 0.9527724469028376 -0.2863488505568236 -0.006687830797376679 -0.014643495962602695
0.047 -0.0029497864132547067 -0.01626807233494158 0.9508657111402966 -0.2923307693976839 0.9508657111402966 -0.2923307693976839 -0.006958057351997547 -0.014869986053090506
0.048 -0.0030625828625744714 -0.016575319445990666 0.948921830036668 -0.2982994067479352 0.948921830036668 -0.2982994067479352 -0.007232886959863252 -0.015092213923573726
0.049 -0.003177318774431484 -0.016881580691935932 0.9469408847525373 -0.30425454892912607 0.9469408847525373 -0.30425454892912607 -0.00751227013618891 -0.015310133757500935
0.05 -0.0032939894343834075 -0.017186867431506516 0.9449229581172954 -0.31019598210400806 0.9449229581172954 -0.31019598210400806 -0.007796156930119952 -0.01552369967080049
0.051 -0.0034125903937082184 -0.017491190488613306 0.9428681346011539 -0.3161234923272179 0.9428681346011539 -0.3161234923272179 -0.008084496922586917 -0.015732865751232082
0.052 -0.0035331174633181812 -0.017794560180919374 0.9407765002895676 -0.32203686559258193 0.9407765002895676 -0.32203686559258193 -0.008377239224593202 -0.01593758609500802
0.053 -0.003655566707961915 -0.018096986345999065 0.9386481428597362 -0.3279358878773435 0.9386481428597362 -0.3279358878773435 -0.008674332475910769 -0.016137814840942885
0.054 -0.0037799344406938135 -0.018398478365318802 0.9364831515590191 -0.3338203451836331 0.9364831515590191 -0.3338203451836331 -0.008975724844158001 -0.016333506202367162
0.055 -0.0039062172175845494 -0.01869904518624092 0.9342816171849848 -0.33969002357740097 0.9342816171849848 -0.33969002357740097 -0.009281364024230986 -0.01652461449700504
0.056 -0.004034411832660711 -0.01899869534223828 0.932043632066973 -0.3455447092250714 0.932043632066973 -0.3455447092250714 -0.009591197238072231 -0.016711094175006495
0.057 -0.004164515313050448 -0.019297436971476827 0.9297692900489744 -0.35138418842810254 0.9297692900489744 -0.35138418842810254 -0.009905171234751644 -0.016892899845290316
0.058 -0.004296524914322858 -0.019595277833916343 0.9274586864736966 -0.3572082476556409 0.9274586864736966 -0.3572082476556409 -0.010223232290841738 -0.017069986300349376
0.059 -0.004430438116005546 -0.019892225327056954 0.9251119181677017 -0.36301667357543405 0.9251119181677017 -0.36301667357543405 -0.010545326211076032 -0.017242308539644306
0.06 -0.004566252617265406 -0.020188286500450868 0.9227290834274859 -0.36880925308314577 0.9227290834274859 -0.36880925308314577 -0.01087139832926327 -0.01740982179170822
0.061 -0.004703966332743771 -0.0204834680690826 0.920310282006424 -0.3745857733302071 0.920310282006424 -0.3745857733302071 -0.011201393509456327 -0.017572481535061902
0.062 -0.004843577388531863 -0.020777776425713535 0.9178556151024723 -0.38034602175032023 0.9178556151024723 -0.38034602175032023 -0.011535256147351926 -0.017730243518039028
0.063 -0.004985084118275759 -0.02107121765227795 0.9153651853465705 -0.3860897860847262 0.9153651853465705 -0.3860897860847262 -0.01187293017191391 -0.01788306377760563
0.064 -0.005128485059403125 -0.021363797530405806 0.9128390967916625 -0.3918168544063297 0.9128390967916625 -0.3918168544063297 -0.012214359047207204 -0.018030898657250816
0.065 -0.005273778949463929 -0.02165552155114286 0.9102774549022766 -0.3975270151427721 0.9102774549022766 -0.3975270151427722 -0.012559485774434179 -0.018173704824017974
0.066 -0.005420964722570249 -0.021946394923935412 0.9076803665446102 -0.4032200570985299 0.9076803665446102 -0.4032200570985298 -0.012908252894157857 -0.018311439284743797
0.067 -0.005570041505937495 -0.022236422584930977 0.9050479399770712 -0.40889576947611156 0.9050479399770712 -0.40889576947611156 -0.013260602488710095 -0.018444059401556745
0.068 -0.005721008616511505 -0.022525609204654032 0.9023802848412306 -0.4145539418964235 0.9023802848412306 -0.4145539418964235 -0.013616476184770616 -0.018571522906693262
0.069 -0.00587386555767846 -0.022813959195102613 0.8996775121531413 -0.4201943644183561 0.8996775121531413 -0.4201943644183561 -0.013975815156112022 -0.018693787916676433
0.07 -0.006028612016053324 -0.023101476716305847 0.8969397342950035 -0.42581682755765504 0.8969397342950035 -0.42581682755765504 -0.014338560126502278 -0.01881081294589876
0.071 -0.006185247858337011 -0.023388165682389717 0.8941670650071122 -0.4314211223051196 0.8941670650071122 -0.4314211223051196 -0.01470465137275743 -0.018922556919654047
0.072 -0.006343773128240289 -0.023674029767181956 0.8913596193801039 -0.43700704014418107 0.8913596193801039 -0.43700704014418107 -0.01507402872794035 -0.019028979186649652
0.073 -0.0065041880434677166 -0.023959072409392313 0.8885175138474268 -0.4425743730678976 0.8885175138474268 -0.4425743730678975 -0.015446631584695 -0.019130039531035394
0.074 -0.00666649299275894 -0.024243296817397505 0.8856408661780445 -0.4481229135954045 0.8856408661780445 -0.44812291359540446 -0.01582239889871645 -0.01922569818397692
0.075 -0.0068306885329804164 -0.02452670597366144 0.8827297954693439 -0.4536524547878646 0.8827297954693439 -0.45365245478786453 -0.01620126919234605 -0.019315915834804524
0.076 -0.006996775386267639 -0.024809302638814028 0.8797844221402124 -0.459162790263934 0.8797844221402124 -0.459162790263934 -0.016583180558291208 -0.019400653641760073
0.077 -0.007164754437208052 -0.025091089355415118 0.8768048679242908 -0.46465371421479335 0.8768048679242908 -0.46465371421479335 -0.016968070663459893 -0.0194798732423677
0.078 -0.007334626730068699 -0.02537206845142366 0.8737912558633625 -0.4701250214187533 0.8737912558633625 -0.4701250214187533 -0.017355876752911857 -0.019553536763448374
0.079 -0.007506393466059996 -0.0256522420433945 0.8707437103008805 -0.4755765072554747 0.8707437103008805 -0.4755765072554747 -0.017746535653917397 -0.01962160683080031
0.08 -0.007680056000633894 -0.025931612039419332 0.8676623568756199 -0.4810079677198212 0.8676623568756199 -0.4810079677198212 -0.01813998378012235 -0.019684046578560044
0.081 -0.007855615840814447 -0.026210180141831012 0.8645473225154122 -0.48641919943535794 0.8645473225154122 -0.4864191994353579 -0.018536157135812713 -0.019740819658265463
0.082 -0.0080330746425589 -0.02648794784968832 0.8613987354310036 -0.49180999966753564 0.8613987354310036 -0.49180999966753564 -0.018934991320281494 -0.019791890247633878
0.083 -0.008212434208143585 -0.026764916461052432 0.8582167251099824 -0.49718016633656037 0.8582167251099824 -0.49718016633656037 -0.019336421532286648 -0.01983722305906976
0.084 -0.008393696483576235 -0.027041087075073095 0.855001422310778 -0.5025294980299728 0.855001422310778 -0.5025294980299728 -0.019740382574602526 -0.019876783347915306
0.085 -0.008576863556030975 -0.02731646059389496 0.8517529590567348 -0.5078577940149559 0.8517529590567349 -0.5078577940149558 -0.020146808858661578 -0.019910536920458022
0.086 -0.008761937651302312 -0.027591037724397843 0.8484714686302436 -0.5131648542503863 0.8484714686302436 -0.5131648542503862 -0.02055563440927909 -0.0199384501417063
0.087 -0.008948921131279956 -0.027864818979778997 0.8451570855669163 -0.5184504793986313 0.8451570855669163 -0.5184504793986313 -0.020966792869464887 -0.019960489942939315
0.088 -0.009137816491438744 -0.028137804680992633 0.8418099456498184 -0.5237144708371282 0.8418099456498184 -0.5237144708371282 -0.021380217505313315 -0.019976623829049984
0.089 -0.009328626358345282 -0.028409994958051354 0.8384301859037211 -0.5289566306697224 0.8384301859037211 -0.5289566306697224 -0.021795841210973055 -0.019986819885680605
0.09 -0.00952135348717692 -0.02868138975120247 0.8350179445894111 -0.534176761737822 0.8350179445894111 -0.534176761737822 -0.022213596513692698 -0.019991046786167015
0.091 -0.009716000759256115 -0.02895198881198464 0.8315733611979956 -0.5393746676313245 0.8315733611979956 -0.5393746676313245 -0.02263341557894165 -0.01998927379829386
0.092 -0.009912571179591951 -0.029221791704176058 0.8280965764452655 -0.5445501526993813 0.8280965764452655 -0.5445501526993815 -0.02305523021560059 -0.01998147079087426
0.093 -0.010111067874434701 -0.029490797804637068 0.8245877322660459 -0.549703022060964 0.8245877322660459 -0.549703022060964 -0.023478971881225667 -0.019967608240152465
0.094 -0.010311494088836165 -0.029759006304059907 0.8210469718085804 -0.5548330816152638 0.8210469718085804 -0.5548330816152638 -0.023904571687375375 -0.019947657236046197
0.095 -0.010513853184221947 -0.030026416207626076 0.8174744394289197 -0.5599401380519318 0.8174744394289197 -0.5599401380519318 -0.024331960405010934 -0.01992158948822473
0.096 -0.010718148635964195 -0.03029302633558184 0.8138702806853151 -0.5650239988611552 0.8138702806853151 -0.5650239988611552 -0.024761068469953688 -0.01988937733203505
0.097 -0.010924384030965163 -0.030558835323735857 0.8102346423326157 -0.5700844723435883 0.8102346423326156 -0.5700844723435883 -0.025191825988411083 -0.01985099373427913
0.098 -0.01113256306524387 -0.030823841623883946 0.806567672316671 -0.5751213676201375 0.806567672316671 -0.5751213676201375 -0.025624162742561185 -0.019806412298845902
0.099 -0.011342689541524426 -0.031088043504166205 0.8028695197687251 -0.5801344946416116 0.8028695197687251 -0.5801344946416116 -0.026058008196197198 -0.019755607272203622
0.1 -0.011554767366830788 -0.03135143904936375 0.7991403349998174 -0.585123664198241 0.7991403349998174 -0.585123664198241 -0.026493291500430522 -0.019698553548760163
0.101 -0.011768800550081554 -0.03161402616113338 0.7953802694951577 -0.5900886879290634 0.7953802694951577 -0.5900886879290634 -0.026929941499450993 -0.019635226676085697
0.102 -0.011984793199687642 -0.031875802558192626 0.7915894759085138 -0.5950293783312005 0.7915894759085138 -0.5950293783312005 -0.027367886736342235 -0.019565602860014176
0.103 -0.012202749521149357 -0.0321367657764516 0.787768108056571 -0.5999455487690039 0.787768108056571 -0.5999455487690039 -0.027807055458949185 -0.019489658969616405
0.104 -0.012422673814657099 -0.03239691316910003 0.7839163209132903 -0.6048370134831024 0.7839163209132903 -0.6048370134831024 -0.028247375625802706 -0.019407372542054394
0.105 -0.0126445704726874 -0.03265624190665207 0.7800342706042402 -0.6097035875993274 0.7800342706042402 -0.6097035875993274 -0.028688774912090747 -0.019318721787316348
0.106 -0.012868443977602739 -0.03291474897694983 0.7761221144009264 -0.6145450871375455 0.7761221144009264 -0.6145450871375455 -0.029131180715683352 -0.019223685592837422
0.107 -0.013094298899247129 -0.03317243118513309 0.772180010715095 -0.6193613290203862 0.772180010715095 -0.6193613290203862 -0.029574520163204873 -0.019122243528009012
0.108 -0.013322139892542283 -0.033429285153573206 0.7682081190930121 -0.6241521310818648 0.7682081190930121 -0.6241521310818648 -0.030018720116156063 -0.019014375848574867
0.109 -0.013551971695080366 -0.033685307321779934 0.7642066002097385 -0.6289173120759273 0.7642066002097385 -0.6289173120759273 -0.03046370717707996 -0.018900063500925525
0.11 -0.013783799124714814 -0.033940493946276046 0.7601756158633625 -0.6336566916848851 0.7601756158633625 -0.6336566916848851 -0.03090940769577667 -0.01877928812628046
0.111 -0.014017627077150303 -0.034194841100451234 0.7561153289692318 -0.6383700905277796 0.7561153289692317 -0.6383700905277796 -0.03135574777556221 -0.018652032064773574
0.112 -0.014253460523526195 -0.03444834467438997 0.7520259035541403 -0.6430573301686441 0.7520259035541403 -0.6430573301686441 -0.031802653279568584 -0.01851827835943208
0.113 -0.014491304507999177 -0.03470100037467996 0.7479075047505093 -0.6477182331246979 0.7479075047505093 -0.6477182331246979 -0.03225004983709034 -0.018378010760059675
0.114 -0.014731164145323728 -0.034952803724202466 0.7437602987905292 -0.6523526228744488 0.7437602987905292 -0.6523526228744488 -0.03269786284997035 -0.01823121372702036
0.115 -0.014973044618424152 -0.03520375006190598 0.7395844530002788 -0.6569603238657181 0.7395844530002788 -0.656960323865718 -0.03314601749902668 -0.01807787243492627
