!Created with skrf (http://scikit-rf.org).
# GHz S RI R 50.0 
!freq ReS11 ImS11
75.0 0.243735200606 0.279797176931
75.35 0.420474505228 0.243984438793
75.7 0.149335450601 0.787128510604
76.05 -0.289802952402 0.0654712281836
76.4 -0.306168844129 0.445671755792
76.75 -0.0376544954636 0.542263675033
77.1 0.733591969817 0.894256380588
77.45 -0.378660588225 -0.256561120363
77.8 0.000178081228751 -0.604498963727
78.15 -0.413376173186 0.135146957948
78.5 0.0410093536381 -0.799127276047
78.85 -0.113955230298 0.0344628697767
79.2 0.631956037353 -0.256355093273
79.55 0.749096894295 0.878154984125
79.9 0.273404045529 -0.783676995349
80.25 -0.43542899961 -0.996285451226
80.6 -0.49503715107 -0.135077141658
80.95 -0.343162688742 0.724370225411
81.3 -0.818588563204 -0.60729018559
81.65 0.604836966185 -0.90019344573
82.0 0.133602057318 -0.466829168253
82.35 0.231827697376 0.748758695707
82.7 -0.661648657138 -0.932155220149
83.05 0.463898901468 0.675164295795
83.4 0.196432114285 0.417273041566
83.75 0.982108565935 -0.663454600759
84.1 -0.577292524268 0.442488969711
84.45 0.90524904466 -0.127176710263
84.8 0.796228049423 -0.627493165745
85.15 -0.166635619848 0.560092109179
85.5 0.366665865258 0.834333229225
85.85 0.0486419422481 -0.946985222503
86.2 -0.447051887421 -0.376768160778
86.55 0.169660148361 0.594359346425
86.9 0.231370463372 -0.535310402834
87.25 -0.613184719187 -0.259411141585
87.6 -0.191765120849 -0.0837926379654
87.95 0.0413687452497 -0.453080210095
88.3 -0.488449279119 -0.592392040047
88.65 0.559755419162 0.629311409804
89.0 -0.669228036634 0.590443284531
89.35 -0.697313409699 -0.216953418167
89.7 -0.861184428389 -0.283999164808
90.05 -0.573928734658 -0.110504590881
90.4 -0.84666424011 -0.397330771307
90.75 -0.423995999134 -0.834713290762
91.1 0.112683795298 -0.833073723203
91.45 -0.255141558894 -0.0317200310893
91.8 -0.172330881338 -0.735577544257
92.15 0.322355688446 -0.341888548983
92.5 -0.982826427271 0.91658218217
92.85 0.213695607838 -0.40376380838
93.2 -0.545320647991 -0.327330498671
93.55 -0.380152589664 0.646101233601
93.9 0.631421249223 -0.2429896679
94.25 0.215183151553 -0.581109197613
94.6 -0.861724696802 -0.640527808235
94.95 0.911507148671 0.55281174796
95.3 -0.739298650612 0.174571269337
95.65 -0.143252393255 -0.342345412316
96.0 0.805911617964 0.861601148019
96.35 -0.846032318477 -0.543434001001
96.7 0.484949954998 0.265933435971
97.05 0.415324638273 -0.321711810007
97.4 0.792952697994 -0.921663970546
97.75 -0.694728859069 0.232088583594
98.1 -0.695077908083 0.211239480493
98.45 -0.0181603123309 0.996321978391
98.8 0.489388539457 0.888750850961
99.15 -0.739507836264 0.819270805875
99.5 -0.181999265911 -0.27707216983
99.85 0.0543388020756 0.391771289501
100.2 -0.167428673386 -0.689521207007
100.55 -0.392067494982 -0.665710724721
100.9 0.975600947432 -0.818275407754
101.25 -0.476404812651 0.88893877896
101.6 0.487705151906 -0.626953329397
101.95 0.581866922589 -0.901515407806
102.3 0.86497417635 0.662351074603
102.65 -0.778897956408 0.647251415727
103.0 -0.687837536824 -0.336871793096
103.35 -0.0586239116724 0.845721096385
103.7 -0.952618968308 -0.681293105496
104.05 -0.372134101312 0.109839739139
104.4 0.961172960394 0.619796256719
104.75 0.793576447629 -0.807991539385
105.1 0.285926228759 0.689926952815
105.45 0.0389032585603 0.678061382405
105.8 -0.881646349216 -0.481925006973
106.15 0.498586598357 -0.826247875106
106.5 -0.0857397630822 0.0877741295192
106.85 0.773736985109 0.0354792352471
107.2 0.871546390355 -0.131678149771
107.55 -0.47749654142 -0.178361998117
107.9 0.546302708044 -0.731645826277
108.25 0.357730244932 -0.345456576086
108.6 0.844423912532 0.118406616513
108.95 -0.649706947743 -0.182777437512
109.3 -0.245016076354 -0.861421452954
109.65 0.773159244002 -0.268836301825
110.0 -0.686499043998 0.807603638931
