!Created with skrf (http://scikit-rf.org).
# GHz S RI R 50.0 
!freq ReS11 ImS11
75.0 0.0796915506554 -0.654867890124
75.35 0.902577650561 0.475847682912
75.7 0.98738310831 0.485720739567
76.05 -0.305844800584 0.917258778175
76.4 -0.558274936189 0.311745384694
76.75 -0.811294582484 -0.556039212673
77.1 -0.281931914858 0.918698073106
77.45 -0.0530489043967 -0.585322385264
77.8 0.749640851135 0.77705206639
78.15 0.0146718974211 0.724357127227
78.5 -0.661314948398 0.0353374968378
78.85 0.595953713762 0.75986082563
79.2 -0.95347741262 0.543831378991
79.55 0.2456275351 0.859927174116
79.9 0.712341241357 0.114606041418
80.25 0.309500962183 0.58764597774
80.6 -0.124960309387 -0.907514521774
80.95 0.73624120297 -0.772566211077
81.3 0.112412731661 -0.145214494145
81.65 -0.809593127361 0.846453489013
82.0 0.321076250704 0.686244858063
82.35 0.625585209589 -0.155045349592
82.7 -0.525530289533 0.389840039141
83.05 -0.128054361082 -0.808470786934
83.4 -0.327429182398 -0.0214358404687
83.75 -0.966728403888 0.26524618293
84.1 0.40257480637 0.0575684620696
84.45 -0.82271575424 0.243617761241
84.8 -0.745974464794 -0.865210546374
85.15 -0.340599856407 -0.885464239966
85.5 -0.109254404891 0.626930447907
85.85 0.188803121164 0.449844244834
86.2 -0.83266624311 0.954579383192
86.55 0.266926486333 -0.463093771815
86.9 -0.785456146136 -0.297853864784
87.25 0.69108173355 -0.765107022757
87.6 -0.0264675233961 0.647992693851
87.95 -0.598890999138 0.765466149357
88.3 -0.3684961151 0.455368068336
88.65 -0.309069055862 0.738380467055
89.0 0.616553970288 0.992177182782
89.35 -0.158709453733 -0.417480412712
89.7 -0.649713597967 -0.267289910141
90.05 0.141390535782 0.189023908597
90.4 -0.472739871537 0.3942644457
90.75 0.616511933396 0.0515944301505
91.1 0.267392717952 0.135540464768
91.45 0.162805770568 0.259369600029
91.8 -0.231394579712 -0.200952349713
92.15 -0.459481208482 0.351897072453
92.5 0.187683236141 0.61441694394
92.85 0.729645998677 -0.147659487899
93.2 0.162046038059 -0.305933534436
93.55 0.630247719668 -0.770165980087
93.9 0.484533130794 0.842796583352
94.25 0.597133382864 0.107364413446
94.6 -0.738570630125 0.119894771945
94.95 0.693167981243 0.876201553579
95.3 0.190057348005 -0.798598010266
95.65 0.0721898372453 0.812476524863
96.0 -0.876556852414 0.0902238656184
96.35 -0.828621771612 0.96997027815
96.7 -0.418290650511 -0.998006822539
97.05 -0.213205056142 0.793161474808
97.4 0.104397319171 0.262145219915
97.75 -0.316903207659 -0.846860630405
98.1 0.763520578654 0.245153011056
98.45 0.70800483324 0.195186628311
98.8 0.331410804814 0.0613903982588
99.15 -0.457118522626 -0.345711194641
99.5 -0.591417421679 -0.511283653713
99.85 -0.667527419732 0.374493582243
100.2 -0.562658660854 -0.870088140549
100.55 -0.150241580397 0.933288709353
100.9 -0.361637884891 -0.450450535557
101.25 0.187078245522 0.318344632891
101.6 -0.345147981158 0.916809257007
101.95 0.104718255384 -0.0130211030789
102.3 -0.0726495880148 0.657824916491
102.65 -0.610123948591 0.829771116055
103.0 0.424799076684 0.935105269901
103.35 0.148168101364 0.998940007837
103.7 -0.193590139242 -0.0648943345752
104.05 -0.759826468346 -0.68821759335
104.4 -0.127074152908 -0.781336222243
104.75 -0.511734136993 -0.750302720502
105.1 -0.945431294486 -0.925729516044
105.45 -0.98756569845 0.526596931061
105.8 0.828659398274 -0.286952821636
106.15 -0.842909821685 -0.815321457296
106.5 -0.98522927129 -0.172120783816
106.85 -0.26891215411 -0.398048828958
107.2 -0.490516826931 0.140565455082
107.55 0.606257724059 0.787313187087
107.9 0.350965117473 0.188886178667
108.25 -0.337585677861 0.552322654451
108.6 0.450751672792 -0.239085381315
108.95 0.044055655021 -0.407427361707
109.3 0.399972501591 0.588781115651
109.65 -0.180116793416 -0.423171475857
110.0 0.159072906478 -0.175193094797
