!Created with skrf (http://scikit-rf.org).
# GHz S RI R 50.0 
!freq ReS11 ImS11
75.0 -0.279248629782 -0.0993014540643
75.35 -0.475316975548 -0.737236676659
75.7 -0.399346777115 -0.638930389531
76.05 -0.300125989436 0.53360147605
76.4 0.461126038915 0.395415804555
76.75 -0.629875764777 0.55163379156
77.1 -0.829155176358 -0.89878911879
77.45 0.30040876586 -0.318770014813
77.8 -0.111212097806 0.379036756535
78.15 -0.104765752518 -0.668771362692
78.5 -0.827016311664 0.121914150992
78.85 0.920837624518 -0.816175046442
79.2 0.168051763692 0.96423745049
79.55 0.322765676023 -0.269225042613
79.9 0.459964307819 -0.358298922696
80.25 0.142893342795 0.476650023631
80.6 -0.165165163689 0.174967429545
80.95 -0.959320312598 -0.658444485767
81.3 0.188043698009 0.908128429884
81.65 0.0925840446688 0.360807937058
82.0 0.878513878629 0.626990062496
82.35 -0.136599913587 -0.0151759752952
82.7 -0.305923944651 0.111268598779
83.05 0.835010259484 -0.916506843052
83.4 0.854033909614 0.148400445409
83.75 -0.827351322912 -0.592753779119
84.1 -0.473890751884 0.171316902044
84.45 -0.560654157094 -0.0140978660371
84.8 -0.604806293738 0.485974588164
85.15 -0.233943841613 0.0714129517219
85.5 -0.568579790154 0.626557120057
85.85 -0.326643494909 0.450397373975
86.2 -0.594027020445 0.255211873234
86.55 0.412872054388 -0.141071310392
86.9 -0.400749624657 -0.270433060063
87.25 0.511404559478 0.311060426141
87.6 -0.628740781679 -0.630816758745
87.95 0.593795503391 0.332320788809
88.3 0.135113874351 -0.0707876325194
88.65 -0.183263470033 0.236187234187
89.0 -0.780396992904 -0.200343250993
89.35 0.896043988189 0.0575079353968
89.7 0.454920605019 -0.0887995468367
90.05 0.785384892245 -0.541012337279
90.4 -0.832547385693 -0.52359935326
90.75 -0.00448476375551 -0.958633937038
91.1 0.460586717564 0.850185434071
91.45 0.794757376047 0.327552097226
91.8 -0.41640780794 -0.95658455873
92.15 0.707295994327 -0.886846361742
92.5 -0.0830190809607 -0.276188547397
92.85 0.36556556124 -0.915567262022
93.2 -0.530684642031 0.841245051354
93.55 -0.900588727884 0.261002577393
93.9 -0.0307432832636 -0.222290663597
94.25 -0.09711850775 -0.0650884315964
94.6 0.488722269223 0.871140040424
94.95 -0.467562079356 -0.447618372844
95.3 0.224145364339 0.856232158324
95.65 -0.364514620409 0.366990733868
96.0 0.141719959412 0.100247470876
96.35 0.273983487174 -0.0755731878451
96.7 0.46626738044 0.3359934134
97.05 -0.293905229878 -0.937240692775
97.4 -0.183445090511 -0.713178757021
97.75 -0.280219847219 -0.961793611049
98.1 -0.82425337933 -0.407057701088
98.45 -0.870194672547 0.387932356778
98.8 0.4189873282 0.16553416829
99.15 0.429852192965 -0.641929760031
99.5 0.557411557845 -0.00520689924289
99.85 -0.912315447918 0.660905237848
100.2 0.272411170977 -0.109326971693
100.55 -0.8033130901 0.328619660339
100.9 0.240661199478 -0.421170057543
101.25 0.106649932316 -0.156234676295
101.6 0.831317319534 -0.400198715477
101.95 0.652833092977 0.705963349015
102.3 -0.603487223088 0.176348461608
102.65 -0.350380543652 0.728297488949
103.0 -0.971421732793 -0.829799016168
103.35 0.805538034387 -0.774432623775
103.7 -0.532712570869 0.568566943547
104.05 -0.156997255567 -0.883943460688
104.4 -0.241405797622 0.925010850767
104.75 -0.311801082024 -0.18084400532
105.1 0.25327573673 0.415263817864
105.45 0.323897684166 0.924587003268
105.8 0.783554760609 0.544437376303
106.15 0.857001117744 -0.443877032147
106.5 -0.27461018662 -0.547700184196
106.85 0.395903398388 -0.189081834025
107.2 -0.0953525415638 -0.24451693374
107.55 -0.250975920295 0.679745265146
107.9 0.813608736406 -0.768253164633
108.25 -0.223379789451 0.169165358505
108.6 0.123010544525 0.968990749108
108.95 -0.73567976862 0.892045427793
109.3 0.217160693207 -0.00630363775412
109.65 -0.726045763552 0.0241780560672
110.0 -0.563307963343 -0.224504060473
