!Created with skrf (http://scikit-rf.org).
# GHz S RI R 50.0 
!freq ReS11 ImS11
75.0 0.0698220705454 -0.229840836797
75.35 -0.441947172515 0.623263406584
75.7 0.470147730052 0.440702214864
76.05 -0.861428177145 0.608532503146
76.4 -0.81635578023 -0.760488638898
76.75 0.155783144824 0.660817042245
77.1 -0.446246405475 -0.236339811363
77.45 0.574590139747 -0.745642610297
77.8 0.906051754542 0.157231658941
78.15 -0.672957638345 0.365821035087
78.5 -0.833249630494 -0.707641899042
78.85 0.930415894175 0.698257742967
79.2 -0.951059531872 0.681553160047
79.55 0.631564908246 -0.639989981746
79.9 -0.712916570155 -0.3371696681
80.25 0.642824349314 0.239554596847
80.6 0.698523988757 -0.56427097932
80.95 -0.375382942451 0.42197740568
81.3 0.502361608217 0.394183804725
81.65 -0.738315872487 0.404996188877
82.0 -0.407295306303 0.963441877501
82.35 0.0916344591613 -0.140590804228
82.7 -0.199575595078 -0.401958779777
83.05 0.347581225814 -0.597569203899
83.4 -0.281619160543 -0.635660293303
83.75 -0.697030832713 -0.705212425481
84.1 -0.83357517037 -0.400448831826
84.45 0.499149027796 0.0449497918629
84.8 0.874875022534 -0.534005963745
85.15 0.693896327973 -0.390169919207
85.5 -0.383494794233 0.978865292987
85.85 0.696430811513 -0.746899348507
86.2 0.269962973545 0.761000956333
86.55 -0.20704226958 0.693911763982
86.9 -0.976149846125 -0.0154755808623
87.25 0.0593974121399 -0.0350676695952
87.6 -0.911263245339 -0.760810301209
87.95 -0.331769129498 0.133482747094
88.3 0.875270376509 0.34201834367
88.65 -0.521513230371 -0.367891023535
89.0 0.828583531103 0.833169609292
89.35 -0.738068411136 -0.857304874865
89.7 0.697974135933 0.298898651866
90.05 -0.568103175981 0.732942561116
90.4 0.99740799694 -0.840231913528
90.75 -0.873960238957 -0.154245943889
91.1 -0.792946359867 -0.222304405379
91.45 -0.501233054937 -0.285693088791
91.8 -0.179413762443 -0.69240938761
92.15 -0.156890935115 -0.142524018177
92.5 -0.925689134567 -0.81966110529
92.85 -0.934179568161 0.295399436958
93.2 0.792824564819 0.0479850043376
93.55 0.80687406178 0.384172748193
93.9 0.317875940807 0.709708942624
94.25 -0.586521837119 -0.314268949023
94.6 0.976075268313 0.0153603279649
94.95 0.0255120877682 0.436330879631
95.3 0.353060117082 -0.997428487691
95.65 0.415225706677 -0.149786558333
96.0 0.38307838919 -0.525265056252
96.35 -0.125776742392 -0.419516805905
96.7 -0.972603511041 -0.830773120581
97.05 0.0846324561409 0.264240380441
97.4 -0.23666042106 -0.0949873470178
97.75 -0.799952863156 -0.459089997894
98.1 0.00359328331182 -0.976617823108
98.45 -0.342110775182 0.983619543929
98.8 -0.719584019284 0.543913285292
99.15 -0.330492582274 0.835635233267
99.5 0.43556013632 0.0224516717222
99.85 -0.724083681619 0.586053704362
100.2 -0.0410439213167 -0.359581289179
100.55 -0.217418627599 0.967096542518
100.9 -0.995852215527 0.410755515847
101.25 0.739142551069 -0.523589210855
101.6 0.922002850504 0.436825099546
101.95 0.783148194695 0.959882227096
102.3 0.143550504806 0.041469930934
102.65 0.626645490572 0.383861531056
103.0 -0.736012268766 -0.836783618354
103.35 0.140307414011 0.484304186454
103.7 0.698601429425 -0.438807823613
104.05 -0.610998201832 0.197699423811
104.4 -0.283356828495 -0.761625473928
104.75 0.929863268613 -0.0787297624958
105.1 -0.159370671669 -0.655264982569
105.45 -0.831216978476 -0.339555179596
105.8 0.226136395532 -0.000698917666194
106.15 0.827271001392 0.970485178647
106.5 -0.61463570834 0.0344491858684
106.85 -0.543968259302 -0.452043317314
107.2 0.606733484449 0.00129267986858
107.55 0.714733482076 0.912438561382
107.9 0.781104674842 0.0760295913301
108.25 -0.957347393427 0.387366783537
108.6 0.206872326744 -0.33472517733
108.95 -0.716425249292 0.408740847289
109.3 -0.355897194702 0.24789928425
109.65 -0.539182118772 0.887368909434
110.0 0.928497439549 0.314726604705
