!Created with skrf (http://scikit-rf.org).
# GHz S RI R 50.0 
!freq ReS11 ImS11
75.0 0.798582966671 -0.559526027233
75.35 0.905159512382 0.13219565181
75.7 0.384683536026 0.787617261158
76.05 0.231221713856 -0.0964240252433
76.4 -0.316496037117 0.984630528094
76.75 0.411471681151 -0.81223263972
77.1 -0.71088828638 -0.627409886635
77.45 0.232165956381 0.872908034813
77.8 -0.138532230657 -0.224274748001
78.15 0.281075248093 -0.497824431967
78.5 -0.854907201399 -0.91571038924
78.85 0.908287480106 0.813451412623
79.2 0.430219350615 0.531843296886
79.55 0.744291467359 0.208383407214
79.9 0.510563123021 0.818396097185
80.25 -0.487792532756 -0.575669327379
80.6 -0.891765675498 0.35468473402
80.95 -0.0406499299186 0.0838216324641
81.3 0.220357914084 -0.678452564866
81.65 -0.216669216499 0.998280964607
82.0 -0.6492270802 0.578175649193
82.35 0.0304014203079 -0.991936906306
82.7 -0.863184064993 0.96163155098
83.05 -0.399443359972 -0.332318321753
83.4 0.536042294353 0.223190562162
83.75 -0.408776342074 -0.573374189936
84.1 -0.962939021154 -0.844311494386
84.45 -0.0484677732713 0.416570699578
84.8 0.332660557205 0.386156115061
85.15 -0.524457968829 -0.677980771663
85.5 -0.822077939256 -0.82638125829
85.85 0.39727337714 0.549749362231
86.2 0.940966403445 0.693341889464
86.55 0.554739741483 -0.0137258920639
86.9 -0.224652908678 -0.0272088837807
87.25 -0.868555625694 -0.0489209969881
87.6 0.41770442518 0.488790101822
87.95 -0.257704622947 -0.439695800094
88.3 -0.876659179162 0.470223391309
88.65 -0.347660235476 -0.0194465236209
89.0 -0.807336196404 0.66229119639
89.35 -0.363960886939 0.533245243346
89.7 -0.648487665686 0.536673757297
90.05 -0.656648993938 -0.301559959753
90.4 -0.389094031036 -0.961077868973
90.75 -0.279331248581 0.607896323323
91.1 -0.846178286861 0.336889032479
91.45 -0.699989312313 -0.143231320683
91.8 -0.531109870671 0.475627028178
92.15 -0.301675795034 0.28503204059
92.5 0.0699094999052 -0.304230745586
92.85 -0.269076479837 -0.613146594769
93.2 0.458745144162 -0.30705020639
93.55 -0.257032896868 0.821616011661
93.9 0.535252488018 -0.520182147566
94.25 -0.131852722667 -0.0119581072124
94.6 -0.4141464422 0.96581680799
94.95 0.502592541937 -0.478883990142
95.3 0.220255895144 0.899255595286
95.65 -0.473249747695 0.587723807651
96.0 0.38411204204 -0.769250997451
96.35 -0.503222970397 0.342916519539
96.7 0.303133015595 0.783994474555
97.05 0.096755484349 -0.590344217116
97.4 -0.443296367168 0.268932415432
97.75 -0.3253964259 -0.672837289026
98.1 0.98847826603 0.969601376025
98.45 -0.558849181015 0.38766528867
98.8 0.133088241562 -0.647386439952
99.15 -0.484612948348 0.286908038248
99.5 0.992879569588 -0.574236400591
99.85 -0.583033509327 -0.251638724106
100.2 -0.825242656534 0.543270987395
100.55 -0.413746540031 0.348435547067
100.9 -0.288838971343 -0.438861937557
101.25 0.171702353991 -0.531874389842
101.6 0.41580716717 0.767308188888
101.95 -0.594399847581 0.577398805523
102.3 -0.326120985545 -0.78248156475
102.65 -0.957329787808 -0.0157769239474
103.0 0.216648154125 0.617382701052
103.35 0.697018091795 -0.614027785737
103.7 -0.989929843078 0.237579856879
104.05 0.863522289966 0.77447369674
104.4 0.526260019254 -0.0146045187215
104.75 -0.656937096973 -0.40088083368
105.1 0.861671245637 -0.681121220284
105.45 -0.600891956752 0.159002859778
105.8 0.0408272293229 0.51797694877
106.15 0.0634906601195 0.0752788473136
106.5 0.0175588186417 -0.0656092138014
106.85 0.762774058953 0.94650020318
107.2 0.399018289515 -0.589791530885
107.55 -0.537337451131 0.689060571217
107.9 0.43594735031 -0.557319387146
108.25 0.710383106372 -0.807609243584
108.6 0.691198397268 0.488023982476
108.95 0.272592706518 0.505744247912
109.3 0.717089702369 -0.0816008665341
109.65 0.74294593865 -0.847495537928
110.0 -0.568681831532 0.529384982581
