!Created with skrf (http://scikit-rf.org).
# GHz S RI R 50.0 
!freq ReS11 ImS11
75.0 0.776334484392 0.0204107573102
75.35 0.345494520904 0.678263880094
75.7 -0.457208870143 0.194833501028
76.05 0.308639066623 -0.45267492038
76.4 -0.173379486409 -0.346722912177
76.75 0.448512982842 -0.575828271739
77.1 -0.890986505463 -0.472914236352
77.45 0.38699553282 -0.625162449471
77.8 -0.465343171628 0.266128430473
78.15 -0.934035084319 -0.927941215296
78.5 -0.00737131473937 -0.671989431453
78.85 -0.565009132321 -0.761348581461
79.2 0.309461558798 -0.569364196286
79.55 0.29684766913 0.473131373545
79.9 -0.658009099225 0.971421411356
80.25 -0.971150973028 0.258206745107
80.6 -0.385562627202 -0.145318581923
80.95 0.518415072645 0.666288332986
81.3 0.829745492969 0.563102542114
81.65 0.944176275362 0.95476658419
82.0 -0.739492470502 -0.844937537932
82.35 0.593425959082 0.220960606362
82.7 0.0240171974467 -0.542284999682
83.05 -0.0494505531253 0.559327305976
83.4 0.0038550672841 0.170722594994
83.75 0.047964646261 0.188001407455
84.1 -0.624782971749 0.977719207215
84.45 -0.0246868137631 0.352384140737
84.8 -0.929648475396 0.763631489086
85.15 -0.212149163273 -0.632248025934
85.5 0.356419591014 -0.231928065788
85.85 0.634992023267 -0.1719865227
86.2 0.713409091667 0.807028445789
86.55 -0.715448446882 -0.298474881563
86.9 -0.898144355731 -0.741629653358
87.25 -0.676186360874 0.686026058149
87.6 0.704579585316 0.182095048687
87.95 -0.810475005597 0.0722516253159
88.3 -0.638080076961 0.878465042025
88.65 0.81954770819 -0.149997422547
89.0 0.630970166618 -0.662488030445
89.35 -0.730705598475 -0.773818629522
89.7 0.739832845425 -0.874782616763
90.05 0.553745958848 0.304477275034
90.4 0.999902496009 -0.80989757563
90.75 -0.766046846832 -0.319205346794
91.1 -0.219042022948 -0.500373730765
91.45 -0.745487629014 0.239813410845
91.8 0.107004542953 0.610555560476
92.15 0.740250541447 -0.718021645716
92.5 0.137563589383 0.13626805217
92.85 -0.491506112049 0.00747970491508
93.2 -0.781900416082 0.420040771738
93.55 0.020389756197 -0.781721720869
93.9 0.630820771741 0.327063107634
94.25 -0.909833534955 0.987208811483
94.6 -0.66517467596 -0.336092586825
94.95 -0.543366748751 0.79537352796
95.3 0.624314808421 0.564992554203
95.65 0.340113392625 -0.785688412043
96.0 -0.531328900202 0.121033159957
96.35 -0.626416534862 0.39002817153
96.7 -0.963871964385 0.670358397702
97.05 0.783510246776 0.770402486866
97.4 0.615465533252 0.449114065606
97.75 -0.802293834789 0.884140076475
98.1 -0.474981682205 -0.489308487661
98.45 -0.207892040198 -0.626639106069
98.8 0.619531286916 0.923286715535
99.15 0.368977850764 0.811041394442
99.5 -0.177873778611 0.724317275049
99.85 -0.14238613157 0.286666289262
100.2 0.514089593392 0.392939331499
100.55 -0.285087257776 0.917829502192
100.9 -0.769249003388 -0.844263385008
101.25 -0.621101871697 0.0245624716514
101.6 0.477274663987 -0.514610969245
101.95 -0.107584237261 -0.267304021116
102.3 -0.0504536399341 0.852459595804
102.65 0.33199946829 -0.717768340847
103.0 -0.478122561619 -0.700856603104
103.35 -0.918764569801 -0.785419762208
103.7 -0.711377332072 -0.0834998240337
104.05 -0.563236171683 0.439826697767
104.4 -0.725759964284 -0.170498666156
104.75 -0.345122541981 0.647218506955
105.1 -0.228361710607 0.670501514103
105.45 0.655783383177 -0.276814568451
105.8 -0.993414397837 -0.511855259241
106.15 -0.494492608884 -0.587965428975
106.5 0.188994996916 -0.84182719277
106.85 0.317624499579 -0.756025073747
107.2 -0.681133055502 -0.352368058273
107.55 -0.0733283246482 -0.564023710175
107.9 0.39290324875 -0.190057026878
108.25 0.468762834823 0.70091601724
108.6 -0.48522071986 -0.617716799202
108.95 0.817893180462 0.487591940796
109.3 0.476747136649 -0.322599775806
109.65 -0.822354970459 -0.126214393593
110.0 0.425570347832 0.317113999772
