!Created with skrf (http://scikit-rf.org).
# GHz S RI R 50.0 
!freq ReS11 ImS11
75.0 -0.720642258981 0.125281546052
75.35 -0.322807270541 -0.0200691938234
75.7 0.00322349136298 0.454586882216
76.05 -0.821064943296 -0.105311993266
76.4 -0.963185558093 0.0915568499869
76.75 0.604092087282 -0.941417864867
77.1 0.521686812684 -0.143660889315
77.45 0.116343502181 0.787941070251
77.8 0.411761630996 0.225618483352
78.15 -0.731876476295 0.0356394852838
78.5 -0.901792054108 -0.395213924191
78.85 -0.961827982673 0.301728217701
79.2 -0.480706872526 0.851094239659
79.55 0.730700779157 -0.800380926955
79.9 0.587265586583 0.656733150003
80.25 -0.108209595061 0.112189556911
80.6 0.878404608217 -0.135495475913
80.95 0.67849570122 0.230416176896
81.3 -0.112853147404 0.142070382823
81.65 0.377755185704 -0.531807064732
82.0 -0.364646169833 -0.164887811847
82.35 -0.597747329233 0.828356617583
82.7 0.856814368502 0.35326388386
83.05 -0.305567133696 -0.200850038727
83.4 -0.517001328016 0.94308129287
83.75 -0.183328912126 0.548099234039
84.1 -0.295955812244 -0.83352135025
84.45 0.394409358484 0.980421724295
84.8 0.587852461964 -0.783698583243
85.15 0.0722086621574 0.111152762924
85.5 -0.214800767969 -0.942362824529
85.85 -0.000260622872622 -0.264662345166
86.2 0.296552837666 -0.882761257854
86.55 0.774832936704 0.0823406068433
86.9 0.367443042517 0.272313529907
87.25 -0.341844697905 0.439892514486
87.6 -0.313021315835 -0.0869914337313
87.95 0.281415147765 -0.132111460097
88.3 0.878681220804 -0.882819579812
88.65 0.463409091671 0.771408938707
89.0 0.310416032076 0.294394953079
89.35 -0.891018927146 0.202228967713
89.7 0.436718849668 0.354804842668
90.05 -0.612313917729 0.857905355053
90.4 -0.280155405972 0.40306574655
90.75 -0.17302998148 -0.286747715862
91.1 -0.856151674706 0.96003119351
91.45 -0.828952523202 0.504640138558
91.8 -0.0703580729057 0.755703822063
92.15 -0.211887427445 0.0659427174169
92.5 0.935828097712 0.428204421187
92.85 -0.122819495975 -0.14729312847
93.2 -0.628000699944 -0.0175145464851
93.55 -0.154908805743 -0.21913466084
93.9 -0.884411201981 -0.472746720499
94.25 -0.732369531484 0.635085841733
94.6 -0.502146580013 0.38093018229
94.95 0.421653306635 -0.22705649395
95.3 -0.272211004735 -0.25291132982
95.65 0.307662819626 -0.908882187109
96.0 -0.310799456582 0.105938557896
96.35 0.0224422096324 0.510622728365
96.7 0.0218915088045 0.483404108961
97.05 0.691069124153 0.808561940246
97.4 0.684726851083 -0.612607196631
97.75 0.370734640492 0.818578857802
98.1 0.90585063826 0.328179821934
98.45 0.710080597756 -0.982635709605
98.8 -0.285554430858 0.089439410001
99.15 0.443114074179 -0.41970053197
99.5 -0.617083258397 -0.79838274171
99.85 0.454886193684 -0.710942728468
100.2 -0.096176517425 -0.52363880793
100.55 -0.477519748814 0.932705447518
100.9 0.863387232742 0.196757235502
101.25 -0.647209423223 0.498822225487
101.6 0.703813032668 0.84864092074
101.95 -0.455846816127 -0.923931854451
102.3 -0.64418957397 -0.700095131876
102.65 0.729947552418 0.781387372872
103.0 -0.333279697998 0.840687336108
103.35 -0.642966417694 -0.380343866145
103.7 -0.71985465359 0.938768881221
104.05 -0.30082276376 -0.813100301047
104.4 -0.331521837799 -0.482494784407
104.75 -0.00515947652612 0.026584064931
105.1 -0.387927308441 -0.401830698162
105.45 0.888266244497 -0.838947158331
105.8 -0.937823087351 -0.261054512862
106.15 0.466663682341 0.0700871960351
106.5 0.0711753265339 0.753115579298
106.85 0.657716958937 -0.539265347485
107.2 0.684373170465 0.781702466875
107.55 -0.939394743604 0.352831110545
107.9 0.863504994171 0.247129346437
108.25 0.784752245978 -0.43675924927
108.6 -0.128287563763 -0.738393041038
108.95 -0.512357196238 0.114283564183
109.3 0.386102808512 -0.66377711211
109.65 0.336315124207 -0.321989724718
110.0 0.461058416241 0.406022355515
