!Created with skrf (http://scikit-rf.org).
# GHz S RI R 50.0 
!freq ReS11 ImS11
75.0 -0.217775764516 0.527286566047
75.35 0.829175605165 0.221676506316
75.7 -0.563661650158 -0.421577342024
76.05 -0.72727173759 -0.256947295108
76.4 0.794885027323 -0.142050629638
76.75 0.285166146364 -0.371126413879
77.1 -0.272890038204 -0.286983619397
77.45 0.492244905411 0.128911094504
77.8 0.233290573116 0.953498398278
78.15 0.142842099028 -0.243252198675
78.5 0.732387160762 0.202763663455
78.85 -0.727721011564 -0.304670867173
79.2 0.4283629577 -0.310151271679
79.55 -0.538486424057 -0.557662553464
79.9 0.981132858013 0.0592849204333
80.25 0.268011973424 -0.829204876853
80.6 -0.344410267691 -0.246909827224
80.95 0.137756453922 -0.264897862816
81.3 0.65414957888 0.982969309389
81.65 0.770362419256 0.197995238238
82.0 -0.675811088142 -0.898863801743
82.35 0.937253330558 0.76889004401
82.7 -0.605137329372 -0.183409599443
83.05 -0.511618907807 -0.984043492973
83.4 -0.277743824419 -0.317902248654
83.75 0.677126721964 -0.660394492517
84.1 0.541102567834 -0.418129368865
84.45 -0.616795999191 0.521858729358
84.8 -0.225048928794 0.775232178455
85.15 0.340316498529 0.0547747074048
85.5 0.1575973568 0.795539656487
85.85 -0.32097922025 0.894068360173
86.2 -0.0187789031121 -0.314885890485
86.55 -0.0982588720808 0.459663217216
86.9 0.181430212532 -0.779653026352
87.25 0.321161123008 -0.853339542483
87.6 0.0853224849878 -0.622543886967
87.95 0.537866846779 -0.634318045471
88.3 -0.770968495556 -0.116613426606
88.65 -0.014243881162 -0.944827273467
89.0 -0.199176964347 0.00343567540556
89.35 -0.135842189249 0.567273017114
89.7 -0.532343935376 0.978288308578
90.05 -0.434439640736 0.149739256733
90.4 0.562931049691 -0.19590927603
90.75 -0.304623485549 0.721891069271
91.1 0.405898267047 0.383867384998
91.45 0.538578976321 -0.0711115752877
91.8 0.772781940012 0.706175266168
92.15 -0.410882873795 0.84401243599
92.5 0.570544476903 -0.491213088517
92.85 -0.677776890274 0.990823815525
93.2 -0.410220250764 -0.531884799348
93.55 0.118472336956 -0.390362032232
93.9 0.269613369994 -0.134949704613
94.25 -0.494807274166 -0.255710443323
94.6 0.605092786941 0.0706483321506
94.95 -0.336089718426 -0.0802871320077
95.3 -0.213817583242 -0.493089937418
95.65 -0.115844225532 0.337053793541
96.0 0.461924903201 0.189336671836
96.35 -0.778444174073 -0.251732623758
96.7 0.026691974046 0.707493791233
97.05 -0.980220356359 0.428126362765
97.4 -0.110166448631 0.56976112655
97.75 -0.0687738500557 0.865073965671
98.1 -0.597376799626 -0.358148775898
98.45 0.614983472583 0.970482934864
98.8 -0.103852677128 0.924400554548
99.15 -0.457136044782 0.543414734988
99.5 -0.0350867465602 -0.661780375661
99.85 0.977937614053 0.988623833168
100.2 0.27676992106 0.464111026065
100.55 -0.984938104722 -0.585108550593
100.9 -0.681674239943 -0.351623599938
101.25 0.149095118378 0.791534193476
101.6 -0.329494137939 -0.104717238786
101.95 -0.312840938605 -0.0356683284757
102.3 0.769087252639 -0.472361124571
102.65 0.886685442448 0.787434655524
103.0 -0.245165320138 0.214094800837
103.35 -0.0837283356861 -0.719520447007
103.7 -0.0725046105883 0.452940084364
104.05 -0.877080228271 0.436740806315
104.4 0.320110717706 0.413519629126
104.75 -0.221018235657 0.276439711907
105.1 -0.677698342305 -0.671807973783
105.45 0.543015510479 -0.000276872521152
105.8 0.240964714453 0.0604859820877
106.15 0.889219449837 0.510242525546
106.5 0.466673082761 0.769804775159
106.85 -0.65849959014 0.753983886064
107.2 0.795195280727 0.87068134994
107.55 -0.193125541597 0.149907662671
107.9 -0.687338072613 0.790099588529
108.25 -0.449103059524 0.974751287903
108.6 0.124916661849 -0.842418593916
108.95 0.890604276953 0.878455815395
109.3 0.950934996454 -0.108942121567
109.65 -0.11658520987 -0.983665337373
110.0 -0.295445683199 -0.0947943876013
