!Created with skrf (http://scikit-rf.org).
# GHz S RI R 50.0 
!freq ReS11 ImS11
75.0 0.0174367754142 0.30008757424
75.35 0.775863537758 -0.34305410771
75.7 0.578275690085 0.784054118344
76.05 -0.83794137832 0.512136847269
76.4 0.586503673105 -0.351583311837
76.75 -0.274475115843 0.223895466647
77.1 -0.939000721195 -0.377474612894
77.45 -0.333135486068 0.959717974582
77.8 0.432413293237 0.211754526473
78.15 0.969907639855 -0.556877751661
78.5 -0.268826011007 0.168105314786
78.85 0.226212957442 -0.357912194897
79.2 0.461335800508 -0.740308058527
79.55 -0.296751245214 0.239401256103
79.9 0.626930797562 0.235407329158
80.25 -0.510425676124 -0.792285914376
80.6 -0.122032115291 -0.613807673239
80.95 -0.405509007042 -0.437747064001
81.3 0.409707355362 0.884215036387
81.65 0.945769886578 0.856362599245
82.0 -0.0179310756614 0.213918094709
82.35 -0.569692492771 -0.905499048103
82.7 0.481014020908 -0.121607559498
83.05 0.675747797579 0.865405582908
83.4 0.186832639976 0.960844286587
83.75 -0.0119788926139 0.465899489449
84.1 0.560065008327 -0.592069821873
84.45 0.761141241042 -0.530624440577
84.8 -0.550733870179 0.556959562447
85.15 0.415040313681 0.066112680208
85.5 0.108533131682 0.804243849423
85.85 0.402826888029 -0.600204393213
86.2 -0.0340225375618 0.996359272823
86.55 -0.315398031992 0.380890764138
86.9 0.533051072942 0.264631774426
87.25 -0.625078068641 0.133058840455
87.6 0.00565840582618 0.409195217085
87.95 -0.329032301917 0.577784713077
88.3 0.519054180998 -0.97836704742
88.65 -0.887271132746 0.553408293418
89.0 0.778745776661 0.716344817617
89.35 0.646796648684 -0.262637447855
89.7 0.626800053797 -0.292106149685
90.05 0.312126019295 0.890060839914
90.4 -0.654843112333 0.548091311254
90.75 0.840653535904 0.00392943163478
91.1 0.670108544343 -0.634010138391
91.45 -0.80407823501 -0.333343894958
91.8 0.947643447101 0.495956150354
92.15 0.895577646555 -0.314033746337
92.5 -0.523677868019 0.962892247283
92.85 -0.103551353477 -0.104632184338
93.2 0.503891806426 -0.743649139958
93.55 -0.862676929916 -0.310523463164
93.9 -0.552704012807 0.322709430423
94.25 -0.380968221893 -0.984723011244
94.6 -0.431382932294 -0.769522857167
94.95 -0.916017713489 -0.271239498487
95.3 0.251817903251 -0.750882095879
95.65 -0.292185721567 -0.270355275356
96.0 0.315222839881 0.115166986037
96.35 -0.385680236178 -0.368822018277
96.7 -0.264496032417 0.626333006184
97.05 -0.340557123792 -0.150994061873
97.4 0.343201165981 0.282251951919
97.75 -0.359843855487 0.857194631162
98.1 -0.1315068461 -0.150854625798
98.45 0.594039636925 0.321498374924
98.8 -0.589462741316 0.799076589649
99.15 0.764071216863 -0.564676162987
99.5 0.0240578227254 -0.747863777303
99.85 -0.0524452064194 0.329047807566
100.2 0.0940662896591 0.15544919516
100.55 0.993813303392 -0.0433423355578
100.9 0.377354593682 0.584985966286
101.25 -0.639487586867 -0.183940357652
101.6 -0.248225826118 0.0530072889639
101.95 -0.998343668908 -0.440746622016
102.3 0.570349360298 -0.388510088146
102.65 0.505718435854 0.00271941889752
103.0 -0.494148518121 0.00697326379778
103.35 0.468472324867 -0.22909006529
103.7 -0.705017104418 0.698355549562
104.05 -0.56417800281 0.925241455475
104.4 0.441758293435 -0.845219618953
104.75 0.4576461691 -0.157943046979
105.1 0.104389762309 -0.33868252109
105.45 -0.0444079604953 0.447170153553
105.8 -0.716577262645 0.787027302571
106.15 0.0161675742793 0.392526189273
106.5 -0.0125081141245 -0.391540589283
106.85 0.943364336312 -0.882173160337
107.2 -0.926125752899 0.743314564186
107.55 0.288839032946 -0.470013846707
107.9 0.00489999143702 -0.292286429977
108.25 0.818988095332 0.315190400449
108.6 0.0553668143215 -0.0752040373917
108.95 0.764648622687 -0.357055498362
109.3 0.847417463671 -0.902260523758
109.65 -0.683019629376 0.675779765645
110.0 0.861349287531 -0.382882705753
