!Created with skrf (http://scikit-rf.org).
# GHz S RI R 50.0 
!freq ReS11 ImS11
75.0 -0.805856556948 -0.814365703006
75.35 -0.801913710191 -0.667900604563
75.7 -0.14960624355 0.356668686088
76.05 0.688363459204 0.0823741093037
76.4 -0.464042866785 0.161591634852
76.75 -0.90093834386 0.101732955331
77.1 0.0552382821742 0.00359109388746
77.45 0.956374918012 0.177983337744
77.8 -0.666865980971 0.136342902969
78.15 -0.552383264313 0.647543623614
78.5 -0.0525340953863 0.762912240706
78.85 -0.0284809201539 0.564892832607
79.2 0.202672562352 0.155951738377
79.55 0.623840194394 0.961988283
79.9 -0.0934192746436 0.192309682061
80.25 0.152897876566 0.160480503279
80.6 -0.707970386501 0.49483337806
80.95 0.224526013723 -0.949580116083
81.3 0.814023573491 -0.795808509358
81.65 0.260346240497 0.295090849614
82.0 -0.876718487957 -0.958373714395
82.35 0.333838360999 0.619022734809
82.7 0.127090654566 -0.481487689251
83.05 0.46617205229 -0.0489513111588
83.4 -0.950132417493 -0.703393948714
83.75 0.188920377755 0.610956097149
84.1 0.654322391104 0.237184308987
84.45 0.142982630752 -0.36674654959
84.8 0.641361936255 0.766769870576
85.15 -0.0615965895015 0.893563915753
85.5 -0.339959992122 0.206876065833
85.85 0.382523965418 0.973005155798
86.2 0.735207528968 0.647464844046
86.55 0.367938095337 -0.568067199269
86.9 -0.579132009282 -0.646135729505
87.25 -0.565487861193 0.50783686607
87.6 0.25595761253 -0.170009415256
87.95 0.991475252199 -0.32318040217
88.3 0.94504884609 -0.370835792674
88.65 -0.040374446411 0.862712615634
89.0 -0.822845970495 -0.648989945075
89.35 0.512291434798 0.330098262145
89.7 -0.334322383401 0.896190388868
90.05 -0.728184124966 0.231564019773
90.4 -0.684310901727 0.639714136143
90.75 0.190035334666 -0.496420088275
91.1 -0.633361278438 0.908605522564
91.45 -0.346991408645 0.939823888431
91.8 0.287077582244 -0.498722911244
92.15 -0.528495162591 -0.262599209364
92.5 -0.393083149978 0.552258231109
92.85 0.807140578984 0.671679092298
93.2 0.98941687925 0.0199457690033
93.55 -0.141304723195 0.660612128525
93.9 -0.823450135338 -0.975801576691
94.25 -0.67784725327 0.84967261352
94.6 -0.0941562442329 -0.762150421125
94.95 -0.676817407429 -0.108023171633
95.3 -0.694365017151 -0.944801195833
95.65 -0.962362251999 0.410246389154
96.0 0.249757681105 0.945707034482
96.35 -0.638780197503 0.836395174552
96.7 0.400021915394 -0.671588372157
97.05 0.39273057013 0.395569015141
97.4 -0.641116822526 0.588190188893
97.75 -0.818226847357 -0.79343439402
98.1 0.106832154371 0.397302877089
98.45 0.266776356768 -0.110424223774
98.8 -0.702709516851 0.795012208471
99.15 0.482851569815 0.799430913515
99.5 -0.514284908139 0.644821987682
99.85 0.0115323840476 -0.491782961094
100.2 0.222358668818 -0.650921344091
100.55 -0.416354687938 0.359364670659
100.9 -0.167687384395 0.713161103605
101.25 -0.946428011245 -0.453172174736
101.6 0.577930508838 0.696924376761
101.95 0.695438360718 0.761002368635
102.3 0.220139267307 -0.0623830113975
102.65 -0.762401656534 -0.163673558669
103.0 0.523101561735 0.651143703441
103.35 -0.417440773455 -0.187478045386
103.7 0.872548818801 0.937960303472
104.05 -0.0912461329013 0.623433580598
104.4 -0.614982871182 -0.599666949653
104.75 0.826578611102 -0.346241271594
105.1 0.848146095921 0.207683650679
105.45 -0.0311756409321 0.279505789013
105.8 0.827953296374 0.531551821019
106.15 -0.23803384796 -0.961388423293
106.5 0.505277746563 -0.888863117516
106.85 0.6682011602 -0.712999538643
107.2 0.840576541494 -0.314667881145
107.55 0.127415791982 0.803108806823
107.9 0.135874384666 0.599263013327
108.25 -0.612992555614 -0.273087486596
108.6 -0.365215840219 -0.0953140460365
108.95 -0.705616219241 0.0175462745403
109.3 0.923469548276 -0.0479929381062
109.65 0.165859364564 0.398574089169
110.0 0.545513495837 -0.69498050586
