!Created with skrf (http://scikit-rf.org).
# GHz S RI R 50.0 
!freq ReS11 ImS11
75.0 0.6627497645430593 -0.9253410117326155
75.35 -0.30300654512366143 0.5847168541200882
75.7 -0.7105257558786424 -0.6134295422314338
76.05 -0.7923095634487678 -0.322391252311405
76.4 -0.6502617959676278 0.44016880154777516
76.75 0.3841521171407052 0.005970207268714223
77.1 -0.8705991726026432 -0.31285619627439765
77.45 0.9601758465989632 -0.24855023607369242
77.8 -0.11423753312718343 -0.5384123835596129
78.15 0.9002554596560179 -0.5888709574500606
78.5 -0.5252916875566707 0.6285143439579801
78.85 -0.13273409661962488 0.2781781306817517
79.2 -0.933564102806574 -0.8470875974367518
79.55 -0.047567778462369814 -0.024488342125065232
79.9 0.5771837137887521 0.14611989626516642
80.25 0.7734521899544355 0.9360633672519392
80.6 0.23683357295868235 -0.3898582671041444
80.95 0.7738394701368827 -0.464305227105835
81.3 0.11786681398647891 0.20271262921331967
81.65 0.44326902191056083 -0.19577684763750902
82.0 0.2824141455747555 -0.6805044483652725
82.35 0.009094577427411155 0.86533203311678
82.7 -0.054098277374944104 -0.2846006704650401
83.05 0.5958690104889379 0.8461009650375164
83.4 0.5654618664053959 -0.29876726692482247
83.75 -0.7080419113200704 0.5643112449675862
84.1 -0.2515952507282242 -0.8599495135493309
84.45 0.6373150370395302 0.3046018408946498
84.8 -0.37786792841483496 -0.8709920857836795
85.15 0.940880911945051 0.427640062430223
85.5 -0.06657186670682536 0.31804428195153833
85.85 0.9894464359777644 0.03466294431613992
86.2 -0.47218089239652383 -0.015239685057083063
86.55 -0.5886696831175524 0.40495406214617335
86.9 -0.35297414580061726 0.6600676889736439
87.25 0.89478449179397 0.3870967661524509
87.6 -0.08464633037009794 -0.3686532774954854
87.95 -0.418796262021109 0.17998397802982713
88.3 0.5676326042843494 -0.07553261465031857
88.65 0.7922468431807734 0.49821556186901517
89.0 -0.260064803395899 -0.761583360659696
89.35 0.47239558416510063 -0.5017700529701021
89.7 -0.589371781373039 -0.5344873433770034
90.05 -0.2927280973324444 0.8846972984364627
90.4 -0.7638171629128583 -0.8602890866374482
90.75 0.6645171018662892 0.5166708189766629
91.1 0.8101831067662038 0.6225111084991688
91.45 0.6554216309659535 0.786548571662754
91.8 -0.34500035196556356 0.34406300796866907
92.15 0.11628694799278083 -0.5160237088876054
92.5 0.4757639398821967 -0.638910212298254
92.85 -0.5463962796164392 -0.8442141762454414
93.2 -0.8156208037395163 -0.05615245800471702
93.55 -0.7866285269254452 0.3014373088752902
93.9 0.8704292470220238 -0.3088447999090149
94.25 0.2551624817282354 -0.31564280093108077
94.6 0.49788217323718365 -0.19233222423637564
94.95 -0.8762630117678318 -0.06190836837548974
95.3 -0.3283526571882709 0.5632417543882606
95.65 0.700851206687237 0.9976360033889697
96.0 0.17183327087778055 0.23108975448825575
96.35 0.5438742382284729 0.036293400552666055
96.7 0.9708863832173626 -0.2004565052776328
97.05 -0.03642468596308568 0.8873661340965202
97.4 0.6539043813707635 0.10452305141461893
97.75 -0.3527341088443199 -0.2582764916890463
98.1 -0.39666247747534134 0.38601342858807164
98.45 0.6218459174758777 0.4115834900097963
98.8 0.6685646673503978 0.5789410507473429
99.15 0.8918518170310772 0.3089549498856823
99.5 0.7810606471930042 0.38837482068173834
99.85 0.0593885795196869 -0.3675164310568855
100.2 -0.5862734380530956 -0.2984328912673764
100.55 0.8521081094826966 0.8372284175624762
100.9 0.34864798048999024 0.48670339938349927
101.25 0.7328593576395428 -0.32440373274949486
101.6 0.6115019013292011 0.25968679533723193
101.95 -0.9630783923677606 -0.6902207523655457
102.3 -0.09014333947769426 -0.12820196155973318
102.65 0.5121670682107236 -0.3129407789954315
103.0 -0.23682793299958083 0.9184057373965713
103.35 -0.18233188926445743 0.6085191838652613
103.7 -0.16100361177493894 0.3482702655569798
104.05 -0.7285324592510758 -0.2564468881211661
104.4 -0.578202150815313 -0.11543121891607999
104.75 -0.9642731870461352 -0.31213481902618323
105.1 0.07988999088585724 -0.9283264210220934
105.45 0.34214676916156717 -0.7178379241126305
105.8 -0.9237294690646787 0.6570159276138434
106.15 -0.010693684949779625 -0.6495970918041194
106.5 0.9050295951854295 -0.8117945748724513
106.85 -0.022686641414393804 -0.49419853843839556
107.2 0.23764689308064235 -0.7109927587027707
107.55 -0.7233719482933196 -0.12251814036698172
107.9 0.5682707973862018 0.778536321349069
108.25 -0.12330329062820988 -0.5165373030816032
108.6 -0.5917162429737575 0.10659432627822851
108.95 0.3027716603703583 0.6136572483177032
109.3 -0.8547820119294833 -0.2754375493791208
109.65 0.7844304722297084 -0.6709142911037775
110.0 0.11076251415524929 -0.9507166071765187
