!Created with skrf (http://scikit-rf.org).
# GHz S RI R 50.0 
!freq ReS11 ImS11
75.0 0.6728547063029298 -0.003537671798937936
75.35 -0.20461116624308429 0.21822877054104373
75.7 -0.81207999744436 -0.796859012912569
76.05 0.6974033821748862 0.7612829725265995
76.4 0.5126762357085712 0.6947500772722144
76.75 -0.44513421750671145 0.6999329385503987
77.1 0.033894380339332564 0.8081026643561968
77.45 -0.16232946708071627 -0.8262628777376471
77.8 -0.2636434160132537 0.7098367553498441
78.15 0.05905701875653624 0.23058555064726605
78.5 0.0011058084719774985 -0.7487050809436073
78.85 0.8041627848126862 -0.08548150706713309
79.2 -0.2115928363223285 -0.29334415968712513
79.55 0.5670574260937782 0.9542088334569045
79.9 -0.35550622779119245 -0.42800963329701025
80.25 0.7155639911059075 0.8028718004057382
80.6 -0.4110348286918222 0.5734712099370398
80.95 0.4364826719774728 -0.014651949161591293
81.3 0.1486530116818019 0.9778105930950229
81.65 0.2615803370610108 -0.9797430647828789
82.0 -0.3966967723052859 0.5798099810120747
82.35 0.47380279090997757 -0.07376856558828826
82.7 -0.17113351453183268 -0.5484631617151021
83.05 0.21271243370242665 0.9142996001174724
83.4 0.9198140413107505 -0.5174692679830688
83.75 0.21934035522879625 0.07072191857417165
84.1 -0.012679115597583168 0.6560957026127812
84.45 -0.47061811803566833 -0.02514717059425875
84.8 -0.42107986288008803 -0.1394475667844295
85.15 -0.3577733980159492 0.30156186871925605
85.5 0.565531524581923 -0.08733797913562902
85.85 -0.05388537654900327 -0.7397649013464751
86.2 0.4732508883936033 -0.8216790116739188
86.55 -0.9024458035196692 0.3184181930278098
86.9 -0.009700712714928228 -0.420690102770753
87.25 -0.535437710269905 -0.1805146716729329
87.6 -0.08096766866228333 -0.9737778594228881
87.95 0.5780159860699203 -0.6211656301241772
88.3 0.36777148866455556 -0.4704901686979297
88.65 -0.436729261957191 0.9784281294925388
89.0 0.5032087839708537 -0.7040698308186712
89.35 -0.230237116790583 -0.29733908310049073
89.7 0.8436336376846219 -0.5301841476710778
90.05 0.48936592366983045 -0.22715591643994726
90.4 0.840600653596266 0.484654167376559
90.75 0.5606610936078891 0.36419507097679693
91.1 0.3385276417616687 -0.2871530772907882
91.45 0.9756437393870667 0.9137149836643361
91.8 -0.9532571486352237 0.6412901999461789
92.15 -0.036993147950087346 -0.3833341728881916
92.5 0.8262403773931679 -0.10371227431157082
92.85 0.3292162387142217 -0.1349485514810096
93.2 -0.7240381796274007 -0.04617487137883658
93.55 0.5417907164978766 0.2928194087387683
93.9 -0.27371201861551353 -0.6167899645196542
94.25 0.8306857267023535 -0.986389984851801
94.6 -0.43159617019446683 -0.5432702545032881
94.95 0.6357741568587523 0.46585785252626377
95.3 0.03863586784383588 0.47395933748636554
95.65 0.5432814280873697 -0.45598798590833733
96.0 -0.6908006075478366 0.6979427095832798
96.35 -0.3283950652334342 -0.7298904820864442
96.7 0.8838262567902304 0.5917093005238663
97.05 0.4616686304998876 0.37094956995482464
97.4 -0.40915759270552643 0.24587886031539918
97.75 -0.08940793964111826 0.6004164634287046
98.1 0.9505606676054186 -0.5895110215221513
98.45 -0.9986388004322113 -0.9336156415745986
98.8 -0.5196939497198483 0.38070886986543395
99.15 -0.5890806092158183 -0.6880412939695009
99.5 0.5501576876320473 -0.4753812226956444
99.85 -0.6327812242016426 0.034144365895445006
100.2 0.7840108958110288 0.1846703537228469
100.55 0.9942428191784523 -0.569940347361066
100.9 0.020881616549237814 0.6663019834854798
101.25 -0.08835628446511601 -0.46007627147271046
101.6 -0.6449417522263909 -0.39549175807134507
101.95 0.33326861181059386 0.2169860796857377
102.3 0.22008843581323045 -0.9609290336424035
102.65 -0.1522779666247014 -0.4094591438237074
103.0 0.6504649224126149 -0.28300659442245846
103.35 -0.18000819339128893 0.14737870718941726
103.7 0.16744596255763056 -0.7767749396024892
104.05 -0.1350443659001388 0.6223958939874104
104.4 0.8477289105376093 -0.634156481808912
104.75 0.9395312180600728 0.8209081154668176
105.1 -0.29415268089638724 0.08646349091978234
105.45 0.971356929834563 -0.8386796641340875
105.8 0.8233821657748295 0.27673602835060085
106.15 -0.8696828922648523 -0.9491015878757636
106.5 0.6012943505671278 -0.24819246200205414
106.85 -0.003093456165612629 -0.5168242020409453
107.2 0.8694922079103531 0.6457974286610089
107.55 -0.9884235607467231 -0.20303315263265675
107.9 0.34307585901150417 -0.09389164529499561
108.25 -0.629983057786764 0.9756480719361647
108.6 0.7786555661022851 0.9609003185809368
108.95 -0.6119947622176198 0.444775876850821
109.3 -0.32737614543534055 0.5397533556610545
109.65 0.7290401915262781 0.3419177684578585
110.0 0.927737822428415 0.24606826651604208
