!Created with skrf (http://scikit-rf.org).
# GHz S RI R 50.0 
!freq ReS11 ImS11
75.0 -0.9967973927647018 -0.07208394233439153
75.35 -0.7874296958542495 0.5714956866734242
75.7 0.25190005301563123 0.31086835587868533
76.05 0.07670422350717754 0.4238070971882346
76.4 0.856786816074055 0.2702652450704095
76.75 -0.5123325136274313 -0.748557804492769
77.1 -0.8115444114330685 -0.39746832895630235
77.45 -0.3299161745553134 -0.9725615988388263
77.8 0.3524989874822442 -0.14749659591340714
78.15 0.6941170679807303 -0.23888929822077354
78.5 -0.18597064451840772 0.1123634772668416
78.85 0.5699812299821725 -0.6710339921007415
79.2 -0.07037714922978866 0.676259162321762
79.55 -0.19218822409626535 -0.04933678191792712
79.9 -0.21244720655298654 0.7390975372760653
80.25 0.1442594802699979 -0.44189129207772004
80.6 0.9176747420179472 0.6979786107917114
80.95 0.5891238008945858 0.9240603393127753
81.3 -0.9971375200050172 -0.222154546615555
81.65 -0.9889166834043919 0.18839562833247459
82.0 0.7489741778918366 0.5205078523644655
82.35 0.059738487214636704 0.8346082352735695
82.7 0.47455238216109286 0.7060368393465075
83.05 0.5088905120995881 0.01988048310169588
83.4 0.3798054258574248 0.10255320324681039
83.75 0.025386956894397406 -0.6220610063472074
84.1 -0.976555897953733 -0.4386661433967465
84.45 -0.9341204986680385 -0.526024462096742
84.8 -0.6289771468319194 0.04414019471216757
85.15 0.5248661504716319 -0.9287642206492206
85.5 -0.9662084231034449 0.5511344545609811
85.85 0.5804574537372342 0.3059019607979534
86.2 0.5693769129343085 0.5980379357588321
86.55 -0.5380606022519556 -0.03752901781545792
86.9 0.20527829740415848 0.5658850904710939
87.25 -0.6183016175061344 0.09468186748345375
87.6 0.4014608293812181 0.06230505517034213
87.95 0.9860016037640866 0.15632112188616953
88.3 0.8602303975624654 0.24337079459341848
88.65 -0.3518299692015341 0.33090627592234734
89.0 0.1876591450636449 -0.5556079573043853
89.35 0.5371650522118028 0.9374842951121414
89.7 0.4592974454173926 0.3284842659113336
90.05 0.6365115938292483 -0.1228157184425045
90.4 -0.15864750934920036 0.33178122273864363
90.75 0.6598507511062035 0.14368035052274863
91.1 0.46249547700814153 0.5433769504640289
91.45 -0.4053831689689513 0.6784126294945991
91.8 0.8723969452085376 0.1912168473392708
92.15 0.4461759115609676 0.6862156172286509
92.5 0.9875400659311184 0.7844462191018642
92.85 0.5862227090327037 0.7340477324959007
93.2 0.34000228562691404 -0.5397725273117782
93.55 -0.7105199340578299 -0.4198942139892152
93.9 -0.13392883758466456 0.9840270999197616
94.25 -0.7089407624534825 -0.7976194930983034
94.6 -0.11440098453234615 0.5199470296928856
94.95 -0.3235602949733629 -0.83532358864933
95.3 -0.7579906957355143 -0.7393189510124956
95.65 0.4454675134313628 -0.5687469784308348
96.0 -0.07391613441017553 -0.20509770315928377
96.35 0.16423043332008502 0.10882416614790347
96.7 0.655611048294579 0.5342338515053009
97.05 0.4718348634171512 -0.033008388452061777
97.4 -0.6176002630086552 0.5756877943367467
97.75 -0.16765047069412975 0.7541582003389313
98.1 0.7965630876701808 -0.43597933803140343
98.45 -0.3941609572132385 -0.7519850480907573
98.8 0.05262529305843722 -0.01385542390285699
99.15 -0.23348682127069798 0.5819987139307949
99.5 -0.0210549402082858 0.5757813983634825
99.85 -0.016110086280649583 -0.20180126823962663
100.2 0.9561695514850066 -0.8231601446779266
100.55 0.3534709251535857 0.07541927569548723
100.9 0.12904901125357093 -0.16941612452498434
101.25 -0.29649803891107274 0.9810473119106549
101.6 -0.6639065458904434 0.4540664175022766
101.95 0.4101061714126466 0.3357020414165519
102.3 0.9558851130919901 0.732355687919181
102.65 0.9148262598686936 0.6735569313163166
103.0 0.000322868488659811 0.8527782845634757
103.35 0.12141553022842166 0.5396312604899423
103.7 -0.04992530730990197 0.7652786217240277
104.05 -0.38293657998168573 0.5915659123071628
104.4 0.5997278963671366 0.702450496208822
104.75 -0.03866712089127056 0.19615442461512345
105.1 0.9818865866364916 -0.7167571110809474
105.45 0.38853432151355816 0.3327673071112327
105.8 0.2136988753536937 0.19063030518845503
106.15 0.3356831150685782 0.804761396907475
106.5 -0.024628078154074418 0.26311356451314927
106.85 -0.6380846746894906 -0.4463549978195649
107.2 -0.5455555458123225 0.3993537285701567
107.55 -0.6581355799015385 0.9455949333019145
107.9 0.04754071586742836 0.8493420330236277
108.25 0.8135389037135723 -0.5715452185518484
108.6 0.7863354291055888 0.16862942262795233
108.95 0.8723820090948873 0.563648561451586
109.3 0.8361174082210738 -0.07698450118499056
109.65 -0.5368321228762845 0.08462439514170605
110.0 0.6540489565004959 -0.8501812063462602
