!Created with skrf (http://scikit-rf.org).
# GHz S RI R 50.0 
!freq ReS11 ImS11
75.0 -0.9549909647217902 0.6785995558746896
75.35 0.5734337393342546 0.32188062599927236
75.7 0.18393453983414032 0.786306117932932
76.05 -0.9453848212941112 0.9077703488422166
76.4 -0.5633171332817182 0.20145287446626692
76.75 0.24761952966366008 -0.9056330527764911
77.1 0.028262155438579795 0.7177873975444773
77.45 -0.6489229555830609 -0.8805234128648194
77.8 -0.8244145760670336 0.870198590774294
78.15 0.23256141154238885 0.6840567690320918
78.5 -0.4065926461649123 0.19322926225841197
78.85 0.6949307256230148 -0.1735501561505981
79.2 0.960512724843499 0.905631626245669
79.55 -0.38434891874345123 0.79558606680962
79.9 -0.824456292575017 0.3644445798355347
80.25 0.8540036378444633 0.2521471559400388
80.6 -0.033065170171377556 -0.6049321714532288
80.95 -0.26419782647468026 0.7199997850491908
81.3 0.7465879949634029 0.03090651985282733
81.65 0.2505441714381873 0.9112938507372363
82.0 -0.8045393968704071 0.7571680055994847
82.35 -0.32906901225378227 0.7239540957123776
82.7 -0.8179890941632606 -0.024904646631946692
83.05 -0.33287621706047155 -0.8752516641901218
83.4 0.03464626375821411 -0.7108263087522682
83.75 0.47190826998984825 0.03330450713335642
84.1 -0.34908247047119967 -0.894337695102146
84.45 -0.08923627759187847 0.4575905917324481
84.8 0.6833435534871501 -0.9610899446965737
85.15 -0.047110104471605574 -0.7716555569022412
85.5 0.1161687628410426 0.8470491527064707
85.85 -0.3529538427122214 0.006046423092736175
86.2 0.516264545237574 -0.039544500808804006
86.55 0.8618545626819989 0.42145067275806913
86.9 -0.7078074927361422 -0.3609678270244967
87.25 -0.7127493516871171 0.5176203016855705
87.6 0.2837906428222734 0.22894836149792797
87.95 0.5670698961976197 -0.3048231393676424
88.3 -0.336393403090262 0.7719025532955393
88.65 -0.4034497023686794 0.9643617213959537
89.0 -0.4156007916298179 -0.9748927334582482
89.35 0.3198157979573608 0.10621620393831765
89.7 -0.16514855623354197 0.7132756678247121
90.05 0.9333220715986417 -0.4700286407322567
90.4 -0.8719181566371064 -0.1450103408823531
90.75 -0.7465816188838308 -0.1877014362671221
91.1 0.31274297897403525 0.6661007996984749
91.45 0.8991607474809582 0.3331431946906931
91.8 -0.41578653579982117 -0.4009421291126214
92.15 -0.6244818086301509 -0.02506422523295959
92.5 0.7106446864607756 0.8576486686514313
92.85 -0.47207006862660217 -0.20016444566748293
93.2 -0.725486776149548 0.7816759321154387
93.55 -0.8341158108006606 -0.6495735903926732
93.9 0.6484595576282484 0.3143252613494649
94.25 0.23306172083823662 -0.08353088895838812
94.6 0.06572004179744617 -0.8766493887781388
94.95 -0.7942360827191517 0.5660553481702251
95.3 0.00995345554218452 -0.02232651093065119
95.65 -0.6590563382302987 -0.9619631290643265
96.0 -0.9179656295566601 -0.9442594233494899
96.35 -0.8417072589199648 -0.6288739635380318
96.7 -0.06067327675422285 0.6478426650682128
97.05 0.8368365947468663 0.4675610693470471
97.4 0.48577658505571897 -0.8734141996405538
97.75 0.5797571609478378 -0.3366412481296426
98.1 0.18854986222619585 0.055953248564980296
98.45 0.963447186307288 -0.027253760520521864
98.8 0.7632480769271819 0.3564432624913816
99.15 0.6266399504079667 0.09831993863641908
99.5 0.7049965350254823 0.2467056451907761
99.85 0.3608892179843799 -0.303198651462389
100.2 -0.18883268570120015 0.6523324149950938
100.55 -0.6795525967057794 -0.2938399254830186
100.9 -0.2537709634768919 -0.0646230828677703
101.25 0.5909106997762386 0.740917678655566
101.6 -0.15373789554394723 -0.7926072552839312
101.95 -0.1568785318657746 0.39611435929050254
102.3 -0.3116335643032535 0.8054645262488072
102.65 -0.2832569285060733 -0.6820960503610309
103.0 -0.9157399880789352 -0.593372901384037
103.35 0.7385026507636827 -0.9864182063996942
103.7 -0.5525532617246212 -0.6104380901077033
104.05 0.9899126150868036 -0.10836910053200954
104.4 0.8005969345696944 0.4254530844362099
104.75 0.3941200880887157 0.24304021678705778
105.1 -0.4120423705890952 0.3270321850269693
105.45 0.12123369089724845 0.20527092532390556
105.8 -0.028194200361501 0.4981653851895702
106.15 -0.4303277301910382 -0.5046758061183494
106.5 -0.7699015911264075 0.07402894451760456
106.85 -0.24487603966519877 0.9954698840791747
107.2 0.6297615266370298 0.3730155333258147
107.55 -0.44258967651351067 -0.25483903454416024
107.9 -0.9590136368042936 -0.3536722911608834
108.25 -0.37427262732879507 -0.23463893951212023
108.6 0.7346096600968337 0.6773069686827686
108.95 -0.14062434310672667 0.2495418693344036
109.3 0.950546193176161 -0.8393043350656151
109.65 -0.8854541686025379 0.270507841420877
110.0 -0.1178982098153547 -0.7547016104492392
