!Created with skrf (http://scikit-rf.org).
# GHz S RI R 50.0 
!freq ReS11 ImS11
75.0 0.37031294021032757 -0.030660334262374134
75.35 -0.626481718430137 -0.9192085069055658
75.7 0.8749963474097535 -0.1733444590998776
76.05 0.22515598812744475 0.8802017760519476
76.4 0.9886496975032111 -0.15189036832709446
76.75 -0.5271059605692905 0.36532939062739667
77.1 0.8043695969792803 -0.08595695996358321
77.45 0.1942606142817993 0.38851244013629915
77.8 0.005508347795839308 0.9584463646010035
78.15 -0.9100139544159447 -0.8378162168181047
78.5 -0.5577004813369868 0.922020550780835
78.85 0.9399710236898873 -0.5135041610118534
79.2 -0.5955236441740406 0.20216170529452948
79.55 0.5431914171772947 0.16585324851166794
79.9 -0.31319727486772075 -0.779595278812705
80.25 -0.943327206697711 0.5218612847172568
80.6 -0.7132913235222593 -0.7870267532104982
80.95 0.3945190343142222 -0.6568766372432295
81.3 -0.48983605549011155 0.9455617433599763
81.65 0.23802292542217285 0.79463674127776
82.0 -0.47637528046636013 -0.6834118652855481
82.35 -0.7541506785483147 0.7560232968533451
82.7 0.5353857411879768 -0.955308476547357
83.05 0.47484493800635863 -0.3713511763098676
83.4 0.8519036688425974 -0.09382296435123649
83.75 0.40942261556301873 -0.2205337119373043
84.1 -0.9386319016225855 0.3231172944866316
84.45 -0.027904848185888786 -0.09726387152884985
84.8 0.4992044773652793 -0.8717896479944582
85.15 -0.7487280682884092 -0.4475756491980094
85.5 -0.4001845924052374 -0.27853729058080967
85.85 0.49444767785139776 0.3232972055352128
86.2 0.9989774589485518 -0.24978644316593357
86.55 -0.1905749618301784 0.007915158254633514
86.9 -0.5867653736354195 0.3144916019755535
87.25 0.84255269932481 0.1796983677593902
87.6 0.8757001636699586 0.6373042535260685
87.95 -0.4885543551009155 0.5181516791345349
88.3 0.6220369928930025 0.18177661078903617
88.65 0.8043868372758856 0.9757511289447451
89.0 -0.09417001995389174 -0.5463746592568959
89.35 -0.4335938799121801 0.47460979474051945
89.7 0.13862480956943557 -0.4081482142165618
90.05 -0.8806618793613088 -0.17456817730658591
90.4 -0.7575851207401998 -0.9029656649656235
90.75 0.006286691078976059 -0.7018193587576476
91.1 -0.8681985262554341 0.10050978101223107
91.45 0.5563314136960393 0.6817168487818102
91.8 0.3262360736274108 -0.8638807456827908
92.15 0.20509813170259106 -0.8803533973853814
92.5 0.35040450599784845 0.9547255901348004
92.85 -0.4575871050808502 -0.5082153663366222
93.2 0.7455801386259355 -0.6776183791510269
93.55 0.7536422569117398 -0.5619531905885895
93.9 -0.5428748745576646 -0.2075074115023059
94.25 -0.42406083490072377 -0.6323085004046878
94.6 -0.16046112820936576 -0.763926999889941
94.95 0.13102857609919694 -0.009001947649805553
95.3 -0.749762502446254 0.5982211105839617
95.65 0.7138441358493934 0.8205144721324549
96.0 -0.5613826952177539 0.8832432562828219
96.35 0.9646348194351309 -0.9340265740136109
96.7 -0.7263792920197167 0.8331543460511981
97.05 -0.7371827119973993 0.892678772809659
97.4 -0.7437835187926001 -0.3626844191837475
97.75 0.9066886848154767 -0.6877444560738595
98.1 0.5547689053089282 0.6840015661340424
98.45 0.6125953929493677 0.285267112887303
98.8 0.4408586267807759 0.8408432614268913
99.15 0.7195529041299256 -0.5609117945157469
99.5 -0.9787815560992239 -0.9589322637009783
99.85 -0.8233430491675797 0.13050405052699543
100.2 0.14561307773630316 -0.40364950794517096
100.55 0.5854437269992128 -0.7859699123598405
100.9 -0.7493021808442826 0.41178666272780773
101.25 0.6749636373700696 0.9698826795062319
101.6 -0.03255813492806747 0.8492673923643352
101.95 -0.7798260112706923 -0.3289110852514672
102.3 -0.9619205487739304 0.48272074777252705
102.65 -0.8148717406033914 -0.9752214227413396
103.0 0.1226967386809088 -0.09797870582099288
103.35 0.15136669906782108 0.47175560355186463
103.7 -0.8451578880280752 -0.1258206194532534
104.05 -0.8155285754757093 -0.3871922921653286
104.4 0.30439905249638777 0.03625845445099629
104.75 0.8136801880678948 -0.42096929523082127
105.1 0.4195942279665694 -0.03632012012681329
105.45 -0.7785103671494145 0.4943754958370228
105.8 -0.4378657307192815 -0.10470358056332496
106.15 0.5121111100064235 0.08742978249157707
106.5 -0.45931169364190483 0.8239828447404844
106.85 -0.12529492818142374 -0.4898136606008552
107.2 0.5934474904202724 -0.7481463036289535
107.55 0.3394950949527311 -0.6050362734322348
107.9 -0.5466338802130528 0.21245792346143522
108.25 -0.3915075042664613 0.7527392020362336
108.6 -0.36605979564220537 -0.2763194727454956
108.95 -0.6273461229141453 0.8715829883750421
109.3 -0.7639834894190689 0.5242357041316095
109.65 0.4435267039043682 -0.07628884510743883
110.0 0.3698230185939584 0.6657366304911747
