!Created with skrf (http://scikit-rf.org).
# GHz S RI R 50.0 
!freq ReS11 ImS11
75.0 0.8023065890838015 0.013697823934911701
75.35 -0.933726891461623 -0.09436795763342465
75.7 0.4801947496031278 -0.2340035861895542
76.05 -0.15938911806077893 0.20475847985445172
76.4 0.19571250151681752 -0.4378743282739461
76.75 0.5146718321410761 0.6159522387688874
77.1 -0.6913428077024455 0.5131934338078266
77.45 -0.8254667452030142 -0.39616235998774485
77.8 -0.1013215492593289 0.2581248778278169
78.15 0.5598672632597177 0.8689965335567724
78.5 -0.7161600362795999 0.1676489109918109
78.85 -0.5372236527013774 0.2412574314490017
79.2 -0.9369444235453204 -0.9753889933469881
79.55 -0.4575640783908299 -0.9889322711218236
79.9 -0.5321857940565473 0.8990839237959765
80.25 0.6925776044139953 -0.5056370124096117
80.6 -0.6650679240960768 -0.050189240379810984
80.95 -0.2720661665696875 -0.8783165860411799
81.3 0.772811605590221 0.2576001878569927
81.65 0.04562120004532755 0.7358197789960721
82.0 0.19002038168968793 0.593871016556925
82.35 -0.557388817444507 -0.30305614102001943
82.7 0.7451086074980817 -0.5918169595957983
83.05 0.10047421183800265 0.8181782216010212
83.4 -0.3990682315902707 -0.9631533731011581
83.75 0.2558446706094759 0.308560648204633
84.1 0.5932418593322153 0.9151732180611702
84.45 0.44984945314020774 0.7454809872991643
84.8 0.9896341559079578 0.634425741062447
85.15 -0.6025965130603383 -0.06901476351011593
85.5 -0.780783336207902 0.5417558859558318
85.85 -0.931077585605504 -0.6890852718570248
86.2 -0.6948357976811981 -0.17793384686475
86.55 0.16284701149106118 -0.23675345190459463
86.9 0.8042973772188966 -0.2957916902576385
87.25 -0.9344823516195861 -0.448996975118255
87.6 -0.03181365853393814 -0.42201223213082817
87.95 0.8108155546123805 -0.1387553684438878
88.3 0.9560298023419296 0.2835215592466942
88.65 0.06115902093605308 -0.0612302715096511
89.0 -0.19230681307120823 0.4147623181419857
89.35 -0.5004477492049448 -0.8865029295234612
89.7 0.056696442854827334 0.7029602368265546
90.05 0.5106999361090707 -0.7687549061575265
90.4 -0.764475909615357 0.5458752096336459
90.75 0.6977038119901744 -0.03622943271252099
91.1 0.8033110034232886 -0.5879030711244428
91.45 -0.3643340342789434 -0.581012373797928
91.8 -0.4250040254274623 -0.7283381508459732
92.15 0.40312577968090535 0.18767576628000504
92.5 -0.8911013336857867 0.01775718676646676
92.85 -0.7182682937888958 0.13311463381343858
93.2 0.14884753326435773 -0.06281831911338864
93.55 -0.9498518051209222 0.5099321508178623
93.9 0.00839205445828517 0.7761671615429477
94.25 -0.6696975810338299 0.9375637149813181
94.6 0.20309414973833295 0.7858119658880849
94.95 0.781463221878022 -0.5700845750416519
95.3 -0.42122735178121906 0.12671646948423176
95.65 -0.8074331342297196 0.5560491960532195
96.0 -0.8555119646861886 -0.13685849809705686
96.35 -0.0008705228257168685 -0.8816167722635442
96.7 -0.9865228090347298 0.1852491528467224
97.05 0.5741664277631018 0.7246971065849053
97.4 0.3987494442241786 0.11405011446415103
97.75 -0.8425321345549783 0.21380923232785354
98.1 -0.43930920233974224 -0.7783025498406217
98.45 0.4477297642062301 -0.676496189502068
98.8 -0.6914939530283368 0.9417784825491939
99.15 0.9220291426188536 0.39123329415866537
99.5 -0.8422567277199398 0.9195804485394852
99.85 0.443563364300281 -0.9528351667735315
100.2 0.6215603002604715 0.3420321377210036
100.55 -0.624500649516929 -0.3058465035477911
100.9 -0.6708809315319015 -0.6474734525728667
101.25 0.6672060992391475 0.30221180851578944
101.6 -0.020779648141710627 0.4087004593484882
101.95 -0.1441230338281565 0.22705423815227932
102.3 -0.45755900726650034 -0.6792114751616793
102.65 -0.008795374143719226 -0.8489318439184792
103.0 0.1190050236506992 -0.8892373727683913
103.35 -0.5776472161052602 -0.16855525894557122
103.7 0.11276637704465209 0.5870071618348558
104.05 -0.6324331583992411 0.12594391779043623
104.4 0.9212978469583519 0.24169818014166888
104.75 -0.867101367006583 -0.10995493556178393
105.1 0.4234643783221115 0.9716347113609067
105.45 0.7915510268452353 0.31868072763128485
105.8 0.3290641525672553 -0.5581527191444684
106.15 0.7418923352293454 -0.5851557090207329
106.5 0.7256725341602177 -0.639139926564186
106.85 0.6824611115950416 0.5213509399300547
107.2 -0.4682583841120729 -0.7833303168290269
107.55 0.3027074693903693 -0.8593630447616236
107.9 -0.698394849546885 0.07540040305925388
108.25 -0.5230224216908379 0.8950703720135846
108.6 -0.5322297582751108 0.8638548042106384
108.95 0.5248076355307367 0.24238204911188488
109.3 -0.22791671912807665 0.13437369240027808
109.65 -0.015036052960806234 0.8698924050202845
110.0 0.02630398943514467 0.17643070722348475
