!Created with skrf (http://scikit-rf.org).
# GHz S RI R 50.0 
!freq ReS11 ImS11
75.0 -0.5789316622533247 0.3889752544807361
75.35 0.9414788106770242 0.9020633146578088
75.7 0.47569078486072014 -0.799607908339451
76.05 -0.952479094211566 0.8887921214915486
76.4 -0.9344362633487624 0.33610935578902956
76.75 0.8261444858347355 0.9903531321723706
77.1 -0.5162450480577105 0.22734917380483144
77.45 -0.7735360934446458 -0.9629159839075387
77.8 0.8238088619484176 -0.5015674071922624
78.15 0.10368477357351624 0.21701806152767378
78.5 -0.32945887866916035 -0.6392461254769883
78.85 -0.19713586891759105 0.3293434178524308
79.2 -0.3154678878273469 -0.4357339086277441
79.55 -0.6891907059493187 0.679920468730262
79.9 -0.016260922166503766 0.22864931954351797
80.25 0.20598306478507022 0.889007543555413
80.6 -0.546791841053166 0.611775840814391
80.95 -0.6220160393887517 -0.2745824458324999
81.3 -0.32826545109246164 -0.06683453462428313
81.65 0.7941646103391313 -0.520484758744032
82.0 -0.07889777322486746 -0.441454171240927
82.35 -0.1360897512687269 -0.1422583267382065
82.7 0.7447987097782156 0.3343271822392764
83.05 0.5074433627808952 -0.7844468462156717
83.4 -0.7940217011057726 -0.6052419356050018
83.75 0.8289174659264058 -0.24729484054906314
84.1 -0.37513184134508015 -0.3131194475378072
84.45 0.9603188535033804 0.05671423020597821
84.8 0.06723700435908309 -0.811781620534946
85.15 -0.6542169266553375 -0.08119661385088262
85.5 -0.6024888625331446 0.4447957572395078
85.85 0.8239998741913737 -0.9442138354957035
86.2 -0.30013819236238337 -0.14581821288739016
86.55 0.6310708186967231 0.2874617169258671
86.9 0.8534534226221497 -0.22020943929179326
87.25 0.7992783096942739 0.7443359198041029
87.6 -0.46401431370488155 -0.8357654788483972
87.95 -0.5102292225713851 0.20307408831248797
88.3 -0.4394736506881862 -0.25213277486553065
88.65 -0.11071444704693456 -0.258393066262963
89.0 -0.8793080032277227 0.7178115628190676
89.35 -0.48948126500737676 0.03313025634534128
89.7 -0.27087104091792047 0.7986202847925146
90.05 0.2823071561656234 -0.40272671502824364
90.4 -0.38194348482355833 -0.5857269738355988
90.75 0.13920374349880849 0.06404275706986495
91.1 -0.49600148600069494 0.0478338898964179
91.45 0.3893169377193084 0.7226414167511379
91.8 0.3153636407107909 0.9414042436466488
92.15 -0.3430548627923833 -0.4009656073807504
92.5 0.4418130723876721 -0.26193162010620075
92.85 -0.5850778029148744 -0.9580744608753808
93.2 0.9563926275008807 0.10197464739857454
93.55 0.6962327885540567 0.8068809460808082
93.9 -0.44873770942729574 -0.701978196629345
94.25 0.7864606611663567 -0.0021886617819115717
94.6 0.028343424751797297 -0.2650725408554422
94.95 -0.8263696319853817 0.2602103026058953
95.3 0.636720124132989 0.9750651226592499
95.65 -0.9527994721412658 -0.18673699933263777
96.0 0.9921986561342266 0.14224480699885578
96.35 -0.44273652813962805 0.8293365029937982
96.7 0.2811301015776504 0.49967961260869065
97.05 0.9094988798974233 0.02601612703039291
97.4 0.571082375182882 -0.8470312158115789
97.75 0.2951986740816377 -0.3305681781962342
98.1 0.9256111903673541 0.9581352574197617
98.45 -0.9715701038400861 -0.7300876300354384
98.8 -0.730972974959593 0.9974229844404121
99.15 0.5814727551920806 0.957661732150223
99.5 -0.9624445273693181 0.13122245720697934
99.85 0.9373873547999392 -0.9595789722084458
100.2 0.77194724614379 -0.3473612827450332
100.55 0.8049918280140507 0.5118728341400094
100.9 -0.7289643952686249 -0.35683100468187967
101.25 -0.17404820592751657 0.1461305380384399
101.6 -0.011079363228363448 0.9800637424760259
101.95 0.6525738930822351 -0.042513014191574605
102.3 -0.003715663334809216 -0.9773828149092725
102.65 0.6768331940835621 0.39268441027595746
103.0 -0.9768184089012717 0.09598960339240348
103.35 0.8734497208981631 -0.9404960159717815
103.7 0.9270926786109746 0.6174198676638276
104.05 0.05370876710779027 0.5095528346100744
104.4 -0.6735296159932775 0.647869198244458
104.75 0.46871717785206224 -0.6527093660783512
105.1 0.0447782397388623 0.15688984202239697
105.45 -0.0752794683521445 0.9946646803386934
105.8 0.650291505801573 0.9219291326466215
106.15 0.6584162997095242 0.5635271340249688
106.5 0.15779644331173848 -0.5155301101998935
106.85 -0.43949538754176487 0.5877047379871649
107.2 -0.4240061661299843 0.9956314410886482
107.55 -0.4787915288768927 -0.8754296878745502
107.9 0.3754653653522979 -0.8123050506467513
108.25 -0.6392879046131792 0.9146106549245885
108.6 -0.8483007554432989 -0.6675577526892009
108.95 -0.4839371395706651 0.09835563800949121
109.3 0.22389458041022703 -0.3063006369240371
109.65 -0.8443341705627303 0.8491444888845461
110.0 0.29488584946883933 -0.759409705467939
