!Created with skrf (http://scikit-rf.org).
# GHz S RI R 50.0 
!freq ReS11 ImS11
75.0 0.9243299211782405 -0.0453557638988904
75.35 0.7836550822859585 0.5084950761602227
75.7 0.21252315779265296 0.4208197360971466
76.05 0.6014666613444843 -0.45968294295962053
76.4 0.8609594135318615 0.8053502980265272
76.75 0.5473555290564056 -0.35518850528733625
77.1 -0.1440345496483051 -0.09508913725307044
77.45 0.49876824832752864 -0.6739499780269622
77.8 -0.45135696456951613 0.9724655679069658
78.15 -0.9689228852996103 0.606156928377185
78.5 -0.6886665668769627 -0.9294604234456749
78.85 -0.8255046320294166 0.6665756280079804
79.2 0.445845916658721 0.9671100796824008
79.55 -0.6871501439077701 -0.10980782148238921
79.9 0.22265031121354717 -0.5525204748836214
80.25 0.34722085017782733 -0.3922283020149835
80.6 -0.020408241757106538 -0.9029410818146035
80.95 0.5281300758001686 -0.3032177262973845
81.3 0.8600904229565032 0.5520224273993648
81.65 0.8074596720832463 0.9224043666233188
82.0 0.3457804969576683 0.31871067098821304
82.35 0.2226595545143979 0.9372978631061399
82.7 -0.5597475716853391 -0.34273559942782117
83.05 -0.32187417522198447 -0.6482087859361809
83.4 0.6083204762229917 -0.9539800615502145
83.75 0.6199702402866576 0.8152031545394327
84.1 -0.08474594347076714 0.3137428548772314
84.45 0.8352249921404444 0.3639333176440891
84.8 -0.18891033590097073 0.34715757101979894
85.15 -0.8368038050553135 -0.8591953707218503
85.5 0.9672580964135489 0.2521743078666834
85.85 0.6286697031854065 -0.8560466220900638
86.2 -0.09110478848903925 -0.2964977679770828
86.55 0.9516953795534018 0.3016790094824573
86.9 -0.8523873255250807 -0.18997525422438466
87.25 0.38255531250068997 0.9563584454151082
87.6 -0.32620201050489106 -0.8582869269885534
87.95 0.5100422449354913 0.7544823137703116
88.3 -0.8706701742417811 -0.9604433808825519
88.65 0.19919618138556694 -0.12684220639828792
89.0 0.6618371383807449 -0.9006353587024982
89.35 0.7610688296495405 -0.04007024783448121
89.7 0.5226482142975728 -0.4704542564349057
90.05 0.396674025123976 -0.004644115695838336
90.4 -0.8709713312913983 0.7244778461891228
90.75 -0.9850523457550149 -0.47052255477876104
91.1 -0.5150773201602066 -0.10743751569122506
91.45 0.33719285016186906 0.5965592948612628
91.8 -0.0615541021964956 0.03532882299545648
92.15 -0.047279747645273984 -0.8132078724045311
92.5 -0.9324497363329998 -0.9553571060539532
92.85 0.3859905085013733 0.9245907168545653
93.2 -0.5699971262768551 -0.15783882774807512
93.55 -0.015044000311350558 -0.7762293503982884
93.9 0.6725426522885019 -0.4444733426734744
94.25 -0.8335318294039207 -0.07046241191008762
94.6 0.13365579234980718 0.5953563331960618
94.95 -0.7687251163937738 -0.514759689509352
95.3 -0.6780025797241505 0.7178156402615905
95.65 -0.7287788552285737 0.564096661422411
96.0 -0.2113731336765945 0.12893959985861492
96.35 -0.3821127636023596 -0.8845724068066869
96.7 -0.6425664794191168 -0.8720573501262809
97.05 -0.6047020023216112 -0.3955355790369739
97.4 0.9449989646728467 0.08249355155282845
97.75 -0.06010577955126739 -0.38917952567227587
98.1 -0.3973176346754843 0.9462546734567876
98.45 -0.237312326236361 -0.020666401444432214
98.8 0.13216129467546578 -0.569718319887824
99.15 0.8382473094146974 0.892085930810206
99.5 -0.3140199536730328 -0.3128482217309603
99.85 0.48766315873839194 -0.07351734786781594
100.2 -0.5645983616600674 0.8955669581893813
100.55 -0.037912924087427635 0.49954276041618706
100.9 0.11948372306941923 0.14028676276219532
101.25 -0.0205374338089388 0.21514274961862312
101.6 -0.36088315559777917 0.0011110753686829344
101.95 0.6790164953429125 -0.5746968089838305
102.3 0.8433487543307812 -0.39246188504564694
102.65 0.3104362635448208 0.5782494982755348
103.0 0.5562464777584903 -0.47385103274312135
103.35 -0.2900663198179192 -0.7956039706530262
103.7 -0.7203720921551182 0.31278113148869013
104.05 -0.6221942065848249 -0.5669838548810018
104.4 0.256262767076048 -0.2283985553948038
104.75 0.6355567522132568 0.4963455040305411
105.1 0.5282417618522015 -0.9953293966610224
105.45 0.8406867613987872 -0.555940862892278
105.8 0.8277042988314671 0.25117659921924296
106.15 -0.29686135071930586 0.5873658267518271
106.5 -0.3143374518685236 0.3636998696417171
106.85 0.8006106765097263 -0.09906453882413202
107.2 0.7123371040706605 -0.6968614733993468
107.55 0.3603413593409761 -0.044607996177220555
107.9 -0.23951099990055624 -0.17248850225252488
108.25 -0.5046959186785749 -0.6292792431561345
108.6 0.038948130650183765 -0.869165415133619
108.95 0.46630048756633435 0.780766135524382
109.3 -0.34366593381977784 0.5453986300570566
109.65 0.10116770414099063 -0.8374509349205344
110.0 0.6238414222386177 0.3316570814885864
