!Created with skrf (http://scikit-rf.org).
# GHz S RI R 50.0 
!freq ReS11 ImS11
75.0 -0.10920832273534664 -0.6864614537401377
75.35 0.768209315431601 0.3342150118877618
75.7 0.20862366456640613 0.1327123305612965
76.05 0.8578775373658349 0.5310955633682346
76.4 -0.623000378643731 -0.30948178376191904
76.75 -0.23907876883010548 -0.4194283620947916
77.1 -0.0616417355303156 0.0975440742072311
77.45 0.06932086618953903 -0.7864763565840465
77.8 0.9741210079150799 0.9886935255978959
78.15 0.5007680289616749 -0.4895529891855892
78.5 0.21374207614109575 0.2614094032397283
78.85 0.3252518890729854 -0.9882512564024282
79.2 -0.4793418285393647 0.1873725132005264
79.55 0.14941754564952037 0.49018524784712003
79.9 -0.6173947967900377 0.8888763819620891
80.25 -0.4912890251765001 -0.5606119725444421
80.6 -0.04123146478868467 0.4647554078718683
80.95 0.07390216282122242 0.3017543456835676
81.3 -0.7279064667228023 0.3191190736860732
81.65 -0.6647046421400746 0.8819072537285937
82.0 0.7755674311792369 -0.5600088750936296
82.35 0.8507663354526473 -0.7758481907466339
82.7 -0.3163226040345657 -0.3340150279929701
83.05 -0.7909153348382107 0.04642903179289659
83.4 -0.20165765333851593 0.7240055069017204
83.75 -0.5981539204300219 0.2829571647923921
84.1 0.8411838287381725 0.17145019635568493
84.45 -0.9543251540882445 -0.5237563845848974
84.8 0.6389217023513465 -0.42772659616324415
85.15 -0.9768529230483836 0.8659292531316893
85.5 0.003937550935180001 -0.671961003173229
85.85 0.3913021139284685 0.777256334160618
86.2 -0.7315310805957285 -0.909637470640037
86.55 -0.6204723112078103 -0.9679264101885467
86.9 -0.4342379973384869 -0.3510449534946951
87.25 0.872436189210362 0.4664071392283755
87.6 -0.025287959643294666 -0.6269190173577814
87.95 -0.8945195127320336 0.7297023132578471
88.3 0.5665616221658865 0.8961524968914092
88.65 0.3934954542710629 0.9058987990116041
89.0 -0.1384243572459274 -0.07561942192641036
89.35 -0.09998199925196882 0.9468351452842207
89.7 0.5672747680925361 -0.1377099606769301
90.05 -0.7966297011114709 0.8985282940570167
90.4 -0.7620279757784454 0.5919579101643315
90.75 -0.01411241255962703 -0.8584451017222694
91.1 -0.9607334753448091 -0.8943649793572672
91.45 0.28184854540931403 -0.427149585571708
91.8 0.5260495607658318 -0.6882117155509446
92.15 0.8957070386760653 -0.6468165039379927
92.5 -0.3550969995830344 -0.8350697909789428
92.85 0.151601250397831 -0.5761257512934834
93.2 -0.7542728007951722 0.19976365137067087
93.55 -0.8736981851163435 0.45773817580022924
93.9 0.836208619015917 -0.6614226621892063
94.25 -0.9961973087378282 0.6102263871559088
94.6 0.6258941314434157 0.4053414350748372
94.95 -0.504411522570861 -0.898331631024432
95.3 0.9994361120275712 -0.02522400779646361
95.65 0.5792143066971496 -0.6125147004968055
96.0 0.5823934491078022 -0.8184359726118848
96.35 -0.7407258349406571 -0.47376280989850583
96.7 -0.8264995087530793 0.9995724061717637
97.05 -0.8659369689549339 0.7671647607170899
97.4 -0.48876323340316685 -0.7198057721176017
97.75 -0.8887370321448476 0.025382837982082185
98.1 0.06333384280737975 -0.5676633561526698
98.45 0.4683606346053679 -0.46597346181377786
98.8 0.47356068576735133 0.4448042340862086
99.15 0.369892624888134 0.7739939177098387
99.5 0.5972646054322672 -0.5214659044474395
99.85 -0.06632166892547553 0.14165120542525633
100.2 0.46417470224330604 -0.451050220837514
100.55 0.38841777654451715 -0.5157097046394652
100.9 0.27932693897351357 -0.16346466061452825
101.25 0.4320485760658188 0.7374800258368335
101.6 0.626517674001702 0.24560675683610267
101.95 0.9531812595918256 0.35023165516540966
102.3 0.8097984453795433 0.006942751187740237
102.65 -0.3971560759412478 0.6994916476444248
103.0 0.1582433017120075 0.0185373809168079
103.35 -0.7406446514731166 -0.5426729610917
103.7 0.2466250264092511 0.253655207641831
104.05 -0.02599694741441616 0.6495939287284556
104.4 0.23275778390667057 -0.6775626408960045
104.75 0.11010051703194024 -0.7265074333644661
105.1 0.7634187512896451 -0.29725657173384845
105.45 0.552933287528421 -0.21726425091636292
105.8 0.8530689992805365 0.48520557490362615
106.15 -0.10392234934775901 0.6067631093772374
106.5 -0.5609715518089153 0.452569803607205
106.85 0.9192250425795614 -0.5061116911319321
107.2 0.4108536510785519 -0.2882603087211235
107.55 0.5905571253808375 0.46204601807394097
107.9 -0.9186560716019583 -0.9440163107576451
108.25 0.3218122270522379 0.4913970353072743
108.6 -0.44448950071174 0.13007329072697638
108.95 -0.9907754975424699 0.587541474904258
109.3 0.7368627270311807 0.7181191202763131
109.65 -0.5079957513546014 -0.0778954579580533
110.0 -0.618683558101397 0.6371880051450369
