!Created with skrf (http://scikit-rf.org).
# GHz S RI R 50.0 
!freq ReS11 ImS11
75.0 -0.232416239956575 -0.9792936075551946
75.35 -0.7162716235676179 0.9124539587286642
75.7 0.6703433274745951 0.8750497394712211
76.05 -0.5553347010259262 0.3138541948295701
76.4 -0.2722642979098686 0.28390861178114224
76.75 0.6029128692238583 0.9263556565687125
77.1 0.03541604151946709 0.16823666033967588
77.45 0.6037471079611896 -0.04200268836205123
77.8 0.8396285512004431 0.25057286609663065
78.15 0.1556278192242737 -0.6093655364717843
78.5 -0.46717414103700716 -0.5391566215119457
78.85 -0.8647070627287314 -0.41967662910383696
79.2 0.6369973561043825 0.9402370366756678
79.55 -0.5200701364341092 -0.4238083051592514
79.9 -0.9729940127230567 0.19939631175021755
80.25 -0.18879637490113876 0.023892102950087812
80.6 -0.9708888934560944 0.04645242478214051
80.95 0.6929965481964508 -0.8768573308788841
81.3 0.2755490696414895 -0.39808458957857007
81.65 -0.47594630960171713 0.0957120392816666
82.0 0.4667144416206481 -0.5946891319995791
82.35 -0.12991199333122605 -0.4284026879004279
82.7 0.3163889627319927 -0.663339676083343
83.05 0.7316235630393189 0.11194854501488294
83.4 0.8638980941822927 0.7813834066981218
83.75 0.6910605866852206 0.8147476640703306
84.1 0.8331257994239045 -0.26452218756959023
84.45 -0.43934010164969695 0.43516797741928004
84.8 -0.16590219032010256 -0.20330153681697216
85.15 0.9952049433202241 -0.6623810441465721
85.5 -0.4565100639981283 -0.7716718627643218
85.85 0.925934746532272 0.8101761540980648
86.2 0.5101346586169753 0.21306004221778507
86.55 0.8093890856331167 -0.0536118273108821
86.9 -0.11938194984409001 -0.0019939310257617304
87.25 -0.1297032716626536 -0.7992260504051765
87.6 0.6128959951972957 0.7177539548343099
87.95 0.9652676211237405 0.4581934865061441
88.3 -0.618342068500112 -0.25845274733257395
88.65 0.6868569929087722 -0.06610929963246215
89.0 0.9979224256305281 0.33648658966998624
89.35 0.25176920683769954 0.9716615172179472
89.7 -0.06228412309698195 -0.672919169682703
90.05 -0.41806681737238716 0.18243940861053476
90.4 -0.0757821755317638 0.3266270691303119
90.75 -0.331084370877921 0.2594706657976691
91.1 0.2449544929475851 0.11724620204369818
91.45 -0.6261399997168555 -0.38277568715733046
91.8 0.7301095349064808 0.007109524328569261
92.15 -0.025948735955002356 0.20067573315184317
92.5 -0.6047235433685938 0.12456006062149405
92.85 -0.8054300282713067 0.7672162170245729
93.2 0.7279992758661287 -0.10071276135306428
93.55 0.6696341757253665 -0.2899725080741853
93.9 0.9850005000620561 -0.684012388033503
94.25 -0.8289876543068815 0.13117708988549537
94.6 -0.8195246991823026 0.6732468781551004
94.95 -0.19487766619212765 -0.5551964352419132
95.3 -0.6546636612721741 0.8302235877195769
95.65 -0.42948062757393446 0.9688884102841506
96.0 -0.14728445172775917 -0.8887519105655133
96.35 0.3698400013870262 -0.6395588163550925
96.7 0.9575493823035335 -0.6156484645267744
97.05 -0.4130704167585264 0.5011471251385287
97.4 0.2827494832385944 0.2708757926055294
97.75 -0.12999498295430434 0.6514493204451699
98.1 0.7008830919037647 -0.09561380444129064
98.45 0.3083459992516624 -0.929430475202996
98.8 -0.9650278901873608 0.8094684827680241
99.15 0.6884963458644702 0.4790319450141445
99.5 -0.9427720410623068 0.3937527280053932
99.85 0.7266892710962185 -0.2204966069238079
100.2 0.10896609994967932 -0.6049708999878167
100.55 -0.9457469414744295 0.06144017303692695
100.9 0.858263392851006 0.29268865616951256
101.25 -0.6404066756778115 0.5616117188726335
101.6 0.9533270838019314 -0.6170303712110978
101.95 -0.44693788822879643 0.6861654375356054
102.3 0.6698986224608094 -0.3791801461092421
102.65 0.36760202560431754 -0.4093914937443224
103.0 -0.29215539012790925 -0.7915093888161617
103.35 0.33166096730631356 0.29384767211871
103.7 -0.9741724029323615 0.21874659441494648
104.05 0.335545274389655 0.6274250394183141
104.4 -0.008791203866352904 0.9591955957943374
104.75 -0.03940092660340544 0.08756101637707414
105.1 0.019219600028774764 0.7285677146230953
105.45 -0.15083457354717988 -0.1982968052320937
105.8 0.4914461589904462 -0.7139986456441136
106.15 0.7661464181550455 0.6306645912021966
106.5 0.18651409727258517 -0.9246799745300907
106.85 -0.9594037792593744 -0.22381335361993515
107.2 0.7525117617002091 0.4107371815166907
107.55 -0.15176052812193364 0.5938925947819194
107.9 -0.21747914396125623 0.6545294557944743
108.25 -0.168787802865082 0.42816822440392976
108.6 -0.49834411669071965 0.5336193301078394
108.95 0.11302912666482445 0.9569475721967811
109.3 0.04555598268050165 -0.024205244791267733
109.65 0.8990279239862808 -0.821011110984115
110.0 0.9305483100770822 -0.778421710016791
