# GHz S MA R 50

1.000000000000000e-02  9.0675801218583606e-03 -1.0997191412540123e+02  9.9765753648080024e-01 -1.6720684588330503e+00  9.9893024425351262e-01 -1.6508096991642873e+00  6.0479691418040341e-03 -7.5736832724457130e+01
2.000000000000000e-02  1.7410052627236442e-02 -1.0157891305195605e+02  1.0001720914184846e+00 -3.1413489024465182e+00  1.0004585477888766e+00 -3.1527877930203205e+00  1.7840249974081419e-02 -8.8655490004914228e+01
3.000000000000000e-02  2.7675964422859037e-02 -1.0193379518510795e+02  9.9852021181152051e-01 -4.6512653977009171e+00  1.0000554837874764e+00 -4.6550064385006005e+00  2.5632127646322899e-02 -9.3054307316930320e+01
4.000000000000000e-02  3.7677480748977393e-02 -1.0231852482570132e+02  9.9820577108393127e-01 -5.9982538913356738e+00  9.9889679127637143e-01 -6.0082780753304741e+00  3.4949459990996995e-02 -9.4243851795253704e+01
5.000000000000000e-02  4.5879784766075571e-02 -1.0238037056159531e+02  9.9800666832331708e-01 -7.7601814759000751e+00  9.9752656357072100e-01 -7.7824571090143175e+00  4.0754826459790720e-02 -9.8301848783254272e+01
6.000000000000000e-02  5.5522871659885557e-02 -1.0493592270148989e+02  9.9534439865571989e-01 -8.9190587886220047e+00  9.9898949222478894e-01 -8.8906991496599481e+00  5.0772728780396618e-02 -9.7450982438466141e+01
7.000000000000001e-02  6.2254820110429633e-02 -1.0589341116712409e+02  9.9527313320600652e-01 -1.0663677636787824e+01  9.9655292378581040e-01 -1.0660055396480127e+01  5.6090529756611995e-02 -9.9561096651756998e+01
8.000000000000000e-02  7.0187806513244702e-02 -1.0735868876763615e+02  9.9186908584126654e-01 -1.2090112417336275e+01  9.9317632848802073e-01 -1.2090625430564549e+01  6.7321873524139722e-02 -1.0125362503325623e+02
9.000000000000001e-02  8.0196688477589026e-02 -1.0768338038131908e+02  9.9410325442962277e-01 -1.3605007590832026e+01  9.9258611090333648e-01 -1.3620616511990965e+01  7.5736289534758652e-02 -1.0355522021859569e+02
1.000000000000000e-01  8.7500487249875816e-02 -1.0927575281391549e+02  9.9398894163456819e-01 -1.5250704423242931e+01  9.9184715122377365e-01 -1.5244570894414959e+01  8.3363852919515230e-02 -1.0549368080866768e+02
1.100000000000000e-01  9.6391381419321770e-02 -1.1071790097802538e+02  9.9155723310939492e-01 -1.6557596570339246e+01  9.9208932049736620e-01 -1.6542772435762014e+01  9.3456058631448555e-02 -1.0718464941793717e+02
1.200000000000000e-01  1.0496227537826319e-01 -1.1192098494139309e+02  9.8900552628568328e-01 -1.8153687726375001e+01  9.9062364134280145e-01 -1.8148390379592595e+01  9.9830640718166011e-02 -1.0865742528443108e+02
1.300000000000000e-01  1.0971294845846664e-01 -1.1336876924626796e+02  9.8644406873242874e-01 -1.9649497991217299e+01  9.8743816290463116e-01 -1.9655033462343550e+01  1.0652997677035568e-01 -1.1077873292571431e+02
1.400000000000000e-01  1.2045943378635979e-01 -1.1491217963440353e+02  9.9037341750756680e-01 -2.1167944068425587e+01  9.8941656050031679e-01 -2.1163388087401888e+01  1.1369781205483187e-01 -1.1148266804672893e+02
1.500000000000000e-01  1.2752684658432242e-01 -1.1635504169578552e+02  9.8708545558831995e-01 -2.2668210817339240e+01  9.8654937335435100e-01 -2.2671592556478540e+01  1.2511171355951758e-01 -1.1302074702910589e+02
1.600000000000000e-01  1.3564348062201428e-01 -1.1749760022713241e+02  9.8701175896823001e-01 -2.4142915398280611e+01  9.8580227332936676e-01 -2.4140185637650610e+01  1.3017425294418333e-01 -1.1554433812570366e+02
1.700000000000000e-01  1.4406752324027203e-01 -1.1885142396315214e+02  9.8298550670197882e-01 -2.5535592108540307e+01  9.8329404324438052e-01 -2.5546950193208346e+01  1.4067184634045993e-01 -1.1662703037409322e+02
1.800000000000000e-01  1.4891468437228683e-01 -1.2026385141949892e+02  9.8499541531133228e-01 -2.7063897994917923e+01  9.8275822400229640e-01 -2.7061515623161441e+01  1.4669532858975751e-01 -1.1880294480393515e+02
1.900000000000000e-01  1.5848754645261867e-01 -1.2184973927480361e+02  9.8293632581826829e-01 -2.8549523379378822e+01  9.8116009955722527e-01 -2.8569451919454611e+01  1.5408185928803533e-01 -1.1961617936275948e+02
2.000000000000000e-01  1.6556129504709258e-01 -1.2278823492748361e+02  9.7591395334733411e-01 -2.9951804631820014e+01  9.7918439055375228e-01 -2.9977627591412794e+01  1.6196607901880455e-01 -1.2162007425207516e+02
2.100000000000000e-01  1.7104449691158327e-01 -1.2446982608168673e+02  9.7876587576700114e-01 -3.1578843547304430e+01  9.7788506722494128e-01 -3.1573016003928601e+01  1.6983683178487219e-01 -1.2320767768383375e+02
2.200000000000000e-01  1.8262975235462253e-01 -1.2604258970535052e+02  9.7633698607416752e-01 -3.2915829139659422e+01  9.7708860412911414e-01 -3.2892454869408020e+01  1.7582469030591688e-01 -1.2428061161367486e+02
2.300000000000000e-01  1.8716243815088277e-01 -1.2687317964318181e+02  9.7544069297365665e-01 -3.4316814504492754e+01  9.7489694595149590e-01 -3.4307152518168344e+01  1.8083594610983936e-01 -1.2576925482257712e+02
2.400000000000000e-01  1.9387638603625709e-01 -1.2853410173868528e+02  9.7495415872804436e-01 -3.5740975071531025e+01  9.7324483319018462e-01 -3.5761657498268711e+01  1.8859417225240205e-01 -1.2771094018533812e+02
2.500000000000000e-01  1.9785012914894332e-01 -1.2977868527725062e+02  9.7182187151395116e-01 -3.7298645975662382e+01  9.7220637030639767e-01 -3.7299038878479500e+01  1.9636794281392958e-01 -1.2904562155805397e+02
2.600000000000000e-01  2.0675837755820106e-01 -1.3169075143397728e+02  9.6909810204146796e-01 -3.8776793740609286e+01  9.6925572975811292e-01 -3.8772258000054116e+01  2.0135532602531056e-01 -1.3078134144342141e+02
2.700000000000000e-01  2.1636961485243109e-01 -1.3250269197572041e+02  9.6821254056173500e-01 -4.0175498506123297e+01  9.6722143211147205e-01 -4.0158232853457953e+01  2.0969507765004491e-01 -1.3190807485527432e+02
2.800000000000000e-01  2.1857422603581350e-01 -1.3404560788638386e+02  9.6677562078230539e-01 -4.1759660404191678e+01  9.6601933099138038e-01 -4.1750360374891159e+01  2.1524734194946701e-01 -1.3352909672291185e+02
2.900000000000000e-01  2.2679386886048616e-01 -1.3552145669220525e+02  9.6590784194800028e-01 -4.3016734514274198e+01  9.6385422236481577e-01 -4.3006279947750549e+01  2.2589137172867652e-01 -1.3471141035672812e+02
3.000000000000000e-01  2.3385776309596698e-01 -1.3729208815568745e+02  9.6432870404603044e-01 -4.4462893167034636e+01  9.6324643652320552e-01 -4.4458257415440990e+01  2.3063429573995151e-01 -1.3683234747555258e+02
3.100000000000000e-01  2.4064144226171372e-01 -1.3802095812447425e+02  9.6268373415719832e-01 -4.5953403864756993e+01  9.6329338847108781e-01 -4.5948650142167963e+01  2.3197704715279580e-01 -1.3774800597508934e+02
3.200000000000000e-01  2.4263186842507009e-01 -1.3970424860535391e+02  9.6017036464057259e-01 -4.7367000307507787e+01  9.6063016236494581e-01 -4.7367307701379893e+01  2.4586512122973739e-01 -1.3916987330410510e+02
3.300000000000000e-01  2.5189784512322644e-01 -1.4114036062614568e+02  9.5888517092106074e-01 -4.8858424723415702e+01  9.5828621404081649e-01 -4.8859537917988391e+01  2.4892475695838509e-01 -1.4109681783551548e+02
3.400000000000000e-01  2.5758291767298136e-01 -1.4254068840076749e+02  9.5528436094274838e-01 -5.0283178334024548e+01  9.5711628147617778e-01 -5.0292448765506890e+01  2.5610362637497064e-01 -1.4230500380588086e+02
3.500000000000000e-01  2.6280048989308297e-01 -1.4404344175252530e+02  9.5742975245969064e-01 -5.1688264391816006e+01  9.5539862145883647e-01 -5.1676906876341043e+01  2.5972379572342302e-01 -1.4389035475296623e+02
3.600000000000000e-01  2.6775079329647700e-01 -1.4508536916042928e+02  9.5219395848667343e-01 -5.3177130157449866e+01  9.5128201640284382e-01 -5.3148314326323074e+01  2.6505498356286050e-01 -1.4516870608306425e+02
3.700000000000000e-01  2.7068688537894686e-01 -1.4685471317534785e+02  9.5102191031399774e-01 -5.4572394579574777e+01  9.5356354855273007e-01 -5.4573299876956973e+01  2.7304949781424825e-01 -1.4656202635297350e+02
3.800000000000000e-01  2.7665195384456853e-01 -1.4805104217479089e+02  9.5136380045979618e-01 -5.5895470806549199e+01  9.4884368473469904e-01 -5.5881046254232473e+01  2.7751862217819129e-01 -1.4784479396559348e+02
3.900000000000000e-01  2.8543461562923800e-01 -1.4930825362664274e+02  9.5002516243242185e-01 -5.7450293923279709e+01  9.4913632239560586e-01 -5.7470919565527737e+01  2.8235333671453861e-01 -1.4939011966665478e+02
4.000000000000000e-01  2.8612645393091862e-01 -1.5045979294990363e+02  9.4733204936616833e-01 -5.8762178867112269e+01  9.4824389440681844e-01 -5.8784139694722178e+01  2.8721485254969098e-01 -1.5072544614243469e+02
4.100000000000000e-01  2.9114585278756583e-01 -1.5219627738204051e+02  9.4166640121116407e-01 -6.0209812849614899e+01  9.4282723497213605e-01 -6.0222098672291438e+01  2.9268958113607757e-01 -1.5216128668426060e+02
4.200000000000000e-01  2.9854653155825089e-01 -1.5384093179713406e+02  9.4435816786588411e-01 -6.1639125191035298e+01  9.4079293624409110e-01 -6.1626918647103878e+01  2.9774122117859331e-01 -1.5388281325709707e+02
4.300000000000000e-01  3.0350343955363179e-01 -1.5480575158039423e+02  9.4024129628669817e-01 -6.2981441935163950e+01  9.4092543826918973e-01 -6.3000784045991466e+01  3.0435934971193612e-01 -1.5495846735063424e+02
4.400000000000000e-01  3.0792457446639437e-01 -1.5642467585340353e+02  9.4089138935975591e-01 -6.4421989861433744e+01  9.4015766162599512e-01 -6.4427140901394495e+01  3.0921922175774236e-01 -1.5654083141575919e+02
4.500000000000000e-01  3.1097318947012681e-01 -1.5772316263841930e+02  9.3945903048008095e-01 -6.5665267624788967e+01  9.3805669167680650e-01 -6.5688208274912910e+01  3.1187470330914002e-01 -1.5779378752903773e+02
4.600000000000000e-01  3.1555528734727761e-01 -1.5884536249510847e+02  9.3507599580453171e-01 -6.7095763866544260e+01  9.3514582849133465e-01 -6.7089161171330076e+01  3.1696290673614758e-01 -1.5892107538784626e+02
4.700000000000000e-01  3.2020775440495458e-01 -1.6038869926454871e+02  9.3479355034174749e-01 -6.8655278793268479e+01  9.3507444095961345e-01 -6.8667164555452473e+01  3.2148346358527052e-01 -1.6044077566411175e+02
4.800000000000000e-01  3.2157296859763107e-01 -1.6174289454630875e+02  9.3292857424756725e-01 -6.9900995377689313e+01  9.3404073833035073e-01 -6.9901059934911103e+01  3.2871147928847094e-01 -1.6179984590473452e+02
4.900000000000000e-01  3.2649559745592382e-01 -1.6326421039782173e+02  9.3366083727287075e-01 -7.1402649865611536e+01  9.3149562007415376e-01 -7.1408666948088353e+01  3.2893364567681610e-01 -1.6310124978747658e+02
5.000000000000000e-01  3.3215479254734515e-01 -1.6454218845242201e+02  9.2999984148212489e-01 -7.2640779987216291e+01  9.3112864195328704e-01 -7.2630241689726816e+01  3.3531898788715803e-01 -1.6450119276996497e+02
5.100000000000000e-01  3.3619874969943758e-01 -1.6586864210309008e+02  9.3081205545868484e-01 -7.4120160562269604e+01  9.2920064902332167e-01 -7.4143213233954242e+01  3.3950131824217883e-01 -1.6588361421961724e+02
5.200000000000000e-01  3.3860281665923447e-01 -1.6728667566593293e+02  9.2843801335338871e-01 -7.5409399872546203e+01  9.2859376668411409e-01 -7.5445321141503612e+01  3.4338736909998413e-01 -1.6710623142363363e+02
5.300000000000000e-01  3.4298446392088883e-01 -1.6852555815572751e+02  9.2506225698160638e-01 -7.6901004190718496e+01  9.2531618913200853e-01 -7.6898819627749859e+01  3.4541257551344617e-01 -1.6832844275515060e+02
5.400000000000000e-01  3.4363364336226498e-01 -1.7002041179100647e+02  9.2511932273748976e-01 -7.8279755862137861e+01  9.2538128149851873e-01 -7.8288219041995575e+01  3.5289681385961214e-01 -1.6959123469445748e+02
5.500000000000000e-01  3.4979573514388057e-01 -1.7143516944187388e+02  9.2188414713598221e-01 -7.9710786584689174e+01  9.2316764335454682e-01 -7.9720866255991439e+01  3.5646727261944777e-01 -1.7111261285296425e+02
5.600000000000001e-01  3.5231658361685714e-01 -1.7303194585412336e+02  9.2161476584081548e-01 -8.1026540494753036e+01  9.2265383222812081e-01 -8.1011317364746375e+01  3.5956156836003017e-01 -1.7236829752267860e+02
5.700000000000001e-01  3.5676514778743545e-01 -1.7425405265012537e+02  9.1869144331265440e-01 -8.2413723555307683e+01  9.2077978699653840e-01 -8.2409727167175589e+01  3.6134240392921368e-01 -1.7396927335714579e+02
5.800000000000001e-01  3.5881164742457411e-01 -1.7559045816691102e+02  9.1691901541112319e-01 -8.3881108386666341e+01  9.1633447089450071e-01 -8.3889345564937869e+01  3.6443587204089967e-01 -1.7527739473853080e+02
5.900000000000001e-01  3.6180453774388527e-01 -1.7662538621148269e+02  9.1802850291667715e-01 -8.5033820138996603e+01  9.1680799796070689e-01 -8.5049317164860057e+01  3.6880358111765921e-01 -1.7621723828285690e+02
6.000000000000001e-01  3.6539322567553711e-01 -1.7840625575133825e+02  9.1561443396585507e-01 -8.6565477928906233e+01  9.1519886004340578e-01 -8.6568390149870496e+01  3.7264273482677696e-01 -1.7745680201272148e+02
6.100000000000000e-01  3.6730638713182701e-01 -1.7974329539711528e+02  9.1417870897714759e-01 -8.8000540542531539e+01  9.1515839046871983e-01 -8.7979622184223260e+01  3.7857826127861099e-01 -1.7928891085937656e+02
6.200000000000000e-01  3.7179520483802830e-01  1.7865389982514702e+02  9.1095035074311581e-01 -8.9423014814920379e+01  9.1310280737699967e-01 -8.9421787915122735e+01  3.7788976558602816e-01  1.7969633803984638e+02
6.300000000000000e-01  3.7366248443042005e-01  1.7724718799320536e+02  9.1145178267439098e-01 -9.0770286227779778e+01  9.1348613180502647e-01 -9.0767442752063786e+01  3.8287949629916490e-01  1.7843356396264019e+02
6.400000000000000e-01  3.7881136309407587e-01  1.7614022634630453e+02  9.1057796415758385e-01 -9.2057867010426605e+01  9.1193547990816481e-01 -9.2049473000175951e+01  3.8647088265351015e-01  1.7686342581917759e+02
6.500000000000000e-01  3.8096261603925219e-01  1.7483861043962963e+02  9.0955332013729939e-01 -9.3398227277996142e+01  9.0896395220933557e-01 -9.3395792317645643e+01  3.8673374714393083e-01  1.7579511347392000e+02
6.600000000000000e-01  3.8068585820972017e-01  1.7340443303204452e+02  9.0729503164625780e-01 -9.4804401925166971e+01  9.0826221414310415e-01 -9.4828421734408451e+01  3.9201060779272029e-01  1.7437640775876275e+02
6.700000000000000e-01  3.8182027727978962e-01  1.7209297982321468e+02  9.0403717045218712e-01 -9.6096152742698266e+01  9.0552688985099250e-01 -9.6100457455599539e+01  3.9275297028417483e-01  1.7321599162753063e+02
6.800000000000000e-01  3.8500175112065821e-01  1.7076115692332183e+02  9.0434202190023860e-01 -9.7516867482241793e+01  9.0666645716179262e-01 -9.7493053094108348e+01  3.9757305021216144e-01  1.7187627379458894e+02
6.900000000000001e-01  3.8995924682956318e-01  1.6926552385275807e+02  9.0401620831657425e-01 -9.8926259631404022e+01  9.0383541973854120e-01 -9.8943258509452747e+01  3.9789805317087390e-01  1.7065166842842771e+02
7.000000000000001e-01  3.9073384327115690e-01  1.6766909542983475e+02  9.0134392032128297e-01 -1.0040321213139640e+02  9.0180097246790769e-01 -1.0043590961064389e+02  4.0135563692892945e-01  1.6935517558982451e+02
7.100000000000001e-01  3.9257798901260782e-01  1.6643451162501293e+02  9.0008118678781168e-01 -1.0153925374420396e+02  9.0295307987451257e-01 -1.0154157351402283e+02  4.0361095034607175e-01  1.6819171105968184e+02
7.200000000000001e-01  3.9517949252315698e-01  1.6504440947666134e+02  8.9807901046411209e-01 -1.0306843934568704e+02  9.0003332955054027e-01 -1.0306807319315145e+02  4.0771382430622849e-01  1.6680537669510392e+02
7.300000000000001e-01  3.9997697455803449e-01  1.6344011700344345e+02  8.9715328411765149e-01 -1.0458475864500109e+02  8.9687912134692849e-01 -1.0459161140897494e+02  4.0907417659441603e-01  1.6539480060787380e+02
7.400000000000000e-01  4.0156278428474407e-01  1.6216954408502593e+02  8.9762246223938091e-01 -1.0579638924386300e+02  8.9750545418451111e-01 -1.0581448101651887e+02  4.0891941837722212e-01  1.6429664654351657e+02
7.500000000000000e-01  4.0578083366867773e-01  1.6080660227189867e+02  8.9910457179789460e-01 -1.0721693146994838e+02  8.9728259043386160e-01 -1.0722143048428801e+02  4.1444984883510949e-01  1.6304840786251035e+02
7.600000000000000e-01  4.0417084281397109e-01  1.5956795422558520e+02  8.9377587808266523e-01 -1.0852182708405711e+02  8.9563371979988005e-01 -1.0851214676915845e+02  4.1590714769772352e-01  1.6172246701494223e+02
7.700000000000000e-01  4.0819093013562130e-01  1.5773282315392132e+02  8.9170758207287348e-01 -1.1011771921955173e+02  8.9251586170183239e-01 -1.1013300005668093e+02  4.1873352344004267e-01  1.6039336705511263e+02
7.800000000000000e-01  4.1363946339882862e-01  1.5659345835031314e+02  8.9398312097434229e-01 -1.1135518184332705e+02  8.9382680220609423e-01 -1.1136328837874569e+02  4.2137807741581645e-01  1.5929015410322592e+02
7.900000000000000e-01  4.1019290334084918e-01  1.5538693589652965e+02  8.9003049038207771e-01 -1.1275602347254124e+02  8.9073564354793244e-01 -1.1277992624864537e+02  4.2180681547436322e-01  1.5757233322435894e+02
8.000000000000000e-01  4.1421066137173901e-01  1.5401314505368231e+02  8.8951220073038983e-01 -1.1408941927877210e+02  8.8828867397656619e-01 -1.1406969772180638e+02  4.2566741459689250e-01  1.5636265043663167e+02
8.100000000000001e-01  4.1589438260009176e-01  1.5262655999010136e+02  8.8973655172011035e-01 -1.1545122294434849e+02  8.8935334559155088e-01 -1.1547563050870093e+02  4.2816878280004372e-01  1.5505556083354344e+02
8.200000000000001e-01  4.1877472228882412e-01  1.5102494280110409e+02  8.8701468148835527e-01 -1.1687953707992483e+02  8.8719225636314825e-01 -1.1688520724177671e+02  4.3078695628159708e-01  1.5389642104938525e+02
8.300000000000001e-01  4.2230254531098776e-01  1.4994752407988966e+02  8.8628680741662202e-01 -1.1819737150114734e+02  8.8592873530839200e-01 -1.1820950113870330e+02  4.3193234280055515e-01  1.5247815450637626e+02
8.400000000000001e-01  4.2424364047326379e-01  1.4843299619582035e+02  8.8502315399008924e-01 -1.1951098805385517e+02  8.8555192661033821e-01 -1.1953269934454140e+02  4.3399352222348686e-01  1.5131026572197231e+02
8.500000000000001e-01  4.2386126590634787e-01  1.4706966491610413e+02  8.8446608882594879e-01 -1.2102019186930815e+02  8.8443330818382215e-01 -1.2104258177815014e+02  4.3614162377237653e-01  1.4988903357416257e+02
8.600000000000001e-01  4.2482007092914392e-01  1.4545890964718492e+02  8.8319310011001162e-01 -1.2252097066488379e+02  8.8309397995842176e-01 -1.2250943902968176e+02  4.3685756977508666e-01  1.4836780797617885e+02
8.700000000000001e-01  4.2771233692168514e-01  1.4418661592588157e+02  8.8354303565950509e-01 -1.2370720494932078e+02  8.8268986791433557e-01 -1.2370179538938976e+02  4.4002924713156832e-01  1.4732914023383211e+02
8.800000000000000e-01  4.3260964511507943e-01  1.4287838618761086e+02  8.8071504111437238e-01 -1.2515290806825325e+02  8.7862881831401596e-01 -1.2514755694989260e+02  4.4193502180421512e-01  1.4609407669066772e+02
8.900000000000000e-01  4.3181537343786364e-01  1.4162178635535122e+02  8.8084701050201353e-01 -1.2637475485569662e+02  8.7958424703237847e-01 -1.2638425408686024e+02  4.4494339647343351e-01  1.4469317919448849e+02
9.000000000000000e-01  4.3597580971845534e-01  1.3982436153746937e+02  8.7971190414500322e-01 -1.2795819635586784e+02  8.7884638364232237e-01 -1.2798329105301411e+02  4.4274497536615015e-01  1.4331984705746393e+02
9.100000000000000e-01  4.3569668320234617e-01  1.3904144597163170e+02  8.7569527371518874e-01 -1.2935941047085350e+02  8.7754763901927635e-01 -1.2936589515227797e+02  4.4766403587908776e-01  1.4187512809311119e+02
9.200000000000000e-01  4.3741137040119993e-01  1.3727811270149294e+02  8.7600192240050778e-01 -1.3057378145932370e+02  8.7636499100144982e-01 -1.3057790018739749e+02  4.4923055350882551e-01  1.4068596333144345e+02
9.300000000000000e-01  4.4121378031022629e-01  1.3605412084072586e+02  8.7592675342900139e-01 -1.3205694454137827e+02  8.7482092731887129e-01 -1.3205518252651174e+02  4.5174344127873800e-01  1.3941728211940676e+02
