# GHz S MA R 50

1.000000000000000e-02  8.6656169736730512e-03 -9.4992680963520229e+01  9.9940967110565904e-01 -1.5440288540549147e+00  9.9940967110565770e-01 -1.5440288540527707e+00  8.6656169736357390e-03 -9.4992680963520542e+01
2.000000000000000e-02  1.6931565019697992e-02 -9.6428967549862975e+01  9.9890792680379759e-01 -3.0728737664768313e+00  9.9890792680379814e-01 -3.0728737664752872e+00  1.6931565019670781e-02 -9.6428967549812100e+01
3.000000000000000e-02  2.5037565515790540e-02 -9.7918679999014003e+01  9.9836878656428318e-01 -4.5955444023155616e+00  9.9836878656428218e-01 -4.5955444023154852e+00  2.5037565515788042e-02 -9.7918679998931438e+01
4.000000000000000e-02  3.3032283231215737e-02 -9.9419390315918719e+01  9.9778277333467202e-01 -6.1138933706153962e+00  9.9778277333467180e-01 -6.1138933706153260e+00  3.3032283231212427e-02 -9.9419390315803980e+01
5.000000000000000e-02  4.0937523661827672e-02 -1.0092189120808811e+02  9.9714734339499733e-01 -7.6287620360580322e+00  9.9714734339499911e-01 -7.6287620360580322e+00  4.0937523661824564e-02 -1.0092189120795194e+02
6.000000000000000e-02  4.8765201343828828e-02 -1.0242310746251225e+02  9.9646198031052458e-01 -9.1406188625732234e+00  9.9646198031052247e-01 -9.1406188625727633e+00  4.8765201343815866e-02 -1.0242310746234571e+02
7.000000000000001e-02  5.6522489853853906e-02 -1.0392177301282165e+02  9.9572699058275027e-01 -1.0649753350939227e+01  9.9572699058274827e-01 -1.0649753350939081e+01  5.6522489853844733e-02 -1.0392177301262510e+02
8.000000000000000e-02  6.4213943327974782e-02 -1.0541729863936406e+02  9.9494307871865528e-01 -1.2156356006945350e+01  9.9494307871865573e-01 -1.2156356006944776e+01  6.4213943327956866e-02 -1.0541729863914287e+02
9.000000000000001e-02  7.1842533760800090e-02 -1.0690938854291966e+02  9.9411116381359477e-01 -1.3660557473640791e+01  9.9411116381359532e-01 -1.3660557473640617e+01  7.1842533760786545e-02 -1.0690938854266750e+02
1.000000000000000e-01  7.9410218548972206e-02 -1.0839788774477690e+02  9.9323228890400717e-01 -1.5162449954290826e+01  9.9323228890400572e-01 -1.5162449954290974e+01  7.9410218548960618e-02 -1.0839788774449788e+02
1.100000000000000e-01  8.6918276903433858e-02 -1.0988271420502228e+02  9.9230757137664682e-01 -1.6662099912793170e+01  9.9230757137664716e-01 -1.6662099912793252e+01  8.6918276903418579e-02 -1.0988271420471675e+02
1.200000000000000e-01  9.4367521577044380e-02 -1.1136382608861715e+02  9.9133817350708098e-01 -1.8159556063307040e+01  9.9133817350708153e-01 -1.8159556063307143e+01  9.4367521577026769e-02 -1.1136382608828552e+02
1.300000000000000e-01  1.0175843844319181e-01 -1.1284120499868470e+02  9.9032528367891570e-01 -1.9654854630459731e+01  9.9032528367891726e-01 -1.9654854630459916e+01  1.0175843844317253e-01 -1.1284120499832646e+02
1.400000000000000e-01  1.0909128193915306e-01 -1.1431484698496925e+02  9.8927010364873280e-01 -2.1148022937748735e+01  9.8927010364873336e-01 -2.1148022937748941e+01  1.0909128193912933e-01 -1.1431484698458610e+02
1.500000000000000e-01  1.1636614226395453e-01 -1.1578475754861620e+02  9.8817383942948112e-01 -2.2639081924491663e+01  9.8817383942947978e-01 -2.2639081924492341e+01  1.1636614226393481e-01 -1.1578475754820624e+02
1.600000000000000e-01  1.2358299380635317e-01 -1.1725094878983374e+02  9.8703769445253287e-01 -2.4128047949836454e+01  9.8703769445253253e-01 -2.4128047949836635e+01  1.2358299380632312e-01 -1.1725094878940025e+02
1.700000000000000e-01  1.3074173069702108e-01 -1.1871343774290925e+02  9.8586286423610436e-01 -2.5614934107071036e+01  9.8586286423610436e-01 -2.5614934107071104e+01  1.3074173069698530e-01 -1.1871343774245359e+02
1.800000000000000e-01  1.3784219328425842e-01 -1.2017224538538684e+02  9.8465053209795439e-01 -2.7099751192348368e+01  9.8465053209795628e-01 -2.7099751192348453e+01  1.3784219328421943e-01 -1.2017224538490697e+02
1.900000000000000e-01  1.4488418805843487e-01 -1.2162739603648672e+02  9.8340186562722565e-01 -2.8582508423789278e+01  9.8340186562722465e-01 -2.8582508423789189e+01  1.4488418805839054e-01 -1.2162739603598469e+02
2.000000000000000e-01  1.5186750274981631e-01 -1.2307891698218035e+02  9.8211801373418262e-01 -3.0063213976611983e+01  9.8211801373418106e-01 -3.0063213976611593e+01  1.5186750274976482e-01 -1.2307891698165787e+02
2.100000000000000e-01  1.5879191780610408e-01 -1.2452683823208615e+02  9.8080010415960850e-01 -3.1541875380295945e+01  9.8080010415960817e-01 -3.1541875380296009e+01  1.5879191780605301e-01 -1.2452683823154175e+02
2.200000000000000e-01  1.6565721511137585e-01 -1.2597119235200080e+02  9.7944924136460076e-01 -3.3018499810748906e+01  9.7944924136460099e-01 -3.3018499810748828e+01  1.6565721511132028e-01 -1.2597119235143764e+02
2.300000000000000e-01  1.7246318457430707e-01 -1.2741201433842249e+02  9.7806650474621248e-01 -3.4493094301541362e+01  9.7806650474620960e-01 -3.4493094301541277e+01  1.7246318457424781e-01 -1.2741201433783974e+02
2.400000000000000e-01  1.7920962905127755e-01 -1.2884934151474255e+02  9.7665294714010553e-01 -3.5965665892108987e+01  9.7665294714010664e-01 -3.5965665892108952e+01  1.7920962905121501e-01 -1.2884934151414205e+02
2.500000000000000e-01  1.8589636795494346e-01 -1.3028321343699531e+02  9.7520959358179893e-01 -3.7436221726460531e+01  9.7520959358179959e-01 -3.7436221726460410e+01  1.8589636795487668e-01 -1.3028321343637779e+02
2.600000000000000e-01  1.9252323981679073e-01 -1.3171367180192055e+02  9.7373744030466336e-01 -3.8904769112775050e+01  9.7373744030466336e-01 -3.8904769112775114e+01  1.9252323981672234e-01 -1.3171367180128664e+02
2.700000000000000e-01  1.9909010401167823e-01 -1.3314076035322353e+02  9.7223745395738470e-01 -4.0371315551978945e+01  9.7223745395738648e-01 -4.0371315551979016e+01  1.9909010401160621e-01 -1.3314076035257480e+02
2.800000000000000e-01  2.0559684180796164e-01 -1.3456452478380467e+02  9.7071057102655778e-01 -4.1835868741683761e+01  9.7071057102655856e-01 -4.1835868741683797e+01  2.0559684180788845e-01 -1.3456452478314162e+02
2.900000000000000e-01  2.1204335687332884e-01 -1.3598501263290609e+02  9.6915769745186042e-01 -4.3298436560579489e+01  9.6915769745186131e-01 -4.3298436560579546e+01  2.1204335687325090e-01 -1.3598501263222983e+02
3.000000000000000e-01  2.1842957534088303e-01 -1.3740227317788703e+02  9.6757970842277763e-01 -4.4759027037402070e+01  9.6757970842277852e-01 -4.4759027037402262e+01  2.1842957534080398e-01 -1.3740227317719859e+02
3.100000000000000e-01  2.2475544552062959e-01 -1.3881635732075861e+02  9.6597744834648069e-01 -4.6217648307836889e+01  9.6597744834648047e-01 -4.6217648307836974e+01  2.2475544552054741e-01 -1.3881635732005952e+02
3.200000000000000e-01  2.3102093732614834e-01 -1.4022731746989467e+02  9.6435173097712301e-01 -4.7674308562123137e+01  9.6435173097712334e-01 -4.7674308562123102e+01  2.3102093732606269e-01 -1.4022731746918586e+02
3.300000000000000e-01  2.3722604147425244e-01 -1.4163520741747871e+02  9.6270333969714117e-01 -4.9129015985670122e+01  9.6270333969714139e-01 -4.9129015985670151e+01  2.3722604147416601e-01 -1.4163520741676118e+02
3.400000000000000e-01  2.4337076850594000e-01 -1.4304008221333225e+02  9.6103302794139611e-01 -5.0581778694614911e+01  9.6103302794139545e-01 -5.0581778694614719e+01  2.4337076850585132e-01 -1.4304008221260722e+02
3.500000000000000e-01  2.4945514766926019e-01 -1.4444199803579033e+02  9.5934151975510429e-01 -5.2032604667946352e+01  9.5934151975510373e-01 -5.2032604667946259e+01  2.4945514766917026e-01 -1.4444199803505839e+02
3.600000000000000e-01  2.5547922569843962e-01 -1.4584101206030388e+02  9.5762951047667333e-01 -5.3481501677591751e+01  9.5762951047667400e-01 -5.3481501677591844e+01  2.5547922569834974e-01 -1.4584101205956637e+02
3.700000000000000e-01  2.6144306551861402e-01 -1.4723718232642625e+02  9.5589766753660643e-01 -5.4928477217639667e+01  9.5589766753660732e-01 -5.4928477217639802e+01  2.6144306551852214e-01 -1.4723718232568444e+02
3.800000000000000e-01  2.6734674490113974e-01 -1.4863056760382079e+02  9.5414663136369793e-01 -5.6373538433720725e+01  9.5414663136369815e-01 -5.6373538433720782e+01  2.6734674490104782e-01 -1.4863056760307558e+02
3.900000000000000e-01  2.7319035509112305e-01 -1.5002122725788780e+02  9.5237701638986139e-01 -5.7816692053417761e+01  9.5237701638986050e-01 -5.7816692053417789e+01  2.7319035509103007e-01 -1.5002122725714074e+02
4.000000000000000e-01  2.7897399942561546e-01 -1.5140922111559163e+02  9.5058941214497250e-01 -5.9257944318463387e+01  9.5058941214497172e-01 -5.9257944318463117e+01  2.7897399942552398e-01 -1.5140922111484397e+02
4.100000000000000e-01  2.8469779195856637e-01 -1.5279460933201509e+02  9.4878438443320789e-01 -6.0697300919372800e+01  9.4878438443320834e-01 -6.0697300919372729e+01  2.8469779195847411e-01 -1.5279460933126705e+02
4.200000000000000e-01  2.9036185610637388e-01 -1.5417745225815133e+02  9.4696247658245536e-01 -6.2134766933084251e+01  9.4696247658245492e-01 -6.2134766933084265e+01  2.9036185610628068e-01 -1.5417745225740447e+02
4.300000000000000e-01  2.9596632332597078e-01 -1.5555781031040709e+02  9.4512421075846653e-01 -6.3570346764086956e+01  9.4512421075846653e-01 -6.3570346764087013e+01  2.9596632332587791e-01 -1.5555781030966253e+02
4.400000000000000e-01  3.0151133183582340e-01 -1.5693574384225661e+02  9.4327008933560885e-01 -6.5004044089463193e+01  9.4327008933560752e-01 -6.5004044089463221e+01  3.0151133183573225e-01 -1.5693574384151532e+02
4.500000000000000e-01  3.0699702538868151e-01 -1.5831131301846420e+02  9.4140059631608486e-01 -6.6435861808206283e+01  9.4140059631608508e-01 -6.6435861808206297e+01  3.0699702538859180e-01 -1.5831131301772729e+02
4.600000000000000e-01  3.1242355210371542e-01 -1.5968457769226103e+02  9.3951619878978021e-01 -6.7865801995118559e+01  9.3951619878978021e-01 -6.7865801995118630e+01  3.1242355210362610e-01 -1.5968457769152943e+02
4.700000000000000e-01  3.1779106336448276e-01 -1.6105559728584498e+02  9.3761734842691136e-01 -6.9293865859559574e+01  9.3761734842691202e-01 -6.9293865859559617e+01  3.1779106336439472e-01 -1.6105559728511966e+02
4.800000000000000e-01  3.2309971278814392e-01 -1.6242443067453590e+02  9.3570448299595799e-01 -7.0720053709254643e+01  9.3570448299595821e-01 -7.0720053709254614e+01  3.2309971278805771e-01 -1.6242443067381811e+02
4.900000000000000e-01  3.2834965527042481e-01 -1.6379113607491556e+02  9.3377802789936781e-01 -7.2144364919351617e+01  9.3377802789936837e-01 -7.2144364919351574e+01  3.2834965527034166e-01 -1.6379113607420626e+02
5.000000000000000e-01  3.3354104610997526e-01 -1.6515577093723624e+02  9.3183839771991706e-01 -7.3566797906865659e+01  9.3183839771991817e-01 -7.3566797906865659e+01  3.3354104610989144e-01 -1.6515577093653593e+02
5.100000000000000e-01  3.3867404021493680e-01 -1.6651839184238824e+02  9.2988599777057102e-01 -7.4987350110627673e+01  9.2988599777056968e-01 -7.4987350110627759e+01  3.3867404021485437e-01 -1.6651839184169785e+02
5.200000000000000e-01  3.4374879139390463e-01 -1.6787905440367649e+02  9.2792122564109358e-01 -7.6406017976816855e+01  9.2792122564109392e-01 -7.6406017976816855e+01  3.4374879139382486e-01 -1.6787905440299684e+02
5.300000000000000e-01  3.4876545173267931e-01 -1.6923781317364501e+02  9.2594447273475389e-01 -7.7822796950128946e+01  9.2594447273475333e-01 -7.7822796950128861e+01  3.4876545173260159e-01 -1.6923781317297741e+02
5.400000000000000e-01  3.5372417105771015e-01 -1.7059472155617794e+02  9.2395612578867348e-01 -7.9237681470612827e+01  9.2395612578867348e-01 -7.9237681470612827e+01  3.5372417105763476e-01 -1.7059472155552294e+02
5.500000000000000e-01  3.5862509648639967e-01 -1.7194983172406657e+02  9.2195656837170703e-01 -8.0650664976171726e+01  9.2195656837170814e-01 -8.0650664976171697e+01  3.5862509648632490e-01 -1.7194983172342467e+02
5.600000000000001e-01  3.6346837206403271e-01 -1.7330319454223661e+02  9.1994618235383407e-01 -8.2061739910710983e+01  9.1994618235383385e-01 -8.2061739910710983e+01  3.6346837206396304e-01 -1.7330319454160860e+02
5.700000000000001e-01  3.6825413848649768e-01 -1.7465485949679709e+02  9.1792534934138037e-01 -8.3470897737887952e+01  9.1792534934138215e-01 -8.3470897737888009e+01  3.6825413848642669e-01 -1.7465485949618386e+02
5.800000000000001e-01  3.7298253290746486e-01 -1.7600487463005558e+02  9.1589445207259956e-01 -8.4878128960397021e+01  9.1589445207259845e-01 -8.4878128960397092e+01  3.7298253290739664e-01 -1.7600487462945787e+02
5.900000000000001e-01  3.7765368882831324e-01 -1.7735328648163116e+02  9.1385387576839250e-01 -8.6283423144706973e+01  9.1385387576839328e-01 -8.6283423144707015e+01  3.7765368882824785e-01 -1.7735328648104920e+02
6.000000000000001e-01  3.8226773606859327e-01 -1.7870014003576981e+02  9.1180400943323536e-01 -8.7686768951141502e+01  9.1180400943323481e-01 -8.7686768951141516e+01  3.8226773606853065e-01 -1.7870014003520399e+02
6.100000000000000e-01  3.8682480081443926e-01  1.7995452132504829e+02  9.0974524710162652e-01 -8.9088154169180314e+01  9.0974524710162785e-01 -8.9088154169180299e+01  3.8682480081437759e-01  1.7995452132559706e+02
6.200000000000000e-01  3.9132500574198109e-01  1.7861065586013731e+02  9.0767798902568475e-01 -9.0487565757839079e+01  9.0767798902568253e-01 -9.0487565757839135e+01  3.9132500574192092e-01  1.7861065586066883e+02
6.300000000000000e-01  3.9576847021241934e-01  1.7726822350423063e+02  9.0560264279976266e-01 -9.1884989890963823e+01  9.0560264279976332e-01 -9.1884989890963794e+01  3.9576847021235978e-01  1.7726822350474436e+02
6.400000000000000e-01  4.0015531053517500e-01  1.7592718589466509e+02  9.0351962441831646e-01 -9.3280412007268453e+01  9.0351962441831601e-01 -9.3280412007268524e+01  4.0015531053511583e-01  1.7592718589516110e+02
6.500000000000000e-01  4.0448564029510686e-01  1.7458750639213119e+02  9.0142935926349166e-01 -9.4673816864915452e+01  9.0142935926349110e-01 -9.4673816864915494e+01  4.0448564029504985e-01  1.7458750639260850e+02
6.600000000000000e-01  4.0875957073964908e-01  1.7324915009498940e+02  8.9933228301928236e-01 -9.6065188600436770e+01  8.9933228301928125e-01 -9.6065188600436869e+01  4.0875957073959418e-01  1.7324915009544856e+02
6.700000000000000e-01  4.1297721122140557e-01  1.7191208384720875e+02  8.9722884250939117e-01 -9.7454510791768342e+01  8.9722884250939094e-01 -9.7454510791768371e+01  4.1297721122135089e-01  1.7191208384764886e+02
6.800000000000000e-01  4.1713866969147900e-01  1.7057627623997249e+02  8.9511949645626798e-01 -9.8841766525158747e+01  8.9511949645626743e-01 -9.8841766525158718e+01  4.1713866969142727e-01  1.7057627624039375e+02
6.900000000000001e-01  4.2124405323882008e-01  1.6924169760704422e+02  8.9300471615911858e-01 -1.0022693846570560e+02  8.9300471615911914e-01 -1.0022693846570557e+02  4.2124405323876779e-01  1.6924169760744664e+02
7.000000000000001e-01  4.2529346867039880e-01  1.6790832001399173e+02  8.9088498608909117e-01 -1.0161000893125210e+02  8.9088498608909283e-01 -1.0161000893125220e+02  4.2529346867034784e-01  1.6790832001437522e+02
7.100000000000001e-01  4.2928702312720751e-01  1.6657611724139895e+02  8.8876080440009364e-01 -1.0299095996937139e+02  8.8876080440009342e-01 -1.0299095996937133e+02  4.2928702312716011e-01  1.6657611724176348e+02
7.200000000000001e-01  4.3322482473080098e-01  1.6524506476221538e+02  8.8663268335411949e-01 -1.0436977343714902e+02  8.8663268335412004e-01 -1.0436977343714898e+02  4.3322482473075330e-01  1.6524506476256073e+02
7.300000000000001e-01  4.3710698325502129e-01  1.6391513971340834e+02  8.8450114966032367e-01 -1.0574643108347368e+02  8.8450114966032312e-01 -1.0574643108347368e+02  4.3710698325497271e-01  1.6391513971373476e+02
7.400000000000000e-01  4.4093361081770405e-01  1.6258632086211603e+02  8.8236674472735366e-01 -1.0712091463352689e+02  8.8236674472735188e-01 -1.0712091463352684e+02  4.4093361081765714e-01  1.6258632086242383e+02
7.500000000000000e-01  4.4470482258684491e-01  1.6125858856650510e+02  8.8023002482895152e-01 -1.0849320587516324e+02  8.8023002482895318e-01 -1.0849320587516331e+02  4.4470482258679722e-01  1.6125858856679469e+02
7.600000000000000e-01  4.4842073749605260e-01  1.5993192473157106e+02  8.7809156118306619e-01 -1.0986328674686115e+02  8.7809156118306497e-01 -1.0986328674686118e+02  4.4842073749600697e-01  1.5993192473184234e+02
7.700000000000000e-01  4.5208147896395340e-01  1.5860631276012478e+02  8.7595193994509168e-01 -1.1123113942692073e+02  8.7595193994509313e-01 -1.1123113942692072e+02  4.5208147896390710e-01  1.5860631276037807e+02
7.800000000000000e-01  4.5568717561239630e-01  1.5728173749923801e+02  8.7381176211631761e-01 -1.1259674642358320e+02  8.7381176211631584e-01 -1.1259674642358313e+02  4.5568717561235311e-01  1.5728173749947391e+02
7.900000000000000e-01  4.5923796197842465e-01  1.5595818518242683e+02  8.7167164336879077e-01 -1.1396009066574069e+02  8.7167164336879077e-01 -1.1396009066574071e+02  4.5923796197838146e-01  1.5595818518264548e+02
8.000000000000000e-01  4.6273397921504494e-01  1.5463564336787678e+02  8.6953221378841483e-01 -1.1532115559390438e+02  8.6953221378841494e-01 -1.1532115559390438e+02  4.6273397921500126e-01  1.5463564336807860e+02
8.100000000000001e-01  4.6617537577615653e-01  1.5331410087301876e+02  8.6739411753813045e-01 -1.1667992525110087e+02  8.6739411753813001e-01 -1.1667992525110087e+02  4.6617537577611329e-01  1.5331410087320430e+02
8.200000000000001e-01  4.6956230808103283e-01  1.5199354770578566e+02  8.6525801244358058e-01 -1.1803638437336589e+02  8.6525801244358003e-01 -1.1803638437336596e+02  4.6956230808098998e-01  1.5199354770595556e+02
8.300000000000001e-01  4.7289494115409486e-01  1.5067397499288049e+02  8.6312456950383731e-01 -1.1939051847951103e+02  8.6312456950383654e-01 -1.1939051847951113e+02  4.7289494115405378e-01  1.5067397499303530e+02
8.400000000000001e-01  4.7617344923590355e-01  1.4935537490540796e+02  8.6099447233005189e-01 -1.2074231395983504e+02  8.6099447233005133e-01 -1.2074231395983504e+02  4.7617344923586308e-01  1.4935537490554799e+02
8.500000000000001e-01  4.7939801636160573e-01  1.4803774058221694e+02  8.5886841651522583e-01 -1.2209175816346914e+02  8.5886841651522616e-01 -1.2209175816346914e+02  4.7939801636156731e-01  1.4803774058234288e+02
8.600000000000001e-01  4.8256883690332197e-01  1.4672106605131799e+02  8.5674710893845996e-01 -1.2343883948404191e+02  8.5674710893845918e-01 -1.2343883948404191e+02  4.8256883690328467e-01  1.4672106605143065e+02
8.700000000000001e-01  4.8568611607332085e-01  1.4540534614973552e+02  8.5463126700732750e-01 -1.2478354744336195e+02  8.5463126700732794e-01 -1.2478354744336197e+02  4.8568611607328660e-01  1.4540534614983545e+02
8.800000000000000e-01  4.8875007038505736e-01  1.4409057644216043e+02  8.5252161784219860e-01 -1.2612587277282910e+02  8.5252161784219915e-01 -1.2612587277282910e+02  4.8875007038502372e-01  1.4409057644224850e+02
8.900000000000000e-01  4.9176092806961480e-01  1.4277675313877049e+02  8.5041889740651888e-01 -1.2746580749228978e+02  8.5041889740651899e-01 -1.2746580749228991e+02  4.9176092806958321e-01  1.4277675313884743e+02
9.000000000000000e-01  4.9471892944528717e-01  1.4146387301258198e+02  8.4832384958720997e-01 -1.2880334498606857e+02  8.4832384958721185e-01 -1.2880334498606848e+02  4.9471892944525880e-01  1.4146387301264849e+02
9.100000000000000e-01  4.9762432723850436e-01  1.4015193331669161e+02  8.4623722522949485e-01 -1.3013848007592028e+02  8.4623722522949507e-01 -1.3013848007592028e+02  4.9762432723847944e-01  1.4015193331674845e+02
9.200000000000000e-01  5.0047738685457566e-01  1.3884093170176871e+02  8.4415978113054535e-01 -1.3147120909066160e+02  8.4415978113054424e-01 -1.3147120909066155e+02  5.0047738685455423e-01  1.3884093170181669e+02
9.300000000000000e-01  5.0327838659712476e-01  1.3753086613414450e+02  8.4209227899643369e-01 -1.3280152993225312e+02  8.4209227899643380e-01 -1.3280152993225315e+02  5.0327838659710700e-01  1.3753086613418463e+02
