# GHz S MA R 50

1.000000000000000e-03  1.6917034823794288e-03 -9.7379598175237135e+01  9.9989449408138209e-01 -1.6124211696121266e-01  9.9989449408138220e-01 -1.6124211696121268e-01  7.4214241889427788e-04 -8.0609333917055082e+01
2.000000000000000e-03  2.3956267425016575e-03 -9.6323042750103752e+01  9.9983645000662791e-01 -3.2077176889939379e-01  9.9983645000662846e-01 -3.2077176889939374e-01  2.3809982091753819e-03 -8.7542186898770680e+01
3.000000000000000e-03  3.7148279437825955e-03 -9.4838290437956957e+01  9.9978512006882692e-01 -4.7966286601519248e-01  9.9978512006882658e-01 -4.7966286601519220e-01  3.3860965299079586e-03 -8.8672277518449263e+01
4.000000000000000e-03  4.7141539952513713e-03 -9.4459996874119568e+01  9.9973649038281343e-01 -6.3813054079598619e-01  9.9973649038281354e-01 -6.3813054079598619e-01  4.6989456668824247e-03 -8.9379810288264991e+01
5.000000000000000e-03  5.9591036998225900e-03 -9.4098824841033220e+01  9.9968919448021587e-01 -7.9628756383380084e-01  9.9968919448021676e-01 -7.9628756383380084e-01  5.7549306871072410e-03 -8.9825706941470756e+01
6.000000000000000e-03  7.0114956647526396e-03 -9.4004206403119895e+01  9.9964240497646262e-01 -9.5419161315138523e-01  9.9964240497646273e-01 -9.5419161315138501e-01  6.9952938818326456e-03 -9.0171809189084399e+01
7.000000000000000e-03  8.2215974498310047e-03 -9.3905408935953602e+01  9.9959575780112919e-01 -1.1118879797561729e+00  9.9959575780112830e-01 -1.1118879797561732e+00  8.0702507475535149e-03 -9.0464943336065232e+01
8.000000000000000e-03  9.2939994035340437e-03 -9.3916572478808277e+01  9.9954889871501251e-01 -1.2694024398068897e+00  9.9954889871501262e-01 -1.2694024398068902e+00  9.2767735442352041e-03 -9.0713135541043854e+01
9.000000000000001e-03  1.0483102507711162e-02 -9.3919425279702736e+01  9.9950170209558342e-01 -1.4267596997796892e+00  9.9950170209558387e-01 -1.4267596997796892e+00  1.0360684434091825e-02 -9.0948797479855330e+01
1.000000000000000e-02  1.1565032414271604e-02 -9.3980730610845740e+01  9.9945395940004167e-01 -1.5839739827620323e+00  9.9945395940004211e-01 -1.5839739827620323e+00  1.1546814601812640e-02 -9.1157501599973330e+01
1.100000000000000e-02  1.2739691041894707e-02 -9.4033632103016487e+01  9.9940563359374257e-01 -1.7410608850224403e+00  9.9940563359374279e-01 -1.7410608850224401e+00  1.2635365961744232e-02 -9.1365556421022703e+01
1.200000000000000e-02  1.3826615083664996e-02 -9.4122574757171620e+01  9.9935657676293332e-01 -1.8980292779154202e+00  9.9935657676293266e-01 -1.8980292779154211e+00  1.3807449141903660e-02 -9.1554756586256445e+01
1.300000000000000e-02  1.4990481172929381e-02 -9.4203871404093405e+01  9.9930679336022898e-01 -2.0548898454140625e+00  9.9930679336022887e-01 -2.0548898454140625e+00  1.4898434787094822e-02 -9.1747474887605549e+01
1.400000000000000e-02  1.6080073282580442e-02 -9.4309655641544012e+01  9.9925616535911543e-01 -2.2116486211088557e+00  9.9925616535911543e-01 -2.2116486211088566e+00  1.6060002717522517e-02 -9.1925754326332822e+01
1.500000000000000e-02  1.7235403452384446e-02 -9.4408649499012810e+01  9.9920471970872704e-01 -2.3683132823061213e+00  9.9920471970872671e-01 -2.3683132823061208e+00  1.7152161742252224e-02 -9.2109080225875644e+01
1.600000000000000e-02  1.8326330828578461e-02 -9.4525452748370085e+01  9.9915235479302622e-01 -2.5248882322926511e+00  9.9915235479302533e-01 -2.5248882322926511e+00  1.8305395757161506e-02 -9.2280694932984943e+01
1.700000000000000e-02  1.9474622335508927e-02 -9.4636239096660873e+01  9.9909911108981631e-01 -2.6813791343400428e+00  9.9909911108981708e-01 -2.6813791343400433e+00  1.9397948049391919e-02 -9.2457849043565545e+01
1.800000000000000e-02  2.0566058593589884e-02 -9.4760642575093726e+01  9.9904489667517682e-01 -2.8377894112581132e+00  9.9904489667517682e-01 -2.8377894112581123e+00  2.0544295185253820e-02 -9.2625130829781639e+01
1.900000000000000e-02  2.1708357435414601e-02 -9.4879689376170774e+01  9.9898976082707980e-01 -2.9941232815474810e+00  9.9898976082708024e-01 -2.9941232815474814e+00  2.1636727803484794e-02 -9.2798006330860332e+01
2.000000000000000e-02  2.2799758219358396e-02 -9.5009552285030566e+01  9.9893361764101751e-01 -3.1503835671661609e+00  9.9893361764101729e-01 -3.1503835671661600e+00  2.2777198892136780e-02 -9.2962330437265919e+01
2.100000000000000e-02  2.3936823985408060e-02 -9.5134613577836859e+01  9.9887652248968939e-01 -3.3065733924559901e+00  9.9887652248968950e-01 -3.3065733924559884e+00  2.3869157448378107e-02 -9.3132111596681867e+01
2.200000000000000e-02  2.5027812673126121e-02 -9.5268526042347560e+01  9.9881839333555633e-01 -3.4626952145077037e+00  9.9881839333555689e-01 -3.4626952145077037e+00  2.5004486494617648e-02 -9.3294336437934319e+01
2.300000000000000e-02  2.6160213632865824e-02 -9.5398103291603434e+01  9.9875928999739361e-01 -3.6187512916997706e+00  9.9875928999739361e-01 -3.6187512916997715e+00  2.6095715592939567e-02 -9.3461801332866457e+01
2.400000000000000e-02  2.7250518559045478e-02 -9.5535098342309638e+01  9.9869913297240331e-01 -3.7747438702669940e+00  9.9869913297240387e-01 -3.7747438702669922e+00  2.7226451670131106e-02 -9.3622487413888265e+01
2.500000000000000e-02  2.8378689845027529e-02 -9.5668152090443570e+01  9.9863798546915783e-01 -3.9306744978321930e+00  9.9863798546915827e-01 -3.9306744978321930e+00  2.8316760259289486e-02 -9.3788167984770951e+01
2.600000000000000e-02  2.9468107725674195e-02 -9.5807544012338099e+01  9.9857576965787576e-01 -4.0865453143027590e+00  9.9857576965787598e-01 -4.0865453143027581e+00  2.9443323728394855e-02 -9.3947694947440453e+01
2.700000000000000e-02  3.0592388671141810e-02 -9.5943329746209741e+01  9.9851255143208317e-01 -4.2423572659830873e+00  9.9851255143208262e-01 -4.2423572659830890e+00  3.0532563969143674e-02 -9.4111967016565387e+01
2.800000000000000e-02  3.1680762259757418e-02 -9.6084618487803411e+01  9.9844825405686610e-01 -4.3981124597171748e+00  9.9844825405686533e-01 -4.3981124597171757e+00  3.1655282554528909e-02 -9.4270599927487211e+01
2.900000000000000e-02  3.2801421319026726e-02 -9.6222588394686269e+01  9.9838294562431174e-01 -4.5538113200105181e+00  9.9838294562431207e-01 -4.5538113200105181e+00  3.2743336419598278e-02 -9.4433736459893623e+01
3.000000000000000e-02  3.3888625215755024e-02 -9.6365400529603434e+01  9.9831655009425246e-01 -4.7094559733921866e+00  9.9831655009425191e-01 -4.7094559733921848e+00  3.3862469288571950e-02 -9.4591665176075551e+01
3.100000000000000e-02  3.5005877154357636e-02 -9.6505142173503543e+01  9.9824913741219412e-01 -4.8650463818427898e+00  9.9824913741219345e-01 -4.8650463818427898e+00  3.4949239786464067e-02 -9.4753869155918835e+01
3.200000000000000e-02  3.6091808496203540e-02 -9.6649193072203232e+01  9.9818063194823448e-01 -5.0205847304262159e+00  9.9818063194823436e-01 -5.0205847304262177e+00  3.6064994161452278e-02 -9.4911232652773919e+01
3.300000000000000e-02  3.7205826586291575e-02 -9.6790389730931977e+01  9.9811110525054558e-01 -5.1760705637625994e+00  9.9811110525054569e-01 -5.1760705637625994e+00  3.7150399429482374e-02 -9.5072658120302947e+01
3.400000000000000e-02  3.8290398769917397e-02 -9.6935458547059554e+01  9.9804048189236427e-01 -5.3315061546237006e+00  9.9804048189236361e-01 -5.3315061546237006e+00  3.8262942375434074e-02 -9.5229560045637427e+01
3.500000000000000e-02  3.9401323654142284e-02 -9.7077862764216576e+01  9.9796883483873089e-01 -5.4868906653482554e+00  9.9796883483873067e-01 -5.4868906653482536e+00  3.9346911610360760e-02 -9.5390325981566463e+01
3.600000000000000e-02  4.0484462003272430e-02 -9.7223775436878256e+01  9.9789608871188984e-01 -5.6422264786907661e+00  9.9789608871189006e-01 -5.6422264786907643e+00  4.0456378603876166e-02 -9.5546844895576413e+01
3.700000000000001e-02  4.1592408274524748e-02 -9.7367190912358794e+01  9.9782231775379160e-01 -5.7975124024184383e+00  9.9782231775379115e-01 -5.7975124024184383e+00  4.1538849201865430e-02 -9.5707044634889940e+01
3.800000000000000e-02  4.2674046988752212e-02 -9.7513808336376272e+01  9.9774744651868763e-01 -5.9527509465230741e+00  9.9774744651868752e-01 -5.9527509465230732e+00  4.2645350493642854e-02 -9.5863240926137621e+01
3.900000000000000e-02  4.3779108165755115e-02 -9.7658077235148482e+01  9.9767155041853817e-01 -6.1079405864209209e+00  9.9767155041853794e-01 -6.1079405864209209e+00  4.3726266005166096e-02 -9.6022948693574619e+01
4.000000000000000e-02  4.4859188133994095e-02 -9.7805286852684731e+01  9.9759455384910911e-01 -6.2630839728747398e+00  9.9759455384910833e-01 -6.2630839728747434e+00  4.4829891432515118e-02 -9.6178869356152262e+01
4.100000000000000e-02  4.5961440486174197e-02 -9.7950280726322731e+01  9.9751653330977230e-01 -6.4181792670111166e+00  9.9751653330977197e-01 -6.4181792670111157e+00  4.5909200077923450e-02 -9.6338144899507768e+01
4.200000000000000e-02  4.7039907695812608e-02 -9.8097990437352649e+01  9.9743741296654154e-01 -6.5732292710944069e+00  9.9743741296654154e-01 -6.5732292710944060e+00  4.7010022765276646e-02 -9.6493826899303897e+01
4.300000000000000e-02  4.8139413227021033e-02 -9.8243603610169345e+01  9.9735727034183164e-01 -6.7282318468232454e+00  9.9735727034183175e-01 -6.7282318468232427e+00  4.8087676343249536e-02 -9.6652718836178806e+01
4.400000000000000e-02  4.9216217591100044e-02 -9.8391737287747674e+01  9.9727602931478376e-01 -6.8831899565516705e+00  9.9727602931478299e-01 -6.8831899565516697e+00  4.9185755589693229e-02 -9.6808191525576277e+01
4.500000000000001e-02  5.0313026398030966e-02 -9.8537881958923833e+01  9.9719376838032603e-01 -7.0381011749170383e+00  9.9719376838032603e-01 -7.0381011749170383e+00  5.0261708665493843e-02 -9.6966739801752240e+01
4.600000000000001e-02  5.1388120880597576e-02 -9.8686376096129635e+01  9.9711041108416010e-01 -7.1929686312918522e+00  9.9711041108416010e-01 -7.1929686312918513e+00  5.1357092227822129e-02 -9.7122026679714622e+01
4.700000000000000e-02  5.2482273039270722e-02 -9.8832978658710729e+01  9.9702603685389724e-01 -7.3477896236493567e+00  9.9702603685389679e-01 -7.3477896236493567e+00  5.2431301523741369e-02 -9.7280264402558217e+01
4.800000000000000e-02  5.3555612996542483e-02 -9.8981779827230156e+01  9.9694056886318594e-01 -7.5025674540086182e+00  9.9694056886318616e-01 -7.5025674540086174e+00  5.3524027443200881e-02 -9.7435384416270580e+01
4.900000000000000e-02  5.4647140087684391e-02 -9.9128778064453527e+01  9.9685408744083126e-01 -7.6572991525041543e+00  9.9685408744083059e-01 -7.6572991525041569e+00  5.4596451377010871e-02 -9.7593339241018526e+01
5.000000000000000e-02  5.5718682767464681e-02 -9.9277840964285474e+01  9.9676651535588523e-01 -7.8119881983990398e+00  9.9676651535588545e-01 -7.8119881983990389e+00  5.5686549456827585e-02 -9.7748307761243368e+01
5.100000000000000e-02  5.6807609122132396e-02 -9.9425181888000125e+01  9.9667793381347425e-01 -7.9666313615472610e+00  9.9667793381347392e-01 -7.9666313615472575e+00  5.6757147789853746e-02 -9.7906002952452567e+01
5.200000000000000e-02  5.7877313280646110e-02 -9.9574467833726629e+01  9.9658826515016063e-01 -8.1212323022283623e+00  9.9658826515016086e-01 -8.1212323022283659e+00  5.7844640802149225e-02 -9.8060832513215871e+01
5.300000000000001e-02  5.8963657006634231e-02 -9.9722105999232113e+01  9.9649759142780392e-01 -8.2757875365431435e+00  9.9649759142780392e-01 -8.2757875365431435e+00  5.8913374369381759e-02 -9.8218287766910137e+01
5.400000000000001e-02  6.0031482613410958e-02 -9.9871581732864996e+01  9.9640583452620735e-01 -8.4303009088936811e+00  9.9640583452620646e-01 -8.4303009088936776e+00  5.9998279049992942e-02 -9.8372988632671422e+01
5.500000000000000e-02  6.1115256448080087e-02 -1.0001947791169803e+02  9.9631307734860652e-01 -8.5847686873091842e+00  9.9631307734860652e-01 -8.5847686873091806e+00  6.1065109552179121e-02 -9.8530220719911668e+01
5.600000000000000e-02  6.2181164457495636e-02 -1.0016911466270442e+02  9.9621924129662320e-01 -8.7391949028771219e+00  9.9621924129662365e-01 -8.7391949028771183e+00  6.2147437427497738e-02 -9.8684801324882955e+01
5.700000000000000e-02  6.3262376481840507e-02 -1.0031723478747899e+02  9.9612441010299813e-01 -8.8935755805378243e+00  9.9612441010299813e-01 -8.8935755805378278e+00  6.3212327270462304e-02 -9.8841824600495173e+01
5.800000000000000e-02  6.4326328655563356e-02 -1.0046700752192375e+02  9.9602850467193771e-01 -9.0479149401807426e+00  9.9602850467193726e-01 -9.0479149401807479e+00  6.4292085349955896e-02 -9.8996291892124049e+01
5.900000000000000e-02  6.5404982896356836e-02 -1.0061532184015461e+02  9.9593160955666693e-01 -9.2022087680581208e+00  9.9593160955666726e-01 -9.2022087680581226e+00  6.5354997520179162e-02 -9.9153118700500372e+01
6.000000000000000e-02  6.6466941664972481e-02 -1.0076520865599376e+02  9.9583364514652239e-01 -9.3564614746087376e+00  9.9583364514652295e-01 -9.3564614746087322e+00  6.6432188880550608e-02 -9.9307478410360332e+01
6.100000000000001e-02  6.7543038605900940e-02 -1.0091369104603653e+02  9.9573469680853377e-01 -9.5106686113099244e+00  9.9573469680853466e-01 -9.5106686113099244e+00  6.7493086848778291e-02 -9.9464119411887452e+01
6.200000000000001e-02  6.8602966960899459e-02 -1.0106367268240942e+02  9.9563468440111591e-01 -9.6648347805891905e+00  9.9563468440111624e-01 -9.6648347805891888e+00  6.8567711129985734e-02 -9.9618376271050266e+01
6.300000000000000e-02  6.9676503979120230e-02 -1.0121230009631302e+02  9.9553369410038095e-01 -9.8189553026513945e+00  9.9553369410038106e-01 -9.8189553026513945e+00  6.9626558776641326e-02 -9.9774840706756322e+01
6.400000000000000e-02  7.0734365388568893e-02 -1.0136235953252029e+02  9.9543164521888539e-01 -9.9730349730936059e+00  9.9543164521888550e-01 -9.9730349730936059e+00  7.0698612605677350e-02 -9.9928998618309691e+01
6.500000000000000e-02  7.1805337129723118e-02 -1.0151111153908165e+02  9.9532862473875006e-01 -1.0127068884002441e+01  9.9532862473874995e-01 -1.0127068884002444e+01  7.1755374163323449e-02 -1.0008529452600001e+02
6.600000000000000e-02  7.2861095472516277e-02 -1.0166123366469354e+02  9.9522455141263977e-01 -1.0281062025107078e+01  9.9522455141263988e-01 -1.0281062025107074e+01  7.2824851518363917e-02 -1.0023935670421476e+02
6.700000000000002e-02  7.3929494174615570e-02 -1.0181009207225451e+02  9.9511951302698398e-01 -1.0435009263233550e+01  9.9511951302698398e-01 -1.0435009263233546e+01  7.3879491527560542e-02 -1.0039549109620509e+02
6.800000000000000e-02  7.4983113689369857e-02 -1.0196026341405820e+02  9.9501342776125823e-01 -1.0588915783019994e+01  9.9501342776125812e-01 -1.0588915783019990e+01  7.4946384052563486e-02 -1.0054946017953878e+02
6.900000000000001e-02  7.6048929463941678e-02 -1.0210921195722518e+02  9.9490638420565614e-01 -1.0742776228635872e+01  9.9490638420565580e-01 -1.0742776228635870e+01  7.5998867328294070e-02 -1.0070543918974705e+02
7.000000000000001e-02  7.7100374709487968e-02 -1.0225942045190993e+02  9.9479829995376956e-01 -1.0896595980246367e+01  9.9479829995376934e-01 -1.0896595980246369e+01  7.7063164606165788e-02 -1.0085931733317216e+02
7.100000000000001e-02  7.8163595786788595e-02 -1.0240844452988568e+02  9.9468926440000316e-01 -1.1050369461750284e+01  9.9468926440000349e-01 -1.1050369461750284e+01  7.8113456212632257e-02 -1.0101514633959698e+02
7.200000000000001e-02  7.9212831611881543e-02 -1.0255867933377687e+02  9.9457919453985355e-01 -1.1204102249321393e+01  9.9457919453985344e-01 -1.1204102249321398e+01  7.9175146003551716e-02 -1.0116893529047630e+02
7.300000000000001e-02  8.0273444555724799e-02 -1.0270776579062324e+02  9.9446818057323094e-01 -1.1357788548785658e+01  9.9446818057323116e-01 -1.1357788548785658e+01  8.0223211235609160e-02 -1.0132461901775967e+02
7.400000000000001e-02  8.1320436076102134e-02 -1.0285801711961327e+02  9.9435613888571672e-01 -1.1511434132688910e+01  9.9435613888571706e-01 -1.1511434132688914e+01  8.1282279685885084e-02 -1.0147832017854351e+02
7.500000000000001e-02  8.2378425972871760e-02 -1.0300715405879725e+02  9.9424316048474737e-01 -1.1665032990819086e+01  9.9424316048474781e-01 -1.1665032990819087e+01  8.2328084055760767e-02 -1.0163386278432294e+02
7.600000000000000e-02  8.3423138554188689e-02 -1.0315741305303456e+02  9.9412916113450367e-01 -1.1818591092354923e+01  9.9412916113450389e-01 -1.1818591092354923e+01  8.3384515881641877e-02 -1.0178747726462892e+02
7.700000000000000e-02  8.4478489179798139e-02 -1.0330658968016340e+02  9.9401423265257072e-01 -1.1972102212939600e+01  9.9401423265257127e-01 -1.1972102212939602e+01  8.4428025109860930e-02 -1.0194288241261074e+02
7.800000000000000e-02  8.5520888425269753e-02 -1.0345684828915019e+02  9.9389829017054043e-01 -1.2125572518555760e+01  9.9389829017054088e-01 -1.2125572518555760e+01  8.5481803759950417e-02 -1.0209641107269574e+02
7.900000000000000e-02  8.6573582393208115e-02 -1.0360605477801033e+02  9.9378142631930022e-01 -1.2278995572471763e+01  9.9378142631930000e-01 -1.2278995572471770e+01  8.6522983769617590e-02 -1.0225168199479205e+02
8.000000000000000e-02  8.7613634135022433e-02 -1.0375630566261094e+02  9.9366355558687103e-01 -1.2432377737566364e+01  9.9366355558687103e-01 -1.2432377737566364e+01  8.7574091568924678e-02 -1.0240512548200901e+02
8.100000000000000e-02  8.8663653028095341e-02 -1.0390553304057632e+02  9.9354477142105835e-01 -1.2585712366395120e+01  9.9354477142105768e-01 -1.2585712366395112e+01  8.8612908482673905e-02 -1.0256026503141854e+02
8.200000000000000e-02  8.9701323321857415e-02 -1.0405576948911201e+02  9.9342498765554732e-01 -1.2739006018755379e+01  9.9342498765554699e-01 -1.2739006018755374e+01  8.9661326760840973e-02 -1.0271362381092793e+02
8.300000000000000e-02  9.0748647809821906e-02 -1.0420500953872165e+02  9.9330429855905789e-01 -1.2892251838057399e+01  9.9330429855905833e-01 -1.2892251838057408e+01  9.0697746899910656e-02 -1.0286863450767588e+02
8.400000000000001e-02  9.1783902931424632e-02 -1.0435522539484714e+02  9.9318261730033641e-01 -1.3045456580977978e+01  9.9318261730033608e-01 -1.3045456580977980e+01  9.1743456105738475e-02 -1.0302190888842634e+02
8.500000000000001e-02  9.2828512876367356e-02 -1.0450447056895374e+02  9.9306003897335238e-01 -1.3198613183266463e+01  9.9306003897335182e-01 -1.3198613183266463e+01  9.2777445990730831e-02 -1.0317679295860022e+02
8.600000000000001e-02  9.3861319320807698e-02 -1.0465466016943607e+02  9.9293647607145974e-01 -1.3351728598384662e+01  9.9293647607145985e-01 -1.3351728598384662e+01  9.3820425794800058e-02 -1.0332998311539534e+02
8.700000000000001e-02  9.4903193871834018e-02 -1.0480390351778520e+02  9.9281202451849848e-01 -1.3504795555832416e+01  9.9281202451849793e-01 -1.3504795555832420e+01  9.4851952147770716e-02 -1.0348474252508174e+02
8.800000000000001e-02  9.5933518353582312e-02 -1.0495406163864008e+02  9.9268659612210364e-01 -1.3657821205712905e+01  9.9268659612210319e-01 -1.3657821205712906e+01  9.5892181534677656e-02 -1.0363784851739683e+02
8.900000000000001e-02  9.6972636032149589e-02 -1.0510329674412367e+02  9.9256028764085391e-01 -1.3810798072623184e+01  9.9256028764085391e-01 -1.3810798072623182e+01  9.6921211282267480e-02 -1.0379248500214561e+02
9.000000000000001e-02  9.8000445486754600e-02 -1.0525341855383154e+02  9.9243301018645658e-01 -1.3963733503119688e+01  9.9243301018645635e-01 -1.3963733503119689e+01  9.7958668633766149e-02 -1.0394550679023165e+02
9.100000000000001e-02  9.9036784263787800e-02 -1.0540263947695942e+02  9.9230486135731033e-01 -1.4116619818186461e+01  9.9230486135731022e-01 -1.4116619818186464e+01  9.8985168911145435e-02 -1.0410002188073005e+02
9.200000000000001e-02  1.0006204585046023e-01 -1.0555272049570415e+02  9.9217575155907833e-01 -1.4269464560605007e+01  9.9217575155907833e-01 -1.4269464560605005e+01  1.0001983208130356e-01 -1.0425295933944467e+02
9.300000000000000e-02  1.0109558321622385e-01 -1.0570192172608130e+02  9.9204577923523041e-01 -1.4422259848985632e+01  9.9204577923523063e-01 -1.4422259848985634e+01  1.0104377023673594e-01 -1.0440735438396575e+02
