# GHz S MA R 50

1.000000000000000e-02  1.1608096154053371e-02 -7.6843686688298718e+01  3.4851131005940953e-03  1.0100365860313202e+02  9.9943088158907512e-01 -1.5462573150429011e+00  1.7665736112109666e-04  5.8968132818620710e+01
                         3.4851131005940949e-03  1.0100365860313202e+02  1.1608096154053376e-02 -7.6843686688298718e+01  1.7665736112109661e-04  5.8968132818620695e+01  9.9943088158907512e-01 -1.5462573150429002e+00
                         9.9943088158907500e-01 -1.5462573150429013e+00  1.7665736112131589e-04  5.8968132818495519e+01  1.1751760126731771e-02 -1.0818343571708611e+02  3.5593432008579461e-03  7.3537049252215837e+01
                         1.7665736112131608e-04  5.8968132818495526e+01  9.9943088158907545e-01 -1.5462573150429013e+00  3.5593432008579466e-03  7.3537049252215837e+01  1.1751760126731767e-02 -1.0818343571708611e+02
2.000000000000000e-02  2.2642323665300550e-02 -8.5966400840097108e+01  6.8707510969681831e-03  9.2804408485694267e+01  9.9888714805511991e-01 -3.0918887896061116e+00  3.7093676632642266e-04  5.1074545599029122e+01
                         6.8707510969681796e-03  9.2804408485694267e+01  2.2642323665300543e-02 -8.5966400840097108e+01  3.7093676632642277e-04  5.1074545599029129e+01  9.9888714805512047e-01 -3.0918887896061076e+00
                         9.9888714805511958e-01 -3.0918887896061116e+00  3.7093676632641979e-04  5.1074545599028802e+01  2.2740532721024612e-02 -1.0197684754189305e+02  6.9002755712012755e-03  7.8834121241207228e+01
                         3.7093676632641925e-04  5.1074545599028703e+01  9.9888714805512002e-01 -3.0918887896061076e+00  6.9002755712012746e-03  7.8834121241207228e+01  2.2740532721024605e-02 -1.0197684754189306e+02
3.000000000000000e-02  3.3757876707368489e-02 -9.0111075846903404e+01  1.0248498351778129e-02  8.9048583501345462e+01  9.9823328469635775e-01 -4.6364920603611175e+00  6.0430057773166578e-04  4.1597661965912955e+01
                         1.0248498351778131e-02  8.9048583501345462e+01  3.3757876707368489e-02 -9.0111075846903404e+01  6.0430057773166578e-04  4.1597661965912955e+01  9.9823328469635775e-01 -4.6364920603611184e+00
                         9.9823328469635764e-01 -4.6364920603611148e+00  6.0430057773181822e-04  4.1597661965897679e+01  3.3858689455689178e-02 -1.0079078591730564e+02  1.0287333173860319e-02  7.9667802356371482e+01
                         6.0430057773181779e-04  4.1597661965897629e+01  9.9823328469635786e-01 -4.6364920603611166e+00  1.0287333173860321e-02  7.9667802356371482e+01  3.3858689455689192e-02 -1.0079078591730564e+02
4.000000000000000e-02  4.4874011261144577e-02 -9.2937286097549162e+01  1.3627128382445805e-02  8.6389689134384128e+01  9.9745846560415241e-01 -6.1796288242464472e+00  8.8676434942680982e-04  3.2650276646670505e+01
                         1.3627128382445806e-02  8.6389689134384113e+01  4.4874011261144556e-02 -9.2937286097549162e+01  8.8676434942681014e-04  3.2650276646670576e+01  9.9745846560415197e-01 -6.1796288242464446e+00
                         9.9745846560415241e-01 -6.1796288242464392e+00  8.8676434942716110e-04  3.2650276646653090e+01  4.4961260553605026e-02 -1.0097045552300132e+02  1.3650704542553517e-02  7.9319541283437104e+01
                         8.8676434942716088e-04  3.2650276646653069e+01  9.9745846560415186e-01 -6.1796288242464410e+00  1.3650704542553514e-02  7.9319541283437104e+01  4.4961260553604998e-02 -1.0097045552300132e+02
5.000000000000000e-02  5.5936308395157147e-02 -9.5263474208151266e+01  1.6973121858983978e-02  8.4187638937521953e+01  9.9656046055502323e-01 -7.7208868610390198e+00  1.2246921609679793e-03  2.4603568444809696e+01
                         1.6973121858983978e-02  8.4187638937521939e+01  5.5936308395157140e-02 -9.5263474208151294e+01  1.2246921609679801e-03  2.4603568444809710e+01  9.9656046055502345e-01 -7.7208868610390216e+00
                         9.9656046055502301e-01 -7.7208868610390171e+00  1.2246921609683587e-03  2.4603568444798984e+01  5.6026135820369326e-02 -1.0166782953431823e+02  1.7002810508532012e-02  7.8496433492138209e+01
                         1.2246921609683579e-03  2.4603568444799006e+01  9.9656046055502323e-01 -7.7208868610390251e+00  1.7002810508532005e-02  7.8496433492138195e+01  5.6026135820369326e-02 -1.0166782953431824e+02
6.000000000000000e-02  6.6940507655868037e-02 -9.7311545355162309e+01  2.0297165519824231e-02  8.2206237544075947e+01  9.9553955391687476e-01 -9.2598440834364606e+00  1.6217913921725677e-03  1.7431862568459952e+01
                         2.0297165519824221e-02  8.2206237544075947e+01  6.6940507655868023e-02 -9.7311545355162309e+01  1.6217913921725675e-03  1.7431862568459891e+01  9.9553955391687476e-01 -9.2598440834364535e+00
                         9.9553955391687543e-01 -9.2598440834364535e+00  1.6217913921724686e-03  1.7431862568461597e+01  6.7024035048369998e-02 -1.0265298570044703e+02  2.0317728117089796e-02  7.7439529918833614e+01
                         1.6217913921724684e-03  1.7431862568461661e+01  9.9553955391687510e-01 -9.2598440834364517e+00  2.0317728117089793e-02  7.7439529918833642e+01  6.7024035048369957e-02 -1.0265298570044700e+02
7.000000000000001e-02  7.7859588320993572e-02 -9.9222126525378840e+01  2.3578871858096168e-02  8.0362918980363958e+01  9.9439801206733724e-01 -1.0796112468216220e+01  2.0797746831098525e-03  1.1006623053630086e+01
                         2.3578871858096168e-02  8.0362918980363943e+01  7.7859588320993572e-02 -9.9222126525378840e+01  2.0797746831098521e-03  1.1006623053630012e+01  9.9439801206733758e-01 -1.0796112468216222e+01
                         9.9439801206733691e-01 -1.0796112468216220e+01  2.0797746831099514e-03  1.1006623053628633e+01  7.7944907969317634e-02 -1.0377758125302154e+02  2.3604004204040373e-02  7.6250327057056438e+01
                         2.0797746831099518e-03  1.1006623053628717e+01  9.9439801206733713e-01 -1.0796112468216220e+01  2.3604004204040380e-02  7.6250327057056438e+01  7.7944907969317634e-02 -1.0377758125302155e+02
8.000000000000000e-02  8.8689350540799600e-02 -1.0102522426355496e+02  2.6824709527510048e-02  7.8602728531551335e+01  9.9313861186354424e-01 -1.2329296434186920e+01  2.5993599077902582e-03  5.1959486609596208e+00
                         2.6824709527510041e-02  7.8602728531551335e+01  8.8689350540799586e-02 -1.0102522426355497e+02  2.5993599077902595e-03  5.1959486609595817e+00  9.9313861186354424e-01 -1.2329296434186929e+01
                         9.9313861186354435e-01 -1.2329296434186922e+01  2.5993599077905822e-03  5.1959486609580257e+00  8.8771703727663520e-02 -1.0500866293147463e+02  2.6843361124023073e-02  7.4984902289535455e+01
                         2.5993599077905822e-03  5.1959486609580070e+00  9.9313861186354446e-01 -1.2329296434186924e+01  2.6843361124023073e-02  7.4984902289535441e+01  8.8771703727663562e-02 -1.0500866293147463e+02
9.000000000000001e-02  9.9409978705147978e-02 -1.0277287100623387e+02  3.0019188874542507e-02  7.6908019100832220e+01  9.9176545195208743e-01 -1.3859044015230252e+01  3.1803282785426560e-03 -1.2167988807235315e-01
                         3.0019188874542500e-02  7.6908019100832192e+01  9.9409978705147978e-02 -1.0277287100623387e+02  3.1803282785426543e-03 -1.2167988807234043e-01  9.9176545195208754e-01 -1.3859044015230257e+01
                         9.9176545195208710e-01 -1.3859044015230252e+01  3.1803282785425389e-03 -1.2167988807265702e-01  9.9493364363350836e-02 -1.0629095875450977e+02  3.0041536136602626e-02  7.3670545418958227e+01
                         3.1803282785425389e-03 -1.2167988807268044e-01  9.9176545195208732e-01 -1.3859044015230248e+01  3.0041536136602626e-02  7.3670545418958227e+01  9.9493364363350920e-02 -1.0629095875450977e+02
1.000000000000000e-01  1.1001584417623161e-01 -1.0446420805404148e+02  3.3166594006753924e-02  7.5257969053309296e+01  9.9028259372845995e-01 -1.5384994138967439e+01  3.8221334609527743e-03 -5.0379018342849911e+00
                         3.3166594006753931e-02  7.5257969053309267e+01  1.1001584417623152e-01 -1.0446420805404148e+02  3.8221334609527739e-03 -5.0379018342849466e+00  9.9028259372845950e-01 -1.5384994138967436e+01
                         9.9028259372845973e-01 -1.5384994138967452e+01  3.8221334609526655e-03 -5.0379018342844262e+00  1.1009827219478582e-01 -1.0762364067383997e+02  3.3183946185940331e-02  7.2328460672787102e+01
                         3.8221334609526668e-03 -5.0379018342844111e+00  9.9028259372845939e-01 -1.5384994138967436e+01  3.3183946185940331e-02  7.2328460672787102e+01  1.1009827219478577e-01 -1.0762364067383997e+02
1.100000000000000e-01  1.2049125037109842e-01 -1.0612738248069708e+02  3.6254404919325238e-02  7.3649242114554909e+01  9.8869532259872850e-01 -1.6906839492832990e+01  4.5237329909283523e-03 -9.6316105541915231e+00
                         3.6254404919325238e-02  7.3649242114554909e+01  1.2049125037109849e-01 -1.0612738248069705e+02  4.5237329909283558e-03 -9.6316105541915995e+00  9.8869532259872850e-01 -1.6906839492832990e+01
                         9.8869532259872817e-01 -1.6906839492832994e+01  4.5237329909288996e-03 -9.6316105541921218e+00  1.2057404111460514e-01 -1.0897682993560238e+02  3.6274888216127579e-02  7.0968486811138064e+01
                         4.5237329909288996e-03 -9.6316105541920969e+00  9.8869532259872850e-01 -1.6906839492832994e+01  3.6274888216127586e-02  7.0968486811138064e+01  1.2057404111460519e-01 -1.0897682993560238e+02
1.200000000000000e-01  1.3082971879244945e-01 -1.0775479767534731e+02  3.9285798064174877e-02  7.2071405439334853e+01  9.8700852542557715e-01 -1.8424259554150744e+01  5.2839630664395197e-03 -1.3957832548921234e+01
                         3.9285798064174884e-02  7.2071405439334853e+01  1.3082971879244951e-01 -1.0775479767534731e+02  5.2839630664395188e-03 -1.3957832548921226e+01  9.8700852542557727e-01 -1.8424259554150741e+01
                         9.8700852542557682e-01 -1.8424259554150755e+01  5.2839630664394096e-03 -1.3957832548921061e+01  1.3091294449280486e-01 -1.1035685913063801e+02  3.9302234869454958e-02  6.9601247995101090e+01
                         5.2839630664394104e-03 -1.3957832548921127e+01  9.8700852542557727e-01 -1.8424259554150741e+01  3.9302234869454958e-02  6.9601247995101090e+01  1.3091294449280491e-01 -1.1035685913063801e+02
1.300000000000000e-01  1.4101869317825921e-01 -1.0936512567466258e+02  4.2250450605944352e-02  7.0525247878465024e+01  9.8522835377405904e-01 -1.9936998111092961e+01  6.1013901028960163e-03 -1.8065751550472115e+01
                         4.2250450605944366e-02  7.0525247878465009e+01  1.4101869317825921e-01 -1.0936512567466258e+02  6.1013901028960198e-03 -1.8065751550472136e+01  9.8522835377405860e-01 -1.9936998111092961e+01
                         9.8522835377405849e-01 -1.9936998111092965e+01  6.1013901028961282e-03 -1.8065751550472218e+01  1.4110170287610474e-01 -1.1174405083619018e+02  4.2269601138961867e-02  6.8230962492159307e+01
                         6.1013901028961247e-03 -1.8065751550472235e+01  9.8522835377405849e-01 -1.9936998111092961e+01  4.2269601138961860e-02  6.8230962492159307e+01  1.4110170287610477e-01 -1.1174405083619018e+02
1.400000000000000e-01  1.5105136711701214e-01 -1.1094953894128309e+02  4.5151017985447565e-02  6.9004516324063090e+01  9.8336022294035641e-01 -2.1444779264595663e+01  6.9744931516931737e-03 -2.1987938269692620e+01
                         4.5151017985447559e-02  6.9004516324063061e+01  1.5105136711701211e-01 -1.1094953894128305e+02  6.9744931516931702e-03 -2.1987938269692666e+01  9.8336022294035585e-01 -2.1444779264595667e+01
                         9.8336022294035652e-01 -2.1444779264595663e+01  6.9744931516931693e-03 -2.1987938269692552e+01  1.5113585656860215e-01 -1.1314615603581038e+02  4.5166762749089158e-02  6.6863966260404993e+01
                         6.9744931516931676e-03 -2.1987938269692513e+01  9.8336022294035597e-01 -2.1444779264595663e+01  4.5166762749089158e-02  6.6863966260404993e+01  1.5113585656860215e-01 -1.1314615603581038e+02
1.500000000000000e-01  1.6091787109498668e-01 -1.1252190594028275e+02  4.7978977519764279e-02  6.7511267681528651e+01  9.8141091481143539e-01 -2.2947402390391254e+01  7.9016472223020755e-03 -2.5755741010896060e+01
                         4.7978977519764286e-02  6.7511267681528651e+01  1.6091787109498684e-01 -1.1252190594028275e+02  7.9016472223020703e-03 -2.5755741010896021e+01  9.8141091481143650e-01 -2.2947402390391240e+01
                         9.8141091481143572e-01 -2.2947402390391250e+01  7.9016472223023982e-03 -2.5755741010895473e+01  1.6100165365794605e-01 -1.1454875449832561e+02  4.7997078659084362e-02  6.5502302841022257e+01
                         7.9016472223023965e-03 -2.5755741010895463e+01  9.8141091481143672e-01 -2.2947402390391250e+01  4.7997078659084355e-02  6.5502302841022257e+01  1.6100165365794614e-01 -1.1454875449832559e+02
1.600000000000000e-01  1.7061143768222070e-01 -1.1407369261004865e+02  5.0736797299866743e-02  6.6041273936286871e+01  9.7938613034316646e-01 -2.4444638338198082e+01  8.8811020508515002e-03 -2.9388737941717462e+01
                         5.0736797299866750e-02  6.6041273936286885e+01  1.7061143768222062e-01 -1.1407369261004867e+02  8.8811020508515019e-03 -2.9388737941717462e+01  9.7938613034316668e-01 -2.4444638338198068e+01
                         9.7938613034316635e-01 -2.4444638338198079e+01  8.8811020508513753e-03 -2.9388737941717064e+01  1.7069751987482912e-01 -1.1595941375945010e+02  5.0751925842549443e-02  6.4150165324556014e+01
                         8.8811020508513805e-03 -2.9388737941717082e+01  9.7938613034316657e-01 -2.4444638338198072e+01  5.0751925842549443e-02  6.4150165324556014e+01  1.7069751987482923e-01 -1.1595941375945006e+02
1.700000000000000e-01  1.8012460409968090e-01 -1.1561589477141646e+02  5.3417509230163994e-02  6.4596885233136092e+01  9.7729307941892929e-01 -2.5936344706386159e+01  9.9111564700856258e-03 -3.2907673857466314e+01
                         5.3417509230164008e-02  6.4596885233136078e+01  1.8012460409968084e-01 -1.1561589477141651e+02  9.9111564700856223e-03 -3.2907673857466328e+01  9.7729307941892873e-01 -2.5936344706386159e+01
                         9.7729307941892896e-01 -2.5936344706386169e+01  9.9111564700856258e-03 -3.2907673857466371e+01  1.8020957484200623e-01 -1.1736692268647289e+02  5.3434644890121848e-02  6.2808650984839574e+01
                         9.9111564700856240e-03 -3.2907673857466307e+01  9.7729307941892862e-01 -2.5936344706386159e+01  5.3434644890121848e-02  6.2808650984839574e+01  1.8020957484200617e-01 -1.1736692268647289e+02
1.800000000000000e-01  1.8945088887535672e-01 -1.1714070787095829e+02  5.6023581006955196e-02  6.3174994640395006e+01  9.7513753589170882e-01 -2.7422339378603947e+01  1.0989908874494103e-02 -3.6324573108244948e+01
                         5.6023581006955189e-02  6.3174994640395006e+01  1.8945088887535674e-01 -1.1714070787095828e+02  1.0989908874494103e-02 -3.6324573108244962e+01  9.7513753589170837e-01 -2.7422339378603915e+01
                         9.7513753589170837e-01 -2.7422339378603951e+01  1.0989908874494003e-02 -3.6324573108245261e+01  1.8953881755557567e-01 -1.1877820132599660e+02  5.6038019321874785e-02  6.1480691995392391e+01
                         1.0989908874494010e-02 -3.6324573108245275e+01  9.7513753589170815e-01 -2.7422339378603915e+01  5.6038019321874792e-02  6.1480691995392398e+01  1.8953881755557553e-01 -1.1877820132599660e+02
1.900000000000000e-01  1.9858501754515881e-01 -1.1865720197930423e+02  5.8549420119217349e-02  6.1777870240076027e+01  9.7292695761297299e-01 -2.8902539113139706e+01  1.2115661439133818e-02 -3.9653720625383741e+01
                         5.8549420119217377e-02  6.1777870240076034e+01  1.9858501754515887e-01 -1.1865720197930423e+02  1.2115661439133819e-02 -3.9653720625383784e+01  9.7292695761297299e-01 -2.8902539113139696e+01
                         9.7292695761297299e-01 -2.8902539113139714e+01  1.2115661439134113e-02 -3.9653720625383123e+01  1.9867151608273168e-01 -1.2018423972514553e+02  5.8565492214156169e-02  6.0166939917227040e+01
                         1.2115661439134121e-02 -3.9653720625383144e+01  9.7292695761297321e-01 -2.8902539113139699e+01  5.8565492214156155e-02  6.0166939917227033e+01  1.9867151608273176e-01 -1.2018423972514553e+02
2.000000000000000e-01  2.0752095531586601e-01 -1.2015839672811876e+02  6.0997587767619946e-02  6.0403092313365093e+01  9.7066700427157926e-01 -3.0376807465280699e+01  1.3286416740152397e-02 -4.2902660019556116e+01
                         6.0997587767619946e-02  6.0403092313365114e+01  2.0752095531586598e-01 -1.2015839672811876e+02  1.3286416740152398e-02 -4.2902660019556087e+01  9.7066700427157948e-01 -3.0376807465280699e+01
                         9.7066700427157937e-01 -3.0376807465280717e+01  1.3286416740151996e-02 -4.2902660019556684e+01  2.0761094366676316e-01 -1.2159120476284963e+02  6.1011107882596505e-02  5.8869483568606888e+01
                         1.3286416740151987e-02 -4.2902660019556677e+01  9.7066700427157937e-01 -3.0376807465280713e+01  6.1011107882596526e-02  5.8869483568606903e+01  2.0761094366676333e-01 -1.2159120476284960e+02
2.100000000000000e-01  2.1625541708413298e-01 -1.2165196237522544e+02  6.3363717938005076e-02  5.9052692533516556e+01  9.6836522293606064e-01 -3.1845119803137759e+01  1.4500540771799821e-02 -4.6081607451020815e+01
                         6.3363717938005049e-02  5.9052692533516556e+01  2.1625541708413296e-01 -1.2165196237522544e+02  1.4500540771799825e-02 -4.6081607451020844e+01  9.6836522293606098e-01 -3.1845119803137738e+01
                         9.6836522293606120e-01 -3.1845119803137770e+01  1.4500540771799932e-02 -4.6081607451020801e+01  2.1634374198541104e-01 -1.2299172301720313e+02  6.3378455366594297e-02  5.7588752864004583e+01
                         1.4500540771799937e-02 -4.6081607451020808e+01  9.6836522293606098e-01 -3.1845119803137742e+01  6.3378455366594297e-02  5.7588752864004611e+01  2.1634374198541101e-01 -1.2299172301720313e+02
2.200000000000000e-01  2.2478291368275957e-01 -1.2313172410099875e+02  6.5650497157415111e-02  5.7724709453648785e+01  9.6602699836037886e-01 -3.3307382596339409e+01  1.5755982843365091e-02 -4.9195391486805995e+01
                         6.5650497157415069e-02  5.7724709453648785e+01  2.2478291368275974e-01 -1.2313172410099871e+02  1.5755982843365088e-02 -4.9195391486805995e+01  9.6602699836037931e-01 -3.3307382596339380e+01
                         9.6602699836037909e-01 -3.3307382596339409e+01  1.5755982843365206e-02 -4.9195391486805569e+01  2.2487515400266775e-01 -1.2439122182101777e+02  6.5662717165752740e-02  5.6326215409126540e+01
                         1.5755982843365209e-02 -4.9195391486805555e+01  9.6602699836037931e-01 -3.3307382596339380e+01  6.5662717165752740e-02  5.6326215409126533e+01  2.2487515400266786e-01 -1.2439122182101777e+02
2.300000000000000e-01  2.3310195378465270e-01 -1.2460427270293235e+02  6.7854650313391926e-02  5.6420874402510243e+01  9.6365983051913195e-01 -3.4763628035806789e+01  1.7051220187513490e-02 -5.2251575931463982e+01
                         6.7854650313391940e-02  5.6420874402510243e+01  2.3310195378465287e-01 -1.2460427270293235e+02  1.7051220187513490e-02 -5.2251575931464004e+01  9.6365983051913218e-01 -3.4763628035806796e+01
                         9.6365983051913240e-01 -3.4763628035806782e+01  1.7051220187513611e-02 -5.2251575931463890e+01  2.3319238143364118e-01 -1.2578361446840162e+02  6.7867618923772147e-02  5.5082187292675648e+01
                         1.7051220187513604e-02 -5.2251575931463883e+01  9.6365983051913273e-01 -3.4763628035806782e+01  6.7867618923772161e-02  5.5082187292675634e+01  2.3319238143364121e-01 -1.2578361446840164e+02
