# GHz S MA R 50

1.000000000000000e-03  1.0445895053488793e-03 -9.4066134477134611e+01  9.9988542393355806e-01 -1.6065491095679513e-01  9.9988542393355795e-01 -1.6065491095679513e-01  1.0445895053488889e-03 -9.4066134477140693e+01
2.000000000000000e-03  2.0513453139378258e-03 -9.3800481366071267e+01  9.9981877387453921e-01 -3.1972511181122903e-01  9.9981877387453921e-01 -3.1972511181122903e-01  2.0513453139378288e-03 -9.3800481366074379e+01
3.000000000000000e-03  3.0439276914465585e-03 -9.3777761832406114e+01  9.9975906831605099e-01 -4.7819155473421115e-01  9.9975906831605099e-01 -4.7819155473421127e-01  3.0439276914465585e-03 -9.3777761832405062e+01
4.000000000000000e-03  4.0272689645447753e-03 -9.3831138371733942e+01  9.9970249835554148e-01 -6.3626363102379258e-01  9.9970249835554159e-01 -6.3626363102379235e-01  4.0272689645447736e-03 -9.3831138371733942e+01
5.000000000000000e-03  5.0037098580890810e-03 -9.3919415223522549e+01  9.9964760076501291e-01 -7.9404078915673226e-01  9.9964760076501269e-01 -7.9404078915673237e-01  5.0037098580890888e-03 -9.3919415223524140e+01
6.000000000000000e-03  5.9746274011742576e-03 -9.4026935325650570e+01  9.9959363107498889e-01 -9.5158156947917871e-01  9.9959363107498900e-01 -9.5158156947917827e-01  5.9746274011742585e-03 -9.4026935325651635e+01
7.000000000000000e-03  6.9409300820643047e-03 -9.4146309208879671e+01  9.9954015068111379e-01 -1.1089246157392574e+00  9.9954015068111424e-01 -1.1089246157392567e+00  6.9409300820643133e-03 -9.4146309208880368e+01
8.000000000000000e-03  7.9032623797827342e-03 -9.4273549592227539e+01  9.9948687630603228e-01 -1.2660973575530889e+00  9.9948687630603217e-01 -1.2660973575530883e+00  7.9032623797827412e-03 -9.4273549592227738e+01
9.000000000000001e-03  8.8621050997850781e-03 -9.4406297835149303e+01  9.9943361302384148e-01 -1.4231202708476420e+00  9.9943361302384182e-01 -1.4231202708476416e+00  8.8621050997850764e-03 -9.4406297835149644e+01
1.000000000000000e-02  9.8178304921613772e-03 -9.4543061557157344e+01  9.9938022033361762e-01 -1.5800092187642076e+00  9.9938022033361762e-01 -1.5800092187642076e+00  9.8178304921613755e-03 -9.4543061557157017e+01
1.100000000000000e-02  1.0770735084018436e-02 -9.4682846540467551e+01  9.9932659331113893e-01 -1.7367768462999549e+00  9.9932659331113893e-01 -1.7367768462999553e+00  1.0770735084018440e-02 -9.4682846540467850e+01
1.200000000000000e-02  1.1721060469740262e-02 -9.4824962866473186e+01  9.9927265138402277e-01 -1.8934334635510437e+00  9.9927265138402288e-01 -1.8934334635510430e+00  1.1721060469740262e-02 -9.4824962866473200e+01
1.300000000000000e-02  1.2669007122247063e-02 -9.4968915661955492e+01  9.9921833127350923e-01 -2.0499876325333775e+00  9.9921833127350901e-01 -2.0499876325333775e+00  1.2669007122247059e-02 -9.4968915661955620e+01
1.400000000000000e-02  1.3614743929618135e-02 -9.5114340087151646e+01  9.9916358235774838e-01 -2.2064465724230926e+00  9.9916358235774849e-01 -2.2064465724230917e+00  1.3614743929618135e-02 -9.5114340087151760e+01
1.500000000000000e-02  1.4558414993363146e-02 -9.5260960882078791e+01  9.9910836351408683e-01 -2.3628164484636409e+00  9.9910836351408672e-01 -2.3628164484636405e+00  1.4558414993363139e-02 -9.5260960882078237e+01
1.600000000000000e-02  1.5500144606030433e-02 -9.5408566234229539e+01  9.9905264090260981e-01 -2.5191025835185918e+00  9.9905264090260992e-01 -2.5191025835185923e+00  1.5500144606030438e-02 -9.5408566234229838e+01
1.700000000000000e-02  1.6440040979752584e-02 -9.5556990351938367e+01  9.9899638636993815e-01 -2.6753096165511163e+00  9.9899638636993837e-01 -2.6753096165511150e+00  1.6440040979752581e-02 -9.5556990351938069e+01
1.800000000000000e-02  1.7378199094585621e-02 -9.5706101520442601e+01  9.9893957627384522e-01 -2.8314416237003659e+00  9.9893957627384533e-01 -2.8314416237003663e+00  1.7378199094585607e-02 -9.5706101520442232e+01
1.900000000000000e-02  1.8314702912018123e-02 -9.5855793718109169e+01  9.9888219060103423e-01 -2.9875022123796136e+00  9.9888219060103411e-01 -2.9875022123796131e+00  1.8314702912018126e-02 -9.5855793718109098e+01
2.000000000000000e-02  1.9249627121237168e-02 -9.6005980607078598e+01  9.9882421229350937e-01 -3.1434945955168865e+00  9.9882421229350971e-01 -3.1434945955168847e+00  1.9249627121237164e-02 -9.6005980607078271e+01
2.100000000000000e-02  2.0183038535296721e-02 -9.6156591145203720e+01  9.9876562672654623e-01 -3.2994216509156891e+00  9.9876562672654623e-01 -3.2994216509156877e+00  2.0183038535296724e-02 -9.6156591145203549e+01
2.200000000000000e-02  2.1114997220754335e-02 -9.6307566328347079e+01  9.9870642129858722e-01 -3.4552859692869995e+00  9.9870642129858711e-01 -3.4552859692870013e+00  2.1114997220754331e-02 -9.6307566328347392e+01
2.300000000000000e-02  2.2045557421496952e-02 -9.6458856735704828e+01  9.9864658510528204e-01 -3.6110898935327533e+00  9.9864658510528204e-01 -3.6110898935327547e+00  2.2045557421496956e-02 -9.6458856735704813e+01
2.400000000000000e-02  2.2974768321587298e-02 -9.6610420655215052e+01  9.9858610867746223e-01 -3.7668355511863751e+00  9.9858610867746223e-01 -3.7668355511863751e+00  2.2974768321587277e-02 -9.6610420655215123e+01
2.500000000000000e-02  2.3902674680737965e-02 -9.6762222634456862e+01  9.9852498376851173e-01 -3.9225248814384117e+00  9.9852498376851173e-01 -3.9225248814384095e+00  2.3902674680737972e-02 -9.6762222634457061e+01
2.600000000000000e-02  2.4829317367932723e-02 -9.6914232347955121e+01  9.9846320318023662e-01 -4.0781596578320913e+00  9.9846320318023662e-01 -4.0781596578320940e+00  2.4829317367932736e-02 -9.6914232347955121e+01
2.700000000000000e-02  2.5754733812812302e-02 -9.7066423702787489e+01  9.9840076061905858e-01 -4.2337415074625886e+00  9.9840076061905814e-01 -4.2337415074625886e+00  2.5754733812812309e-02 -9.7066423702787546e+01
2.800000000000000e-02  2.6678958390083104e-02 -9.7218774125738705e+01  9.9833765057641211e-01 -4.3892719273285152e+00  9.9833765057641188e-01 -4.3892719273285152e+00  2.6678958390083111e-02 -9.7218774125738648e+01
2.900000000000000e-02  2.7602022748920641e-02 -9.7371263990251492e+01  9.9827386822851205e-01 -4.5447522983446946e+00  9.9827386822851183e-01 -4.5447522983446946e+00  2.7602022748920645e-02 -9.7371263990251492e+01
3.000000000000000e-02  2.8523956096869949e-02 -9.7523876152068510e+01  9.9820940935186320e-01 -4.7001838974199464e+00  9.9820940935186309e-01 -4.7001838974199464e+00  2.8523956096869953e-02 -9.7523876152068567e+01
3.100000000000000e-02  2.9444785445833795e-02 -9.7676595570183295e+01  9.9814427025158237e-01 -4.8555679079227527e+00  9.9814427025158237e-01 -4.8555679079227545e+00  2.9444785445833777e-02 -9.7676595570183238e+01
3.200000000000000e-02  3.0364535826272760e-02 -9.7829408995286656e+01  9.9807844770026122e-01 -5.0109054287951320e+00  9.9807844770026111e-01 -5.0109054287951320e+00  3.0364535826272788e-02 -9.7829408995286514e+01
3.300000000000000e-02  3.1283230474590230e-02 -9.7982304712054827e+01  9.9801193888554818e-01 -5.1661974825260550e+00  9.9801193888554807e-01 -5.1661974825260550e+00  3.1283230474590237e-02 -9.7982304712054969e+01
3.400000000000000e-02  3.2200890997769092e-02 -9.8135272324685005e+01  9.9794474136499289e-01 -5.3214450221574108e+00  9.9794474136499323e-01 -5.3214450221574126e+00  3.2200890997769120e-02 -9.8135272324685204e+01
3.500000000000000e-02  3.3117537518611927e-02 -9.8288302577442266e+01  9.9787685302696039e-01 -5.4766489374650078e+00  9.9787685302696028e-01 -5.4766489374650051e+00  3.3117537518611948e-02 -9.8288302577442380e+01
3.600000000000000e-02  3.4033188804355380e-02 -9.8441387203680733e+01  9.9780827205666900e-01 -5.6318100604323549e+00  9.9780827205666855e-01 -5.6318100604323549e+00  3.4033188804355401e-02 -9.8441387203680648e+01
3.700000000000001e-02  3.4947862380972590e-02 -9.8594518798223987e+01  9.9773899690652224e-01 -5.7869291701157710e+00  9.9773899690652212e-01 -5.7869291701157737e+00  3.4947862380972604e-02 -9.8594518798223888e+01
3.800000000000000e-02  3.5861574635100570e-02 -9.8747690708957606e+01  9.9766902627017429e-01 -5.9420069969829514e+00  9.9766902627017440e-01 -5.9420069969829514e+00  3.5861574635100577e-02 -9.8747690708957776e+01
3.900000000000000e-02  3.6774340905219291e-02 -9.8900896944362017e+01  9.9759835905967476e-01 -6.0970442267944351e+00  9.9759835905967431e-01 -6.0970442267944351e+00  3.6774340905219270e-02 -9.8900896944361847e+01
4.000000000000000e-02  3.7686175563467060e-02 -9.9054132094291660e+01  9.9752699438535264e-01 -6.2520415040865638e+00  9.9752699438535275e-01 -6.2520415040865638e+00  3.7686175563467067e-02 -9.9054132094291617e+01
4.100000000000000e-02  3.8597092089259030e-02 -9.9207391261863293e+01  9.9745493153798392e-01 -6.4069994353058357e+00  9.9745493153798381e-01 -6.4069994353058366e+00  3.8597092089259044e-02 -9.9207391261863251e+01
4.200000000000000e-02  3.9507103135712304e-02 -9.9360670004633775e+01  9.9738216997299001e-01 -6.5619185916371903e+00  9.9738216997299023e-01 -6.5619185916371867e+00  3.9507103135712339e-02 -9.9360670004634059e+01
4.300000000000000e-02  4.0416220589733286e-02 -9.9513964283677439e+01  9.9730870929634607e-01 -6.7167995115625070e+00  9.9730870929634585e-01 -6.7167995115625079e+00  4.0416220589733293e-02 -9.9513964283677353e+01
4.400000000000000e-02  4.1324455626508612e-02 -9.9667270419296614e+01  9.9723454925203214e-01 -6.8716427031811476e+00  9.9723454925203170e-01 -6.8716427031811493e+00  4.1324455626508556e-02 -9.9667270419296273e+01
4.500000000000001e-02  4.2231818759030627e-02 -9.9820585052421080e+01  9.9715968971076707e-01 -7.0264486463190776e+00  9.9715968971076696e-01 -7.0264486463190785e+00  4.2231818759030627e-02 -9.9820585052421151e+01
4.600000000000001e-02  4.3138319883214510e-02 -9.9973905110842821e+01  9.9708413065993939e-01 -7.1812177944503848e+00  9.9708413065993928e-01 -7.1812177944503812e+00  4.3138319883214538e-02 -9.9973905110842836e+01
4.700000000000000e-02  4.4043968319085365e-02 -1.0012722777959334e+02  9.9700787219452303e-01 -7.3359505764516371e+00  9.9700787219452303e-01 -7.3359505764516371e+00  4.4043968319085358e-02 -1.0012722777959308e+02
4.800000000000000e-02  4.4948772848452549e-02 -1.0028055047489528e+02  9.9693091450889659e-01 -7.4906473982066624e+00  9.9693091450889648e-01 -7.4906473982066641e+00  4.4948772848452556e-02 -1.0028055047489505e+02
4.900000000000000e-02  4.5852741749438701e-02 -1.0043387082118187e+02  9.9685325788946422e-01 -7.6453086440774722e+00  9.9685325788946377e-01 -7.6453086440774731e+00  4.5852741749438694e-02 -1.0043387082118194e+02
5.000000000000000e-02  4.6755882828185852e-02 -1.0058718663078733e+02  9.9677490270795166e-01 -7.7999346782550223e+00  9.9677490270795166e-01 -7.7999346782550241e+00  4.6755882828185852e-02 -1.0058718663078736e+02
5.100000000000000e-02  4.7658203448019375e-02 -1.0074049588593643e+02  9.9669584941535971e-01 -7.9545258460017711e+00  9.9669584941535982e-01 -7.9545258460017711e+00  4.7658203448019396e-02 -1.0074049588593635e+02
5.200000000000000e-02  4.8559710556319149e-02 -1.0089379672274862e+02  9.9661609853643618e-01 -8.1090824747966348e+00  9.9661609853643585e-01 -8.1090824747966348e+00  4.8559710556319184e-02 -1.0089379672274858e+02
5.300000000000001e-02  4.9460410709321237e-02 -1.0104708741699906e+02  9.9653565066465266e-01 -8.2636048753918629e+00  9.9653565066465277e-01 -8.2636048753918683e+00  4.9460410709321251e-02 -1.0104708741699926e+02
5.400000000000001e-02  5.0360310095043041e-02 -1.0120036637140737e+02  9.9645450645763523e-01 -8.4180933427899447e+00  9.9645450645763511e-01 -8.4180933427899483e+00  5.0360310095043055e-02 -1.0120036637140737e+02
5.500000000000000e-02  5.1259414554506048e-02 -1.0135363210427447e+02  9.9637266663297175e-01 -8.5725481571481357e+00  9.9637266663297164e-01 -8.5725481571481357e+00  5.1259414554506014e-02 -1.0135363210427433e+02
5.600000000000000e-02  5.2157729601413787e-02 -1.0150688323930819e+02  9.9629013196438665e-01 -8.7269695846170965e+00  9.9629013196438698e-01 -8.7269695846170947e+00  5.2157729601413752e-02 -1.0150688323930827e+02
5.700000000000000e-02  5.3055260440418847e-02 -1.0166011849647771e+02  9.9620690327822192e-01 -8.8813578781195730e+00  9.9620690327822203e-01 -8.8813578781195730e+00  5.3055260440418847e-02 -1.0166011849647776e+02
5.800000000000000e-02  5.3952011984107644e-02 -1.0181333668380749e+02  9.9612298145021738e-01 -9.0357132780743559e+00  9.9612298145021738e-01 -9.0357132780743559e+00  5.3952011984107630e-02 -1.0181333668380741e+02
5.900000000000000e-02  5.4847988868808373e-02 -1.0196653668996439e+02  9.9603836740254703e-01 -9.1900360130702072e+00  9.9603836740254725e-01 -9.1900360130702037e+00  5.4847988868808414e-02 -1.0196653668996430e+02
6.000000000000000e-02  5.5743195469328002e-02 -1.0211971747758989e+02  9.9595306210107737e-01 -9.3443263004941173e+00  9.9595306210107748e-01 -9.3443263004941137e+00  5.5743195469328044e-02 -1.0211971747758986e+02
6.100000000000001e-02  5.6637635912701219e-02 -1.0227287807725364e+02  9.9586706655286195e-01 -9.4985843471175375e+00  9.9586706655286183e-01 -9.4985843471175393e+00  5.6637635912701219e-02 -1.0227287807725349e+02
6.200000000000001e-02  5.7531314091038829e-02 -1.0242601758199696e+02  9.9578038180381057e-01 -9.6528103496441844e+00  9.9578038180381034e-01 -9.6528103496441862e+00  5.7531314091038781e-02 -1.0242601758199707e+02
6.300000000000000e-02  5.8424233673542755e-02 -1.0257913514237212e+02  9.9569300893652668e-01 -9.8070044952224134e+00  9.9569300893652646e-01 -9.8070044952224151e+00  5.8424233673542748e-02 -1.0257913514237227e+02
6.400000000000000e-02  5.9316398117758518e-02 -1.0273222996194826e+02  9.9560494906833852e-01 -9.9611669619249739e+00  9.9560494906833819e-01 -9.9611669619249774e+00  5.9316398117758490e-02 -1.0273222996194826e+02
6.500000000000000e-02  6.0207810680120787e-02 -1.0288530129321677e+02  9.9551620334942281e-01 -1.0115297919198911e+01  9.9551620334942303e-01 -1.0115297919198911e+01  6.0207810680120773e-02 -1.0288530129321673e+02
6.600000000000000e-02  6.1098474425848329e-02 -1.0303834843387089e+02  9.9542677296110771e-01 -1.0269397528287467e+01  9.9542677296110726e-01 -1.0269397528287467e+01  6.1098474425848343e-02 -1.0303834843387085e+02
6.700000000000002e-02  6.1988392238241000e-02 -1.0319137072340564e+02  9.9533665911428049e-01 -1.0423465942626599e+01  9.9533665911428093e-01 -1.0423465942626594e+01  6.1988392238241007e-02 -1.0319137072340581e+02
6.800000000000000e-02  6.2877566827415646e-02 -1.0334436754002090e+02  9.9524586304789642e-01 -1.0577503308217681e+01  9.9524586304789642e-01 -1.0577503308217684e+01  6.2877566827415660e-02 -1.0334436754002090e+02
6.900000000000001e-02  6.3766000738530074e-02 -1.0349733829778626e+02  9.9515438602759532e-01 -1.0731509763978279e+01  9.9515438602759498e-01 -1.0731509763978284e+01  6.3766000738530032e-02 -1.0349733829778624e+02
7.000000000000001e-02  6.4653696359527502e-02 -1.0365028244404533e+02  9.9506222934441713e-01 -1.0885485442072566e+01  9.9506222934441735e-01 -1.0885485442072559e+01  6.4653696359527529e-02 -1.0365028244404532e+02
7.100000000000001e-02  6.5540655928438038e-02 -1.0380319945704662e+02  9.9496939431359621e-01 -1.1039430468222694e+01  9.9496939431359599e-01 -1.1039430468222699e+01  6.5540655928438066e-02 -1.0380319945704652e+02
7.200000000000001e-02  6.6426881540267338e-02 -1.0395608884375254e+02  9.9487588227343393e-01 -1.1193344962002859e+01  9.9487588227343404e-01 -1.1193344962002859e+01  6.6426881540267352e-02 -1.0395608884375255e+02
7.300000000000001e-02  6.7312375153500817e-02 -1.0410895013784960e+02  9.9478169458425014e-01 -1.1347229037116719e+01  9.9478169458425003e-01 -1.1347229037116721e+01  6.7312375153500803e-02 -1.0410895013784940e+02
7.400000000000001e-02  6.8197138596252288e-02 -1.0426178289789917e+02  9.9468683262738966e-01 -1.1501082801659733e+01  9.9468683262738999e-01 -1.1501082801659731e+01  6.8197138596252288e-02 -1.0426178289789915e+02
7.500000000000001e-02  6.9081173572077173e-02 -1.0441458670564985e+02  9.9459129780430422e-01 -1.1654906358367308e+01  9.9459129780430444e-01 -1.1654906358367302e+01  6.9081173572077145e-02 -1.0441458670564992e+02
7.600000000000000e-02  6.9964481665476946e-02 -1.0456736116447573e+02  9.9449509153567817e-01 -1.1808699804849546e+01  9.9449509153567828e-01 -1.1808699804849546e+01  6.9964481665476932e-02 -1.0456736116447564e+02
7.700000000000000e-02  7.0847064347109676e-02 -1.0472010589793724e+02  9.9439821526061778e-01 -1.1962463233813711e+01  9.9439821526061734e-01 -1.1962463233813709e+01  7.0847064347109689e-02 -1.0472010589793716e+02
7.800000000000000e-02  7.1728922978733331e-02 -1.0487282054845498e+02  9.9430067043587245e-01 -1.2116196733275213e+01  9.9430067043587256e-01 -1.2116196733275210e+01  7.1728922978733248e-02 -1.0487282054845495e+02
7.900000000000000e-02  7.2610058817891732e-02 -1.0502550477608287e+02  9.9420245853512434e-01 -1.2269900386757449e+01  9.9420245853512401e-01 -1.2269900386757442e+01  7.2610058817891704e-02 -1.0502550477608295e+02
8.000000000000000e-02  7.3490473022362890e-02 -1.0517815825737560e+02  9.9410358104830432e-01 -1.2423574273481799e+01  9.9410358104830454e-01 -1.2423574273481803e+01  7.3490473022362918e-02 -1.0517815825737561e+02
8.100000000000000e-02  7.4370166654385853e-02 -1.0533078068433500e+02  9.9400403948094540e-01 -1.2577218468548004e+01  9.9400403948094529e-01 -1.2577218468548008e+01  7.4370166654385894e-02 -1.0533078068433504e+02
8.200000000000000e-02  7.5249140684675336e-02 -1.0548337176344529e+02  9.9390383535357252e-01 -1.2730833043105452e+01  9.9390383535357230e-01 -1.2730833043105454e+01  7.5249140684675322e-02 -1.0548337176344532e+02
8.300000000000000e-02  7.6127395996243685e-02 -1.0563593121476691e+02  9.9380297020114283e-01 -1.2884418064516392e+01  9.9380297020114283e-01 -1.2884418064516389e+01  7.6127395996243685e-02 -1.0563593121476696e+02
8.400000000000001e-02  7.7004933388033062e-02 -1.0578845877110049e+02  9.9370144557248807e-01 -1.3037973596510902e+01  9.9370144557248774e-01 -1.3037973596510904e+01  7.7004933388033089e-02 -1.0578845877110059e+02
8.500000000000001e-02  7.7881753578379037e-02 -1.0594095417721358e+02  9.9359926302981061e-01 -1.3191499699334821e+01  9.9359926302981072e-01 -1.3191499699334821e+01  7.7881753578379051e-02 -1.0594095417721363e+02
8.600000000000001e-02  7.8757857208307108e-02 -1.0609341718911953e+02  9.9349642414819528e-01 -1.3344996429890390e+01  9.9349642414819495e-01 -1.3344996429890390e+01  7.8757857208307150e-02 -1.0609341718911949e+02
8.700000000000001e-02  7.9633244844677001e-02 -1.0624584757340489e+02  9.9339293051514344e-01 -1.3498463841870494e+01  9.9339293051514344e-01 -1.3498463841870496e+01  7.9633244844676945e-02 -1.0624584757340483e+02
8.800000000000001e-02  8.0507916983180300e-02 -1.0639824510660539e+02  9.9328878373013796e-01 -1.3651901985886694e+01  9.9328878373013807e-01 -1.3651901985886703e+01  8.0507916983180369e-02 -1.0639824510660550e+02
8.900000000000001e-02  8.1381874051204214e-02 -1.0655060957462929e+02  9.9318398540422992e-01 -1.3805310909591354e+01  9.9318398540422981e-01 -1.3805310909591359e+01  8.1381874051204228e-02 -1.0655060957462935e+02
9.000000000000001e-02  8.2255116410562101e-02 -1.0670294077221097e+02  9.9307853715963579e-01 -1.3958690657794325e+01  9.9307853715963590e-01 -1.3958690657794323e+01  8.2255116410562004e-02 -1.0670294077221084e+02
9.100000000000001e-02  8.3127644360104710e-02 -1.0685523850240770e+02  9.9297244062936674e-01 -1.4112041272574363e+01  9.9297244062936663e-01 -1.4112041272574357e+01  8.3127644360104710e-02 -1.0685523850240772e+02
9.200000000000001e-02  8.3999458138217145e-02 -1.0700750257613173e+02  9.9286569745686482e-01 -1.4265362793385671e+01  9.9286569745686526e-01 -1.4265362793385664e+01  8.3999458138217131e-02 -1.0700750257613169e+02
9.300000000000000e-02  8.4870557925202303e-02 -1.0715973281170606e+02  9.9275830929566866e-01 -1.4418655257159790e+01  9.9275830929566855e-01 -1.4418655257159783e+01  8.4870557925202289e-02 -1.0715973281170595e+02
