# GHz S MA R 50

1.000000000000000e-03  1.0364593326176771e-03 -9.2199518134426739e+01  9.9989485415124202e-01 -1.6067743204618568e-01  9.9989485415124224e-01 -1.6067743204618570e-01  1.0364593326176771e-03 -9.2199518134426739e+01
2.000000000000000e-03  2.0350440205117361e-03 -9.1895835888635375e+01  9.9983755763796089e-01 -3.1976508720618751e-01  9.9983755763796089e-01 -3.1976508720618757e-01  2.0350440205117353e-03 -9.1895835888635375e+01
3.000000000000000e-03  3.0194663566544032e-03 -9.1850153170622733e+01  9.9978717972094011e-01 -4.7825151694676576e-01  9.9978717972094044e-01 -4.7825151694676554e-01  3.0194663566544045e-03 -9.1850153170622207e+01
4.000000000000000e-03  3.9946633747969928e-03 -9.1886912650082678e+01  9.9973992300102132e-01 -6.3634679620102308e-01  9.9973992300102132e-01 -6.3634679620102308e-01  3.9946633747969936e-03 -9.1886912650083872e+01
5.000000000000000e-03  4.9629776184733163e-03 -9.1962120564045605e+01  9.9969432944781544e-01 -7.9415062922238622e-01  9.9969432944781567e-01 -7.9415062922238622e-01  4.9629776184733137e-03 -9.1962120564044668e+01
6.000000000000000e-03  5.9257871141364894e-03 -9.2058852684279103e+01  9.9964965744585543e-01 -9.5172168346700714e-01  9.9964965744585532e-01 -9.5172168346700714e-01  5.9257871141364894e-03 -9.2058852684279344e+01
7.000000000000000e-03  6.8840010206877023e-03 -9.2169034806287613e+01  9.9960547010584266e-01 -1.1090986760602244e+00  9.9960547010584255e-01 -1.1090986760602248e+00  6.8840010206877049e-03 -9.2169034806288096e+01
8.000000000000000e-03  7.8382643321691613e-03 -9.2288266564962598e+01  9.9956148522413646e-01 -1.2663090832232067e+00  9.9956148522413624e-01 -1.2663090832232071e+00  7.8382643321691561e-03 -9.2288266564962598e+01
9.000000000000001e-03  8.7890582858109294e-03 -9.2413920462483091e+01  9.9951750855133203e-01 -1.4233734125456361e+00  9.9951750855133181e-01 -1.4233734125456361e+00  8.7890582858109276e-03 -9.2413920462482906e+01
1.000000000000000e-02  9.7367555151005626e-03 -9.2544319103407616e+01  9.9947339999986662e-01 -1.5803075497944423e+00  9.9947339999986673e-01 -1.5803075497944421e+00  9.7367555151005678e-03 -9.2544319103408611e+01
1.100000000000000e-02  1.0681652900575900e-02 -9.2678335391435425e+01  9.9942905487558431e-01 -1.7371241567856091e+00  9.9942905487558420e-01 -1.7371241567856095e+00  1.0681652900575900e-02 -9.2678335391435880e+01
1.200000000000000e-02  1.1623992370494015e-02 -9.2815180686680520e+01  9.9938439270342028e-01 -1.8938335565197155e+00  9.9938439270342061e-01 -1.8938335565197151e+00  1.1623992370494014e-02 -9.2815180686680932e+01
1.300000000000000e-02  1.2563974718290507e-02 -9.2954284725250375e+01  9.9933935020274645e-01 -2.0504443211721624e+00  9.9933935020274645e-01 -2.0504443211721624e+00  1.2563974718290509e-02 -9.2954284725249991e+01
1.400000000000000e-02  1.3501769143053755e-02 -9.3095223765116970e+01  9.9929387667380554e-01 -2.2069636780879689e+00  9.9929387667380587e-01 -2.2069636780879676e+00  1.3501769143053758e-02 -9.3095223765117083e+01
1.500000000000000e-02  1.4437520050267492e-02 -9.3237675632920897e+01  9.9924793085649921e-01 -2.3633977991927169e+00  9.9924793085649921e-01 -2.3633977991927160e+00  1.4437520050267492e-02 -9.3237675632921253e+01
1.600000000000000e-02  1.5371352031049787e-02 -9.3381390532538376e+01  9.9920147872602072e-01 -2.5197520128918751e+00  9.9920147872602094e-01 -2.5197520128918756e+00  1.5371352031049791e-02 -9.3381390532538489e+01
1.700000000000000e-02  1.6303373591795661e-02 -9.3526171478764937e+01  9.9915449190564753e-01 -2.6760309627945680e+00  9.9915449190564787e-01 -2.6760309627945671e+00  1.6303373591795671e-02 -9.3526171478765121e+01
1.800000000000000e-02  1.7233680003270031e-02 -9.3671860819848803e+01  9.9910694649830556e-01 -2.8322387289657684e+00  9.9910694649830534e-01 -2.8322387289657680e+00  1.7233680003270021e-02 -9.3671860819849172e+01
1.900000000000000e-02  1.8162355514638694e-02 -9.3818330730999236e+01  9.9905882220965692e-01 -2.9883789221533270e+00  9.9905882220965703e-01 -2.9883789221533270e+00  1.8162355514638691e-02 -9.3818330730999236e+01
2.000000000000000e-02  1.9089475100102168e-02 -9.3965476367558992e+01  9.9901010167873350e-01 -3.1444547581246058e+00  9.9901010167873361e-01 -3.1444547581246050e+00  1.9089475100102171e-02 -9.3965476367558836e+01
2.100000000000000e-02  2.0015105855322190e-02 -9.4113210841810172e+01  9.9896076995925198e-01 -3.3004691170996305e+00  9.9896076995925187e-01 -3.3004691170996292e+00  2.0015105855322193e-02 -9.4113210841810329e+01
2.200000000000000e-02  2.0939308127243317e-02 -9.4261461476456788e+01  9.9891081411227134e-01 -3.4564245918384588e+00  9.9891081411227145e-01 -3.4564245918384588e+00  2.0939308127243320e-02 -9.4261461476456645e+01
2.300000000000000e-02  2.1862136438046530e-02 -9.4410166968685374e+01  9.9886022288243059e-01 -3.6123235269674079e+00  9.9886022288243070e-01 -3.6123235269674083e+00  2.1862136438046541e-02 -9.4410166968685445e+01
2.400000000000000e-02  2.2783640248088686e-02 -9.4559275214627789e+01  9.9880898643779503e-01 -3.7681680514529221e+00  9.9880898643779548e-01 -3.7681680514529217e+00  2.2783640248088679e-02 -9.4559275214627732e+01
2.500000000000000e-02  2.3703864591438983e-02 -9.4708741620130056e+01  9.9875709615875707e-01 -3.9239601056533768e+00  9.9875709615875707e-01 -3.9239601056533751e+00  2.3703864591438990e-02 -9.4708741620130326e+01
2.600000000000000e-02  2.4622850609542446e-02 -9.4858527774502392e+01  9.9870454446518286e-01 -4.0797014640353719e+00  9.9870454446518286e-01 -4.0797014640353719e+00  2.4622850609542456e-02 -9.4858527774502690e+01
2.700000000000000e-02  2.5540636002635196e-02 -9.5008600398768564e+01  9.9865132467372242e-01 -4.2353937543895475e+00  9.9865132467372231e-01 -4.2353937543895475e+00  2.5540636002635207e-02 -9.5008600398768436e+01
2.800000000000000e-02  2.6457255414167578e-02 -9.5158930503723724e+01  9.9859743087910979e-01 -4.3910384741952848e+00  9.9859743087910990e-01 -4.3910384741952813e+00  2.6457255414167578e-02 -9.5158930503724136e+01
2.900000000000000e-02  2.7372740760218763e-02 -9.5309492710231737e+01  9.9854285785476504e-01 -4.5466370046441469e+00  9.9854285785476471e-01 -4.5466370046441469e+00  2.7372740760218766e-02 -9.5309492710231780e+01
3.000000000000000e-02  2.8287121513397469e-02 -9.5460264696092921e+01  9.9848760096896017e-01 -4.7021906227262971e+00  9.9848760096895983e-01 -4.7021906227262988e+00  2.8287121513397465e-02 -9.5460264696093091e+01
3.100000000000000e-02  2.9200424948829646e-02 -9.5611226742619962e+01  9.9843165611376516e-01 -4.8577005117031851e+00  9.9843165611376528e-01 -4.8577005117031860e+00  2.9200424948829642e-02 -9.5611226742619962e+01
3.200000000000000e-02  3.0112676358352831e-02 -9.5762361360390727e+01  9.9837501964442188e-01 -5.0131677702270796e+00  9.9837501964442166e-01 -5.0131677702270805e+00  3.0112676358352849e-02 -9.5762361360390500e+01
3.300000000000000e-02  3.1023899237894000e-02 -9.5913652978378281e+01  9.9831768832739620e-01 -5.1685934203191737e+00  9.9831768832739620e-01 -5.1685934203191737e+00  3.1023899237894007e-02 -9.5913652978378238e+01
3.400000000000000e-02  3.1934115452097116e-02 -9.6065087684191028e+01  9.9825965929561655e-01 -5.3239784143793649e+00  9.9825965929561666e-01 -5.3239784143793649e+00  3.1934115452097123e-02 -9.6065087684191013e+01
3.500000000000000e-02  3.2843345379552989e-02 -9.6216653005802499e+01  9.9820093000976295e-01 -5.4793236413703514e+00  9.9820093000976318e-01 -5.4793236413703514e+00  3.2843345379553017e-02 -9.6216653005802698e+01
3.600000000000000e-02  3.3751608041402113e-02 -9.6368337727176382e+01  9.9814149822459919e-01 -5.6346299322940290e+00  9.9814149822459886e-01 -5.6346299322940308e+00  3.3751608041402113e-02 -9.6368337727176595e+01
3.700000000000001e-02  3.4658921215626394e-02 -9.6520131731763428e+01  9.9808136195962982e-01 -5.7898980650586314e+00  9.9808136195963004e-01 -5.7898980650586340e+00  3.4658921215626380e-02 -9.6520131731763428e+01
3.800000000000000e-02  3.5565301538963590e-02 -9.6672025869033178e+01  9.9802051947338044e-01 -5.9451287688190950e+00  9.9802051947338011e-01 -5.9451287688190932e+00  3.5565301538963603e-02 -9.6672025869033206e+01
3.900000000000000e-02  3.6470764598076827e-02 -9.6824011840154697e+01  9.9795896924080951e-01 -6.1003227278599104e+00  9.9795896924080929e-01 -6.1003227278599121e+00  3.6470764598076813e-02 -9.6824011840154611e+01
4.000000000000000e-02  3.7375325011354987e-02 -9.6976082099667664e+01  9.9789670993337676e-01 -6.2554805850792681e+00  9.9789670993337642e-01 -6.2554805850792681e+00  3.7375325011354980e-02 -9.6976082099667707e+01
4.100000000000000e-02  3.8278996502522041e-02 -9.7128229770584952e+01  9.9783374040141459e-01 -6.4106029451243645e+00  9.9783374040141493e-01 -6.4106029451243636e+00  3.8278996502522027e-02 -9.7128229770584909e+01
4.200000000000000e-02  3.9181791967048997e-02 -9.7280448570797660e+01  9.9777005965848986e-01 -6.5656903772204167e+00  9.9777005965848942e-01 -6.5656903772204176e+00  3.9181791967048990e-02 -9.7280448570797759e+01
4.300000000000000e-02  4.0083723532231844e-02 -9.7432732749086412e+01  9.9770566686748596e-01 -6.7207434177299321e+00  9.9770566686748585e-01 -6.7207434177299357e+00  4.0083723532231864e-02 -9.7432732749086512e+01
4.400000000000000e-02  4.0984802611670063e-02 -9.7585077029264809e+01  9.9764056132817525e-01 -6.8757625724736515e+00  9.9764056132817491e-01 -6.8757625724736506e+00  4.0984802611670076e-02 -9.7585077029264724e+01
4.500000000000001e-02  4.1885039954782155e-02 -9.7737476561282563e+01  9.9757474246611955e-01 -7.0307483188400948e+00  9.9757474246611966e-01 -7.0307483188400939e+00  4.1885039954782134e-02 -9.7737476561282605e+01
4.600000000000001e-02  4.2784445691913184e-02 -9.7889926878293068e+01  9.9750820982268928e-01 -7.1857011077075823e+00  9.9750820982268928e-01 -7.1857011077075823e+00  4.2784445691913191e-02 -9.7889926878293096e+01
4.700000000000000e-02  4.3683029375510267e-02 -9.8042423858836301e+01  9.9744096304611707e-01 -7.3406213651986656e+00  9.9744096304611718e-01 -7.3406213651986629e+00  4.3683029375510267e-02 -9.8042423858836244e+01
4.800000000000000e-02  4.4580800017789274e-02 -9.8194963693445033e+01  9.9737300188341260e-01 -7.4955094942852751e+00  9.9737300188341282e-01 -7.4955094942852734e+00  4.4580800017789274e-02 -9.8194963693445033e+01
4.900000000000000e-02  4.5477766125254684e-02 -9.8347542855075474e+01  9.9730432617308296e-01 -7.6503658762598112e+00  9.9730432617308284e-01 -7.6503658762598112e+00  4.5477766125254698e-02 -9.8347542855075616e+01
5.000000000000000e-02  4.6373935730395575e-02 -9.8500158072854688e+01  9.9723493583853573e-01 -7.8051908720859950e+00  9.9723493583853606e-01 -7.8051908720859986e+00  4.6373935730395562e-02 -9.8500158072854504e+01
5.100000000000000e-02  4.7269316420841895e-02 -9.8652806308724124e+01  9.9716483088208696e-01 -7.9599848236416513e+00  9.9716483088208718e-01 -7.9599848236416495e+00  4.7269316420841832e-02 -9.8652806308724124e+01
5.200000000000000e-02  4.8163915366228813e-02 -9.8805484736602509e+01  9.9709401137954001e-01 -8.1147480548636715e+00  9.9709401137954023e-01 -8.1147480548636679e+00  4.8163915366228792e-02 -9.8805484736602551e+01
5.300000000000001e-02  4.9057739342989085e-02 -9.8958190723760026e+01  9.9702247747523964e-01 -8.2694808728050262e+00  9.9702247747523964e-01 -8.2694808728050226e+00  4.9057739342989092e-02 -9.8958190723759955e+01
5.400000000000001e-02  4.9950794757271468e-02 -9.9110921814129227e+01  9.9695022937754973e-01 -8.4241835686117472e+00  9.9695022937754962e-01 -8.4241835686117490e+00  4.9950794757271488e-02 -9.9110921814129242e+01
5.500000000000000e-02  5.0843087666157950e-02 -9.9263675713327757e+01  9.9687726735476034e-01 -8.5788564184275309e+00  9.9687726735476001e-01 -8.5788564184275309e+00  5.0843087666157930e-02 -9.9263675713327757e+01
5.600000000000000e-02  5.1734623797332645e-02 -9.9416450275181958e+01  9.9680359173129651e-01 -8.7334996842324273e+00  9.9680359173129685e-01 -8.7334996842324255e+00  5.1734623797332638e-02 -9.9416450275181958e+01
5.700000000000000e-02  5.2625408567344864e-02 -9.9569243489583229e+01  9.9672920288428801e-01 -8.8881136146215685e+00  9.9672920288428801e-01 -8.8881136146215720e+00  5.2625408567344878e-02 -9.9569243489583130e+01
5.800000000000000e-02  5.3515447098585876e-02 -9.9722053471523921e+01  9.9665410124038245e-01 -9.0426984455291937e+00  9.9665410124038267e-01 -9.0426984455291919e+00  5.3515447098585883e-02 -9.9722053471523864e+01
5.900000000000000e-02  5.4404744235093318e-02 -9.9874878451176926e+01  9.9657828727285025e-01 -9.1972544009027093e+00  9.9657828727285036e-01 -9.1972544009027093e+00  5.4404744235093304e-02 -9.9874878451177054e+01
6.000000000000000e-02  5.5293304557281236e-02 -1.0002771676491564e+02  9.9650176149890857e-01 -9.3517816933308691e+00  9.9650176149890834e-01 -9.3517816933308691e+00  5.5293304557281243e-02 -1.0002771676491557e+02
6.100000000000001e-02  5.6181132395685271e-02 -1.0018056684715134e+02  9.9642452447723218e-01 -9.5062805246302329e+00  9.9642452447723229e-01 -9.5062805246302382e+00  5.6181132395685257e-02 -1.0018056684715128e+02
6.200000000000001e-02  5.7068231843804905e-02 -1.0033342722292966e+02  9.9634657680570160e-01 -9.6607510863929456e+00  9.9634657680570149e-01 -9.6607510863929456e+00  5.7068231843804905e-02 -1.0033342722292964e+02
6.300000000000000e-02  5.7954606770116039e-02 -1.0048629650117407e+02  9.9626791911927626e-01 -9.8151935604992175e+00  9.9626791911927637e-01 -9.8151935604992175e+00  5.7954606770116053e-02 -1.0048629650117395e+02
6.400000000000000e-02  5.8840260829316433e-02 -1.0063917336853794e+02  9.9618855208806378e-01 -9.9696081195972237e+00  9.9618855208806356e-01 -9.9696081195972237e+00  5.8840260829316426e-02 -1.0063917336853787e+02
6.500000000000000e-02  5.9725197472870133e-02 -1.0079205658378454e+02  9.9610847641550015e-01 -1.0123994927552982e+01  9.9610847641550027e-01 -1.0123994927552980e+01  5.9725197472870105e-02 -1.0079205658378449e+02
6.600000000000000e-02  6.0609419958897931e-02 -1.0094494497265377e+02  9.9602769283668802e-01 -1.0278354139872508e+01  9.9602769283668824e-01 -1.0278354139872508e+01  6.0609419958897966e-02 -1.0094494497265384e+02
6.700000000000002e-02  6.1492931361469827e-02 -1.0109783742315457e+02  9.9594620211684126e-01 -1.0432685904098346e+01  9.9594620211684115e-01 -1.0432685904098346e+01  6.1492931361469820e-02 -1.0109783742315453e+02
6.800000000000000e-02  6.2375734579339037e-02 -1.0125073288125769e+02  9.9586400504983452e-01 -1.0586990360182456e+01  9.9586400504983474e-01 -1.0586990360182456e+01  6.2375734579339051e-02 -1.0125073288125768e+02
6.900000000000001e-02  6.3257832344162809e-02 -1.0140363034693651e+02  9.9578110245685703e-01 -1.0741267640837069e+01  9.9578110245685725e-01 -1.0741267640837069e+01  6.3257832344162795e-02 -1.0140363034693631e+02
7.000000000000001e-02  6.4139227228244250e-02 -1.0155652887052781e+02  9.9569749518517447e-01 -1.0895517871865286e+01  9.9569749518517470e-01 -1.0895517871865289e+01  6.4139227228244250e-02 -1.0155652887052784e+02
7.100000000000001e-02  6.5019921651830473e-02 -1.0170942754939041e+02  9.9561318410694444e-01 -1.1049741172472602e+01  9.9561318410694444e-01 -1.1049741172472606e+01  6.5019921651830459e-02 -1.0170942754939034e+02
7.200000000000001e-02  6.5899917890000728e-02 -1.0186232552481809e+02  9.9552817011813266e-01 -1.1203937655561127e+01  9.9552817011813233e-01 -1.1203937655561122e+01  6.5899917890000728e-02 -1.0186232552481806e+02
7.300000000000001e-02  6.6779218079166980e-02 -1.0201522197919697e+02  9.9544245413748877e-01 -1.1358107428007184e+01  9.9544245413748889e-01 -1.1358107428007182e+01  6.6779218079167021e-02 -1.0201522197919688e+02
7.400000000000001e-02  6.7657824223222876e-02 -1.0216811613338224e+02  9.9535603710560805e-01 -1.1512250590923809e+01  9.9535603710560805e-01 -1.1512250590923811e+01  6.7657824223222876e-02 -1.0216811613338228e+02
7.500000000000001e-02  6.8535738199352145e-02 -1.0232100724426901e+02  9.9526891998400946e-01 -1.1666367239909128e+01  9.9526891998400946e-01 -1.1666367239909128e+01  6.8535738199352172e-02 -1.0232100724426898e+02
7.600000000000000e-02  6.9412961763534217e-02 -1.0247389460255079e+02  9.9518110375432633e-01 -1.1820457465281311e+01  9.9518110375432611e-01 -1.1820457465281310e+01  6.9412961763534231e-02 -1.0247389460255071e+02
7.700000000000000e-02  7.0289496555754366e-02 -1.0262677753063954e+02  9.9509258941750323e-01 -1.1974521352301251e+01  9.9509258941750334e-01 -1.1974521352301256e+01  7.0289496555754435e-02 -1.0262677753063947e+02
7.800000000000000e-02  7.1165344104943073e-02 -1.0277965538073704e+02  9.9500337799306637e-01 -1.2128558981383707e+01  9.9500337799306593e-01 -1.2128558981383705e+01  7.1165344104943087e-02 -1.0277965538073705e+02
7.900000000000000e-02  7.2040505833663393e-02 -1.0293252753305060e+02  9.9491347051842782e-01 -1.2282570428297500e+01  9.9491347051842727e-01 -1.2282570428297493e+01  7.2040505833663379e-02 -1.0293252753305060e+02
8.000000000000000e-02  7.2914983062559002e-02 -1.0308539339412944e+02  9.9482286804823084e-01 -1.2436555764355665e+01  9.9482286804823072e-01 -1.2436555764355663e+01  7.2914983062559002e-02 -1.0308539339412940e+02
8.100000000000000e-02  7.3788777014578727e-02 -1.0323825239532019e+02  9.9473157165373682e-01 -1.2590515056596111e+01  9.9473157165373660e-01 -1.2590515056596107e+01  7.3788777014578713e-02 -1.0323825239532022e+02
8.200000000000000e-02  7.4661888818993175e-02 -1.0339110399133558e+02  9.9463958242224859e-01 -1.2744448367953215e+01  9.9463958242224892e-01 -1.2744448367953213e+01  7.4661888818993175e-02 -1.0339110399133563e+02
8.300000000000000e-02  7.5534319515214790e-02 -1.0354394765891010e+02  9.9454690145655655e-01 -1.2898355757421218e+01  9.9454690145655644e-01 -1.2898355757421212e+01  7.5534319515214707e-02 -1.0354394765891010e+02
8.400000000000001e-02  7.6406070056432893e-02 -1.0369678289556070e+02  9.9445352987443758e-01 -1.3052237280209605e+01  9.9445352987443780e-01 -1.3052237280209603e+01  7.6406070056432976e-02 -1.0369678289556067e+02
8.500000000000001e-02  7.7277141313073477e-02 -1.0384960921841873e+02  9.9435946880814174e-01 -1.3206092987891211e+01  9.9435946880814141e-01 -1.3206092987891207e+01  7.7277141313073394e-02 -1.0384960921841866e+02
8.600000000000001e-02  7.8147534076100769e-02 -1.0400242616314694e+02  9.9426471940396455e-01 -1.3359922928543257e+01  9.9426471940396466e-01 -1.3359922928543257e+01  7.8147534076100769e-02 -1.0400242616314701e+02
8.700000000000001e-02  7.9017249060159028e-02 -1.0415523328292690e+02  9.9416928282178296e-01 -1.3513727146881878e+01  9.9416928282178296e-01 -1.3513727146881878e+01  7.9017249060159042e-02 -1.0415523328292697e+02
8.800000000000001e-02  7.9886286906572984e-02 -1.0430803014751019e+02  9.9407316023465353e-01 -1.3667505684390433e+01  9.9407316023465375e-01 -1.3667505684390436e+01  7.9886286906573012e-02 -1.0430803014751022e+02
8.900000000000001e-02  8.0754648186211045e-02 -1.0446081634233025e+02  9.9397635282842356e-01 -1.3821258579442041e+01  9.9397635282842356e-01 -1.3821258579442040e+01  8.0754648186211003e-02 -1.0446081634233023e+02
9.000000000000001e-02  8.1622333402217959e-02 -1.0461359146767494e+02  9.9387886180135221e-01 -1.3974985867416567e+01  9.9387886180135232e-01 -1.3974985867416564e+01  8.1622333402217931e-02 -1.0461359146767488e+02
9.100000000000001e-02  8.2489342992628251e-02 -1.0476635513790829e+02  9.9378068836375943e-01 -1.4128687580812409e+01  9.9378068836375932e-01 -1.4128687580812409e+01  8.2489342992628278e-02 -1.0476635513790819e+02
9.200000000000001e-02  8.3355677332862144e-02 -1.0491910698073936e+02  9.9368183373769392e-01 -1.4282363749353390e+01  9.9368183373769359e-01 -1.4282363749353388e+01  8.3355677332862102e-02 -1.0491910698073930e+02
9.300000000000000e-02  8.4221336738114091e-02 -1.0507184663654058e+02  9.9358229915661100e-01 -1.4436014400091025e+01  9.9358229915661067e-01 -1.4436014400091031e+01  8.4221336738114091e-02 -1.0507184663654053e+02
