# GHz S MA R 50

1.000000000000000e-02  2.0238148533844483e-03 -9.2288689726976344e+01  3.6487449036576068e-03  8.7255989152852607e+01  9.9953104051468833e-01 -1.3886257376271394e+00  6.1246554838076525e-04 -8.6768933085374798e+01
                         3.6487449036576116e-03  8.7255989152852607e+01  2.0238148533844504e-03 -9.2288689726976344e+01  6.1246554838076546e-04 -8.6768933085374798e+01  9.9953104051468866e-01 -1.3886257376271374e+00
                         9.9953104051468855e-01 -1.3886257376301867e+00  6.1246554838076481e-04 -8.6768933085377839e+01  2.0238148533313675e-03 -9.2288689727037621e+01  3.6487449036576489e-03  8.7255989152901535e+01
                         6.1246554838076633e-04 -8.6768933085377853e+01  9.9953104051468877e-01 -1.3886257376301858e+00  3.6487449036576476e-03  8.7255989152901535e+01  2.0238148533313701e-03 -9.2288689727037621e+01
2.000000000000000e-02  4.0480977026298342e-03 -9.3568910486920998e+01  7.2955449294048909e-03  8.6193974114100783e+01  9.9921880932201435e-01 -2.7773049713240674e+00  1.2265651848032131e-03 -8.8033946981829885e+01
                         7.2955449294048848e-03  8.6193974114100783e+01  4.0480977026298307e-03 -9.3568910486920998e+01  1.2265651848032155e-03 -8.8033946981829885e+01  9.9921880932201401e-01 -2.7773049713240683e+00
                         9.9921880932201435e-01 -2.7773049713257572e+00  1.2265651848032161e-03 -8.8033946981831562e+01  4.0480977026004861e-03 -9.3568910486906347e+01  7.2955449294051346e-03  8.6193974114195342e+01
                         1.2265651848032122e-03 -8.8033946981831562e+01  9.9921880932201412e-01 -2.7773049713257594e+00  7.2955449294051416e-03  8.6193974114195356e+01  4.0480977026004835e-03 -9.3568910486906347e+01
3.000000000000000e-02  6.0735648750712109e-03 -9.4932336514866350e+01  1.0939860215039373e-02  8.4993781998136512e+01  9.9893166006894618e-01 -4.1660669588456365e+00  1.8454050382890259e-03 -8.8596107260191815e+01
                         1.0939860215039374e-02  8.4993781998136512e+01  6.0735648750712065e-03 -9.4932336514866350e+01  1.8454050382890239e-03 -8.8596107260191815e+01  9.9893166006894674e-01 -4.1660669588456365e+00
                         9.9893166006894663e-01 -4.1660669588454775e+00  1.8454050382890239e-03 -8.8596107260191658e+01  6.0735648750737184e-03 -9.4932336514836777e+01  1.0939860215039940e-02  8.4993781998287133e+01
                         1.8454050382890256e-03 -8.8596107260191687e+01  9.9893166006894685e-01 -4.1660669588454766e+00  1.0939860215039940e-02  8.4993781998287105e+01  6.0735648750737227e-03 -9.4932336514836791e+01
4.000000000000000e-02  8.1006465913285967e-03 -9.6321312483115861e+01  1.4580311830297834e-02  8.3748880881107027e+01  9.9865705958562634e-01 -5.5549412860217400e+00  2.4709669146940972e-03 -8.8942721940533232e+01
                         1.4580311830297834e-02  8.3748880881107027e+01  8.1006465913285881e-03 -9.6321312483115832e+01  2.4709669146940985e-03 -8.8942721940533261e+01  9.9865705958562545e-01 -5.5549412860217311e+00
                         9.9865705958562623e-01 -5.5549412860219194e+00  2.4709669146940963e-03 -8.8942721940533403e+01  8.1006465913250492e-03 -9.6321312483075431e+01  1.4580311830298903e-02  8.3748880881307599e+01
                         2.4709669146941006e-03 -8.8942721940533403e+01  9.9865705958562567e-01 -5.5549412860219087e+00  1.4580311830298896e-02  8.3748880881307571e+01  8.1006465913250440e-03 -9.6321312483075403e+01
5.000000000000000e-02  1.0129760349071978e-02 -9.7720881878781071e+01  1.8215420352700233e-02  8.2482574787383086e+01  9.9839014011421290e-01 -6.9439577969182498e+00  3.1052930835868569e-03 -8.9199393979610903e+01
                         1.8215420352700237e-02  8.2482574787383072e+01  1.0129760349071985e-02 -9.7720881878781086e+01  3.1052930835868612e-03 -8.9199393979610903e+01  9.9839014011421323e-01 -6.9439577969182489e+00
                         9.9839014011421146e-01 -6.9439577969184887e+00  3.1052930835868534e-03 -8.9199393979611131e+01  1.0129760349067089e-02 -9.7720881878742262e+01  1.8215420352702363e-02  8.2482574787629403e+01
                         3.1052930835868578e-03 -8.9199393979611131e+01  9.9839014011421223e-01 -6.9439577969184940e+00  1.8215420352702367e-02  8.2482574787629403e+01  1.0129760349067101e-02 -9.7720881878742262e+01
6.000000000000000e-02  1.2161348152112506e-02 -9.9124926302092277e+01  2.1843625891368422e-02  8.1203708329972571e+01  9.9812839733445047e-01 -8.3331467451050312e+00  3.7504275700931265e-03 -8.9416876532138176e+01
                         2.1843625891368415e-02  8.1203708329972571e+01  1.2161348152112500e-02 -9.9124926302092277e+01  3.7504275700931304e-03 -8.9416876532138147e+01  9.9812839733445002e-01 -8.3331467451050312e+00
                         9.9812839733445047e-01 -8.3331467451049992e+00  3.7504275700931356e-03 -8.9416876532138119e+01  1.2161348152111168e-02 -9.9124926302042198e+01  2.1843625891371923e-02  8.1203708330269222e+01
                         3.7504275700931304e-03 -8.9416876532138176e+01  9.9812839733445013e-01 -8.3331467451050045e+00  2.1843625891371937e-02  8.1203708330269237e+01  1.2161348152111161e-02 -9.9124926302042169e+01
7.000000000000001e-02  1.4195896563650721e-02 -1.0053025258156717e+02  2.5463287911228372e-02  7.9916404081177120e+01  9.9787033783289925e-01 -9.7225389464720866e+00  4.4083925201611925e-03 -8.9621249299106026e+01
                         2.5463287911228347e-02  7.9916404081177092e+01  1.4195896563650702e-02 -1.0053025258156718e+02  4.4083925201611942e-03 -8.9621249299105997e+01  9.9787033783289902e-01 -9.7225389464720937e+00
                         9.9787033783290058e-01 -9.7225389464720191e+00  4.4083925201611951e-03 -8.9621249299105969e+01  1.4195896563648787e-02 -1.0053025258150409e+02  2.5463287911233371e-02  7.9916404081523922e+01
                         4.4083925201611968e-03 -8.9621249299105969e+01  9.9787033783290013e-01 -9.7225389464720315e+00  2.5463287911233368e-02  7.9916404081523936e+01  1.4195896563648785e-02 -1.0053025258150407e+02
8.000000000000000e-02  1.6233950925247449e-02 -1.0193491347249662e+02  2.9072680623803256e-02  7.8622835942031458e+01  9.9761498298591944e-01 -1.1112165918052550e+01  5.0811742162233404e-03 -8.9828182638516992e+01
                         2.9072680623803263e-02  7.8622835942031472e+01  1.6233950925247456e-02 -1.0193491347249666e+02  5.0811742162233517e-03 -8.9828182638516950e+01  9.9761498298591955e-01 -1.1112165918052559e+01
                         9.9761498298591877e-01 -1.1112165918052915e+01  5.0811742162233456e-03 -8.9828182638517333e+01  1.6233950925237214e-02 -1.0193491347244024e+02  2.9072680623810274e-02  7.8622835942426249e+01
                         5.0811742162233386e-03 -8.9828182638517347e+01  9.9761498298591877e-01 -1.1112165918052922e+01  2.9072680623810295e-02  7.8622835942426249e+01  1.6233950925237214e-02 -1.0193491347244026e+02
9.000000000000001e-02  1.8276126520247675e-02 -1.0333759274560515e+02  3.2669987632562368e-02  7.7324250707750181e+01  9.9736164623546231e-01 -1.2502059999302739e+01  5.7707130211903830e-03 -9.0048169204756221e+01
                         3.2669987632562361e-02  7.7324250707750139e+01  1.8276126520247672e-02 -1.0333759274560516e+02  5.7707130211903882e-03 -9.0048169204756249e+01  9.9736164623546264e-01 -1.2502059999302736e+01
                         9.9736164623546175e-01 -1.2502059999302858e+01  5.7707130211903926e-03 -9.0048169204756363e+01  1.8276126520239334e-02 -1.0333759274553765e+02  3.2669987632572138e-02  7.7324250708193858e+01
                         5.7707130211903813e-03 -9.0048169204756363e+01  9.9736164623546231e-01 -1.2502059999302862e+01  3.2669987632572138e-02  7.7324250708193858e+01  1.8276126520239366e-02 -1.0333759274553765e+02
1.000000000000000e-01  2.0323117599138164e-02 -1.0473734070181207e+02  3.6253297088405398e-02  7.6021411820978486e+01  9.9710981864775161e-01 -1.3892254454356429e+01  6.4788954306908599e-03 -9.0288781664974678e+01
                         3.6253297088405412e-02  7.6021411820978486e+01  2.0323117599138192e-02 -1.0473734070181207e+02  6.4788954306908633e-03 -9.0288781664974678e+01  9.9710981864775194e-01 -1.3892254454356413e+01
                         9.9710981864775272e-01 -1.3892254454356406e+01  6.4788954306908711e-03 -9.0288781664974621e+01  2.0323117599129584e-02 -1.0473734070173909e+02  3.6253297088418436e-02  7.6021411821470750e+01
                         6.4788954306908746e-03 -9.0288781664974636e+01  9.9710981864775350e-01 -1.3892254454356390e+01  3.6253297088418436e-02  7.6021411821470750e+01  2.0323117599129643e-02 -1.0473734070173906e+02
1.100000000000000e-01  2.2375704626608241e-02 -1.0613344684384084e+02  3.9820597875604047e-02  7.4714815882657078e+01  9.9685910391378652e-01 -1.5282783554443837e+01  7.2075475322391823e-03 -9.0555766129406280e+01
                         3.9820597875604047e-02  7.4714815882657078e+01  2.2375704626608241e-02 -1.0613344684384087e+02  7.2075475322391771e-03 -9.0555766129406223e+01  9.9685910391378674e-01 -1.5282783554443846e+01
                         9.9685910391378685e-01 -1.5282783554443652e+01  7.2075475322391841e-03 -9.0555766129406095e+01  2.2375704626599432e-02 -1.0613344684376591e+02  3.9820597875620999e-02  7.4714815883197687e+01
                         7.2075475322391849e-03 -9.0555766129406052e+01  9.9685910391378718e-01 -1.5282783554443643e+01  3.9820597875620999e-02  7.4714815883197630e+01  2.2375704626599421e-02 -1.0613344684376591e+02
1.200000000000000e-01  2.4434759915295631e-02 -1.0752537309695252e+02  4.3369777057409541e-02  7.3404807796561286e+01  9.9660917835936624e-01 -1.6673682640064385e+01  7.9584295618550498e-03 -9.0853620936979951e+01
                         4.3369777057409534e-02  7.3404807796561286e+01  2.4434759915295649e-02 -1.0752537309695253e+02  7.9584295618550325e-03 -9.0853620936979908e+01  9.9660917835936624e-01 -1.6673682640064378e+01
                         9.9660917835936613e-01 -1.6673682640064236e+01  7.9584295618550308e-03 -9.0853620936979794e+01  2.4434759915282506e-02 -1.0752537309687624e+02  4.3369777057431093e-02  7.3404807797149616e+01
                         7.9584295618550394e-03 -9.0853620936979823e+01  9.9660917835936613e-01 -1.6673682640064243e+01  4.3369777057431086e-02  7.3404807797149616e+01  2.4434759915282475e-02 -1.0752537309687627e+02
1.300000000000000e-01  2.6501251745163070e-02 -1.0891271617385695e+02  4.6898618668074959e-02  7.2091646140202002e+01  9.9635976463672182e-01 -1.8064988162852053e+01  8.7332314020612395e-03 -9.1185926743912319e+01
                         4.6898618668074932e-02  7.2091646140202045e+01  2.6501251745163108e-02 -1.0891271617385698e+02  8.7332314020612256e-03 -9.1185926743912319e+01  9.9635976463672260e-01 -1.8064988162852057e+01
                         9.9635976463672149e-01 -1.8064988162851975e+01  8.7332314020612135e-03 -9.1185926743912276e+01  2.6501251745144967e-02 -1.0891271617377387e+02  4.6898618668101258e-02  7.2091646140837014e+01
                         8.7332314020612273e-03 -9.1185926743912304e+01  9.9635976463672193e-01 -1.8064988162851979e+01  4.6898618668101244e-02  7.2091646140837000e+01  2.6501251745144980e-02 -1.0891271617377390e+02
1.400000000000000e-01  2.8576247046655290e-02 -1.1029518485910344e+02  5.0404803854201784e-02  7.0775542150568512e+01  9.9611061338785323e-01 -1.9456737707383837e+01  9.5335689278174436e-03 -9.1555548062543309e+01
                         5.0404803854201770e-02  7.0775542150568498e+01  2.8576247046655331e-02 -1.1029518485910349e+02  9.5335689278174280e-03 -9.1555548062543295e+01  9.9611061338785400e-01 -1.9456737707383827e+01
                         9.9611061338785256e-01 -1.9456737707383674e+01  9.5335689278174124e-03 -9.1555548062543124e+01  2.8576247046633918e-02 -1.1029518485902199e+02  5.0404803854233779e-02  7.0775542151250178e+01
                         9.5335689278174211e-03 -9.1555548062543167e+01  9.9611061338785323e-01 -1.9456737707383652e+01  5.0404803854233793e-02  7.0775542151250178e+01  2.8576247046633939e-02 -1.1029518485902197e+02
1.500000000000000e-01  3.0660912729201108e-02 -1.1167258525123698e+02  5.3885912313629436e-02  6.9456683812667222e+01  9.9586148980650457e-01 -2.0848969993459100e+01  1.0360981131632373e-02 -9.1964764802189379e+01
                         5.3885912313629429e-02  6.9456683812667251e+01  3.0660912729201076e-02 -1.1167258525123698e+02  1.0360981131632366e-02 -9.1964764802189492e+01  9.9586148980650413e-01 -2.0848969993459100e+01
                         9.9586148980650468e-01 -2.0848969993458631e+01  1.0360981131632382e-02 -9.1964764802188967e+01  3.0660912729178241e-02 -1.1167258525115240e+02  5.3885912313668370e-02  6.9456683813395898e+01
                         1.0360981131632370e-02 -9.1964764802188924e+01  9.9586148980650446e-01 -2.0848969993458631e+01  5.3885912313668349e-02  6.9456683813395884e+01  3.0660912729178248e-02 -1.1167258525115234e+02
1.600000000000000e-01  3.2756515745610205e-02 -1.1304481034395242e+02  5.7339424941362453e-02  6.8135251079744563e+01  9.9561216335564728e-01 -2.2241724859617378e+01  1.1216927967199138e-02 -9.2415364065687754e+01
                         5.7339424941362460e-02  6.8135251079744577e+01  3.2756515745610226e-02 -1.1304481034395246e+02  1.1216927967199130e-02 -9.2415364065687783e+01  9.9561216335564728e-01 -2.2241724859617374e+01
                         9.9561216335564662e-01 -2.2241724859617275e+01  1.1216927967199119e-02 -9.2415364065687683e+01  3.2756515745577051e-02 -1.1304481034386869e+02  5.7339424941408514e-02  6.8135251080518572e+01
                         1.1216927967199128e-02 -9.2415364065687641e+01  9.9561216335564695e-01 -2.2241724859617275e+01  5.7339424941408521e-02  6.8135251080518586e+01  3.2756515745577051e-02 -1.1304481034386869e+02
1.700000000000000e-01  3.4864421995889405e-02 -1.1441183197823399e+02  6.0762727564999536e-02  6.6811425573548604e+01  9.9536239960813666e-01 -2.3635043228859328e+01  1.2102788851968698e-02 -9.2908708544927123e+01
                         6.0762727564999529e-02  6.6811425573548618e+01  3.4864421995889405e-02 -1.1441183197823399e+02  1.2102788851968702e-02 -9.2908708544927137e+01  9.9536239960813699e-01 -2.3635043228859306e+01
                         9.9536239960813622e-01 -2.3635043228859331e+01  1.2102788851968685e-02 -9.2908708544927109e+01  3.4864421995848771e-02 -1.1441183197815451e+02  6.0762727565053132e-02  6.6811425574367675e+01
                         1.2102788851968685e-02 -9.2908708544927137e+01  9.9536239960813622e-01 -2.3635043228859303e+01  6.0762727565053097e-02  6.6811425574367661e+01  3.4864421995848827e-02 -1.1441183197815441e+02
1.800000000000000e-01  3.6986094185884090e-02 -1.1577369406210613e+02  6.4153115633842628e-02  6.5485396719838306e+01  9.9511195357670545e-01 -2.5028967057682230e+01  1.3019861767701936e-02 -9.3445790635307162e+01
                         6.4153115633842669e-02  6.5485396719838278e+01  3.6986094185884083e-02 -1.1577369406210619e+02  1.3019861767701930e-02 -9.3445790635307205e+01  9.9511195357670557e-01 -2.5028967057682248e+01
                         9.9511195357670523e-01 -2.5028967057682205e+01  1.3019861767701934e-02 -9.3445790635307119e+01  3.6986094185836753e-02 -1.1577369406202807e+02  6.4153115633904856e-02  6.5485396720702141e+01
                         1.3019861767701932e-02 -9.3445790635307091e+01  9.9511195357670490e-01 -2.5028967057682216e+01  6.4153115633904856e-02  6.5485396720702127e+01  3.6986094185836725e-02 -1.1577369406202807e+02
1.900000000000000e-01  3.9123088765608986e-02 -1.1713050643149354e+02  6.7507799715212605e-02  6.4157365514158755e+01  9.9486056413190882e-01 -2.6423539269664982e+01  1.3969362896413633e-02 -9.4027277470830896e+01
                         6.7507799715212646e-02  6.4157365514158727e+01  3.9123088765609007e-02 -1.1713050643149353e+02  1.3969362896413599e-02 -9.4027277470830853e+01  9.9486056413190904e-01 -2.6423539269664964e+01
                         9.9486056413190826e-01 -2.6423539269665099e+01  1.3969362896413602e-02 -9.4027277470831010e+01  3.9123088765553017e-02 -1.1713050643141925e+02  6.7507799715283395e-02  6.4157365515066516e+01
                         1.3969362896413637e-02 -9.4027277470831066e+01  9.9486056413190871e-01 -2.6423539269665092e+01  6.7507799715283423e-02  6.4157365515066545e+01  3.9123088765553010e-02 -1.1713050643141924e+02
2.000000000000000e-01  4.1277052078685941e-02 -1.1848243900038447e+02  7.0823911647375365e-02  6.2827546680095736e+01  9.9460794924678675e-01 -2.7818803674909216e+01  1.4952426728346386e-02 -9.4653549883938666e+01
                         7.0823911647375434e-02  6.2827546680095736e+01  4.1277052078685934e-02 -1.1848243900038447e+02  1.4952426728346393e-02 -9.4653549883938609e+01  9.9460794924678664e-01 -2.7818803674909233e+01
                         9.9460794924678708e-01 -2.7818803674909592e+01  1.4952426728346414e-02 -9.4653549883938993e+01  4.1277052078620272e-02 -1.1848243900031444e+02  7.0823911647455398e-02  6.2827546681047508e+01
                         1.4952426728346398e-02 -9.4653549883938965e+01  9.9460794924678742e-01 -2.7818803674909567e+01  7.0823911647455370e-02  6.2827546681047501e+01  4.1277052078620272e-02 -1.1848243900031441e+02
2.100000000000000e-01  4.3449715857281267e-02 -1.1982971601247223e+02  7.4098511200192840e-02  6.1496169725986668e+01  9.9435380189380740e-01 -2.9214804876695251e+01  1.5970106579107000e-02 -9.5324737033096667e+01
                         7.4098511200192840e-02  6.1496169725986640e+01  4.3449715857281239e-02 -1.1982971601247228e+02  1.5970106579107017e-02 -9.5324737033096667e+01  9.9435380189380718e-01 -2.9214804876695307e+01
                         9.9435380189380795e-01 -2.9214804876695176e+01  1.5970106579107038e-02 -9.5324737033096582e+01  4.3449715857211253e-02 -1.1982971601240986e+02  7.4098511200283546e-02  6.1496169726982586e+01
                         1.5970106579107038e-02 -9.5324737033096639e+01  9.9435380189380784e-01 -2.9214804876695215e+01  7.4098511200283629e-02  6.1496169726982572e+01  4.3449715857211170e-02 -1.1982971601240993e+02
2.200000000000000e-01  4.5642892195903159e-02 -1.2117261030723867e+02  7.7328593101161316e-02  6.0163479248802680e+01  9.9409778647474312e-01 -3.0611588166735515e+01  1.7023375454915873e-02 -9.6040747708317667e+01
                         7.7328593101161275e-02  6.0163479248802652e+01  4.5642892195903194e-02 -1.2117261030723867e+02  1.7023375454915859e-02 -9.6040747708317667e+01  9.9409778647474301e-01 -3.0611588166735480e+01
                         9.9409778647474190e-01 -3.0611588166735491e+01  1.7023375454915838e-02 -9.6040747708317653e+01  4.5642892195822869e-02 -1.2117261030718356e+02  7.7328593101262694e-02  6.0163479249841060e+01
                         1.7023375454915869e-02 -9.6040747708317653e+01  9.9409778647474223e-01 -3.0611588166735480e+01  7.7328593101262721e-02  6.0163479249841089e+01  4.5642892195822883e-02 -1.2117261030718356e+02
2.300000000000000e-01  4.7858468133202846e-02 -1.2251143757614504e+02  8.0511094295296529e-02  5.8829734733854892e+01  9.9383953569955363e-01 -3.2009199410419278e+01  1.8113127207930006e-02 -9.6801298898964973e+01
                         8.0511094295296529e-02  5.8829734733854892e+01  4.7858468133202874e-02 -1.2251143757614510e+02  1.8113127207930031e-02 -9.6801298898965001e+01  9.9383953569955386e-01 -3.2009199410419271e+01
                         9.9383953569955419e-01 -3.2009199410419306e+01  1.8113127207930027e-02 -9.6801298898965015e+01  4.7858468133113397e-02 -1.2251143757609877e+02  8.0511094295408855e-02  5.8829734734935833e+01
                         1.8113127207930013e-02 -9.6801298898964959e+01  9.9383953569955474e-01 -3.2009199410419292e+01  8.0511094295408925e-02  5.8829734734935805e+01  4.7858468133113410e-02 -1.2251143757609877e+02
