# GHz S MA R 50

1.000000000000000e-02  7.5491714208591725e-03 -9.5197703728696538e+01  9.9765715939985677e-01 -1.6719583022614153e+00  9.9892986669152861e-01 -1.6506995425926516e+00  7.4433460568306192e-03 -9.5134960077578981e+01
2.000000000000000e-02  1.5124746147417224e-02 -9.6396618640899135e+01  1.0001930493092359e+00 -3.1411854410382340e+00  1.0004795116821161e+00 -3.1526243316120359e+00  1.7257682423543190e-02 -9.6572392483359096e+01
3.000000000000000e-02  2.5440298522028906e-02 -9.8031544984753850e+01  9.9856229527872387e-01 -4.6509436048324373e+00  1.0000976319599977e+00 -4.6546846456321198e+00  2.5759233175814775e-02 -9.7998168898222019e+01
4.000000000000000e-02  3.3572453128795920e-02 -9.9360925585254208e+01  9.9833568171172138e-01 -5.9975123523002960e+00  9.9902679183638765e-01 -6.0075365362950954e+00  3.3710075925714060e-02 -9.9285953884810326e+01
5.000000000000000e-02  4.2239437874872755e-02 -1.0098893316731788e+02  9.9809692041160591e-01 -7.7600459519856049e+00  9.9761677224200851e-01 -7.7823215850998508e+00  4.0217681905890160e-02 -1.0113957029777286e+02
6.000000000000000e-02  5.0714043804483543e-02 -1.0208203547325164e+02  9.9546260637313111e-01 -8.9186953857055276e+00  9.9910813283577060e-01 -8.8903357467434709e+00  5.0066961731630152e-02 -1.0221247114634222e+02
7.000000000000001e-02  5.6012541595391437e-02 -1.0392693278207348e+02  9.9552294194834734e-01 -1.0663692675762809e+01  9.9680305374939671e-01 -1.0660070435455106e+01  5.3754397162427379e-02 -1.0392213290895486e+02
8.000000000000000e-02  6.2864658906293086e-02 -1.0536433004942785e+02  9.9223338837298958e-01 -1.2091516118040593e+01  9.9354111115549204e-01 -1.2092029131268870e+01  6.4463487823252216e-02 -1.0535862843256638e+02
9.000000000000001e-02  7.1611036834137401e-02 -1.0685302706200122e+02  9.9461144317294625e-01 -1.3608081831465311e+01  9.9309352407806639e-01 -1.3623690752624253e+01  7.1520476685857884e-02 -1.0689318156913964e+02
1.000000000000000e-01  7.9364732148038256e-02 -1.0849919977145265e+02  9.9451543337258119e-01 -1.5255162345593815e+01  9.9237250850756109e-01 -1.5249028816765836e+01  7.9091941154893430e-02 -1.0844918156989307e+02
1.100000000000000e-01  8.7069113986128460e-02 -1.0979296088602864e+02  9.9230582229072817e-01 -1.6566051282533710e+01  9.9283831138507506e-01 -1.6551227147956467e+01  8.8675040749659290e-02 -1.0979351163349946e+02
1.200000000000000e-01  9.4811120847503677e-02 -1.1126988268789695e+02  9.8983094200194588e-01 -1.8164348288378179e+01  9.9145040752431768e-01 -1.8159050941595769e+01  9.4450967021505225e-02 -1.1144213554859850e+02
1.300000000000000e-01  9.9175912978247072e-02 -1.1293356487593672e+02  9.8744214792424589e-01 -1.9665656789720256e+01  9.8843724791597631e-01 -1.9671192260846496e+01  1.0068986683222785e-01 -1.1279847821513387e+02
1.400000000000000e-01  1.0927845858251460e-01 -1.1438464015655003e+02  9.9127884059535254e-01 -2.1183049615417890e+01  9.9032110880651958e-01 -2.1178493634394204e+01  1.0872523611568699e-01 -1.1432906053474385e+02
1.500000000000000e-01  1.1563408661562519e-01 -1.1601954859297921e+02  9.8843035054270589e-01 -2.2695322592058574e+01  9.8789353790156964e-01 -2.2698704331197877e+01  1.1668745759548520e-01 -1.1565520709005655e+02
1.600000000000000e-01  1.2338447187741491e-01 -1.1723704793151985e+02  9.8846908726380012e-01 -2.4176295128098033e+01  9.8725781581273309e-01 -2.4173565367468033e+01  1.2276186014618212e-01 -1.1736206720411867e+02
1.700000000000000e-01  1.3121282759015704e-01 -1.1865535746801626e+02  9.8466350671621916e-01 -2.5577192294397172e+01  9.8497256994423243e-01 -2.5588550379065214e+01  1.3200146488953379e-01 -1.1871591116367489e+02
1.800000000000000e-01  1.3565796848595640e-01 -1.2014057624798085e+02  9.8680320295165858e-01 -2.7114796074047234e+01  9.8456190566737145e-01 -2.7112413702290755e+01  1.3854293799526959e-01 -1.2021805269822548e+02
1.900000000000000e-01  1.4476937168464457e-01 -1.2167487042755432e+02  9.8482600111191976e-01 -2.8605543546528597e+01  9.8304636009165625e-01 -2.8625472086604383e+01  1.4559308695903445e-01 -1.2161639069024280e+02
2.000000000000000e-01  1.5101868186620837e-01 -1.2296599561581256e+02  9.7814700569254798e-01 -3.0025219851315686e+01  9.8142492619956723e-01 -3.0051042810908466e+01  1.5230843353994311e-01 -1.2314475551250830e+02
2.100000000000000e-01  1.5778175644981488e-01 -1.2458849104050826e+02  9.8082367897002398e-01 -3.1651591875347286e+01  9.7994101857484595e-01 -3.1645764331971449e+01  1.6092499691125428e-01 -1.2467410642102357e+02
2.200000000000000e-01  1.6744666129927815e-01 -1.2582381650704488e+02  9.7885107511493541e-01 -3.3010118365581626e+01  9.7960462860277220e-01 -3.2986744095330202e+01  1.6632036001206987e-01 -1.2608899598116568e+02
2.300000000000000e-01  1.7200727073519254e-01 -1.2730702087393787e+02  9.7820502446914148e-01 -3.4428966163922105e+01  9.7765973650550686e-01 -3.4419304177597702e+01  1.6931218103429790e-01 -1.2738866442023391e+02
2.400000000000000e-01  1.7905569210627806e-01 -1.2874071492113771e+02  9.7779417648366684e-01 -3.5866710704078621e+01  9.7607987172208255e-01 -3.5887393130816285e+01  1.7794310225775012e-01 -1.2878719886878966e+02
2.500000000000000e-01  1.8336391737806088e-01 -1.3019020774042681e+02  9.7464718673971351e-01 -3.7431064092577898e+01  9.7503280336077081e-01 -3.7431456995394988e+01  1.8550883799021353e-01 -1.3038444312471350e+02
2.600000000000000e-01  1.9187385433673784e-01 -1.3167802231625478e+02  9.7221661265324721e-01 -3.8936561315072602e+01  9.7237474760822651e-01 -3.8932025574517425e+01  1.9048928121842346e-01 -1.3182638648522914e+02
2.700000000000000e-01  2.0028019825594803e-01 -1.3308962445100946e+02  9.7156629562238694e-01 -4.0356525072969575e+01  9.7057175410878127e-01 -4.0339259420304224e+01  1.9899936484762815e-01 -1.3314241785005089e+02
2.800000000000000e-01  2.0477255468407279e-01 -1.3467766257309651e+02  9.6984938338166193e-01 -4.1936649697993651e+01  9.6909068904595563e-01 -4.1927349668693111e+01  2.0429326941258311e-01 -1.3466383668731439e+02
2.900000000000000e-01  2.1349398248243787e-01 -1.3581710158053045e+02  9.6932953337989458e-01 -4.3225364784618641e+01  9.6726863892821180e-01 -4.3214910218094992e+01  2.1363799971410408e-01 -1.3597159490937142e+02
3.000000000000000e-01  2.1907820040643147e-01 -1.3732650976606473e+02  9.6815855017004160e-01 -4.4723444009680897e+01  9.6707198440527931e-01 -4.4718808258087250e+01  2.1884699012163408e-01 -1.3737210730533445e+02
3.100000000000000e-01  2.2535969880085172e-01 -1.3871631125605768e+02  9.6620530900695134e-01 -4.6197562118419981e+01  9.6681719348555861e-01 -4.6192808395830959e+01  2.2241605916789148e-01 -1.3883779918292200e+02
3.200000000000000e-01  2.3017457883774695e-01 -1.4018494439305911e+02  9.6391970904406310e-01 -4.7651654113342637e+01  9.6438130222066865e-01 -4.7651961507214722e+01  2.3339126504838728e-01 -1.4023877726308964e+02
3.300000000000000e-01  2.3816617611594115e-01 -1.4153213776149920e+02  9.6275312787632161e-01 -4.9176911744448269e+01  9.6215175492009586e-01 -4.9178024939020951e+01  2.3798245153806724e-01 -1.4183874118825628e+02
3.400000000000000e-01  2.4512816821923480e-01 -1.4303049222623605e+02  9.5919398140266909e-01 -5.0628649739487685e+01  9.6103339929949183e-01 -5.0637920170970027e+01  2.4458451624202271e-01 -1.4316199034016424e+02
3.500000000000000e-01  2.4965921033611668e-01 -1.4445194690411341e+02  9.6140893039423236e-01 -5.2065238653683444e+01  9.5936935780104216e-01 -5.2053881138208489e+01  2.4923281789994584e-01 -1.4448212541567167e+02
3.600000000000000e-01  2.5568755186532482e-01 -1.4579745298711018e+02  9.5608639013825070e-01 -5.3569487337402578e+01  9.5517072016663107e-01 -5.3540671506275771e+01  2.5495474231998250e-01 -1.4600640407141358e+02
3.700000000000000e-01  2.5970021521914394e-01 -1.4738708897189079e+02  9.5484028891628936e-01 -5.4995266976302837e+01  9.5739213190105354e-01 -5.4996172273685012e+01  2.6263365428278690e-01 -1.4721506338382727e+02
3.800000000000000e-01  2.6539129278126533e-01 -1.4866691146433320e+02  9.5518091442124575e-01 -5.6341773994714188e+01  9.5265068734976943e-01 -5.6327349442397491e+01  2.6845061592701541e-01 -1.4848568153508998e+02
3.900000000000000e-01  2.7560447248186287e-01 -1.5008125516298352e+02  9.5365062305697301e-01 -5.7908371045475349e+01  9.5275839105257332e-01 -5.7928996687723348e+01  2.7356996105463433e-01 -1.5016655367183847e+02
4.000000000000000e-01  2.7775838401122149e-01 -1.5121101376015187e+02  9.5090837514883808e-01 -5.9253739635084052e+01  9.5182366254629502e-01 -5.9275700462693962e+01  2.7815575175034973e-01 -1.5158172651487669e+02
4.100000000000000e-01  2.8462573654716972e-01 -1.5281002052839671e+02  9.4516845118664050e-01 -6.0743626183102165e+01  9.4633360207928396e-01 -6.0755912005778690e+01  2.8285626909233302e-01 -1.5293399153702347e+02
4.200000000000000e-01  2.9129577145937441e-01 -1.5423079318020567e+02  9.4779466783079813e-01 -6.2238082204712960e+01  9.4421646240440371e-01 -6.2225875660781519e+01  2.8937532800112009e-01 -1.5432006753010529e+02
4.300000000000000e-01  2.9700076559271205e-01 -1.5555581340006714e+02  9.4345229288971366e-01 -6.3579325417958600e+01  9.4413877126988366e-01 -6.3598667528786088e+01  2.9746605525438929e-01 -1.5562678868917982e+02
4.400000000000000e-01  3.0361369012236350e-01 -1.5694211038390324e+02  9.4395544158850964e-01 -6.5083530480983583e+01  9.4321932443964362e-01 -6.5088681520944334e+01  3.0171833869207976e-01 -1.5710735156697976e+02
4.500000000000000e-01  3.0589716278725498e-01 -1.5826396489579031e+02  9.4228484226611231e-01 -6.6365066561374221e+01  9.4087828534859386e-01 -6.6388007211498191e+01  3.0661540242405527e-01 -1.5826029353322275e+02
4.600000000000000e-01  3.1187635992342633e-01 -1.5959900280186503e+02  9.3764416686761631e-01 -6.7785709217138702e+01  9.3771419134876166e-01 -6.7779106521924490e+01  3.1263589055966301e-01 -1.5964009849302030e+02
4.700000000000000e-01  3.1907764470754607e-01 -1.6114201416944030e+02  9.3708350802141027e-01 -6.9390896197478313e+01  9.3736508673519559e-01 -6.9402781959662306e+01  3.1699863304836545e-01 -1.6117541592185609e+02
4.800000000000000e-01  3.2140361949739993e-01 -1.6231396074668822e+02  9.3489307746140271e-01 -7.0704362855975276e+01  9.3600758347043311e-01 -7.0704427413197095e+01  3.2518629684418571e-01 -1.6246666385262111e+02
4.900000000000000e-01  3.2750536569511274e-01 -1.6384593126964458e+02  9.3525490938507239e-01 -7.2211926815968880e+01  9.3308599543458470e-01 -7.2217943898445697e+01  3.2640116821150683e-01 -1.6388112697844460e+02
5.000000000000000e-01  3.3377981674198304e-01 -1.6495002690082146e+02  9.3123003733564247e-01 -7.3483758209915024e+01  9.3236033097443483e-01 -7.3473219912425535e+01  3.3297514832452374e-01 -1.6517468604178589e+02
5.100000000000000e-01  3.3858530954637561e-01 -1.6645480699954479e+02  9.3168006867523434e-01 -7.4978973471221167e+01  9.3006715954974706e-01 -7.5002026142905848e+01  3.3885091901187864e-01 -1.6656224552775748e+02
5.200000000000000e-01  3.4253613064288885e-01 -1.6782411798592221e+02  9.2884747975887394e-01 -7.6303685850334588e+01  9.2900330178105273e-01 -7.6339607119291983e+01  3.4370642153475028e-01 -1.6778441595086767e+02
5.300000000000000e-01  3.4854453469955571e-01 -1.6926322608427299e+02  9.2512461406950852e-01 -7.7812327349361581e+01  9.2537856333710367e-01 -7.7810142786392944e+01  3.4777840484212386e-01 -1.6918964053768460e+02
5.400000000000000e-01  3.5190019277300832e-01 -1.7054276734338916e+02  9.2469727801956403e-01 -7.9218521056410466e+01  9.2495911727351010e-01 -7.9226984236268180e+01  3.5464678840354291e-01 -1.7060559284783332e+02
5.500000000000000e-01  3.5890933385669593e-01 -1.7194582691031871e+02  9.2094920235920208e-01 -8.0677256392353385e+01  9.2223139689784395e-01 -8.0687336063655636e+01  3.5876520005044366e-01 -1.7200259047359270e+02
5.600000000000001e-01  3.6324222961229902e-01 -1.7339847643552184e+02  9.1998413142489854e-01 -8.2051976257719389e+01  9.2102135936790541e-01 -8.2036753127712728e+01  3.6254904259025800e-01 -1.7316043922339099e+02
5.700000000000001e-01  3.6786705949227927e-01 -1.7466200408761836e+02  9.1644724213140982e-01 -8.3478810231009049e+01  9.1853048435996165e-01 -8.3474813842876955e+01  3.6689418037824451e-01 -1.7468203424931264e+02
5.800000000000001e-01  3.7170260761032836e-01 -1.7604330913505677e+02  9.1416852699040885e-01 -8.4951605205272429e+01  9.1358573593608461e-01 -8.4959842383543943e+01  3.7166208796295647e-01 -1.7616679209947756e+02
5.900000000000001e-01  3.7646382416350826e-01 -1.7716418729096046e+02  9.1484321389418244e-01 -8.6121427176846552e+01  9.1362694373160469e-01 -8.6136924202709992e+01  3.7751758096101418e-01 -1.7719991640104178e+02
6.000000000000001e-01  3.8308040711765529e-01 -1.7876279969777542e+02  9.1174837379159845e-01 -8.7668950941753820e+01  9.1133455457476753e-01 -8.7671863162718054e+01  3.8135074353678444e-01 -1.7861076304112112e+02
6.100000000000000e-01  3.8556718168949267e-01  1.7999594697166395e+02  9.0936660133153713e-01 -8.9167988957471493e+01  9.1034112591806493e-01 -8.9147070599163229e+01  3.8812144552129269e-01  1.7977386797526873e+02
6.200000000000000e-01  3.9161012801012435e-01  1.7842660912909386e+02  9.0549524563050476e-01 -9.0600367638786850e+01  9.0763481256389211e-01 -9.0599140738989206e+01  3.9005515121241813e-01  1.7857865144054932e+02
6.300000000000000e-01  3.9460119487095269e-01  1.7706150748867890e+02  9.0539897743243269e-01 -9.1950245112101570e+01  9.0741981677646599e-01 -9.1947401636385578e+01  3.9484006389712456e-01  1.7732161090791638e+02
6.400000000000000e-01  4.0147018485361419e-01  1.7592602618536350e+02  9.0343966148737609e-01 -9.3298180314577536e+01  9.0478653525156127e-01 -9.3289786304326867e+01  4.0070574047295976e-01  1.7590426654143874e+02
6.500000000000000e-01  4.0500786755347634e-01  1.7463447205136936e+02  9.0192552064984555e-01 -9.4627445012637452e+01  9.0134109534622264e-01 -9.4625010052286953e+01  4.0301200504995693e-01  1.7461949299839529e+02
6.600000000000000e-01  4.0701674331828896e-01  1.7322855841948717e+02  8.9880885785417264e-01 -9.6054783014428494e+01  8.9976699403370131e-01 -9.6078802823669974e+01  4.0888226699383312e-01  1.7323648193170249e+02
6.700000000000000e-01  4.0956215825112280e-01  1.7195774729907527e+02  8.9479447251831012e-01 -9.7368008360185726e+01  8.9626896131945866e-01 -9.7372313073087014e+01  4.1210050060327186e-01  1.7202226522667252e+02
6.800000000000000e-01  4.1493731356265073e-01  1.7069136544271893e+02  8.9430865937058468e-01 -9.8791540294102148e+01  8.9660730582537007e-01 -9.8767725905968661e+01  4.1823805618477911e-01  1.7057772764506663e+02
6.900000000000001e-01  4.2170857730851397e-01  1.6926123414759078e+02  8.9314671346463770e-01 -1.0020944032649453e+02  8.9296809860926596e-01 -1.0022643920454325e+02  4.2044730329919955e-01  1.6925930869643568e+02
7.000000000000001e-01  4.2444005503786481e-01  1.6782885053800001e+02  8.8969513013764534e-01 -1.0168391409231080e+02  8.9014627543291303e-01 -1.0171661157155827e+02  4.2441147502480386e-01  1.6782114789949688e+02
7.100000000000001e-01  4.2675593935778477e-01  1.6667645100343802e+02  8.8715025912350098e-01 -1.0285856699359029e+02  8.8998089344120423e-01 -1.0286088676340914e+02  4.2788860364833636e-01  1.6672787835959230e+02
7.200000000000001e-01  4.3098102965879859e-01  1.6530053825278051e+02  8.8466848912350327e-01 -1.0436132896440185e+02  8.8659362543479769e-01 -1.0436096281186629e+02  4.3390090232616202e-01  1.6520418525031994e+02
7.300000000000001e-01  4.3725161742781132e-01  1.6370638142552477e+02  8.8258689605887009e-01 -1.0588791463912621e+02  8.8231718465825326e-01 -1.0589476740310009e+02  4.3582808147737251e-01  1.6382001042196876e+02
7.400000000000000e-01  4.4058071654759695e-01  1.6254112616265314e+02  8.8217213382660764e-01 -1.0709709314816853e+02  8.8205713977311395e-01 -1.0711518492082438e+02  4.3830268114574478e-01  1.6268269338072898e+02
7.500000000000000e-01  4.4593301887394204e-01  1.6123907336041151e+02  8.8299035312541641e-01 -1.0849520699878762e+02  8.8120102625679786e-01 -1.0849970601312725e+02  4.4455495462590772e-01  1.6128719680049022e+02
7.600000000000000e-01  4.4642667702062533e-01  1.5996653339786906e+02  8.7692847962311515e-01 -1.0979307428754902e+02  8.7875130159941717e-01 -1.0978339397265037e+02  4.4712741374529430e-01  1.6006639165246742e+02
7.700000000000000e-01  4.5162802082807613e-01  1.5830706569731433e+02  8.7373220488282521e-01 -1.1138248121237517e+02  8.7452419090668554e-01 -1.1139776204950437e+02  4.5187509104679446e-01  1.5857872769899274e+02
7.800000000000000e-01  4.5841272225519469e-01  1.5708355256043589e+02  8.7561134014274311e-01 -1.1257855405284634e+02  8.7545823379996790e-01 -1.1258666058826499e+02  4.5499652984468297e-01  1.5750891579580411e+02
7.900000000000000e-01  4.5799092730271435e-01  1.5594701269706442e+02  8.7023641819163788e-01 -1.1399483910835865e+02  8.7092588891422662e-01 -1.1401874188446278e+02  4.5717490638343167e-01  1.5587098645289538e+02
8.000000000000000e-01  4.6229648305396220e-01  1.5474265060956131e+02  8.6845573355933947e-01 -1.1532442034845442e+02  8.6726117004053793e-01 -1.1530469879148869e+02  4.6234679068485568e-01  1.5451864613667757e+02
8.100000000000001e-01  4.6589669298029224e-01  1.5337889863784306e+02  8.6767753489805666e-01 -1.1666905851719557e+02  8.6730382950364182e-01 -1.1669346608154804e+02  4.6615722320286651e-01  1.5325873904114928e+02
8.200000000000001e-01  4.6942275316176407e-01  1.5195358164793387e+02  8.6432114755364620e-01 -1.1805951083422890e+02  8.6449417932274886e-01 -1.1806518099608080e+02  4.7050269597675037e-01  1.5198737431402566e+02
8.300000000000001e-01  4.7460563466232286e-01  1.5081355515363180e+02  8.6279273640227860e-01 -1.1934700529718080e+02  8.6244415622314896e-01 -1.1935913493473674e+02  4.7224952355350974e-01  1.5059943915327270e+02
8.400000000000001e-01  4.7744025973008447e-01  1.4946516960436026e+02  8.6032642701685846e-01 -1.2064804055258139e+02  8.6084044414401784e-01 -1.2066975184326762e+02  4.7596132719414558e-01  1.4941276727634323e+02
8.500000000000001e-01  4.7826114095211003e-01  1.4805733995954091e+02  8.5898819767703904e-01 -1.2211329101614731e+02  8.5895636131264363e-01 -1.2213568092498932e+02  4.7865700067173439e-01  1.4795288027970199e+02
8.600000000000001e-01  4.8136106605649864e-01  1.4658235340377780e+02  8.5696161407794669e-01 -1.2357199291342160e+02  8.5686543786791547e-01 -1.2356046127821956e+02  4.8100307381428786e-01  1.4659790872366852e+02
8.700000000000001e-01  4.8463678880740557e-01  1.4549171061285043e+02  8.5575376719030105e-01 -1.2474431430747030e+02  8.5492743334745791e-01 -1.2473890474753928e+02  4.8636609657200686e-01  1.4539972625592065e+02
8.800000000000000e-01  4.8932353110479360e-01  1.4411711398620002e+02  8.5276993658501399e-01 -1.2612289503147602e+02  8.5074990967266462e-01 -1.2611754391311540e+02  4.8796023460319837e-01  1.4405188727174991e+02
8.900000000000000e-01  4.9175761466196433e-01  1.4287935954502333e+02  8.5192525653607165e-01 -1.2730801067402749e+02  8.5070395467549131e-01 -1.2731750990519107e+02  4.9179687388257964e-01  1.4295474965712759e+02
9.000000000000000e-01  4.9488708173875823e-01  1.4137093774883041e+02  8.4988239786589836e-01 -1.2883680197876103e+02  8.4904622566366461e-01 -1.2886189667590733e+02  4.9260597292239749e-01  1.4143085626802917e+02
9.100000000000000e-01  4.9620645166007915e-01  1.4022155771189617e+02  8.4519009476925000e-01 -1.3018770975424181e+02  8.4697793222127449e-01 -1.3019419443566628e+02  4.9624915840921807e-01  1.3997826224613124e+02
9.200000000000000e-01  4.9972279838035361e-01  1.3881999764383121e+02  8.4348869255578363e-01 -1.3141241982338892e+02  8.4383828569215202e-01 -1.3141653855146271e+02  4.9975380831542615e-01  1.3894353122257110e+02
9.300000000000000e-01  5.0318436987843407e-01  1.3760487996807942e+02  8.4354839159131378e-01 -1.3278208021581023e+02  8.4248344200171810e-01 -1.3278031820094370e+02  5.0326138223135708e-01  1.3751589573960408e+02
