# GHz S MA R 50

1.000000000000000e-03  2.9405839447242863e-03 -1.5501583892779169e+02  9.9988190477124750e-01 -1.6066625877039761e-01  9.9988190477124739e-01 -1.6066625877039770e-01  2.7733718461882568e-03 -2.4338927661481879e+01
2.000000000000000e-03  3.6645316868562459e-03 -1.3824334831498942e+02  9.9981473469281268e-01 -3.1974628558696261e-01  9.9981473469281279e-01 -3.1974628558696266e-01  3.3684760592659234e-03 -4.2460405578745750e+01
3.000000000000000e-03  4.5849266687356697e-03 -1.2769957836271411e+02  9.9975416895644731e-01 -4.7822276564413535e-01  9.9975416895644720e-01 -4.7822276564413535e-01  4.1798243152720693e-03 -5.4303447802257494e+01
4.000000000000000e-03  5.5995353175681802e-03 -1.2094379997724847e+02  9.9969638892843060e-01 -6.3630411002630893e-01  9.9969638892843116e-01 -6.3630411002630893e-01  5.1062511882893191e-03 -6.2106793149624906e+01
5.000000000000000e-03  6.6649102189912917e-03 -1.1636278601799525e+02  9.9963993306060628e-01 -7.9409025835540104e-01  9.9963993306060572e-01 -7.9409025835540081e-01  6.0907376067387137e-03 -6.7475918153179009e+01
6.000000000000000e-03  7.7563244350143789e-03 -1.1312143926428628e+02  9.9958405213124901e-01 -9.5163908105292949e-01  9.9958405213124846e-01 -9.5163908105292927e-01  7.1107569472892394e-03 -7.1362129244228541e+01
7.000000000000000e-03  8.8645907352018407e-03 -1.1072709026798411e+02  9.9952830908158308e-01 -1.1089894262633324e+00  9.9952830908158408e-01 -1.1089894262633317e+00  8.1499992045025917e-03 -7.4296089314748613e+01
8.000000000000000e-03  9.9814478265897490e-03 -1.0891063704208338e+02  9.9947241718034863e-01 -1.2661681885795981e+00  9.9947241718034818e-01 -1.2661681885795977e+00  9.2033563715251260e-03 -7.6592874694905916e+01
9.000000000000001e-03  1.1104934843880390e-02 -1.0749324762919326e+02  9.9941618318384073e-01 -1.4231959210697280e+00  9.9941618318384084e-01 -1.4231959210697280e+00  1.0264290526680596e-02 -7.8444962114045936e+01
1.000000000000000e-02  1.2231224319082773e-02 -1.0637026472192710e+02  9.9935946375884999e-01 -1.5800880282780145e+00  9.9935946375885065e-01 -1.5800880282780136e+00  1.1331885838823073e-02 -7.9975346762364353e+01
1.100000000000000e-02  1.3360261008453835e-02 -1.0546340732424294e+02  9.9930215580823645e-01 -1.7368571594331852e+00  9.9930215580823656e-01 -1.7368571594331859e+00  1.2402683375210386e-02 -8.1267168124146508e+01
1.200000000000000e-02  1.4489802751749385e-02 -1.0472530612656415e+02  9.9924417631196927e-01 -1.8935132162451325e+00  9.9924417631196893e-01 -1.8935132162451325e+00  1.3476970311625943e-02 -8.2376150509057283e+01
1.300000000000000e-02  1.5620364615669397e-02 -1.0411642971746880e+02  9.9918546394643060e-01 -2.0500647170537092e+00  9.9918546394643037e-01 -2.0500647170537092e+00  1.4552532535671002e-02 -8.3343666765036119e+01
1.400000000000000e-02  1.6750409686389439e-02 -1.0361286791940918e+02  9.9912596591844516e-01 -2.2065185088697796e+00  9.9912596591844460e-01 -2.2065185088697796e+00  1.5630026103208430e-02 -8.4197902837555759e+01
1.500000000000000e-02  1.7880617773863076e-02 -1.0319237571139752e+02  9.9906564317176794e-01 -2.3628806789314689e+00  9.9906564317176783e-01 -2.3628806789314685e+00  1.6707846531590329e-02 -8.4961828303685905e+01
1.600000000000000e-02  1.9009822435431176e-02 -1.0284191114495415e+02  9.9900445991393483e-01 -2.5191562058230401e+00  9.9900445991393494e-01 -2.5191562058230406e+00  1.7786747325319791e-02 -8.5650879915945012e+01
1.700000000000000e-02  2.0138729789595817e-02 -1.0254785632269248e+02  9.9894239015535991e-01 -2.6753496243790820e+00  9.9894239015535879e-01 -2.6753496243790806e+00  1.8865469388938065e-02 -8.6278957793066084e+01
1.800000000000000e-02  2.1266394428978392e-02 -1.0230269969673303e+02  9.9887940848640855e-01 -2.8314646889880146e+00  9.9887940848640855e-01 -2.8314646889880137e+00  1.9944767240644576e-02 -8.6855010475598618e+01
1.900000000000000e-02  2.2393499339213821e-02 -1.0209752259267985e+02  9.9881549714369822e-01 -2.9875048821573746e+00  9.9881549714369822e-01 -2.9875048821573742e+00  2.1023600349019064e-02 -8.7388056420004460e+01
2.000000000000000e-02  2.3519244490129432e-02 -1.0192783920163632e+02  9.9875063746602399e-01 -3.1434731139539460e+00  9.9875063746602344e-01 -3.1434731139539456e+00  2.2102689441433964e-02 -8.7883490340391248e+01
2.100000000000000e-02  2.4644273031054206e-02 -1.0178747582137277e+02  9.9868481715540069e-01 -3.2993721201815416e+00  9.9868481715540069e-01 -3.2993721201815402e+00  2.3181144381195944e-02 -8.8347510164452018e+01
2.200000000000000e-02  2.5767887925261464e-02 -1.0167369898669295e+02  9.9861802215763029e-01 -3.4552042050020324e+00  9.9861802215763051e-01 -3.4552042050020337e+00  2.4259640858166141e-02 -8.8783447893121533e+01
2.300000000000000e-02  2.6890688535577544e-02 -1.0158203266081273e+02  9.9855024396408076e-01 -3.6109715548736658e+00  9.9855024396408187e-01 -3.6109715548736636e+00  2.5337399003674349e-02 -8.9195774193531747e+01
2.400000000000000e-02  2.8012055040541873e-02 -1.0151080519638457e+02  9.9848147179440894e-01 -3.7666760252073250e+00  9.9848147179440894e-01 -3.7666760252073264e+00  2.6415047619007839e-02 -8.9586567132070826e+01
2.500000000000000e-02  2.9132544093699711e-02 -1.0145664169685750e+02  9.9841169985987543e-01 -3.9223193862797290e+00  9.9841169985987543e-01 -3.9223193862797268e+00  2.7491891685220055e-02 -8.9959186835039304e+01
2.600000000000000e-02  3.0251596321309686e-02 -1.0141853762770576e+02  9.9834091978640027e-01 -4.0779031525228993e+00  9.9834091978640072e-01 -4.0779031525229001e+00  2.8568514991626999e-02 -9.0314920174844161e+01
2.700000000000000e-02  3.1369728610871853e-02 -1.0139386173974783e+02  9.9826912779440147e-01 -4.2334287711605736e+00  9.9826912779440036e-01 -4.2334287711605754e+00  2.9644290280324795e-02 -9.0656383026184926e+01
2.800000000000000e-02  3.2486430513695215e-02 -1.0138204093911212e+02  9.9819631733051617e-01 -4.3888974920073682e+00  9.9819631733051639e-01 -4.3888974920073673e+00  3.0719759553761050e-02 -9.0984347813806252e+01
2.900000000000000e-02  3.3602182627535754e-02 -1.0138096394495039e+02  9.9812248613559484e-01 -4.5443105063358029e+00  9.9812248613559473e-01 -4.5443105063358047e+00  3.1794351256103671e-02 -9.1300913445558137e+01
3.000000000000000e-02  3.4716515145649579e-02 -1.0139034315436230e+02  9.9804762906962108e-01 -4.6996688549537948e+00  9.9804762906962130e-01 -4.6996688549537948e+00  3.2868569156435726e-02 -9.1606509674299375e+01
3.100000000000000e-02  3.5829875825168528e-02 -1.0140844202113986e+02  9.9797174504794051e-01 -4.8549735227665938e+00  9.9797174504794017e-01 -4.8549735227665956e+00  3.3941888547634740e-02 -9.1902864890035687e+01
3.200000000000000e-02  3.6941829322640049e-02 -1.0143516521776492e+02  9.9789483005306412e-01 -5.0102253830325765e+00  9.9789483005306401e-01 -5.0102253830325783e+00  3.5014778415953594e-02 -9.2190176200546688e+01
3.300000000000000e-02  3.8052793754535588e-02 -1.0146905354734876e+02  9.9781688392375223e-01 -5.1654252517300039e+00  9.9781688392375256e-01 -5.1654252517300048e+00  3.6086754188106043e-02 -9.2469898992102330e+01
3.400000000000000e-02  3.9162363489145424e-02 -1.0151014284274372e+02  9.9773790355280978e-01 -5.3205738661039002e+00  9.9773790355280945e-01 -5.3205738661039019e+00  3.7158253246459966e-02 -9.2742070116341324e+01
3.500000000000000e-02  4.0270929881535140e-02 -1.0155718408204025e+02  9.9765788951613532e-01 -5.4756719020109808e+00  9.9765788951613543e-01 -5.4756719020109799e+00  3.8228825919663291e-02 -9.3007938791527735e+01
3.600000000000000e-02  4.1378113264162165e-02 -1.0161030328516426e+02  9.9757683945897180e-01 -5.6307199850987875e+00  9.9757683945897113e-01 -5.6307199850987866e+00  3.9298880843397964e-02 -9.3267430344487281e+01
3.700000000000001e-02  4.2484280783866291e-02 -1.0166841409345282e+02  9.9749475455342274e-01 -5.7857186736310329e+00  9.9749475455342318e-01 -5.7857186736310320e+00  4.0367999079246986e-02 -9.3521634826803535e+01
3.800000000000000e-02  4.3589075718545242e-02 -1.0173170471644620e+02  9.9741163307777625e-01 -5.9406685008566642e+00  9.9741163307777636e-01 -5.9406685008566660e+00  4.1436563053998704e-02 -9.3770399497902289e+01
3.900000000000000e-02  4.4692843256101837e-02 -1.0179921709309775e+02  9.9732747669185273e-01 -6.0955699253227271e+00  9.9732747669185251e-01 -6.0955699253227298e+00  4.2504181176802568e-02 -9.4014689065233711e+01
4.000000000000000e-02  4.5795247144734728e-02 -1.0187118217972532e+02  9.9724228421538208e-01 -6.2504234031859411e+00  9.9724228421538219e-01 -6.2504234031859403e+00  4.3571211908024363e-02 -9.4254296082697508e+01
4.100000000000000e-02  4.6896612590669649e-02 -1.0194674485018365e+02  9.9715605771100702e-01 -6.4052293076451337e+00  9.9715605771100735e-01 -6.4052293076451372e+00  4.4637288210919210e-02 -9.4490084762984722e+01
4.200000000000000e-02  4.7996621752209361e-02 -1.0202616512023040e+02  9.9706879646871649e-01 -6.5599880301195492e+00  9.9706879646871605e-01 -6.5599880301195492e+00  4.5702746558011043e-02 -9.4721809504024549e+01
4.300000000000000e-02  4.9095581592538670e-02 -1.0210867173599412e+02  9.9698050288658491e-01 -6.7146998701425336e+00  9.9698050288658469e-01 -6.7146998701425362e+00  4.6767242129741038e-02 -9.4950252627484730e+01
4.400000000000000e-02  5.0193190943031936e-02 -1.0219454402756227e+02  9.9689117666891325e-01 -6.8693651644797225e+00  9.9689117666891380e-01 -6.8693651644797225e+00  4.7831091157646832e-02 -9.5175142243120632e+01
4.500000000000001e-02  5.1289740055270504e-02 -1.0228308004635826e+02  9.9680082049497176e-01 -7.0239841485969334e+00  9.9680082049497254e-01 -7.0239841485969334e+00  4.8893969061011788e-02 -9.5397192950569973e+01
4.600000000000001e-02  5.2384942952779158e-02 -1.0237457143499066e+02  9.9670943443895865e-01 -7.1785571129202683e+00  9.9670943443895854e-01 -7.1785571129202719e+00  4.9956173375550826e-02 -9.5616115169007912e+01
4.700000000000000e-02  5.3479074527895409e-02 -1.0246837424872083e+02  9.9661702141713593e-01 -7.3330842368073119e+00  9.9661702141713526e-01 -7.3330842368073146e+00  5.1017398067165112e-02 -9.5832566738389986e+01
4.800000000000000e-02  5.4571862721451966e-02 -1.0256478737677209e+02  9.9652358183803436e-01 -7.4875657712631014e+00  9.9652358183803424e-01 -7.4875657712631023e+00  5.2077923346055703e-02 -9.6046246667490607e+01
4.900000000000000e-02  5.5663568264352641e-02 -1.0266321598759065e+02  9.9642911881843144e-01 -7.6420018461938231e+00  9.9642911881843077e-01 -7.6420018461938231e+00  5.3137460264013087e-02 -9.6257764641398097e+01
5.000000000000000e-02  5.6753931907940806e-02 -1.0276396253422857e+02  9.9633363307249223e-01 -7.7963926789893501e+00  9.9633363307249223e-01 -7.7963926789893563e+00  5.4196272924616498e-02 -9.6466812875240180e+01
5.100000000000000e-02  5.7843201286049355e-02 -1.0286647421418539e+02  9.9623712788706775e-01 -7.9507383557154157e+00  9.9623712788706775e-01 -7.9507383557154192e+00  5.5254088194418516e-02 -9.6673959744074949e+01
5.200000000000000e-02  5.8931128992387616e-02 -1.0297105436054866e+02  9.9613960425864834e-01 -8.1050390650572535e+00  9.9613960425864811e-01 -8.1050390650572481e+00  5.6311155158072591e-02 -9.6878894078477828e+01
5.300000000000001e-02  6.0017950512657799e-02 -1.0307718648815155e+02  9.9604106561846939e-01 -8.2592948540030395e+00  9.9604106561846961e-01 -8.2592948540030466e+00  5.7367215382748873e-02 -9.7082148455742555e+01
5.400000000000001e-02  6.1103429430386692e-02 -1.0318517285477232e+02  9.9594151322627478e-01 -8.4135058867167558e+00  9.9594151322627389e-01 -8.4135058867167523e+00  5.8422503908002327e-02 -9.7283410845326031e+01
5.500000000000000e-02  6.2187789932017783e-02 -1.0329452863680605e+02  9.9584095063579825e-01 -8.5676721751785223e+00  9.9584095063579836e-01 -8.5676721751785259e+00  5.9476776018715316e-02 -9.7483182516786925e+01
5.600000000000000e-02  6.3270805835622321e-02 -1.0340555359693948e+02  9.9573937935437185e-01 -8.7217938626189664e+00  9.9573937935437207e-01 -8.7217938626189682e+00  6.0530253584116296e-02 -9.7681152446592165e+01
5.700000000000000e-02  6.4352690790249398e-02 -1.0351779073943673e+02  9.9563680303937074e-01 -8.8758709295080802e+00  9.9563680303937085e-01 -8.8758709295080767e+00  6.1582704734564279e-02 -9.7877794292823310e+01
5.800000000000000e-02  6.5433228175781552e-02 -1.0363153630864193e+02  9.9553322343277117e-01 -9.0299035012398345e+00  9.9553322343277184e-01 -9.0299035012398381e+00  6.2634338957328298e-02 -9.8072799418444816e+01
5.900000000000000e-02  6.6512621789857410e-02 -1.0374635795005305e+02  9.9542864427920408e-01 -9.1838915297972576e+00  9.9542864427920363e-01 -9.1838915297972612e+00  6.3684936450065260e-02 -9.8266616942940459e+01
6.000000000000000e-02  6.7590663972000822e-02 -1.0386254766172493e+02  9.9532306754456790e-01 -9.3378351254261709e+00  9.9532306754456790e-01 -9.3378351254261744e+00  6.4734695030861225e-02 -9.8458941628449807e+01
6.100000000000001e-02  6.8667549288031746e-02 -1.0397969505828600e+02  9.9521649704634374e-01 -9.4917342142489183e+00  9.9521649704634385e-01 -9.4917342142489183e+00  6.5783406266995262e-02 -9.8650200633964474e+01
6.200000000000001e-02  6.9743078495682120e-02 -1.0409808738449755e+02  9.9510893496546149e-01 -9.6455888937102614e+00  9.9510893496546104e-01 -9.6455888937102614e+00  6.6831256953817322e-02 -9.8840092856566542e+01
6.300000000000000e-02  7.0817437490268115e-02 -1.0421733396508817e+02  9.9500038517949474e-01 -9.7993990663640478e+00  9.9500038517949463e-01 -9.7993990663640478e+00  6.7878049399898485e-02 -9.9029025676256140e+01
6.400000000000000e-02  7.1890434958894633e-02 -1.0433771695039067e+02  9.9489085007697065e-01 -9.9531648189139084e+00  9.9489085007697042e-01 -9.9531648189139084e+00  6.8923959965914675e-02 -9.9216702650812621e+01
6.500000000000000e-02  7.2962248636370144e-02 -1.0445886345080417e+02  9.9478033358417894e-01 -1.0106886032354407e+01  9.9478033358417872e-01 -1.0106886032354407e+01  6.9968801133485456e-02 -9.9403513241865440e+01
6.600000000000000e-02  7.4032694696145901e-02 -1.0458105030588095e+02  9.9466883829102304e-01 -1.0260562784464982e+01  9.9466883829102304e-01 -1.0260562784464982e+01  7.1012739365126948e-02 -9.9589166033807572e+01
6.700000000000002e-02  7.5101943177182745e-02 -1.0470392076058479e+02  9.9455636816225790e-01 -1.0414194936449254e+01  9.9455636816225790e-01 -1.0414194936449256e+01  7.2055596799606617e-02 -9.9774034168631459e+01
6.800000000000000e-02  7.6169817336355805e-02 -1.0482774622126321e+02  9.9444292598399020e-01 -1.0567782558772594e+01  9.9444292598399031e-01 -1.0567782558772596e+01  7.3097530492149967e-02 -9.9957831501302124e+01
6.900000000000001e-02  7.7236479941261621e-02 -1.0495218464137869e+02  9.9432851575011172e-01 -1.0721325494409854e+01  9.9432851575011127e-01 -1.0721325494409852e+01  7.4138371768591949e-02 -1.0014091623741531e+02
7.000000000000001e-02  7.8301760964548203e-02 -1.0507750194227916e+02  9.9421314043858788e-01 -1.0874823807945674e+01  9.9421314043858844e-01 -1.0874823807945674e+01  7.5178268727193118e-02 -1.0032300765330331e+02
7.100000000000001e-02  7.9365816291222802e-02 -1.0520336954652025e+02  9.9409680406393586e-01 -1.1028277325510873e+01  9.9409680406393552e-01 -1.1028277325510873e+01  7.6217061451075221e-02 -1.0050445022270043e+02
7.200000000000001e-02  8.0428482273217042e-02 -1.0533004789160522e+02  9.9397950979234562e-01 -1.1181686107090858e+01  9.9397950979234584e-01 -1.1181686107090854e+01  7.7254889495749213e-02 -1.0068496872293895e+02
7.300000000000001e-02  8.1489908269891234e-02 -1.0545722078569723e+02  9.9386126165111444e-01 -1.1335049963203735e+01  9.9386126165111510e-01 -1.1335049963203735e+01  7.8291601307429917e-02 -1.0086489495115978e+02
7.400000000000001e-02  8.2549936703611645e-02 -1.0558514322307833e+02  9.9374206299162193e-01 -1.1488368950386237e+01  9.9374206299162260e-01 -1.1488368950386237e+01  7.9327328280842921e-02 -1.0104395921105777e+02
7.500000000000001e-02  8.3608710736575859e-02 -1.0571351044513946e+02  9.9362191784666465e-01 -1.1641642864641902e+01  9.9362191784666498e-01 -1.1641642864641900e+01  8.0361926862654129e-02 -1.0122248155290447e+02
7.600000000000000e-02  8.4666078577347870e-02 -1.0584257207272529e+02  9.9350082975027965e-01 -1.1794871760095822e+01  9.9350082975027965e-01 -1.1794871760095822e+01  8.1395520639885782e-02 -1.0140019779087969e+02
7.700000000000000e-02  8.5722177493938873e-02 -1.0597203393900465e+02  9.9337880273398294e-01 -1.1948055419218795e+01  9.9337880273398260e-01 -1.1948055419218797e+01  8.2427973725089573e-02 -1.0157741705183308e+02
7.800000000000000e-02  8.6776861218859719e-02 -1.0610214038242357e+02  9.9325584051234794e-01 -1.2101193894662687e+01  9.9325584051234861e-01 -1.2101193894662687e+01  8.3459402224733067e-02 -1.0175388061339966e+02
7.900000000000000e-02  8.7830261405987015e-02 -1.0623260708089340e+02  9.9313194710924024e-01 -1.2254286956245860e+01  9.9313194710924046e-01 -1.2254286956245860e+01  8.4489677607755373e-02 -1.0192988741193244e+02
8.000000000000000e-02  8.8882237069242753e-02 -1.0636367319668298e+02  9.9300712641803091e-01 -1.2407334655998945e+01  9.9300712641803113e-01 -1.2407334655998945e+01  8.5518908803881688e-02 -1.0210518411816949e+02
8.100000000000000e-02  8.9932914507762363e-02 -1.0649506358621895e+02  9.9288138244892776e-01 -1.2560336751878701e+01  9.9288138244892732e-01 -1.2560336751878703e+01  8.6546974351391248e-02 -1.0228006013334610e+02
8.200000000000000e-02  9.0982157792067184e-02 -1.0662701235232451e+02  9.9275471927264036e-01 -1.2713293296071207e+01  9.9275471927264036e-01 -1.2713293296071207e+01  8.7573976286021482e-02 -1.0245426743372123e+02
8.300000000000000e-02  9.2030088107290103e-02 -1.0675925293324677e+02  9.9262714088003590e-01 -1.2866204035383424e+01  9.9262714088003579e-01 -1.2866204035383424e+01  8.8599799948515454e-02 -1.0262808647399167e+02
8.400000000000001e-02  9.3076574371724438e-02 -1.0689201449601217e+02  9.9249865151798244e-01 -1.3019069022867150e+01  9.9249865151798233e-01 -1.3019069022867154e+01  8.9624540744338635e-02 -1.0280127443587436e+02
8.500000000000001e-02  9.4121732880349529e-02 -1.0702503852412133e+02  9.9236925515257579e-01 -1.3171887994821494e+01  9.9236925515257546e-01 -1.3171887994821498e+01  9.0648090567990836e-02 -1.0297410335826697e+02
8.600000000000001e-02  9.5165437204857345e-02 -1.0715854937661169e+02  9.9223895620588454e-01 -1.3324661005815750e+01  9.9223895620588420e-01 -1.3324661005815745e+01  9.1670538441128838e-02 -1.0314633551950548e+02
8.700000000000001e-02  9.6207798958597726e-02 -1.0729229609791679e+02  9.9210775861405265e-01 -1.3477387782221033e+01  9.9210775861405254e-01 -1.3477387782221037e+01  9.2691782579712667e-02 -1.0331823502309821e+02
8.800000000000001e-02  9.7248696185391045e-02 -1.0742649836893754e+02  9.9197566697357087e-01 -1.3630068380724014e+01  9.9197566697357031e-01 -1.3630068380724014e+01  9.3711905852385730e-02 -1.0348956912927390e+02
8.900000000000001e-02  9.8288236011549790e-02 -1.0756091235632113e+02  9.9184268518566432e-01 -1.3782702518292353e+01  9.9184268518566421e-01 -1.3782702518292357e+01  9.4730812579132684e-02 -1.0366059444256231e+02
9.000000000000001e-02  9.9326300783659741e-02 -1.0769575319311777e+02  9.9170881802063193e-01 -1.3935290254284073e+01  9.9170881802063204e-01 -1.3935290254284077e+01  9.5748579692122568e-02 -1.0383108308672304e+02
9.100000000000001e-02  1.0036299332289192e-01 -1.0783078376944334e+02  9.9157406933999492e-01 -1.4087831296738381e+01  9.9157406933999515e-01 -1.4087831296738381e+01  9.6765117411414608e-02 -1.0400128456508435e+02
9.200000000000001e-02  1.0139820012007975e-01 -1.0796621479999287e+02  9.9143844408738402e-01 -1.4240325708197725e+01  9.9143844408738413e-01 -1.4240325708197727e+01  9.7780496936245742e-02 -1.0417097574468630e+02
9.300000000000000e-02  1.0243201986156034e-01 -1.0810181553479161e+02  9.9130194607999544e-01 -1.4392773188203392e+01  9.9130194607999533e-01 -1.4392773188203392e+01  9.8794634195065956e-02 -1.0434039939136728e+02
