# GHz S MA R 50

1.000000000000000e-02  3.7791785517105260e-03 -1.1237755279230971e+02  3.8091721849426181e-03  1.0745262397133835e+02  9.9951664651646954e-01 -1.3889837455292242e+00  6.1911966363540011e-04 -8.7192834325498723e+01
                         3.8091721849426215e-03  1.0745262397133835e+02  3.7791785517105282e-03 -1.1237755279230970e+02  6.1911966363539946e-04 -8.7192834325498723e+01  9.9951664651646976e-01 -1.3889837455292233e+00
                         9.9951664651647010e-01 -1.3889837455322713e+00  6.1911966363540293e-04 -8.7192834325496648e+01  3.7551044231094867e-03 -7.2540826051265583e+01  3.8931374713257441e-03  6.7904595966885651e+01
                         6.1911966363540423e-04 -8.7192834325496648e+01  9.9951664651647032e-01 -1.3889837455322702e+00  3.8931374713257424e-03  6.7904595966885637e+01  3.7551044231094880e-03 -7.2540826051265583e+01
2.000000000000000e-02  7.1990982336042585e-03 -1.0419786526560927e+02  7.3677193573906405e-03  9.6896669758454379e+01  9.9916633574805647e-01 -2.7779243201554107e+00  1.2404167226531143e-03 -8.8608375518511949e+01
                         7.3677193573906423e-03  9.6896669758454379e+01  7.1990982336042541e-03 -1.0419786526560927e+02  1.2404167226531182e-03 -8.8608375518511949e+01  9.9916633574805613e-01 -2.7779243201554116e+00
                         9.9916633574805647e-01 -2.7779243201570996e+00  1.2404167226531177e-03 -8.8608375518511053e+01  7.1903593098332375e-03 -8.3123545217442839e+01  7.3801058183991224e-03  7.5739566491018309e+01
                         1.2404167226531151e-03 -8.8608375518511068e+01  9.9916633574805636e-01 -2.7779243201570996e+00  7.3801058183991259e-03  7.5739566491018309e+01  7.1903593098332375e-03 -8.3123545217442839e+01
3.000000000000000e-02  1.0669664810543558e-02 -1.0232706119403622e+02  1.0963233765970387e-02  9.2508736564640444e+01  9.9881614173715327e-01 -4.1668114338619890e+00  1.8677101064193300e-03 -8.9378119861028551e+01
                         1.0963233765970391e-02  9.2508736564640444e+01  1.0669664810543565e-02 -1.0232706119403622e+02  1.8677101064193270e-03 -8.9378119861028537e+01  9.9881614173715372e-01 -4.1668114338619890e+00
                         9.9881614173715350e-01 -4.1668114338618345e+00  1.8677101064193292e-03 -8.9378119861028381e+01  1.0682102121727714e-02 -8.7527306226724349e+01  1.0973793825300688e-02  7.7601811394608347e+01
                         1.8677101064193305e-03 -8.9378119861028381e+01  9.9881614173715427e-01 -4.1668114338618318e+00  1.0973793825300683e-02  7.7601811394608333e+01  1.0682102121727729e-02 -8.7527306226724377e+01
4.000000000000000e-02  1.4135888806921350e-02 -1.0211169026149138e+02  1.4599725720579946e-02  8.9762987019098674e+01  9.9845355650772971e-01 -5.5556261448397128e+00  2.5037503312426469e-03 -8.9960907201833180e+01
                         1.4599725720579939e-02  8.9762987019098659e+01  1.4135888806921348e-02 -1.0211169026149133e+02  2.5037503312426461e-03 -8.9960907201833237e+01  9.9845355650772949e-01 -5.5556261448397031e+00
                         9.9845355650772960e-01 -5.5556261448398914e+00  2.5037503312426634e-03 -8.9960907201829599e+01  1.4162520810189906e-02 -9.0328777893712896e+01  1.4578107960054347e-02  7.7731625269017812e+01
                         2.5037503312426669e-03 -8.9960907201829599e+01  9.9845355650772916e-01 -5.5556261448398834e+00  1.4578107960054326e-02  7.7731625269017798e+01  1.4162520810189910e-02 -9.0328777893712882e+01
5.000000000000000e-02  1.7574467466969709e-02 -1.0259890226283177e+02  1.8236476700664306e-02  8.7632462813071726e+01  9.9807424587569049e-01 -6.9443508157439524e+00  3.1511515272719397e-03 -9.0467865393802938e+01
                         1.8236476700664327e-02  8.7632462813071726e+01  1.7574467466969699e-02 -1.0259890226283179e+02  3.1511515272719414e-03 -9.0467865393802938e+01  9.9807424587569038e-01 -6.9443508157439586e+00
                         9.9807424587568860e-01 -6.9443508157441958e+00  3.1511515272719154e-03 -9.0467865393809205e+01  1.7617915285023794e-02 -9.2457733839068752e+01  1.8209028383002920e-02  7.7233679192090889e+01
                         3.1511515272719210e-03 -9.0467865393809220e+01  9.9807424587568883e-01 -6.9443508157441984e+00  1.8209028383002927e-02  7.7233679192090889e+01  1.7617915285023794e-02 -9.2457733839068780e+01
6.000000000000000e-02  2.0975951250349824e-02 -1.0341584603715880e+02  2.1896409986983230e-02  8.5845571671601363e+01  9.9767585665347014e-01 -8.3329712362532877e+00  3.8126830304330891e-03 -9.0954216178510592e+01
                         2.1896409986983258e-02  8.5845571671601391e+01  2.0975951250349800e-02 -1.0341584603715883e+02  3.8126830304330952e-03 -9.0954216178510549e+01  9.9767585665346958e-01 -8.3329712362532931e+00
                         9.9767585665347058e-01 -8.3329712362532504e+00  3.8126830304330969e-03 -9.0954216178512198e+01  2.1033551356941221e-02 -9.4271561584038921e+01  2.1846096191336994e-02  7.6363892348779203e+01
                         3.8126830304330947e-03 -9.0954216178512254e+01  9.9767585665347025e-01 -8.3329712362532540e+00  2.1846096191337018e-02  7.6363892348779231e+01  2.1033551356941214e-02 -9.4271561584038906e+01
7.000000000000001e-02  2.4328921430555737e-02 -1.0443873265146023e+02  2.5560710850053254e-02  8.4215632827939842e+01  9.9725757237110391e-01 -9.7214705197115308e+00  4.4906842692099139e-03 -9.1441924116663557e+01
                         2.5560710850053247e-02  8.4215632827939842e+01  2.4328921430555726e-02 -1.0443873265146023e+02  4.4906842692099174e-03 -9.1441924116663557e+01  9.9725757237110402e-01 -9.7214705197115432e+00
                         9.9725757237110535e-01 -9.7214705197114686e+00  4.4906842692098801e-03 -9.1441924116664879e+01  2.4402195801871078e-02 -9.5887543079441826e+01  2.5502140212765971e-02  7.5332226208457840e+01
                         4.4906842692098757e-03 -9.1441924116664893e+01  9.9725757237110535e-01 -9.7214705197114792e+00  2.5502140212765961e-02  7.5332226208457840e+01  2.4402195801871075e-02 -9.5887543079441826e+01
8.000000000000000e-02  2.7626002080819074e-02 -1.0557146863821572e+02  2.9245897646843006e-02  8.2710739471611930e+01  9.9681867656938938e-01 -1.1109840132336149e+01  5.1877851258776801e-03 -9.1950466802668601e+01
                         2.9245897646842996e-02  8.2710739471611916e+01  2.7626002080819077e-02 -1.0557146863821572e+02  5.1877851258776810e-03 -9.1950466802668572e+01  9.9681867656938927e-01 -1.1109840132336146e+01
                         9.9681867656938861e-01 -1.1109840132336501e+01  5.1877851258777009e-03 -9.1950466802669595e+01  2.7714345086369104e-02 -9.7396968612079434e+01  2.9168490487183375e-02  7.4163159789907269e+01
                         5.1877851258776940e-03 -9.1950466802669595e+01  9.9681867656938838e-01 -1.1109840132336510e+01  2.9168490487183389e-02  7.4163159789907269e+01  2.7714345086369101e-02 -9.7396968612079405e+01
9.000000000000001e-02  3.0858436052288545e-02 -1.0678909256170988e+02  3.2939982315495248e-02  8.1257304275015372e+01  9.9635929832628312e-01 -1.2498066169252670e+01  5.9059693701016061e-03 -9.2487984439742107e+01
                         3.2939982315495227e-02  8.1257304275015358e+01  3.0858436052288545e-02 -1.0678909256170988e+02  5.9059693701016148e-03 -9.2487984439742107e+01  9.9635929832628378e-01 -1.2498066169252668e+01
                         9.9635929832628345e-01 -1.2498066169252787e+01  5.9059693701016434e-03 -9.2487984439739577e+01  3.0962723984113108e-02 -9.8822213555601110e+01  3.2852361983623624e-02  7.2940728876487441e+01
                         5.9059693701016330e-03 -9.2487984439739563e+01  9.9635929832628378e-01 -1.2498066169252786e+01  3.2852361983623637e-02  7.2940728876487441e+01  3.0962723984113160e-02 -9.8822213555601138e+01
1.000000000000000e-01  3.4019141923641069e-02 -1.0805015220114723e+02  3.6654894518493783e-02  7.9860640019314943e+01  9.9587928535882642e-01 -1.3886146692230939e+01  6.6476654285820141e-03 -9.3064218430191730e+01
                         3.6654894518493825e-02  7.9860640019314943e+01  3.4019141923641097e-02 -1.0805015220114726e+02  6.6476654285820081e-03 -9.3064218430191701e+01  9.9587928535882664e-01 -1.3886146692230932e+01
                         9.9587928535882675e-01 -1.3886146692230916e+01  6.6476654285820471e-03 -9.3064218430193108e+01  3.4140122691722410e-02 -1.0020234313610418e+02  3.6550509653722946e-02  7.1655331946585648e+01
                         6.6476654285820436e-03 -9.3064218430193108e+01  9.9587928535882742e-01 -1.3886146692230902e+01  3.6550509653722932e-02  7.1655331946585633e+01  3.4140122691722473e-02 -1.0020234313610418e+02
1.100000000000000e-01  3.7100916012074138e-02 -1.0935115755321632e+02  4.0382119025646250e-02  7.8478925127827409e+01  9.9537918797199132e-01 -1.5274072212349077e+01  7.4144573574458873e-03 -9.3683014643984251e+01
                         4.0382119025646250e-02  7.8478925127827409e+01  3.7100916012074124e-02 -1.0935115755321634e+02  7.4144573574458821e-03 -9.3683014643984251e+01  9.9537918797199154e-01 -1.5274072212349084e+01
                         9.9537918797199210e-01 -1.5274072212348862e+01  7.4144573574458717e-03 -9.3683014643984976e+01  3.7239001720264314e-02 -1.0153956620142962e+02  4.0265819196621130e-02  7.0354174795799821e+01
                         7.4144573574458743e-03 -9.3683014643984919e+01  9.9537918797199199e-01 -1.5274072212348875e+01  4.0265819196621144e-02  7.0354174795799779e+01  3.7239001720264321e-02 -1.0153956620142965e+02
1.200000000000000e-01  4.0096939083876543e-02 -1.1066814876304709e+02  4.4130232017916535e-02  7.7124727564526239e+01  9.9485911518289161e-01 -1.6661847952633458e+01  8.2085453170570553e-03 -9.4349584221144355e+01
                         4.4130232017916542e-02  7.7124727564526211e+01  4.0096939083876543e-02 -1.1066814876304709e+02  8.2085453170570449e-03 -9.4349584221144312e+01  9.9485911518289127e-01 -1.6661847952633455e+01
                         9.9485911518289161e-01 -1.6661847952633309e+01  8.2085453170570553e-03 -9.4349584221143431e+01  4.0253859844088184e-02 -1.0285613114107350e+02  4.3998368085773697e-02  6.9022358260098571e+01
                         8.2085453170570762e-03 -9.4349584221143445e+01  9.9485911518289138e-01 -1.6661847952633330e+01  4.3998368085773690e-02  6.9022358260098599e+01  4.0253859844088163e-02 -1.0285613114107353e+02
1.300000000000000e-01  4.3001332503502104e-02 -1.1200350213658895e+02  4.7892800147082269e-02  7.5769545962946879e+01  9.9431985752232410e-01 -1.8049469825240809e+01  9.0310942612594324e-03 -9.5065739711992151e+01
                         4.7892800147082235e-02  7.5769545962946907e+01  4.3001332503502132e-02 -1.1200350213658898e+02  9.0310942612594237e-03 -9.5065739711992165e+01  9.9431985752232477e-01 -1.8049469825240813e+01
                         9.9431985752232377e-01 -1.8049469825240724e+01  9.0310942612593890e-03 -9.5065739711991768e+01  4.3177096540483066e-02 -1.0414896942440642e+02  4.7747644042282170e-02  6.7691072764242719e+01
                         9.0310942612594064e-03 -9.5065739711991824e+01  9.9431985752232432e-01 -1.8049469825240738e+01  4.7747644042282170e-02  6.7691072764242719e+01  4.3177096540483101e-02 -1.0414896942440642e+02
1.400000000000000e-01  4.5807698607375089e-02 -1.1334071675299366e+02  5.1675743541080503e-02  7.4426595232854595e+01  9.9376165517643622e-01 -1.9436950381250256e+01  9.8840725949324183e-03 -9.5833901641298695e+01
                         5.1675743541080503e-02  7.4426595232854623e+01  4.5807698607375130e-02 -1.1334071675299366e+02  9.8840725949324165e-03 -9.5833901641298681e+01  9.9376165517643678e-01 -1.9436950381250256e+01
                         9.9376165517643544e-01 -1.9436950381250099e+01  9.8840725949323246e-03 -9.5833901641300102e+01  4.6004731956322223e-02 -1.0543303121456887e+02  5.1515944081437240e-02  6.6346149304819164e+01
                         9.8840725949323350e-03 -9.5833901641300145e+01  9.9376165517643633e-01 -1.9436950381250075e+01  5.1515944081437240e-02  6.6346149304819150e+01  4.6004731956322251e-02 -1.0543303121456887e+02
1.500000000000000e-01  4.8511449369821220e-02 -1.1468372164977707e+02  5.5473958004081073e-02  7.3074568687621152e+01  9.9318545197741293e-01 -2.0824291533046207e+01  1.0768225359823830e-02 -9.6654677985738175e+01
                         5.5473958004081080e-02  7.3074568687621195e+01  4.8511449369821179e-02 -1.1468372164977703e+02  1.0768225359823823e-02 -9.6654677985738232e+01  9.9318545197741215e-01 -2.0824291533046210e+01
                         9.9318545197741315e-01 -2.0824291533045734e+01  1.0768225359823852e-02 -9.6654677985738374e+01  4.8729334643330513e-02 -1.0670402573411661e+02  5.5300018183733646e-02  6.5009887977187788e+01
                         1.0768225359823844e-02 -9.6654677985738317e+01  9.9318545197741293e-01 -2.0824291533045745e+01  5.5300018183733604e-02  6.5009887977187773e+01  4.8729334643330520e-02 -1.0670402573411661e+02
1.600000000000000e-01  5.1106791074591582e-02 -1.1601986158203916e+02  5.9291128991938363e-02  7.1725638395327238e+01  9.9259154517361581e-01 -2.2211512918566910e+01  1.1685301307496699e-02 -9.7528551936920877e+01
                         5.9291128991938342e-02  7.1725638395327266e+01  5.1106791074591602e-02 -1.1601986158203916e+02  1.1685301307496695e-02 -9.7528551936920863e+01  9.9259154517361603e-01 -2.2211512918566896e+01
                         9.9259154517361536e-01 -2.2211512918566811e+01  1.1685301307496669e-02 -9.7528551936921048e+01  5.1348364421618387e-02 -1.0797303058027150e+02  5.9103647262747888e-02  6.3670174714769473e+01
                         1.1685301307496671e-02 -9.7528551936921005e+01  9.9259154517361581e-01 -2.2211512918566804e+01  5.9103647262747930e-02  6.3670174714769473e+01  5.1348364421618407e-02 -1.0797303058027150e+02
1.700000000000000e-01  5.3590452638731648e-02 -1.1735319415716545e+02  6.3123009073300068e-02  7.0363081643606947e+01  9.9198097974271171e-01 -2.3598622692982186e+01  1.2635637724104877e-02 -9.8455369675300688e+01
                         6.3123009073300082e-02  7.0363081643606947e+01  5.3590452638731696e-02 -1.1735319415716545e+02  1.2635637724104878e-02 -9.8455369675300702e+01  9.9198097974271204e-01 -2.3598622692982186e+01
                         9.9198097974271082e-01 -2.3598622692982204e+01  1.2635637724104887e-02 -9.8455369675300176e+01  5.3854773295417026e-02 -1.0923584217965512e+02  6.2921358870245997e-02  6.2343562764920478e+01
                         1.2635637724104892e-02 -9.8455369675300176e+01  9.9198097974271149e-01 -2.3598622692982175e+01  6.2921358870245955e-02  6.2343562764920463e+01  5.3854773295417109e-02 -1.0923584217965512e+02
1.800000000000000e-01  5.5957424468964262e-02 -1.1867332258649607e+02  6.6971328443991895e-02  6.8997640480490375e+01  9.9135406006947435e-01 -2.4985646954125098e+01  1.3620784960352069e-02 -9.9434219646724472e+01
                         6.6971328443991909e-02  6.8997640480490418e+01  5.5957424468964248e-02 -1.1867332258649607e+02  1.3620784960352067e-02 -9.9434219646724472e+01  9.9135406006947435e-01 -2.4985646954125112e+01
                         9.9135406006947435e-01 -2.4985646954125066e+01  1.3620784960352073e-02 -9.9434219646723491e+01  5.6247411014615167e-02 -1.1050117621535615e+02  6.6757855658928902e-02  6.1020119485597810e+01
                         1.3620784960352081e-02 -9.9434219646723477e+01  9.9135406006947413e-01 -2.4985646954125077e+01  6.6757855658928902e-02  6.1020119485597810e+01  5.6247411014615133e-02 -1.1050117621535615e+02
1.900000000000000e-01  5.8205801688846093e-02 -1.1998391526914418e+02  7.0832370199458122e-02  6.7615846774150043e+01  9.9071189703896123e-01 -2.6372600026349488e+01  1.4640692890751050e-02 -1.0046448546545199e+02
                         7.0832370199458150e-02  6.7615846774150071e+01  5.8205801688846148e-02 -1.1998391526914418e+02  1.4640692890751022e-02 -1.0046448546545194e+02  9.9071189703896168e-01 -2.6372600026349474e+01
                         9.9071189703896112e-01 -2.6372600026349591e+01  1.4640692890750994e-02 -1.0046448546545149e+02  5.8519809232639206e-02 -1.1176537508786033e+02  7.0605879079690945e-02  5.9712319113279740e+01
                         1.4640692890751037e-02 -1.0046448546545149e+02  9.9071189703896134e-01 -2.6372600026349570e+01  7.0605879079691000e-02  5.9712319113279740e+01  5.8519809232639199e-02 -1.1176537508786031e+02
2.000000000000000e-01  6.0331533573112592e-02 -1.2127602663398423e+02  7.4706114425207457e-02  6.6227009680160592e+01  9.9005476622369071e-01 -2.7759513507294109e+01  1.5696738924650327e-02 -1.0154425233407565e+02
                         7.4706114425207457e-02  6.6227009680160592e+01  6.0331533573112620e-02 -1.2127602663398423e+02  1.5696738924650309e-02 -1.0154425233407567e+02  9.9005476622369093e-01 -2.7759513507294098e+01
                         9.9005476622369137e-01 -2.7759513507294468e+01  1.5696738924650372e-02 -1.0154425233407601e+02  6.0672165261349179e-02 -1.1303556988825476e+02  7.4470589899318665e-02  5.8412211672344867e+01
                         1.5696738924650355e-02 -1.0154425233407599e+02  9.9005476622369182e-01 -2.7759513507294443e+01  7.4470589899318679e-02  5.8412211672344881e+01  6.0672165261349185e-02 -1.1303556988825476e+02
2.100000000000000e-01  6.2334140157890711e-02 -1.2255274354149194e+02  7.8589133727025709e-02  6.4820142770712351e+01  9.8938382013327775e-01 -2.9146407563035922e+01  1.6788510612312142e-02 -1.0267266109358869e+02
                         7.8589133727025695e-02  6.4820142770712323e+01  6.2334140157890690e-02 -1.2255274354149194e+02  1.6788510612312142e-02 -1.0267266109358867e+02  9.8938382013327741e-01 -2.9146407563035947e+01
                         9.8938382013327864e-01 -2.9146407563035819e+01  1.6788510612312128e-02 -1.0267266109358800e+02  6.2698770546982224e-02 -1.1430880911386521e+02  7.8343332437144753e-02  5.7129209381787838e+01
                         1.6788510612312128e-02 -1.0267266109358803e+02  9.8938382013327852e-01 -2.9146407563035858e+01  7.8343332437144780e-02  5.7129209381787824e+01  6.2698770546982099e-02 -1.1430880911386528e+02
2.200000000000000e-01  6.4210699269037705e-02 -1.2380611457619085e+02  8.2479825215772296e-02  6.3403231305167658e+01  9.8869928009841668e-01 -3.0533318078766207e+01  1.7917238830900347e-02 -1.0384708775892500e+02
                         8.2479825215772309e-02  6.3403231305167623e+01  6.4210699269037746e-02 -1.2380611457619082e+02  1.7917238830900347e-02 -1.0384708775892501e+02  9.8869928009841657e-01 -3.0533318078766190e+01
                         9.8869928009841590e-01 -3.0533318078766179e+01  1.7917238830900361e-02 -1.0384708775892442e+02  6.4601125662364048e-02 -1.1559109210050806e+02  8.2229327791469117e-02  5.5857071949621975e+01
                         1.7917238830900396e-02 -1.0384708775892443e+02  9.8869928009841634e-01 -3.0533318078766161e+01  8.2229327791469145e-02  5.5857071949621989e+01  6.4601125662364048e-02 -1.1559109210050806e+02
2.300000000000000e-01  6.5962218393748329e-02 -1.2503858280131072e+02  8.6374863880189959e-02  6.1967273409732108e+01  9.8800232487676332e-01 -3.1920270566327467e+01  1.9082176616104486e-02 -1.0506659162268757e+02
                         8.6374863880189862e-02  6.1967273409732130e+01  6.5962218393748370e-02 -1.2503858280131072e+02  1.9082176616104490e-02 -1.0506659162268757e+02  9.8800232487676387e-01 -3.1920270566327453e+01
                         9.8800232487676376e-01 -3.1920270566327488e+01  1.9082176616104566e-02 -1.0506659162268777e+02  6.6374447878299714e-02 -1.1688022075527977e+02  8.6118879179818156e-02  5.4602838481766568e+01
                         1.9082176616104545e-02 -1.0506659162268772e+02  9.8800232487676398e-01 -3.1920270566327471e+01  8.6118879179818128e-02  5.4602838481766568e+01  6.6374447878299728e-02 -1.1688022075527977e+02
