# GHz S MA R 50

1.000000000000000e-03  1.0491589141952925e-03 -9.2200567599052761e+01  9.9989455665855032e-01 -1.6123814244101517e-01  9.9989455665855054e-01 -1.6123814244101517e-01  1.0491589141952971e-03 -9.2200567599060349e+01
2.000000000000000e-03  2.0577990711856601e-03 -9.1896550247182518e+01  9.9983716532191325e-01 -3.2077396076588693e-01  9.9983716532191336e-01 -3.2077396076588688e-01  2.0577990711856584e-03 -9.1896550247180969e+01
3.000000000000000e-03  3.0512813700382443e-03 -9.1850976696524427e+01  9.9978670101942912e-01 -4.7966604697738441e-01  9.9978670101942890e-01 -4.7966604697738446e-01  3.0512813700382434e-03 -9.1850976696524953e+01
4.000000000000000e-03  4.0348913705235603e-03 -9.1887959950185532e+01  9.9973935441120210e-01 -6.3813936328674781e-01  9.9973935441120176e-01 -6.3813936328674825e-01  4.0348913705235611e-03 -9.1887959950185532e+01
5.000000000000000e-03  5.0111371089454071e-03 -9.1963432795548783e+01  9.9969366378576541e-01 -7.9630068287839417e-01  9.9969366378576585e-01 -7.9630068287839417e-01  5.0111371089454045e-03 -9.1963432795547519e+01
6.000000000000000e-03  5.9814940496395090e-03 -9.2060445854308099e+01  9.9964888609140601e-01 -9.5421283548935365e-01  9.9964888609140601e-01 -9.5421283548935365e-01  5.9814940496395099e-03 -9.2060445854308099e+01
7.000000000000000e-03  6.9469357056033800e-03 -9.2170914346462567e+01  9.9960458385350259e-01 -1.1119172875624506e+00  9.9960458385350270e-01 -1.1119172875624501e+00  6.9469357056033791e-03 -9.2170914346463036e+01
8.000000000000000e-03  7.9081527855138518e-03 -9.2290432912140560e+01  9.9956047466516063e-01 -1.2694434685778182e+00  9.9956047466516051e-01 -1.2694434685778180e+00  7.9081527855138587e-03 -9.2290432912142364e+01
9.000000000000001e-03  8.8656606870491702e-03 -9.2416371532970501e+01  9.9951636426320623e-01 -1.4268133459207255e+00  9.9951636426320578e-01 -1.4268133459207255e+00  8.8656606870491719e-03 -9.2416371532971212e+01
1.000000000000000e-02  9.8198585418351244e-03 -9.2547051503343056e+01  9.9947211264586211e-01 -1.5840439378998357e+00  9.9947211264586211e-01 -1.5840439378998357e+00  9.8198585418351192e-03 -9.2547051503342743e+01
1.100000000000000e-02  1.0771064384316980e-02 -9.2681345051162594e+01  9.9942761525854207e-01 -1.7411488106157818e+00  9.9942761525854218e-01 -1.7411488106157818e+00  1.0771064384316974e-02 -9.2681345051162594e+01
1.200000000000000e-02  1.1719537420162554e-02 -9.2818463209818646e+01  9.9938279179472211e-01 -1.8981390257781925e+00  9.9938279179472211e-01 -1.8981390257781923e+00  1.1719537420162553e-02 -9.2818463209818646e+01
1.300000000000000e-02  1.2665492818670448e-02 -9.2957835587149447e+01  9.9933757915719468e-01 -2.0550237703325216e+00  9.9933757915719468e-01 -2.0550237703325216e+00  1.2665492818670455e-02 -9.2957835587149575e+01
1.400000000000000e-02  1.3609111926383297e-02 -9.3099038427948443e+01  9.9929192683630086e-01 -2.2118107912024469e+00  9.9929192683630119e-01 -2.2118107912024465e+00  1.3609111926383295e-02 -9.3099038427948443e+01
1.500000000000000e-02  1.4550549547640053e-02 -9.3241749612701625e+01  9.9924579376378309e-01 -2.3685067051921731e+00  9.9924579376378331e-01 -2.3685067051921722e+00  1.4550549547640058e-02 -9.3241749612701312e+01
1.600000000000000e-02  1.5489939275094573e-02 -9.3385719437705333e+01  9.9919914610547267e-01 -2.5251172258881933e+00  9.9919914610547256e-01 -2.5251172258881933e+00  1.5489939275094572e-02 -9.3385719437705532e+01
1.700000000000000e-02  1.6427397482465238e-02 -9.3530751031556917e+01  9.9915195567229753e-01 -2.6816473336199831e+00  9.9915195567229742e-01 -2.6816473336199835e+00  1.6427397482465238e-02 -9.3530751031557202e+01
1.800000000000000e-02  1.7363026374604081e-02 -9.3676686867058024e+01  9.9910419875082779e-01 -2.8381014052958289e+00  9.9910419875082779e-01 -2.8381014052958289e+00  1.7363026374604081e-02 -9.3676686867057825e+01
1.900000000000000e-02  1.8296916357697278e-02 -9.3823399248175178e+01  9.9905585522577822e-01 -2.9944833152999291e+00  9.9905585522577778e-01 -2.9944833152999291e+00  1.8296916357697274e-02 -9.3823399248175107e+01
2.000000000000000e-02  1.9229147909091440e-02 -9.3970783459160543e+01  9.9900690791035696e-01 -3.1507965150907662e+00  9.9900690791035696e-01 -3.1507965150907671e+00  1.9229147909091446e-02 -9.3970783459160543e+01
2.100000000000000e-02  2.0159793072205136e-02 -9.4118752738834701e+01  9.9895734202749753e-01 -3.3070440968408712e+00  9.9895734202749742e-01 -3.3070440968408703e+00  2.0159793072205154e-02 -9.4118752738834701e+01
2.200000000000000e-02  2.1088916666027618e-02 -9.4267234532620478e+01  9.9890714480253251e-01 -3.4632288449274848e+00  9.9890714480253218e-01 -3.4632288449274840e+00  2.1088916666027607e-02 -9.4267234532620478e+01
2.300000000000000e-02  2.2016577274226314e-02 -9.4416167655724550e+01  9.9885630513953694e-01 -3.6193532780419142e+00  9.9885630513953694e-01 -3.6193532780419160e+00  2.2016577274226321e-02 -9.4416167655724621e+01
2.400000000000000e-02  2.2942828061881949e-02 -9.4565500117203413e+01  9.9880481336131699e-01 -3.7754196839613523e+00  9.9880481336131710e-01 -3.7754196839613510e+00  2.2942828061881936e-02 -9.4565500117203541e+01
2.500000000000000e-02  2.3867717455834193e-02 -9.4715187430546578e+01  9.9875266099848148e-01 -3.9314301485148895e+00  9.9875266099848159e-01 -3.9314301485148890e+00  2.3867717455834190e-02 -9.4715187430546393e+01
2.600000000000000e-02  2.4791289715967745e-02 -9.4865191287468193e+01  9.9869984061677586e-01 -4.0873865799070499e+00  9.9869984061677564e-01 -4.0873865799070499e+00  2.4791289715967751e-02 -9.4865191287468321e+01
2.700000000000000e-02  2.5713585418450480e-02 -9.5015478506250034e+01  9.9864634567458610e-01 -4.2432907292931317e+00  9.9864634567458610e-01 -4.2432907292931326e+00  2.5713585418450490e-02 -9.5015478506250034e+01
2.800000000000000e-02  2.6634641867253585e-02 -9.5166020190006776e+01  9.9859217040442805e-01 -4.3991442083016050e+00  9.9859217040442794e-01 -4.3991442083016050e+00  2.6634641867253585e-02 -9.5166020190006776e+01
2.900000000000000e-02  2.7554493446783009e-02 -9.5316791047187522e+01  9.9853730971372323e-01 -4.5549485040495199e+00  9.9853730971372345e-01 -4.5549485040495208e+00  2.7554493446783002e-02 -9.5316791047187422e+01
3.000000000000000e-02  2.8473171925789291e-02 -9.5467768838709546e+01  9.9848175910116621e-01 -4.7107049920838504e+00  9.9848175910116665e-01 -4.7107049920838477e+00  2.8473171925789291e-02 -9.5467768838709432e+01
3.100000000000000e-02  2.9390706720689011e-02 -9.5618933924756064e+01  9.9842551458583373e-01 -4.8664149475948459e+00  9.9842551458583395e-01 -4.8664149475948477e+00  2.9390706720689001e-02 -9.5618933924756007e+01
3.200000000000000e-02  3.0307125124851814e-02 -9.5770268890792025e+01  9.9836857264671330e-01 -5.0220795551805422e+00  9.9836857264671308e-01 -5.0220795551805431e+00  3.0307125124851821e-02 -9.5770268890791897e+01
3.300000000000000e-02  3.1222452509179058e-02 -9.5921758236934693e+01  9.9831093017092454e-01 -5.1776999173889422e+00  9.9831093017092476e-01 -5.1776999173889422e+00  3.1222452509179072e-02 -9.5921758236934693e+01
3.400000000000000e-02  3.2136712498330409e-02 -9.6073388118413703e+01  9.9825258440910858e-01 -5.3332770622235328e+00  9.9825258440910902e-01 -5.3332770622235319e+00  3.2136712498330416e-02 -9.6073388118413618e+01
3.500000000000000e-02  3.3049927126180934e-02 -9.6225146127526315e+01  9.9819353293683477e-01 -5.4888119497645009e+00  9.9819353293683488e-01 -5.4888119497645009e+00  3.3049927126180954e-02 -9.6225146127526315e+01
3.600000000000000e-02  3.3962116973484384e-02 -9.6377021109467918e+01  9.9813377362109079e-01 -5.6443054780323214e+00  9.9813377362109090e-01 -5.6443054780323187e+00  3.3962116973484363e-02 -9.6377021109468032e+01
3.700000000000001e-02  3.4873301290211711e-02 -9.6529003006026016e+01  9.9807330459104060e-01 -5.7997584881989317e+00  9.9807330459104071e-01 -5.7997584881989317e+00  3.4873301290211711e-02 -9.6529003006026130e+01
3.800000000000000e-02  3.5783498104642243e-02 -9.6681082722288522e+01  9.9801212421243513e-01 -5.9551717692348118e+00  9.9801212421243524e-01 -5.9551717692348101e+00  3.5783498104642236e-02 -9.6681082722288522e+01
3.900000000000000e-02  3.6692724320951477e-02 -9.6833252012489311e+01  9.9795023106512770e-01 -6.1105460620662893e+00  9.9795023106512759e-01 -6.1105460620662857e+00  3.6692724320951470e-02 -9.6833252012489396e+01
4.000000000000000e-02  3.7600995806770517e-02 -9.6985503381849426e+01  9.9788762392324093e-01 -6.2658820633058188e+00  9.9788762392324082e-01 -6.2658820633058196e+00  3.7600995806770510e-02 -9.6985503381849611e+01
4.100000000000000e-02  3.8508327471975176e-02 -9.7137830001812588e+01  9.9782430173764103e-01 -6.4211804286088201e+00  9.9782430173764136e-01 -6.4211804286088201e+00  3.8508327471975162e-02 -9.7137830001812759e+01
4.200000000000000e-02  3.9414733339773342e-02 -9.7290225636600212e+01  9.9776026362038894e-01 -6.5764417757025564e+00  9.9776026362038883e-01 -6.5764417757025591e+00  3.9414733339773342e-02 -9.7290225636600283e+01
4.300000000000000e-02  4.0320226611008814e-02 -9.7442684579333516e+01  9.9769550883090430e-01 -6.7316666871261432e+00  9.9769550883090397e-01 -6.7316666871261432e+00  4.0320226611008807e-02 -9.7442684579333417e+01
4.400000000000000e-02  4.1224819722472682e-02 -9.7595201596309778e+01  9.9763003676362205e-01 -6.8868557127153638e+00  9.9763003676362194e-01 -6.8868557127153638e+00  4.1224819722472675e-02 -9.7595201596309778e+01
4.500000000000001e-02  4.2128524399901932e-02 -9.7747771878207487e+01  9.9756384693695899e-01 -7.0420093718612851e+00  9.9756384693695910e-01 -7.0420093718612842e+00  4.2128524399901918e-02 -9.7747771878207530e+01
4.600000000000001e-02  4.3031351706259442e-02 -9.7900390997253012e+01  9.9749693898342040e-01 -7.1971281555678273e+00  9.9749693898342084e-01 -7.1971281555678273e+00  4.3031351706259442e-02 -9.7900390997253041e+01
4.700000000000000e-02  4.3933312085805420e-02 -9.8053054869503924e+01  9.9742931264070445e-01 -7.3522125283301536e+00  9.9742931264070500e-01 -7.3522125283301500e+00  4.3933312085805420e-02 -9.8053054869503910e+01
4.800000000000000e-02  4.4834415404410487e-02 -9.8205759721539664e+01  9.9736096774369620e-01 -7.5072629298530344e+00  9.9736096774369598e-01 -7.5072629298530309e+00  4.4834415404410508e-02 -9.8205759721539664e+01
4.900000000000000e-02  4.5734670986502496e-02 -9.8358502060975411e+01  9.9729190421722214e-01 -7.6622797766257351e+00  9.9729190421722169e-01 -7.6622797766257351e+00  4.5734670986502489e-02 -9.8358502060975539e+01
5.000000000000000e-02  4.6634087648991400e-02 -9.8511278650286698e+01  9.9722212206954264e-01 -7.8172634633682572e+00  9.9722212206954297e-01 -7.8172634633682572e+00  4.6634087648991400e-02 -9.8511278650286684e+01
5.100000000000000e-02  4.7532673732472046e-02 -9.8664086483523391e+01  9.9715162138638458e-01 -7.9722143643616414e+00  9.9715162138638447e-01 -7.9722143643616450e+00  4.7532673732472032e-02 -9.8664086483523320e+01
5.200000000000000e-02  4.8430437129976467e-02 -9.8816922765536276e+01  9.9708040232558870e-01 -8.1271328346738212e+00  9.9708040232558848e-01 -8.1271328346738212e+00  4.8430437129976474e-02 -9.8816922765536347e+01
5.300000000000001e-02  4.9327385313507388e-02 -9.8969784893416644e+01  9.9700846511220398e-01 -8.2820192112910593e+00  9.9700846511220398e-01 -8.2820192112910558e+00  4.9327385313507381e-02 -9.8969784893416573e+01
5.400000000000001e-02  5.0223525358565307e-02 -9.9122670439865033e+01  9.9693581003401177e-01 -8.4368738141638477e+00  9.9693581003401155e-01 -8.4368738141638477e+00  5.0223525358565307e-02 -9.9122670439865004e+01
5.500000000000000e-02  5.1118863966855069e-02 -9.9275577138269099e+01  9.9686243743746694e-01 -8.5916969471752083e+00  9.9686243743746716e-01 -8.5916969471752065e+00  5.1118863966855083e-02 -9.9275577138269227e+01
5.600000000000000e-02  5.2013407487336065e-02 -9.9428502869273402e+01  9.9678834772397140e-01 -8.7464888990385621e+00  9.9678834772397162e-01 -8.7464888990385621e+00  5.2013407487336072e-02 -9.9428502869273458e+01
5.700000000000000e-02  5.2907161935764412e-02 -9.9581445648687350e+01  9.9671354134644752e-01 -8.9012499441312514e+00  9.9671354134644752e-01 -8.9012499441312514e+00  5.2907161935764405e-02 -9.9581445648687378e+01
5.800000000000000e-02  5.3800133012862600e-02 -9.9734403616562076e+01  9.9663801880622194e-01 -9.0559803432695372e+00  9.9663801880622183e-01 -9.0559803432695460e+00  5.3800133012862600e-02 -9.9734403616562176e+01
5.900000000000000e-02  5.4692326121231052e-02 -9.9887375027319024e+01  9.9656178065014589e-01 -9.2106803444301821e+00  9.9656178065014589e-01 -9.2106803444301839e+00  5.4692326121231087e-02 -9.9887375027319081e+01
6.000000000000000e-02  5.5583746381109876e-02 -1.0004035824079870e+02  9.9648482746794209e-01 -9.3653501834227963e+00  9.9648482746794220e-01 -9.3653501834227928e+00  5.5583746381109848e-02 -1.0004035824079875e+02
6.100000000000001e-02  5.6474398645088568e-02 -1.0019335171414639e+02  9.9640715988978246e-01 -9.5199900845175325e+00  9.9640715988978235e-01 -9.5199900845175307e+00  5.6474398645088582e-02 -1.0019335171414630e+02
6.200000000000001e-02  5.7364287511847578e-02 -1.0034635399442975e+02  9.9632877858402702e-01 -9.6746002610314825e+00  9.9632877858402713e-01 -9.6746002610314843e+00  5.7364287511847585e-02 -1.0034635399442975e+02
6.300000000000000e-02  5.8253417339010266e-02 -1.0049936371193073e+02  9.9624968425515237e-01 -9.8291809158771439e+00  9.9624968425515215e-01 -9.8291809158771457e+00  5.8253417339010238e-02 -1.0049936371193074e+02
6.400000000000000e-02  5.9141792255178655e-02 -1.0065237957401352e+02  9.9616987764182940e-01 -9.9837322420760337e+00  9.9616987764182952e-01 -9.9837322420760337e+00  5.9141792255178648e-02 -1.0065237957401342e+02
6.500000000000000e-02  6.0029416171212685e-02 -1.0080540035954435e+02  9.9608935951514987e-01 -1.0138254423240229e+01  9.9608935951515021e-01 -1.0138254423240229e+01  6.0029416171212699e-02 -1.0080540035954444e+02
6.600000000000000e-02  6.0916292790814508e-02 -1.0095842491377869e+02  9.9600813067696636e-01 -1.0292747634024156e+01  9.9600813067696625e-01 -1.0292747634024165e+01  6.0916292790814522e-02 -1.0095842491377867e+02
6.700000000000002e-02  6.1802425620469524e-02 -1.0111145214368284e+02  9.9592619195837861e-01 -1.0447212040548989e+01  9.9592619195837873e-01 -1.0447212040548989e+01  6.1802425620469538e-02 -1.0111145214368288e+02
6.800000000000000e-02  6.2687817978791333e-02 -1.0126448101364954e+02  9.9584354421828991e-01 -1.0601647800801645e+01  9.9584354421828980e-01 -1.0601647800801643e+01  6.2687817978791360e-02 -1.0126448101364954e+02
6.900000000000001e-02  6.3572473005316349e-02 -1.0141751054156288e+02  9.9576018834210600e-01 -1.0756055065010338e+01  9.9576018834210600e-01 -1.0756055065010335e+01  6.3572473005316404e-02 -1.0141751054156293e+02
7.000000000000001e-02  6.4456393668787276e-02 -1.0157053979518146e+02  9.9567612524048199e-01 -1.0910433975998332e+01  9.9567612524048188e-01 -1.0910433975998327e+01  6.4456393668787304e-02 -1.0157053979518146e+02
7.100000000000001e-02  6.5339582774959659e-02 -1.0172356788881409e+02  9.9559135584819003e-01 -1.1064784669517346e+01  9.9559135584819047e-01 -1.1064784669517339e+01  6.5339582774959715e-02 -1.0172356788881405e+02
7.200000000000001e-02  6.6222042973970163e-02 -1.0187659398025518e+02  9.9550588112303939e-01 -1.1219107274562290e+01  9.9550588112303939e-01 -1.1219107274562292e+01  6.6222042973970191e-02 -1.0187659398025512e+02
7.300000000000001e-02  6.7103776767293066e-02 -1.0202961726796106e+02  9.9541970204487307e-01 -1.1373401913668461e+01  9.9541970204487329e-01 -1.1373401913668461e+01  6.7103776767293052e-02 -1.0202961726796102e+02
7.400000000000001e-02  6.7984786514313361e-02 -1.0218263698844072e+02  9.9533281961463616e-01 -1.1527668703192312e+01  9.9533281961463604e-01 -1.1527668703192308e+01  6.7984786514313306e-02 -1.0218263698844068e+02
7.500000000000001e-02  6.8865074438544199e-02 -1.0233565241384740e+02  9.9524523485349670e-01 -1.1681907753577228e+01  9.9524523485349670e-01 -1.1681907753577228e+01  6.8865074438544227e-02 -1.0233565241384740e+02
7.600000000000000e-02  6.9744642633513168e-02 -1.0248866284975156e+02  9.9515694880201833e-01 -1.1836119169604943e+01  9.9515694880201844e-01 -1.1836119169604942e+01  6.9744642633513140e-02 -1.0248866284975158e+02
7.700000000000000e-02  7.0623493068335819e-02 -1.0264166763307246e+02  9.9506796251940077e-01 -1.1990303050633811e+01  9.9506796251940088e-01 -1.1990303050633811e+01  7.0623493068335860e-02 -1.0264166763307254e+02
7.800000000000000e-02  7.1501627592998329e-02 -1.0279466613017033e+02  9.9497827708275044e-01 -1.2144459490824598e+01  9.9497827708275055e-01 -1.2144459490824600e+01  7.1501627592998357e-02 -1.0279466613017024e+02
7.900000000000000e-02  7.2379047943370994e-02 -1.0294765773506744e+02  9.9488789358639651e-01 -1.2298588579354824e+01  9.9488789358639695e-01 -1.2298588579354824e+01  7.2379047943371036e-02 -1.0294765773506747e+02
8.000000000000000e-02  7.3255755745964587e-02 -1.0310064186780426e+02  9.9479681314125767e-01 -1.2452690400622064e+01  9.9479681314125812e-01 -1.2452690400622064e+01  7.3255755745964532e-02 -1.0310064186780430e+02
8.100000000000000e-02  7.4131752522448621e-02 -1.0325361797290726e+02  9.9470503687423795e-01 -1.2606765034437235e+01  9.9470503687423784e-01 -1.2606765034437229e+01  7.4131752522448621e-02 -1.0325361797290722e+02
8.200000000000000e-02  7.5007039693947300e-02 -1.0340658551795984e+02  9.9461256592766323e-01 -1.2760812556208149e+01  9.9461256592766356e-01 -1.2760812556208149e+01  7.5007039693947272e-02 -1.0340658551795988e+02
8.300000000000000e-02  7.5881618585123156e-02 -1.0355954399228325e+02  9.9451940145874018e-01 -1.2914833037114363e+01  9.9451940145873985e-01 -1.2914833037114365e+01  7.5881618585123198e-02 -1.0355954399228325e+02
8.400000000000001e-02  7.6755490428063067e-02 -1.0371249290569477e+02  9.9442554463905508e-01 -1.3068826544273326e+01  9.9442554463905508e-01 -1.3068826544273326e+01  7.6755490428063039e-02 -1.0371249290569487e+02
8.500000000000001e-02  7.7628656365981555e-02 -1.0386543178735954e+02  9.9433099665409885e-01 -1.3222793140898764e+01  9.9433099665409896e-01 -1.3222793140898768e+01  7.7628656365981541e-02 -1.0386543178735954e+02
8.600000000000001e-02  7.8501117456746330e-02 -1.0401836018471060e+02  9.9423575870281800e-01 -1.3376732886451544e+01  9.9423575870281811e-01 -1.3376732886451542e+01  7.8501117456746289e-02 -1.0401836018471062e+02
8.700000000000001e-02  7.9372874676238894e-02 -1.0417127766244997e+02  9.9413983199717759e-01 -1.3530645836783625e+01  9.9413983199717770e-01 -1.3530645836783625e+01  7.9372874676238936e-02 -1.0417127766244995e+02
8.800000000000001e-02  8.0243928921564067e-02 -1.0432418380160472e+02  9.9404321776177373e-01 -1.3684532044275180e+01  9.9404321776177385e-01 -1.3684532044275187e+01  8.0243928921564053e-02 -1.0432418380160466e+02
8.900000000000001e-02  8.1114281014106740e-02 -1.0447707819865087e+02  9.9394591723343650e-01 -1.3838391557965702e+01  9.9394591723343650e-01 -1.3838391557965702e+01  8.1114281014106768e-02 -1.0447707819865093e+02
9.000000000000001e-02  8.1983931702458143e-02 -1.0462996046469270e+02  9.9384793166087959e-01 -1.3992224423679053e+01  9.9384793166087937e-01 -1.3992224423679051e+01  8.1983931702458088e-02 -1.0462996046469270e+02
9.100000000000001e-02  8.2852881665203951e-02 -1.0478283022468932e+02  9.9374926230434524e-01 -1.4146030684143014e+01  9.9374926230434524e-01 -1.4146030684143014e+01  8.2852881665203923e-02 -1.0478283022468935e+02
9.200000000000001e-02  8.3721131513597294e-02 -1.0493568711673599e+02  9.9364991043528250e-01 -1.4299810379103651e+01  9.9364991043528239e-01 -1.4299810379103651e+01  8.3721131513597322e-02 -1.0493568711673598e+02
9.300000000000000e-02  8.4588681794106557e-02 -1.0508853079138648e+02  9.9354987733603184e-01 -1.4453563545434514e+01  9.9354987733603206e-01 -1.4453563545434520e+01  8.4588681794106585e-02 -1.0508853079138649e+02
