# GHz S MA R 50

1.000000000000000e-02  9.1614600140455769e-03 -9.2587424880837119e+01  3.2282031383905618e-03  8.7195583888984288e+01  9.9945698850954334e-01 -1.5463650023920896e+00  1.7103442849630276e-04  6.0470385165423210e+01
                         3.2282031383905597e-03  8.7195583888984288e+01  9.1614600140455752e-03 -9.2587424880837119e+01  1.7103442849630265e-04  6.0470385165423167e+01  9.9945698850954334e-01 -1.5463650023920901e+00
                         9.9945698850954334e-01 -1.5463650023920901e+00  1.7103442849630271e-04  6.0470385165423188e+01  9.1614600140455804e-03 -9.2587424880837119e+01  3.2282031383905597e-03  8.7195583888984288e+01
                         1.7103442849630281e-04  6.0470385165423210e+01  9.9945698850954334e-01 -1.5463650023920901e+00  3.2282031383905592e-03  8.7195583888984288e+01  9.1614600140455752e-03 -9.2587424880837119e+01
2.000000000000000e-02  1.8312938381391676e-02 -9.3969882016605794e+01  6.4502273887254279e-03  8.5869877238537455e+01  9.9897529288629972e-01 -3.0924323414409427e+00  3.5747405885625997e-04  5.3167013629909036e+01
                         6.4502273887254279e-03  8.5869877238537470e+01  1.8312938381391673e-02 -9.3969882016605794e+01  3.5747405885625991e-04  5.3167013629909036e+01  9.9897529288630016e-01 -3.0924323414409387e+00
                         9.9897529288629972e-01 -3.0924323414409427e+00  3.5747405885625986e-04  5.3167013629909050e+01  1.8312938381391686e-02 -9.3969882016605780e+01  6.4502273887254279e-03  8.5869877238537470e+01
                         3.5747405885625975e-04  5.3167013629909015e+01  9.9897529288630005e-01 -3.0924323414409387e+00  6.4502273887254279e-03  8.5869877238537470e+01  1.8312938381391683e-02 -9.3969882016605780e+01
3.000000000000000e-02  2.7451484512823140e-02 -9.5442866489501910e+01  9.6621054925276027e-03  8.4414836735644499e+01  9.9842373201250068e-01 -4.6380324372937949e+00  5.7808242660126489e-04  4.4256175258015297e+01
                         9.6621054925276010e-03  8.4414836735644499e+01  2.7451484512823143e-02 -9.5442866489501910e+01  5.7808242660126511e-04  4.4256175258015340e+01  9.9842373201250079e-01 -4.6380324372937958e+00
                         9.9842373201250090e-01 -4.6380324372937949e+00  5.7808242660126511e-04  4.4256175258015325e+01  2.7451484512823150e-02 -9.5442866489501910e+01  9.6621054925276097e-03  8.4414836735644499e+01
                         5.7808242660126478e-04  4.4256175258015311e+01  9.9842373201250056e-01 -4.6380324372937958e+00  9.6621054925276097e-03  8.4414836735644499e+01  2.7451484512823154e-02 -9.5442866489501910e+01
4.000000000000000e-02  3.6572908478747591e-02 -9.6944273027596736e+01  1.2859190468156735e-02  8.2920133178223907e+01  9.9779038591635472e-01 -6.1829854254970993e+00  8.4224014964997184e-04  3.5745998424555914e+01
                         1.2859190468156735e-02  8.2920133178223907e+01  3.6572908478747591e-02 -9.6944273027596708e+01  8.4224014964997195e-04  3.5745998424555935e+01  9.9779038591635461e-01 -6.1829854254970975e+00
                         9.9779038591635472e-01 -6.1829854254970993e+00  8.4224014964997163e-04  3.5745998424555900e+01  3.6572908478747598e-02 -9.6944273027596708e+01  1.2859190468156752e-02  8.2920133178223935e+01
                         8.4224014964997109e-04  3.5745998424555864e+01  9.9779038591635405e-01 -6.1829854254971002e+00  1.2859190468156758e-02  8.2920133178223935e+01  3.6572908478747584e-02 -9.6944273027596708e+01
5.000000000000000e-02  4.5672919457780167e-02 -9.8458315585112942e+01  1.6036816650952621e-02  8.1408800407566503e+01  9.9707116764819093e-01 -7.7271103095221685e+00  1.1562959217743948e-03  2.8030193642401446e+01
                         1.6036816650952624e-02  8.1408800407566503e+01  4.5672919457780174e-02 -9.8458315585112913e+01  1.1562959217743965e-03  2.8030193642401464e+01  9.9707116764819104e-01 -7.7271103095221658e+00
                         9.9707116764819070e-01 -7.7271103095221685e+00  1.1562959217743963e-03  2.8030193642401464e+01  4.5672919457780202e-02 -9.8458315585112970e+01  1.6036816650952631e-02  8.1408800407566318e+01
                         1.1562959217743950e-03  2.8030193642401422e+01  9.9707116764819104e-01 -7.7271103095221676e+00  1.6036816650952641e-02  8.1408800407566332e+01  4.5672919457780195e-02 -9.8458315585112970e+01
6.000000000000000e-02  5.4747218048942586e-02 -9.9978765487490165e+01  1.9190351422497785e-02  7.9890126359188059e+01  9.9626452184750436e-01 -9.2702270088431877e+00  1.5241924707220687e-03  2.1121162486853024e+01
                         1.9190351422497785e-02  7.9890126359188073e+01  5.4747218048942579e-02 -9.9978765487490165e+01  1.5241924707220676e-03  2.1121162486852917e+01  9.9626452184750391e-01 -9.2702270088431824e+00
                         9.9626452184750414e-01 -9.2702270088431842e+00  1.5241924707220685e-03  2.1121162486852967e+01  5.4747218048942559e-02 -9.9978765487490151e+01  1.9190351422497771e-02  7.9890126359188059e+01
                         1.5241924707220674e-03  2.1121162486853020e+01  9.9626452184750403e-01 -9.2702270088431806e+00  1.9190351422497771e-02  7.9890126359188059e+01  5.4747218048942552e-02 -9.9978765487490151e+01
7.000000000000001e-02  6.3791536004195973e-02 -1.0150252797797150e+02  2.2315221809298541e-02  7.8368895856171832e+01  9.9537007061254112e-01 -1.0812157444756291e+01  1.9482152197200097e-03  1.4922146680601832e+01
                         2.2315221809298541e-02  7.8368895856171832e+01  6.3791536004196056e-02 -1.0150252797797150e+02  1.9482152197200083e-03  1.4922146680601763e+01  9.9537007061254124e-01 -1.0812157444756291e+01
                         9.9537007061254079e-01 -1.0812157444756288e+01  1.9482152197200090e-03  1.4922146680601799e+01  6.3791536004196014e-02 -1.0150252797797148e+02  2.2315221809298527e-02  7.8368895856171818e+01
                         1.9482152197200092e-03  1.4922146680601807e+01  9.9537007061254135e-01 -1.0812157444756291e+01  2.2315221809298531e-02  7.8368895856171832e+01  6.3791536004196014e-02 -1.0150252797797148e+02
8.000000000000000e-02  7.2801660660550369e-02 -1.0302781449492133e+02  2.5406933759164169e-02  7.6848021222784794e+01  9.9438811465633992e-01 -1.2352726318509561e+01  2.4295648034168716e-03  9.3160641950323591e+00
                         2.5406933759164176e-02  7.6848021222784794e+01  7.2801660660550341e-02 -1.0302781449492134e+02  2.4295648034168716e-03  9.3160641950323537e+00  9.9438811465633981e-01 -1.2352726318509569e+01
                         9.9438811465633936e-01 -1.2352726318509557e+01  2.4295648034168699e-03  9.3160641950323662e+00  7.2801660660550327e-02 -1.0302781449492133e+02  2.5406933759164179e-02  7.6848021222784780e+01
                         2.4295648034168694e-03  9.3160641950323893e+00  9.9438811465633947e-01 -1.2352726318509561e+01  2.5406933759164186e-02  7.6848021222784794e+01  7.2801660660550382e-02 -1.0302781449492133e+02
9.000000000000001e-02  8.1773453061385726e-02 -1.0455347077057814e+02  2.8461088319181815e-02  7.5329509940372802e+01  9.9331940702825117e-01 -1.3891761750471892e+01  2.9687360641330058e-03  4.1953178025276205e+00
                         2.8461088319181822e-02  7.5329509940372787e+01  8.1773453061385740e-02 -1.0455347077057814e+02  2.9687360641330054e-03  4.1953178025276312e+00  9.9331940702825117e-01 -1.3891761750471897e+01
                         9.9331940702825106e-01 -1.3891761750471895e+01  2.9687360641330049e-03  4.1953178025276348e+00  8.1773453061385684e-02 -1.0455347077057823e+02  2.8461088319181805e-02  7.5329509940372816e+01
                         2.9687360641330075e-03  4.1953178025276072e+00  9.9331940702825139e-01 -1.3891761750471897e+01  2.8461088319181805e-02  7.5329509940372816e+01  8.1773453061385740e-02 -1.0455347077057823e+02
1.000000000000000e-01  9.0702862783597182e-02 -1.0607868594461424e+02  3.1473396096068994e-02  7.3814884115722961e+01  9.9216503442167481e-01 -1.5429095838533293e+01  3.5657553222384511e-03 -5.3028784717683175e-01
                         3.1473396096069001e-02  7.3814884115722961e+01  9.0702862783597141e-02 -1.0607868594461424e+02  3.5657553222384506e-03 -5.3028784717681421e-01  9.9216503442167459e-01 -1.5429095838533284e+01
                         9.9216503442167470e-01 -1.5429095838533287e+01  3.5657553222384489e-03 -5.3028784717686273e-01  9.0702862783597141e-02 -1.0607868594461424e+02  3.1473396096069001e-02  7.3814884115722933e+01
                         3.5657553222384506e-03 -5.3028784717683464e-01  9.9216503442167481e-01 -1.5429095838533284e+01  3.1473396096069001e-02  7.3814884115722933e+01  9.0702862783597168e-02 -1.0607868594461424e+02
1.100000000000000e-01  9.9585940682928017e-02 -1.0760285131616730e+02  3.4439690530645557e-02  7.2305384655866831e+01  9.9092634730231721e-01 -1.6964565159074109e+01  4.2203267533973011e-03 -4.9335591315203304e+00
                         3.4439690530645529e-02  7.2305384655866831e+01  9.9585940682928017e-02 -1.0760285131616732e+02  4.2203267533973046e-03 -4.9335591315203633e+00  9.9092634730231732e-01 -1.6964565159074112e+01
                         9.9092634730231710e-01 -1.6964565159074112e+01  4.2203267533973028e-03 -4.9335591315203544e+00  9.9585940682928031e-02 -1.0760285131616732e+02  3.4439690530645557e-02  7.2305384655866831e+01
                         4.2203267533972993e-03 -4.9335591315203580e+00  9.9092634730231721e-01 -1.6964565159074105e+01  3.4439690530645557e-02  7.2305384655866831e+01  9.9585940682928073e-02 -1.0760285131616730e+02
1.200000000000000e-01  1.0841885010105919e-01 -1.0912548565434970e+02  3.7355940208274742e-02  7.0802079678482855e+01  9.8960491447992738e-01 -1.8498011220575545e+01  4.9319233909325523e-03 -9.0723870511904483e+00
                         3.7355940208274756e-02  7.0802079678482855e+01  1.0841885010105914e-01 -1.0912548565434970e+02  4.9319233909325523e-03 -9.0723870511904199e+00  9.8960491447992771e-01 -1.8498011220575542e+01
                         9.8960491447992738e-01 -1.8498011220575545e+01  4.9319233909325523e-03 -9.0723870511904021e+00  1.0841885010105907e-01 -1.0912548565434969e+02  3.7355940208274756e-02  7.0802079678482912e+01
                         4.9319233909325532e-03 -9.0723870511904519e+00  9.8960491447992782e-01 -1.8498011220575535e+01  3.7355940208274721e-02  7.0802079678482883e+01  1.0841885010105909e-01 -1.0912548565434970e+02
1.300000000000000e-01  1.1719787679511746e-01 -1.1064619301980282e+02  4.0218260299110152e-02  6.9305926141323567e+01  9.8820249084452272e-01 -2.0029280874267091e+01  5.6998449208771392e-03 -1.2992616447661661e+01
                         4.0218260299110152e-02  6.9305926141323567e+01  1.1719787679511745e-01 -1.1064619301980282e+02  5.6998449208771436e-03 -1.2992616447661655e+01  9.8820249084452227e-01 -2.0029280874267091e+01
                         9.8820249084452261e-01 -2.0029280874267091e+01  5.6998449208771453e-03 -1.2992616447661659e+01  1.1719787679511741e-01 -1.1064619301980282e+02  4.0218260299110173e-02  6.9305926141323567e+01
                         5.6998449208771401e-03 -1.2992616447661677e+01  9.8820249084452227e-01 -2.0029280874267101e+01  4.0218260299110194e-02  6.9305926141323582e+01  1.1719787679511745e-01 -1.1064619301980282e+02
1.400000000000000e-01  1.2591943771993008e-01 -1.1216463767158713e+02  4.3022923165337824e-02  6.7817806882553853e+01  9.8672099260547241e-01 -2.1558226683615700e+01  6.5232555294605886e-03 -1.6730612583427398e+01
                         4.3022923165337790e-02  6.7817806882553867e+01  1.2591943771993011e-01 -1.1216463767158709e+02  6.5232555294605912e-03 -1.6730612583427444e+01  9.8672099260547219e-01 -2.1558226683615700e+01
                         9.8672099260547252e-01 -2.1558226683615704e+01  6.5232555294605912e-03 -1.6730612583427458e+01  1.2591943771993003e-01 -1.1216463767158713e+02  4.3022923165337741e-02  6.7817806882553796e+01
                         6.5232555294605921e-03 -1.6730612583427401e+01  9.8672099260547219e-01 -2.1558226683615700e+01  4.3022923165337741e-02  6.7817806882553796e+01  1.2591943771993006e-01 -1.1216463767158712e+02
1.500000000000000e-01  1.3458008873046876e-01 -1.1368052849484732e+02  4.5766368147280259e-02  6.6338553954251992e+01  9.8516247701073845e-01 -2.3084707253263328e+01  7.4012096405598974e-03 -2.0315356198186421e+01
                         4.5766368147280259e-02  6.6338553954252021e+01  1.3458008873046878e-01 -1.1368052849484732e+02  7.4012096405598974e-03 -2.0315356198186421e+01  9.8516247701073922e-01 -2.3084707253263328e+01
                         9.8516247701073867e-01 -2.3084707253263328e+01  7.4012096405599017e-03 -2.0315356198186443e+01  1.3458008873046878e-01 -1.1368052849484728e+02  4.5766368147280301e-02  6.6338553954251964e+01
                         7.4012096405598991e-03 -2.0315356198186457e+01  9.8516247701073911e-01 -2.3084707253263328e+01  4.5766368147280301e-02  6.6338553954251964e+01  1.3458008873046881e-01 -1.1368052849484727e+02
1.600000000000000e-01  1.4317653124145741e-01 -1.1519360899350899e+02  4.8445210529884486e-02  6.4868963939589321e+01  9.8352912485645128e-01 -2.4608587517511637e+01  8.3326701892912150e-03 -2.3770087158963335e+01
                         4.8445210529884486e-02  6.4868963939589293e+01  1.4317653124145727e-01 -1.1519360899350903e+02  8.3326701892912133e-03 -2.3770087158963339e+01  9.8352912485645150e-01 -2.4608587517511644e+01
                         9.8352912485645116e-01 -2.4608587517511637e+01  8.3326701892912098e-03 -2.3770087158963321e+01  1.4317653124145735e-01 -1.1519360899350897e+02  4.8445210529884472e-02  6.4868963939589293e+01
                         8.3326701892912115e-03 -2.3770087158963335e+01  9.8352912485645128e-01 -2.4608587517511648e+01  4.8445210529884465e-02  6.4868963939589307e+01  1.4317653124145741e-01 -1.1519360899350897e+02
1.700000000000000e-01  1.5170561786736575e-01 -1.1670365066618729e+02  5.1056249688381738e-02  6.3409808392304797e+01  9.8182322481093742e-01 -2.6129738988301643e+01  9.3165222141585596e-03 -2.7113571652534716e+01
                         5.1056249688381732e-02  6.3409808392304839e+01  1.5170561786736564e-01 -1.1670365066618729e+02  9.3165222141585562e-03 -2.7113571652534716e+01  9.8182322481093709e-01 -2.6129738988301632e+01
                         9.8182322481093764e-01 -2.6129738988301625e+01  9.3165222141585562e-03 -2.7113571652534720e+01  1.5170561786736569e-01 -1.1670365066618729e+02  5.1056249688381697e-02  6.3409808392304861e+01
                         9.3165222141585510e-03 -2.7113571652534684e+01  9.8182322481093709e-01 -2.6129738988301625e+01  5.1056249688381683e-02  6.3409808392304846e+01  1.5170561786736567e-01 -1.1670365066618729e+02
1.800000000000000e-01  1.6016435706120108e-01 -1.1821044850657576e+02  5.3596476413245477e-02  6.1961841209277587e+01  9.8004715897859662e-01 -2.7648039962683921e+01  1.0351583456371679e-02 -3.0361072943077897e+01
                         5.3596476413245484e-02  6.1961841209277559e+01  1.6016435706120116e-01 -1.1821044850657576e+02  1.0351583456371679e-02 -3.0361072943077911e+01  9.8004715897859618e-01 -2.7648039962683907e+01
                         9.8004715897859618e-01 -2.7648039962683924e+01  1.0351583456371679e-02 -3.0361072943077932e+01  1.6016435706120113e-01 -1.1821044850657572e+02  5.3596476413245442e-02  6.1961841209277559e+01
                         1.0351583456371679e-02 -3.0361072943077911e+01  9.8004715897859618e-01 -2.7648039962683910e+01  5.3596476413245463e-02  6.1961841209277559e+01  1.6016435706120108e-01 -1.1821044850657572e+02
1.900000000000000e-01  1.6854991677069428e-01 -1.1971381787369927e+02  5.6063079418106010e-02  6.0525804021835754e+01  9.7820338936341988e-01 -2.9163375689932082e+01  1.1436613005585466e-02 -3.3525094769511654e+01
                         5.6063079418106017e-02  6.0525804021835782e+01  1.6854991677069420e-01 -1.1971381787369927e+02  1.1436613005585461e-02 -3.3525094769511668e+01  9.7820338936342022e-01 -2.9163375689932078e+01
                         9.7820338936342022e-01 -2.9163375689932096e+01  1.1436613005585463e-02 -3.3525094769511668e+01  1.6854991677069434e-01 -1.1971381787369921e+02  5.6063079418106114e-02  6.0525804021835853e+01
                         1.1436613005585470e-02 -3.3525094769511682e+01  9.7820338936341988e-01 -2.9163375689932082e+01  5.6063079418106114e-02  6.0525804021835846e+01  1.6854991677069439e-01 -1.1971381787369921e+02
2.000000000000000e-01  1.7685962713341299e-01 -1.2121359226441656e+02  5.8453451038928232e-02  5.9102430278641066e+01  9.7629444503330454e-01 -3.0675638498670544e+01  1.2570318640188956e-02 -3.6615952354170915e+01
                         5.8453451038928253e-02  5.9102430278641044e+01  1.7685962713341297e-01 -1.2121359226441658e+02  1.2570318640188954e-02 -3.6615952354170901e+01  9.7629444503330431e-01 -3.0675638498670544e+01
                         9.7629444503330431e-01 -3.0675638498670533e+01  1.2570318640188958e-02 -3.6615952354170922e+01  1.7685962713341286e-01 -1.2121359226441656e+02  5.8453451038928218e-02  5.9102430278641044e+01
                         1.2570318640188949e-02 -3.6615952354170886e+01  9.7629444503330431e-01 -3.0675638498670555e+01  5.8453451038928211e-02  5.9102430278641044e+01  1.7685962713341286e-01 -1.2121359226441656e+02
2.100000000000000e-01  1.8509098223673184e-01 -1.2270962168997869e+02  6.0765192138014297e-02  5.7692448449210310e+01  9.7432290987332659e-01 -3.2184727884636260e+01  1.3751363270920506e-02 -3.9642213173421183e+01
                         6.0765192138014283e-02  5.7692448449210282e+01  1.8509098223673184e-01 -1.2270962168997873e+02  1.3751363270920514e-02 -3.9642213173421183e+01  9.7432290987332659e-01 -3.2184727884636239e+01
                         9.7432290987332681e-01 -3.2184727884636253e+01  1.3751363270920513e-02 -3.9642213173421183e+01  1.8509098223673195e-01 -1.2270962168997868e+02  6.0765192138014221e-02  5.7692448449210254e+01
                         1.3751363270920507e-02 -3.9642213173421190e+01  9.7432290987332693e-01 -3.2184727884636239e+01  6.0765192138014228e-02  5.7692448449210247e+01  1.8509098223673198e-01 -1.2270962168997863e+02
2.200000000000000e-01  1.9324164097368832e-01 -1.2420177146171834e+02  6.2996116231711141e-02  5.6296584628510971e+01  9.7229141087047577e-01 -3.3690550559954701e+01  1.4978370747811845e-02 -4.2611039249635795e+01
                         6.2996116231711127e-02  5.6296584628510978e+01  1.9324164097368834e-01 -1.2420177146171832e+02  1.4978370747811838e-02 -4.2611039249635802e+01  9.7229141087047599e-01 -3.3690550559954680e+01
                         9.7229141087047577e-01 -3.3690550559954694e+01  1.4978370747811845e-02 -4.2611039249635795e+01  1.9324164097368829e-01 -1.2420177146171832e+02  6.2996116231711141e-02  5.6296584628510999e+01
                         1.4978370747811845e-02 -4.2611039249635802e+01  9.7229141087047599e-01 -3.3690550559954687e+01  6.2996116231711127e-02  5.6296584628511020e+01  1.9324164097368823e-01 -1.2420177146171828e+02
2.300000000000000e-01  2.0130942703099236e-01 -1.2568992125570057e+02  6.5144252866013316e-02  5.4915564729732772e+01  9.7020260690632065e-01 -3.5193020465069893e+01  1.6249931196653682e-02 -4.5528454719940285e+01
                         6.5144252866013316e-02  5.4915564729732793e+01  2.0130942703099247e-01 -1.2568992125570057e+02  1.6249931196653678e-02 -4.5528454719940299e+01  9.7020260690632076e-01 -3.5193020465069907e+01
                         9.7020260690632065e-01 -3.5193020465069893e+01  1.6249931196653675e-02 -4.5528454719940285e+01  2.0130942703099236e-01 -1.2568992125570061e+02  6.5144252866013219e-02  5.4915564729732836e+01
                         1.6249931196653664e-02 -4.5528454719940250e+01  9.7020260690632054e-01 -3.5193020465069907e+01  6.5144252866013191e-02  5.4915564729732843e+01  2.0130942703099233e-01 -1.2568992125570061e+02
