# GHz S MA R 50

1.000000000000000e-02  9.9796217807797231e-03 -1.0754211728863370e+02  9.9940258823317296e-01 -1.5441663147854687e+00  9.9940258823317185e-01 -1.5441663147833242e+00  8.9262048791533648e-03 -7.8616238732975447e+01
2.000000000000000e-02  1.9019788908159276e-02 -1.0273816560493349e+02  9.9888516168104757e-01 -3.0732009015749226e+00  9.9888516168104913e-01 -3.0732009015733803e+00  1.7386477081954076e-02 -8.7222933548510525e+01
3.000000000000000e-02  2.8010529654143551e-02 -1.0209545978121551e+02  9.9831805211652858e-01 -4.5960509673293561e+00  9.9831805211652780e-01 -4.5960509673292798e+00  2.5838459719705900e-02 -9.1109462653263222e+01
4.000000000000000e-02  3.6869116050707813e-02 -1.0242611072199388e+02  9.9769137865952484e-01 -6.1144774865503422e+00  9.9769137865952484e-01 -6.1144774865502711e+00  3.4283228919719737e-02 -9.3928073371230070e+01
5.000000000000000e-02  4.5657237444715330e-02 -1.0326772236664206e+02  9.9700242290081520e-01 -7.6292567185488211e+00  9.9700242290081731e-01 -7.6292567185488238e+00  4.2663231366184051e-02 -9.6182250891711746e+01
6.000000000000000e-02  5.4332667946738418e-02 -1.0426327269958388e+02  9.9625063091862631e-01 -9.1407621309464862e+00  9.9625063091862487e-01 -9.1407621309460261e+00  5.1018809299209739e-02 -9.8262543885247496e+01
7.000000000000001e-02  6.2939363956112937e-02 -1.0543647376812260e+02  9.9543673158958978e-01 -1.0649223452795566e+01  9.9543673158958734e-01 -1.0649223452795422e+01  5.9302552577611502e-02 -1.0014604109299088e+02
8.000000000000000e-02  7.1439738808326714e-02 -1.0663997408663339e+02  9.9456142409088477e-01 -1.2154733596018501e+01  9.9456142409088522e-01 -1.2154733596017920e+01  6.7556363232340988e-02 -1.0198759446904285e+02
9.000000000000001e-02  7.9869371249896320e-02 -1.0793412675423654e+02  9.9362665880132761e-01 -1.3657372791608156e+01  9.9362665880132750e-01 -1.3657372791607980e+01  7.5730878305908994e-02 -1.0372730574828167e+02
1.000000000000000e-01  8.8192631700902982e-02 -1.0922678373016717e+02  9.9263333191228831e-01 -1.5157133333964865e+01  9.9263333191228786e-01 -1.5157133333965003e+01  8.3870952927556100e-02 -1.0545822397285477e+02
1.100000000000000e-01  9.6441286243331037e-02 -1.1057549995555770e+02  9.9158425487115387e-01 -1.6654044086117437e+01  9.9158425487115409e-01 -1.6654044086117512e+01  9.1923667487953747e-02 -1.0712488625469030e+02
1.200000000000000e-01  1.0458074691075686e-01 -1.1191286258620805e+02  9.9048016240060688e-01 -1.8148051336883867e+01  9.9048016240060743e-01 -1.8148051336883974e+01  9.9937470646289800e-02 -1.0879256488255035e+02
1.300000000000000e-01  1.1264100974590611e-01 -1.1328883102946024e+02  9.8932465900554489e-01 -1.9639169892108246e+01  9.8932465900554589e-01 -1.9639169892108441e+01  1.0785590830279942e-01 -1.1041490171492687e+02
1.400000000000000e-01  1.2058813666012308e-01 -1.1465052866795261e+02  9.8811811391410054e-01 -2.1127321426868463e+01  9.8811811391410109e-01 -2.1127321426868658e+01  1.1573086407712486e-01 -1.1204077315791189e+02
1.500000000000000e-01  1.2845131566642809e-01 -1.1604056328063400e+02  9.8686492678873561e-01 -2.2612525027602612e+01  9.8686492678873439e-01 -2.2612525027603294e+01  1.2350296143273122e-01 -1.1363240297508364e+02
1.600000000000000e-01  1.3619713043058213e-01 -1.1741597489138893e+02  9.8556494970785813e-01 -2.4094686988432620e+01  9.8556494970785824e-01 -2.4094686988432812e+01  1.3122689138171265e-01 -1.1522746356820551e+02
1.700000000000000e-01  1.4385439306264922e-01 -1.1881300695790003e+02  9.8422339785830359e-01 -2.5573841518064729e+01  9.8422339785830304e-01 -2.5573841518064807e+01  1.3884127162809309e-01 -1.1679551726347277e+02
1.800000000000000e-01  1.5139023914585362e-01 -1.2019609236957839e+02  9.8283948012749789e-01 -2.7049883283894093e+01  9.8283948012750011e-01 -2.7049883283894179e+01  1.4640268981294302e-01 -1.1836591808655436e+02
1.900000000000000e-01  1.5883324364653428e-01 -1.2159606040629784e+02  9.8141925009490649e-01 -2.8522868988840226e+01  9.8141925009490572e-01 -2.8522868988840127e+01  1.5384885319775474e-01 -1.1991438796582591e+02
2.000000000000000e-01  1.6615122791452749e-01 -1.2298317819892247e+02  9.7996116476895134e-01 -2.9992682556674445e+01  9.7996116476894990e-01 -2.9992682556674069e+01  1.6123716173279976e-01 -1.2146379620522448e+02
2.100000000000000e-01  1.7337248996256083e-01 -1.2438364756333938e+02  9.7847213589800863e-01 -3.1459408743465133e+01  9.7847213589800863e-01 -3.1459408743465183e+01  1.6850561060457878e-01 -1.2299502581337580e+02
2.200000000000000e-01  1.8046574237507604e-01 -1.2577252221773263e+02  9.7694977457835630e-01 -3.2922919927533670e+01  9.7694977457835652e-01 -3.2922919927533613e+01  1.7571122826344657e-01 -1.2452574380439798e+02
2.300000000000000e-01  1.8745884984872593e-01 -1.2717200796892830e+02  9.7540186528333062e-01 -3.4383333426232724e+01  9.7540186528332784e-01 -3.4383333426232639e+01  1.8279354407301721e-01 -1.2604116063858872e+02
2.400000000000000e-01  1.9432167270874989e-01 -1.2856119597001197e+02  9.7382509295935060e-01 -3.5840508198243349e+01  9.7382509295935094e-01 -3.5840508198243313e+01  1.8980798800156248e-01 -1.2755470439829897e+02
2.500000000000000e-01  2.0108140627680010e-01 -1.2995880332437437e+02  9.7222812336443387e-01 -3.7294597960295668e+01  9.7222812336443476e-01 -3.7294597960295540e+01  1.9669687269478736e-01 -1.2905520926385142e+02
2.600000000000000e-01  2.0770935191484449e-01 -1.3134739677262812e+02  9.7060664857737378e-01 -3.8745445658766528e+01  9.7060664857737433e-01 -3.8745445658766606e+01  2.0351280580607015e-01 -1.3055262853617555e+02
2.700000000000000e-01  2.1423174371270795e-01 -1.3274261716857677e+02  9.6897021801178995e-01 -4.0193244780491547e+01  9.6897021801179151e-01 -4.0193244780491625e+01  2.1020209639302542e-01 -1.3203881549024393e+02
2.800000000000000e-01  2.2062164358450462e-01 -1.3413006896340002e+02  9.6731347752218122e-01 -4.1637819174431556e+01  9.6731347752218200e-01 -4.1637819174431570e+01  2.1681334882943656e-01 -1.3352088051402478e+02
2.900000000000000e-01  2.2690399351226706e-01 -1.3552265749468921e+02  9.6564685643945081e-01 -4.3079405114544208e+01  9.6564685643945092e-01 -4.3079405114544279e+01  2.2329801159884560e-01 -1.3499316732986307e+02
3.000000000000000e-01  2.3305395334757911e-01 -1.3690867251409165e+02  9.6396391417619731e-01 -4.4517803932027533e+01  9.6396391417619809e-01 -4.4517803932027732e+01  2.2969958224644871e-01 -1.3646048253627254e+02
3.100000000000000e-01  2.3909481570769373e-01 -1.3829857023545409e+02  9.6227595034699587e-01 -4.5953297418085306e+01  9.6227595034699553e-01 -4.5953297418085370e+01  2.3597569161636534e-01 -1.3791919117087980e+02
3.200000000000000e-01  2.4500418666856402e-01 -1.3968303413022733e+02  9.6057541049547701e-01 -4.7385660747450970e+01  9.6057541049547723e-01 -4.7385660747450949e+01  2.4216373420275242e-01 -1.3937226672352378e+02
3.300000000000000e-01  2.5080333594473847e-01 -1.4107031623417296e+02  9.5887444927488841e-01 -4.8815223713048454e+01  9.5887444927488874e-01 -4.8815223713048489e+01  2.4822844019838958e-01 -1.4081767449945895e+02
3.400000000000000e-01  2.5647266893795395e-01 -1.4245324656452763e+02  9.5716438323613962e-01 -5.0241731567129797e+01  9.5716438323613895e-01 -5.0241731567129598e+01  2.5420023755439169e-01 -1.4225697245092707e+02
3.500000000000000e-01  2.6203105110252228e-01 -1.4383808605486618e+02  9.5545820153697225e-01 -5.1665564370130134e+01  9.5545820153697181e-01 -5.1665564370130035e+01  2.6005172517004244e-01 -1.4368934538489316e+02
3.600000000000000e-01  2.6746203957237580e-01 -1.4521959718586933e+02  9.5374608830048346e-01 -5.3086433631431774e+01  9.5374608830048424e-01 -5.3086433631431888e+01  2.6580565455636995e-01 -1.4511530999201298e+02
3.700000000000000e-01  2.7278171370976506e-01 -1.4660223815470923e+02  9.5204184171010686e-01 -5.4504771745004497e+01  9.5204184171010797e-01 -5.4504771745004653e+01  2.7144309767511249e-01 -1.4653492486469571e+02
3.800000000000000e-01  2.7797712897432592e-01 -1.4798251490674951e+02  9.5033452099415050e-01 -5.5920252661828791e+01  9.5033452099415094e-01 -5.5920252661828826e+01  2.7697858954861321e-01 -1.4794800271807986e+02
3.900000000000000e-01  2.8306120287127545e-01 -1.4936325195511637e+02  9.4863870329705247e-01 -5.7333362990111645e+01  9.4863870329705091e-01 -5.7333362990111674e+01  2.8240210159979945e-01 -1.4935516183696814e+02
4.000000000000000e-01  2.8802482512867428e-01 -1.5074252900235177e+02  9.4694234065223182e-01 -5.8743735359878727e+01  9.4694234065223060e-01 -5.8743735359878428e+01  2.8771959375824180e-01 -1.5075581527870276e+02
4.100000000000000e-01  2.9287738762315607e-01 -1.5212169071740851e+02  9.4526075488309136e-01 -6.0151912301041655e+01  9.4526075488309169e-01 -6.0151912301041570e+01  2.9293017685892792e-01 -1.5215085638152016e+02
4.200000000000000e-01  2.9761393502163092e-01 -1.5350023588135406e+02  9.4358081783853631e-01 -6.1557481451845327e+01  9.4358081783853598e-01 -6.1557481451845376e+01  2.9803106552776332e-01 -1.5353957241173026e+02
4.300000000000000e-01  3.0223998722227785e-01 -1.5487817108406415e+02  9.4191855789706957e-01 -6.2961042809109564e+01  9.4191855789706858e-01 -6.2961042809109642e+01  3.0303055946563273e-01 -1.5492287526970102e+02
4.400000000000000e-01  3.0675504479249344e-01 -1.5625627135790745e+02  9.4025980215598681e-01 -6.4362135470820263e+01  9.4025980215598592e-01 -6.4362135470820292e+01  3.0791714855991004e-01 -1.5630017137302298e+02
4.500000000000000e-01  3.1116043172421531e-01 -1.5763333731612914e+02  9.3862124396367974e-01 -6.5761418294253943e+01  9.3862124396367952e-01 -6.5761418294253957e+01  3.1270818062677130e-01 -1.5767216211011160e+02
4.600000000000000e-01  3.1546038147742672e-01 -1.5901128687773351e+02  9.3698770862278657e-01 -6.7158378434493940e+01  9.3698770862278657e-01 -6.7158378434494011e+01  3.1738363012966386e-01 -1.5903858995211738e+02
4.700000000000000e-01  3.1965172524587704e-01 -1.6038783897670615e+02  9.3537650978833431e-01 -6.8553734861862523e+01  9.3537650978833442e-01 -6.8553734861862551e+01  3.2196956650464692e-01 -1.6039974375346907e+02
4.800000000000000e-01  3.2374367832628986e-01 -1.6176592871414272e+02  9.3377152055784030e-01 -6.9946919548937615e+01  9.3377152055784052e-01 -6.9946919548937572e+01  3.2643784064841663e-01 -1.6175589138692291e+02
4.900000000000000e-01  3.2772831350638831e-01 -1.6314231126428302e+02  9.3219062753561654e-01 -7.1338712701728397e+01  9.3219062753561699e-01 -7.1338712701728312e+01  3.3082273975846871e-01 -1.6310673404625351e+02
5.000000000000000e-01  3.3162004493759145e-01 -1.6452081950922928e+02  9.3061680696610594e-01 -7.2728488045457595e+01  9.3061680696610682e-01 -7.2728488045457610e+01  3.3508855547275357e-01 -1.6445322706081109e+02
5.100000000000000e-01  3.3540595656817468e-01 -1.6589735749306581e+02  9.2906846873342608e-01 -7.4117088025940376e+01  9.2906846873342452e-01 -7.4117088025940433e+01  3.3927712352550682e-01 -1.6579433566630280e+02
5.200000000000000e-01  3.3910584284413675e-01 -1.6727654177066597e+02  9.2752775250594255e-01 -7.5503825237890496e+01  9.2752775250594266e-01 -7.5503825237890510e+01  3.4334589943162996e-01 -1.6713183757391099e+02
5.300000000000000e-01  3.4270160714489700e-01 -1.6865353341176217e+02  9.2601353984313217e-01 -7.6889605264364363e+01  9.2601353984313139e-01 -7.6889605264364306e+01  3.4734344812221535e-01 -1.6846384052810814e+02
5.400000000000000e-01  3.4621856667961531e-01 -1.7003362309208384e+02  9.2450719824245675e-01 -7.8273676870961836e+01  9.2450719824245564e-01 -7.8273676870961836e+01  3.5122125419945721e-01 -1.6979305257658649e+02
5.500000000000000e-01  3.4963329439217455e-01 -1.7141133318396624e+02  9.2302802776867798e-01 -7.9657009580904713e+01  9.2302802776867965e-01 -7.9657009580904685e+01  3.5503366043763890e-01 -1.7111662907147539e+02
5.600000000000001e-01  3.5297673065428531e-01 -1.7279252297303131e+02  9.2155669153137110e-01 -8.1038785816033908e+01  9.2155669153137065e-01 -8.1038785816033894e+01  3.5872716836788965e-01 -1.7243828960632825e+02
5.700000000000001e-01  3.5622001274211967e-01 -1.7417117694453373e+02  9.2011285372334373e-01 -8.2420039760515650e+01  9.2011285372334473e-01 -8.2420039760515678e+01  3.6236083575403233e-01 -1.7375416862029888e+02
5.800000000000001e-01  3.5939975975738730e-01 -1.7555362119003055e+02  9.1867654352695460e-01 -8.3799885158310431e+01  9.1867654352695372e-01 -8.3799885158310502e+01  3.6587726986261654e-01 -1.7506905206084477e+02
5.900000000000001e-01  3.6248161507541754e-01 -1.7693339991062240e+02  9.1726773402309869e-01 -8.5179421505541058e+01  9.1726773402309980e-01 -8.5179421505541072e+01  3.6933909155842187e-01 -1.7637801090330089e+02
6.000000000000001e-01  3.6550788487714886e-01 -1.7831720772372503e+02  9.1586589295723986e-01 -8.6557691708966587e+01  9.1586589295723875e-01 -8.6557691708966601e+01  3.7268618020999461e-01 -1.7768692635822327e+02
6.100000000000000e-01  3.6843870933702927e-01 -1.7969824307164382e+02  9.1449124652327696e-01 -8.7935861170081452e+01  9.1449124652327829e-01 -8.7935861170081438e+01  3.7598350280003801e-01 -1.7898978875642536e+02
6.200000000000000e-01  3.7132204087853393e-01  1.7891652571517980e+02  9.1312277495454164e-01 -8.9312899966422535e+01  9.1312277495454008e-01 -8.9312899966422577e+01  3.7916943007622733e-01  1.7970642172766719e+02
6.300000000000000e-01  3.7411255758658607e-01  1.7753415448588754e+02  9.1178090155597080e-01 -9.0690039952386314e+01  9.1178090155597125e-01 -9.0690039952386300e+01  3.8231001799634279e-01  1.7840878802874423e+02
6.400000000000000e-01  3.7686376659676785e-01  1.7614749249282661e+02  9.1044419386543840e-01 -9.2066176542768531e+01  9.1044419386543862e-01 -9.2066176542768588e+01  3.8534337547368303e-01  1.7710925161634268e+02
6.500000000000000e-01  3.7952497642422528e-01  1.7476376154184177e+02  9.0913321635669209e-01 -9.3442608557500918e+01  9.0913321635669186e-01 -9.3442608557501003e+01  3.8833537558819253e-01  1.7581593778817219e+02
6.600000000000000e-01  3.8215510568385613e-01  1.7337571610800305e+02  9.0782619909010420e-01 -9.4818155063952133e+01  9.0782619909010298e-01 -9.4818155063952233e+01  3.9122511404747817e-01  1.7451975345016365e+02
6.700000000000000e-01  3.8469823773975642e-01  1.7199065890630089e+02  9.0654379208917446e-01 -9.6194182335317123e+01  9.0654379208917457e-01 -9.6194182335317137e+01  3.9407701998528999e-01  1.7322981310847618e+02
6.800000000000000e-01  3.8721850727765772e-01  1.7060133340625924e+02  9.0526396311610202e-01 -9.7569431545551595e+01  9.0526396311610136e-01 -9.7569431545551566e+01  3.9683240091268529e-01  1.7193605472512741e+02
6.900000000000001e-01  3.8965496878975198e-01  1.6921504169331899e+02  9.0400739268738828e-01 -9.8945336892653074e+01  9.0400739268738872e-01 -9.8945336892653032e+01  3.9955301681787475e-01  1.7064850811865003e+02
7.000000000000001e-01  3.9207672554172263e-01  1.6782459586391414e+02  9.0275186101717553e-01 -1.0032056023964567e+02  9.0275186101717675e-01 -1.0032056023964574e+02  4.0218356360038532e-01  1.6935622815933669e+02
7.100000000000001e-01  3.9441805070621017e-01  1.6643721962057967e+02  9.0151802483497212e-01 -1.0169660417186959e+02  9.0151802483497168e-01 -1.0169660417186952e+02  4.0478196701114139e-01  1.6807006708956743e+02
7.200000000000001e-01  3.9675271724059874e-01  1.6504586886431210e+02  9.0028355078524891e-01 -1.0307204994238671e+02  9.0028355078524913e-01 -1.0307204994238664e+02  4.0729741577922529e-01  1.6677830094092315e+02
7.300000000000001e-01  3.9901051467315324e-01  1.6365761526599712e+02  8.9906901849712351e-01 -1.0444846898282350e+02  8.9906901849712317e-01 -1.0444846898282350e+02  4.0978291941465028e-01  1.6549249448087625e+02
7.400000000000000e-01  4.0126953666202975e-01  1.6226562890829612e+02  8.9785205395605561e-01 -1.0582436074634474e+02  8.9785205395605383e-01 -1.0582436074634469e+02  4.1219316953863638e-01  1.6420026549257980e+02
7.500000000000000e-01  4.0345543516710819e-01  1.6087676023631499e+02  8.9665310751018112e-01 -1.0720136596963175e+02  8.9665310751018279e-01 -1.0720136596963181e+02  4.1457528184131004e-01  1.6291376656509649e+02
7.600000000000000e-01  4.0565022736703010e-01  1.5948445872927567e+02  8.9544983607799300e-01 -1.0857790121662438e+02  8.9544983607799256e-01 -1.0857790121662443e+02  4.1689034614093284e-01  1.6162009187481078e+02
7.700000000000000e-01  4.0777581983552519e-01  1.5809528923549448e+02  8.9426250982288769e-01 -1.0995567698890696e+02  8.9426250982288868e-01 -1.0995567698890696e+02  4.1917873048839455e-01  1.6033184473836934e+02
7.800000000000000e-01  4.0991771043311664e-01  1.5670304032027508e+02  8.9306888666250950e-01 -1.1133302596520483e+02  8.9306888666250817e-01 -1.1133302596520475e+02  4.2140868526152858e-01  1.5903574192435156e+02
7.900000000000000e-01  4.1199449577660013e-01  1.5531393206181752e+02  8.9188900707230900e-01 -1.1271172887190387e+02  8.9188900707230867e-01 -1.1271172887190387e+02  4.2361311781817163e-01  1.5774469059619631e+02
8.000000000000000e-01  4.1409466904869496e-01  1.5392214592533611e+02  8.9070079834391269e-01 -1.1409003359413063e+02  8.9070079834391225e-01 -1.1409003359413065e+02  4.2576805283183355e-01  1.5644518518777213e+02
8.100000000000001e-01  4.1613399217846642e-01  1.5253350361128767e+02  8.8952402326817737e-01 -1.1546979153963754e+02  8.8952402326817714e-01 -1.1546979153963754e+02  4.2789837905941308e-01  1.5515028281065767e+02
8.200000000000001e-01  4.1820342951073047e-01  1.5114262709954798e+02  8.8833684506869726e-01 -1.1684916497526851e+02  8.8833684506869637e-01 -1.1684916497526858e+02  4.2998834766948851e-01  1.5384641666326408e+02
8.300000000000001e-01  4.2021641946883248e-01  1.4975489201975446e+02  8.8715870245258777e-01 -1.1823007643763273e+02  8.8715870245258643e-01 -1.1823007643763285e+02  4.3205443754709333e-01  1.5254663579346811e+02
8.400000000000001e-01  4.2226583886905189e-01  1.4836540199912665e+02  8.8596805922838617e-01 -1.1961060183254770e+02  8.8596805922838551e-01 -1.1961060183254770e+02  4.3408940712112160e-01  1.5123747630667833e+02
8.500000000000001e-01  4.2426334531407250e-01  1.4697904513523648e+02  8.8478398529673730e-01 -1.2099273525585167e+02  8.8478398529673774e-01 -1.2099273525585167e+02  4.3610110914229661e-01  1.4993182006759062e+02
8.600000000000001e-01  4.2630313964429489e-01  1.4559144112312885e+02  8.8358530774509914e-01 -1.2237446559218925e+02  8.8358530774509869e-01 -1.2237446559218925e+02  4.3809091195067018e-01  1.4861647019202394e+02
8.700000000000001e-01  4.2829566798578594e-01  1.4420695557269499e+02  8.8239068469110571e-01 -1.2375785889967284e+02  8.8239068469110604e-01 -1.2375785889967285e+02  4.4005800596657518e-01  1.4730398420041348e+02
8.800000000000000e-01  4.3033584222094928e-01  1.4282175178881033e+02  8.8117936721240986e-01 -1.2514081646757685e+02  8.8117936721241030e-01 -1.2514081646757688e+02  4.4201229068257097e-01  1.4598159314357176e+02
8.900000000000000e-01  4.3233348778191011e-01  1.4143964466293247e+02  8.7996956047669028e-01 -1.2652547667981413e+02  8.7996956047669062e-01 -1.2652547667981425e+02  4.4394443964763375e-01  1.4466137807558766e+02
9.000000000000000e-01  4.3438359568108853e-01  1.4005736168001593e+02  8.7874099828209684e-01 -1.2790965274832634e+02  8.7874099828209917e-01 -1.2790965274832628e+02  4.4587262355812468e-01  1.4333115257856846e+02
9.100000000000000e-01  4.3639597734829411e-01  1.3867814566193337e+02  8.7751139354844399e-01 -1.2929555569291972e+02  8.7751139354844443e-01 -1.2929555569291972e+02  4.4777932421251626e-01  1.4200237720104067e+02
9.200000000000000e-01  4.3846505799909929e-01  1.3729930185876771e+02  8.7626101956499880e-01 -1.3068091026788306e+02  8.7626101956499769e-01 -1.3068091026788304e+02  4.4969054619347537e-01  1.4066359321917088e+02
9.300000000000000e-01  4.4050125189706946e-01  1.3592348663312160e+02  8.7500705963222358e-01 -1.3206800037025329e+02  8.7500705963222369e-01 -1.3206800037025332e+02  4.5158107869082331e-01  1.3932550767048431e+02
