# GHz S MA R 50

1.000000000000000e-03  1.6440958792720104e-03 -9.5222458723464115e+01  9.9989478490829231e-01 -1.6067931813221417e-01  9.9989478490829176e-01 -1.6067931813221420e-01  7.5510711955531485e-04 -8.5881182263874990e+01
2.000000000000000e-03  2.3718229944845355e-03 -9.4717407150039662e+01  9.9983684655926841e-01 -3.1976267915403556e-01  9.9983684655926819e-01 -3.1976267915403550e-01  2.3613342219983755e-03 -8.9163617989804948e+01
3.000000000000000e-03  3.6752838725888559e-03 -9.3798839860187584e+01  9.9978559615521123e-01 -4.7824729438040897e-01  9.9978559615521156e-01 -4.7824729438040919e-01  3.3705569209301228e-03 -8.9825121841723700e+01
4.000000000000000e-03  4.6787420929155664e-03 -9.3622688843746502e+01  9.9973705153806169e-01 -6.3633747597379497e-01  9.9973705153806136e-01 -6.3633747597379475e-01  4.6670916601109181e-03 -9.0220602657027740e+01
5.000000000000000e-03  5.9118282638787895e-03 -9.3431628167108485e+01  9.9968984383098203e-01 -7.9413643042065885e-01  9.9968984383098225e-01 -7.9413643042065896e-01  5.7233275803645050e-03 -9.0518512039378351e+01
6.000000000000000e-03  6.9646603608381277e-03 -9.3427205045109972e+01  9.9964315169781837e-01 -9.5169964196669921e-01  9.9964315169781859e-01 -9.5169964196669932e-01  6.9518185039303994e-03 -9.0748777012652070e+01
7.000000000000000e-03  8.1649341172108352e-03 -9.3409121841806083e+01  9.9959660839301778e-01 -1.1090680652022571e+00  9.9959660839301756e-01 -1.1090680652022566e+00  8.0256561675959900e-03 -9.0969187084885149e+01
8.000000000000000e-03  9.2363728573184121e-03 -9.3470576024233225e+01  9.9954986292902170e-01 -1.2662668797844590e+00  9.9954986292902170e-01 -1.2662668797844594e+00  9.2224275770054157e-03 -9.1156971905241903e+01
9.000000000000001e-03  1.0416914211080487e-02 -9.3520394282582316e+01  9.9950278707610418e-01 -1.4233181580813119e+00  9.9950278707610429e-01 -1.4233181580813117e+00  1.0304574474387079e-02 -9.1349216549848194e+01
1.000000000000000e-02  1.1497201654755328e-02 -9.3613594527595822e+01  9.9945517484728463e-01 -1.5802360334946455e+00  9.9945517484728497e-01 -1.5802360334946453e+00  1.1482237719696380e-02 -9.1520822650437239e+01
1.100000000000000e-02  1.2664178301232577e-02 -9.3697188855708305e+01  9.9940698661873550e-01 -1.7370342652083501e+00  9.9940698661873595e-01 -1.7370342652083492e+00  1.2568681716790741e-02 -9.1699911166119392e+01
1.200000000000000e-02  1.3749090982397183e-02 -9.3808093963466945e+01  9.9935807683574174e-01 -1.8937218322033680e+00  9.9935807683574185e-01 -1.8937218322033680e+00  1.3733180065343881e-02 -9.1863997079183946e+01
1.300000000000000e-02  1.4905932076953021e-02 -9.3911011346426264e+01  9.9930844734193580e-01 -2.0503080325933829e+00  9.9930844734193558e-01 -2.0503080325933829e+00  1.4821865179410530e-02 -9.2035943470446313e+01
1.400000000000000e-02  1.5993301094279627e-02 -9.4032803015402436e+01  9.9925798243669806e-01 -2.2067990892649947e+00  9.9925798243669806e-01 -2.2067990892649938e+00  1.5976503047828494e-02 -9.2196079813019651e+01
1.500000000000000e-02  1.7142122137031274e-02 -9.4147847159785130e+01  9.9920670642072573e-01 -2.3632015815196872e+00  9.9920670642072618e-01 -2.3632015815196858e+00  1.7066252037369150e-02 -9.2363733714504207e+01
1.600000000000000e-02  1.8230703162662145e-02 -9.4276812430081520e+01  9.9915452003308991e-01 -2.5195201329386143e+00  9.9915452003308980e-01 -2.5195201329386143e+00  1.8213068371946362e-02 -9.2521616758466863e+01
1.700000000000000e-02  1.9372905742293032e-02 -9.4399984461445285e+01  9.9910146105449749e-01 -2.6757595082999543e+00  9.9910146105449738e-01 -2.6757595082999543e+00  1.9303151359976050e-02 -9.2686491759894892e+01
1.800000000000000e-02  2.0461925950548011e-02 -9.4533925683996429e+01  9.9904743997031131e-01 -2.8319233571244444e+00  9.9904743997031054e-01 -2.8319233571244462e+00  2.0443497341267172e-02 -9.2843009841146909e+01
1.900000000000000e-02  2.1598487819362577e-02 -9.4662819252831113e+01  9.9899250330908607e-01 -2.9880151464503153e+00  9.9899250330908629e-01 -2.9880151464503153e+00  2.1533433204441305e-02 -9.3005979712731985e+01
2.000000000000000e-02  2.2687437022235687e-02 -9.4800350768476918e+01  9.9893656763915495e-01 -3.1440379186102221e+00  9.9893656763915406e-01 -3.1440379186102230e+00  2.2668251603321699e-02 -9.3161632280643630e+01
2.100000000000000e-02  2.3819067121230327e-02 -9.4933427469788697e+01  9.9887968553081274e-01 -3.2999941600987945e+00  9.9887968553081363e-01 -3.2999941600987928e+00  2.3757706912280449e-02 -9.3323234586147038e+01
2.200000000000000e-02  2.4907591359844619e-02 -9.5073631167822541e+01  9.9882177748525036e-01 -3.4558865351401913e+00  9.9882177748524992e-01 -3.4558865351401904e+00  2.4887681387112812e-02 -9.3478317905943626e+01
2.300000000000000e-02  2.6034819163980056e-02 -9.5209859514096465e+01  9.9876290046679950e-01 -3.6117167554377416e+00  9.9876290046679905e-01 -3.6117167554377434e+00  2.5976414958810558e-02 -9.3638900439309680e+01
2.400000000000000e-02  2.7122662252828729e-02 -9.5352102275046917e+01  9.9870297757631732e-01 -3.7674872572950044e+00  9.9870297757631799e-01 -3.7674872572950058e+00  2.7102056110917570e-02 -9.3793597670041635e+01
2.500000000000000e-02  2.8245892404227875e-02 -9.5490763537344066e+01  9.9864206911771880e-01 -3.9231991171065488e+00  9.9864206911771847e-01 -3.9231991171065470e+00  2.8189886740814862e-02 -9.3953394827990394e+01
2.600000000000000e-02  2.9332861868400024e-02 -9.5634594171610786e+01  9.9858009992728958e-01 -4.0788546456634363e+00  9.9858009992728947e-01 -4.0788546456634380e+00  2.9311584747177925e-02 -9.4107822911978715e+01
2.700000000000000e-02  3.0452409217986649e-02 -9.5775171391861164e+01  9.9851713294593925e-01 -4.2344543820850458e+00  9.9851713294593947e-01 -4.2344543820850458e+00  3.0398371521542674e-02 -9.4266998099792900e+01
2.800000000000000e-02  3.1538355481728356e-02 -9.5920259376797063e+01  9.9845309416402328e-01 -4.3900005837686038e+00  9.9845309416402317e-01 -4.3900005837686020e+00  3.1516429902260036e-02 -9.4421233594639844e+01
2.900000000000000e-02  3.2654468467517822e-02 -9.6062370674818837e+01  9.9838804867553965e-01 -4.5454933235691337e+00  9.9838804867553976e-01 -4.5454933235691319e+00  3.2602059711196112e-02 -9.4579904013863001e+01
3.000000000000000e-02  3.3739271635255814e-02 -9.6208468139447135e+01  9.9832192322133217e-01 -4.7009348576654952e+00  9.9832192322133217e-01 -4.7009348576654952e+00  3.3716717864457020e-02 -9.4733998001695937e+01
3.100000000000000e-02  3.4852148403278944e-02 -9.6351824932098395e+01  9.9825478470587858e-01 -4.8563248454196923e+00  9.9825478470587836e-01 -4.8563248454196941e+00  3.4801097222035997e-02 -9.4892249776216261e+01
3.200000000000000e-02  3.5935709586728412e-02 -9.6498742194562169e+01  9.9818656033253739e-01 -5.0116655804102637e+00  9.9818656033253772e-01 -5.0116655804102663e+00  3.5912545968560743e-02 -9.5046236809692999e+01
3.300000000000000e-02  3.7045509424660908e-02 -9.6643122081076669e+01  9.9811731856807073e-01 -5.1669563485983598e+00  9.9811731856807040e-01 -5.1669563485983598e+00  3.6995595506365858e-02 -9.5204134559840057e+01
3.400000000000000e-02  3.8127744894704226e-02 -9.6790711409168395e+01  9.9804698686778892e-01 -5.3221995101082067e+00  9.9804698686778881e-01 -5.3221995101082040e+00  3.8103988117929762e-02 -9.5358038209474600e+01
3.500000000000000e-02  3.9234596540110044e-02 -9.6935940033056099e+01  9.9797563507744924e-01 -5.4773940085523005e+00  9.9797563507744957e-01 -5.4773940085522996e+00  3.9185638791145033e-02 -9.5515631305908414e+01
3.600000000000000e-02  4.0315433690211698e-02 -9.7084084568680169e+01  9.9790319074689871e-01 -5.6325422929703892e+00  9.9790319074689982e-01 -5.6325422929703892e+00  4.0291099007276343e-02 -9.5669467698065702e+01
3.700000000000001e-02  4.1419441496609338e-02 -9.7230023161022331e+01  9.9782972496335798e-01 -5.7876429890898038e+00  9.9782972496335787e-01 -5.7876429890898038e+00  4.1371289428030290e-02 -9.5826794460556499e+01
3.800000000000000e-02  4.2498816000047235e-02 -9.7378629185969203e+01  9.9775516525107677e-01 -5.9426986522862952e+00  9.9775516525107655e-01 -5.9426986522862961e+00  4.2473917407842537e-02 -9.5980574589389235e+01
3.900000000000000e-02  4.3600064598910380e-02 -9.7525165811020798e+01  9.9767958383418598e-01 -6.0977076099699641e+00  9.9767958383418576e-01 -6.0977076099699632e+00  4.3552591938295436e-02 -9.6137665174723466e+01
4.000000000000000e-02  4.4677918371619288e-02 -9.7674157232281672e+01  9.9760290811787355e-01 -6.2526725375914145e+00  9.9760290811787367e-01 -6.2526725375914127e+00  4.4652468762154653e-02 -9.6291396445163144e+01
4.100000000000000e-02  4.5776476255686586e-02 -9.7821200508388600e+01  9.9752521138285910e-01 -6.4075914801112202e+00  9.9752521138285888e-01 -6.4075914801112228e+00  4.5729576130363880e-02 -9.6448274876451222e+01
4.200000000000000e-02  4.6852755974164814e-02 -9.7970514852506952e+01  9.9744642084116941e-01 -6.5624672440100502e+00  9.9744642084116986e-01 -6.5624672440100511e+00  4.6826767261232166e-02 -9.6601962153174881e+01
4.300000000000000e-02  4.7948678292404852e-02 -9.8117989366029235e+01  9.9736661076792965e-01 -6.7172976048273201e+00  9.9736661076793021e-01 -6.7172976048273201e+00  4.7902259543379795e-02 -9.6758647773403325e+01
4.400000000000000e-02  4.9023334301155096e-02 -9.8267574820909644e+01  9.9728570812221962e-01 -6.8720855088931456e+00  9.9728570812222028e-01 -6.8720855088931456e+00  4.8996817527645037e-02 -9.6912294105585644e+01
4.500000000000001e-02  5.0116665067787329e-02 -9.8415417721816453e+01  9.9720378812513832e-01 -7.0268284731456321e+00  9.9720378812513866e-01 -7.0268284731456312e+00  5.0070649391217470e-02 -9.7068802636868242e+01
4.600000000000001e-02  5.1189650564620971e-02 -9.8565230919234452e+01  9.9712077743372662e-01 -7.1815295909232706e+00  9.9712077743372662e-01 -7.1815295909232715e+00  5.1162615994100061e-02 -9.7222409766108314e+01
4.700000000000000e-02  5.2280424425970362e-02 -9.8713389356631197e+01  9.9703675217723253e-01 -7.3361861296437567e+00  9.9703675217723320e-01 -7.3361861296437549e+00  5.2234744129648437e-02 -9.7378754093734173e+01
4.800000000000000e-02  5.3351694848429561e-02 -9.8863393687385638e+01  9.9695163866965253e-01 -7.4908013355063607e+00  9.9695163866965264e-01 -7.4908013355063572e+00  5.3324152043805494e-02 -9.7532322814513975e+01
4.900000000000000e-02  5.4439938511507094e-02 -9.9011822851962364e+01  9.9686551391883660e-01 -7.6453722341048351e+00  9.9686551391883682e-01 -7.6453722341048342e+00  5.4394534734764459e-02 -9.7688513575591671e+01
5.000000000000000e-02  5.5509451070772042e-02 -9.9161987169912607e+01  9.9677830386092092e-01 -7.7999022293122682e+00  9.9677830386092103e-01 -7.7999022293122682e+00  5.5481408962280473e-02 -9.7842043993917443e+01
5.100000000000000e-02  5.6595184469812834e-02 -9.9310648781543136e+01  9.9669008635934420e-01 -7.9543881114817108e+00  9.9669008635934442e-01 -7.9543881114817090e+00  5.6550005757042200e-02 -9.7998090025090903e+01
5.200000000000000e-02  5.7662897794037306e-02 -9.9460946395538073e+01  9.9660078694232113e-01 -8.1088334461379077e+00  9.9660078694232090e-01 -8.1088334461379112e+00  5.7634364738333194e-02 -9.8151581745877380e+01
5.300000000000001e-02  5.8746135051726482e-02 -9.9609807521849021e+01  9.9651048431109090e-01 -8.2632347940730515e+00  9.9651048431109035e-01 -8.2632347940730515e+00  5.8701136198854247e-02 -9.8307490427941701e+01
5.400000000000001e-02  5.9812008911433845e-02 -9.9760215403499700e+01  9.9641910355961005e-01 -8.4175958857638715e+00  9.9641910355961005e-01 -8.4175958857638715e+00  5.9782992743223372e-02 -9.8460942691920096e+01
5.500000000000000e-02  6.0892759137580660e-02 -9.9909247527597614e+01  9.9632672421330604e-01 -8.5719130573824867e+00  9.9632672421330681e-01 -8.5719130573824884e+00  6.0847900251452904e-02 -9.8616720218010045e+01
5.600000000000000e-02  6.1956754233185370e-02 -1.0005974568276316e+02  9.9623327090847713e-01 -8.7261902071035209e+00  9.9623327090847735e-01 -8.7261902071035191e+00  6.1927262310557951e-02 -9.8770132002484203e+01
5.700000000000000e-02  6.3035022193460230e-02 -1.0020892396069911e+02  9.9613882398453468e-01 -8.8804234508104454e+00  9.9613882398453490e-01 -8.8804234508104454e+00  6.2990267918928103e-02 -9.8925783588926265e+01
5.800000000000000e-02  6.4097099990228598e-02 -1.0035949492649262e+02  9.9604330759900628e-01 -9.0346168566644032e+00  9.9604330759900639e-01 -9.0346168566644032e+00  6.4067139234644299e-02 -9.9079153682383577e+01
5.900000000000000e-02  6.5172886670105137e-02 -1.0050879759073567e+02  9.9594680289787840e-01 -9.1887663240857407e+00  9.9594680289787785e-01 -9.1887663240857353e+00  6.5128205550384538e-02 -9.9234683736042186e+01
6.000000000000000e-02  6.6233009269629162e-02 -1.0065942602971727e+02  9.9584923354065247e-01 -9.3428760931306662e+00  9.9584923354065280e-01 -9.3428760931306645e+00  6.6202586201338967e-02 -9.9388010793683577e+01
6.100000000000001e-02  6.7306312353117445e-02 -1.0080883390609921e+02  9.9575068147477941e-01 -9.4969418501591925e+00  9.9575068147477974e-01 -9.4969418501591889e+00  6.7261676296945391e-02 -9.9543423045956047e+01
6.200000000000001e-02  6.8364442393084382e-02 -1.0095950627641869e+02  9.9565106984393215e-01 -9.6509680087129439e+00  9.9565106984393292e-01 -9.6509680087129439e+00  6.8333563162633490e-02 -9.9696705631193964e+01
6.300000000000000e-02  6.9435256671643311e-02 -1.0110900239005818e+02  9.9555048139383118e-01 -9.8049500451391562e+00  9.9555048139383029e-01 -9.8049500451391562e+00  6.9390640506674775e-02 -9.9852003246189440e+01
6.400000000000000e-02  7.0491357247676023e-02 -1.0125970667545612e+02  9.9544883873571288e-01 -9.9588925477869541e+00  9.9544883873571277e-01 -9.9588925477869576e+00  7.0460027664027744e-02 -1.0000523986174902e+02
6.500000000000000e-02  7.1559674971511680e-02 -1.0140927592705273e+02  9.9534622541195894e-01 -1.0112790785738166e+01  9.9534622541195950e-01 -1.0112790785738168e+01  7.1515056067857255e-02 -1.0016042552430154e+02
6.600000000000000e-02  7.2613709576318075e-02 -1.0156000141441669e+02  9.9524256348573470e-01 -1.0266649523243977e+01  9.9524256348573448e-01 -1.0266649523243975e+01  7.2581935132051079e-02 -1.0031361463557427e+02
6.700000000000002e-02  7.3679520757820402e-02 -1.0170963031263236e+02  9.9513793729580557e-01 -1.0420463824613265e+01  9.9513793729580613e-01 -1.0420463824613261e+01  7.3634878709014431e-02 -1.0046869062337183e+02
6.800000000000000e-02  7.4731453233989359e-02 -1.0186036740761536e+02  9.9503226834242042e-01 -1.0574238630899572e+01  9.9503226834242087e-01 -1.0574238630899579e+01  7.4699239127947320e-02 -1.0062183067595932e+02
6.900000000000001e-02  7.5794745911161962e-02 -1.0201004384648871e+02  9.9492564176156939e-01 -1.0727968803913813e+01  9.9492564176156995e-01 -1.0727968803913816e+01  7.5750062262449014e-02 -1.0077679891905900e+02
7.000000000000001e-02  7.6844540414759702e-02 -1.0216078391980476e+02  9.9481797847638442e-01 -1.0881659462245393e+01  9.9481797847638465e-01 -1.0881659462245398e+01  7.6811891572477461e-02 -1.0092988835194384e+02
7.100000000000001e-02  7.7905300881012135e-02 -1.0231049699257868e+02  9.9470936442189473e-01 -1.1035305267295881e+01  9.9470936442189450e-01 -1.1035305267295881e+01  7.7860558896848023e-02 -1.0108475048220090e+02
7.200000000000001e-02  7.8952921853766081e-02 -1.0246123225118328e+02  9.9459971993043972e-01 -1.1188911515780012e+01  9.9459971993043961e-01 -1.1188911515780019e+01  7.8919842945943994e-02 -1.0123778773760623e+02
7.300000000000001e-02  8.0011134859266989e-02 -1.0261097209375762e+02  9.9448913173868647e-01 -1.1342472670618545e+01  9.9448913173868703e-01 -1.1342472670618539e+01  7.9966319323500193e-02 -1.0139254512997394e+02
7.400000000000001e-02  8.1056547007592142e-02 -1.0276169547234359e+02  9.9437751957497944e-01 -1.1495994207115832e+01  9.9437751957498033e-01 -1.1495994207115832e+01  8.1023042466853795e-02 -1.0154552866071596e+02
7.500000000000001e-02  8.2112195936456939e-02 -1.0291145313098225e+02  9.9426497098091293e-01 -1.1649470391501941e+01  9.9426497098091304e-01 -1.1649470391501945e+01  8.2067292979885395e-02 -1.0170018246795476e+02
7.600000000000000e-02  8.3155364215951350e-02 -1.0306215820015156e+02  9.9415140506798083e-01 -1.1802906878026137e+01  9.9415140506798061e-01 -1.1802906878026141e+01  8.3121438252085497e-02 -1.0185311074288245e+02
7.700000000000000e-02  8.4208431242788928e-02 -1.0321192551916327e+02  9.9403691018659002e-01 -1.1956297737898158e+01  9.9403691018659091e-01 -1.1956297737898158e+01  8.4163428193760492e-02 -1.0200766192489323e+02
7.800000000000000e-02  8.5249320847110996e-02 -1.0336260640736496e+02  9.9392140481886126e-01 -1.2109648804571473e+01  9.9392140481886093e-01 -1.2109648804571473e+01  8.5214977460969774e-02 -1.0216053343287560e+02
7.900000000000000e-02  8.6299787075864068e-02 -1.0351237593331290e+02  9.9380497812838375e-01 -1.2262953955801988e+01  9.9380497812838420e-01 -1.2262953955801992e+01  8.6254672330364560e-02 -1.0231498278161435e+02
8.000000000000000e-02  8.7338363429117313e-02 -1.0366302726020379e+02  9.9368754795565140e-01 -1.2416219204422234e+01  9.9368754795565073e-01 -1.2416219204422235e+01  8.7303606425321381e-02 -1.0246779603441563e+02
8.100000000000000e-02  8.8386209016643125e-02 -1.0381279215987377e+02  9.9356920428223072e-01 -1.2569438236210178e+01  9.9356920428222995e-01 -1.2569438236210184e+01  8.8340971924937173e-02 -1.0262214419516640e+02
8.200000000000000e-02  8.9422437768578153e-02 -1.0396340897920278e+02  9.9344986429496940e-01 -1.2722617243477368e+01  9.9344986429497006e-01 -1.2722617243477362e+01  8.9387270767157301e-02 -1.0277489772947615e+02
8.300000000000000e-02  9.0467642035023013e-02 -1.0411316296907270e+02  9.9332961879857407e-01 -1.2875749721420679e+01  9.9332961879857373e-01 -1.2875749721420679e+01  9.0422272802412176e-02 -1.0292914521909758e+02
8.400000000000001e-02  9.1501489058494909e-02 -1.0426374071954095e+02  9.9320838431443081e-01 -1.3028842041863935e+01  9.9320838431443048e-01 -1.3028842041863939e+01  9.1465915505578532e-02 -1.0308183759791358e+02
8.500000000000001e-02  9.2544030586195619e-02 -1.0441347800490942e+02  9.9308625247584525e-01 -1.3181887510750691e+01  9.9308625247584514e-01 -1.3181887510750689e+01  9.2498520185865421e-02 -1.0323598482056097e+02
8.600000000000001e-02  9.3575461976425342e-02 -1.0456401246774458e+02  9.9296313912710243e-01 -1.3334892679390677e+01  9.9296313912710232e-01 -1.3334892679390677e+01  9.3539485154080004e-02 -1.0338861463408479e+02
8.700000000000001e-02  9.4615318698803880e-02 -1.0471372769000945e+02  9.9283913673585267e-01 -1.3487850665741201e+01  9.9283913673585211e-01 -1.3487850665741211e+01  9.4569658795059061e-02 -1.0354266189481714e+02
8.800000000000001e-02  9.5644300774082133e-02 -1.0486421495220823e+02  9.9271416045778560e-01 -1.3640768200517959e+01  9.9271416045778615e-01 -1.3640768200517957e+01  9.5607923809385056e-02 -1.0369522776097541e+02
8.900000000000001e-02  9.6681450055780174e-02 -1.0501390314304864e+02  9.9258830360084638e-01 -1.3793638214905977e+01  9.9258830360084538e-01 -1.3793638214905977e+01  9.6635632936241930e-02 -1.0384917527757933e+02
9.000000000000001e-02  9.7707949359314955e-02 -1.0516433956542855e+02  9.9246148062080575e-01 -1.3946467618898494e+01  9.9246148062080586e-01 -1.3946467618898490e+01  9.7671175232736052e-02 -1.0400167584226797e+02
9.100000000000001e-02  9.8742368068635608e-02 -1.0531399610685716e+02  9.9233378567202979e-01 -1.4099249158075452e+01  9.9233378567202990e-01 -1.4099249158075448e+01  9.8696386584192705e-02 -1.0415552375557439e+02
9.200000000000001e-02  9.9766351371300757e-02 -1.0546437829620385e+02  9.9220513249916420e-01 -1.4251989921535426e+01  9.9220513249916398e-01 -1.4251989921535424e+01  9.9729182924464518e-02 -1.0430795769269339e+02
9.300000000000000e-02  1.0079801594586742e-01 -1.0561399888562998e+02  9.9207561610929840e-01 -1.4404682470379239e+01  9.9207561610929795e-01 -1.4404682470379239e+01  1.0075186345736106e-01 -1.0446170607561207e+02
