# HZ S RI R 50
1.00000000000000000000e+007 +2.58505695540095807236e-004 +5.73749303551207307655e-003 +2.17385160358220659539e-004 +4.85965803727013857111e-003 +9.99174531298837598214e-001 -2.35022067247729546380e-002 -5.25493424908263229156e-005 -2.12005263809151613119e-003
                           +2.17385160358220659539e-004 +4.85965803727013857111e-003 +2.58505695540095807236e-004 +5.73749303551207307655e-003 -5.25493424908263229156e-005 -2.12005263809151613119e-003 +9.99174531298837598214e-001 -2.35022067247729546380e-002
                           +9.99174531298837598214e-001 -2.35022067247729546380e-002 -5.25493424908263229156e-005 -2.12005263809151613119e-003 +2.58505695540095807236e-004 +5.73749303551207307655e-003 +2.17385160358220659539e-004 +4.85965803727013857111e-003
                           -5.25493424908263229156e-005 -2.12005263809151613119e-003 +9.99174531298837598214e-001 -2.35022067247729546380e-002 +2.17385160358220659539e-004 +4.85965803727013857111e-003 +2.58505695540095807236e-004 +5.73749303551207307655e-003
2.00000000000000000000e+007 +7.68120361950342268181e-004 +1.14504564360440406340e-002 +6.57660748183981798409e-004 +9.69963393341023542849e-003 +9.97929265519218233749e-001 -4.69670744891372560215e-002 -2.89282638280652371066e-004 -4.22649730790862834806e-003
                           +6.57660748183981798409e-004 +9.69963393341023542849e-003 +7.68120361950342268181e-004 +1.14504564360440406340e-002 -2.89282638280652371066e-004 -4.22649730790862834806e-003 +9.97929265519218233749e-001 -4.69670744891372560215e-002
                           +9.97929265519218233749e-001 -4.69670744891372560215e-002 -2.89282638280652371066e-004 -4.22649730790862834806e-003 +7.68120361950342268181e-004 +1.14504564360440406340e-002 +6.57660748183981798409e-004 +9.69963393341023542849e-003
                           -2.89282638280652371066e-004 -4.22649730790862834806e-003 +9.97929265519218233749e-001 -4.69670744891372560215e-002 +6.57660748183981798409e-004 +9.69963393341023542849e-003 +7.68120361950342268181e-004 +1.14504564360440406340e-002
3.00000000000000000000e+007 +1.55886531240352534805e-003 +1.71240608475622044238e-002 +1.34350420559298721832e-003 +1.45064924323975857900e-002 +9.96105270376554052802e-001 -7.03765941583824883310e-002 -6.84197583734003078604e-004 -6.30881845733140961263e-003
                           +1.34350420559298721832e-003 +1.45064924323975857900e-002 +1.55886531240352534805e-003 +1.71240608475622044238e-002 -6.84197583734003078604e-004 -6.30881845733140961263e-003 +9.96105270376554052802e-001 -7.03765941583824883310e-002
                           +9.96105270376554052802e-001 -7.03765941583824883310e-002 -6.84197583734003078604e-004 -6.30881845733140961263e-003 +1.55886531240352534805e-003 +1.71240608475622044238e-002 +1.34350420559298721832e-003 +1.45064924323975857900e-002
                           -6.84197583734003078604e-004 -6.30881845733140961263e-003 +9.96105270376554052802e-001 -7.03765941583824883310e-002 +1.34350420559298721832e-003 +1.45064924323975857900e-002 +1.55886531240352534805e-003 +1.71240608475622044238e-002
4.00000000000000000000e+007 +2.63076669051648566466e-003 +2.27430561383358195715e-002 +2.27457403825317809598e-003 +1.92664852787751486596e-002 +9.93690416493522965524e-001 -9.37114045244854948491e-002 -1.23266823375134393359e-003 -8.35664028230592714763e-003
                           +2.27457403825317809598e-003 +1.92664852787751486596e-002 +2.63076669051648566466e-003 +2.27430561383358195715e-002 -1.23266823375134393359e-003 -8.35664028230592714763e-003 +9.93690416493522965524e-001 -9.37114045244854948491e-002
                           +9.93690416493522965524e-001 -9.37114045244854948491e-002 -1.23266823375134393359e-003 -8.35664028230592714763e-003 +2.63076669051648566466e-003 +2.27430561383358195715e-002 +2.27457403825317809598e-003 +1.92664852787751486596e-002
                           -1.23266823375134393359e-003 -8.35664028230592714763e-003 +9.93690416493522965524e-001 -9.37114045244854948491e-002 +2.27457403825317809598e-003 +1.92664852787751486596e-002 +2.63076669051648566466e-003 +2.27430561383358195715e-002
5.00000000000000000000e+007 +3.98104673522650925194e-003 +2.82923090618048996003e-002 +3.44823391170567816744e-003 +2.39659909259208291077e-002 +9.90682908626380198669e-001 -1.16952037893960997250e-001 -1.93073582447361724590e-003 -1.03598100915763893792e-002
                           +3.44823391170567816744e-003 +2.39659909259208291077e-002 +3.98104673522650925194e-003 +2.82923090618048996003e-002 -1.93073582447361724590e-003 -1.03598100915763893792e-002 +9.90682908626380198669e-001 -1.16952037893960997250e-001
                           +9.90682908626380198669e-001 -1.16952037893960997250e-001 -1.93073582447361724590e-003 -1.03598100915763893792e-002 +3.98104673522650925194e-003 +2.82923090618048996003e-002 +3.44823391170567816744e-003 +2.39659909259208291077e-002
                           -1.93073582447361724590e-003 -1.03598100915763893792e-002 +9.90682908626380198669e-001 -1.16952037893960997250e-001 +3.44823391170567816744e-003 +2.39659909259208291077e-002 +3.98104673522650925194e-003 +2.82923090618048996003e-002
6.00000000000000000000e+007 +5.60543687696811107624e-003 +3.37569496557218670652e-002 +4.86055772129549180927e-003 +2.85916420365908835466e-002 +9.87084778104958204814e-001 -1.40079186229702279398e-001 -2.77414536367925901317e-003 -1.23084635183711987860e-002
                           +4.86055772129549180927e-003 +2.85916420365908835466e-002 +5.60543687696811107624e-003 +3.37569496557218670652e-002 -2.77414536367925901317e-003 -1.23084635183711987860e-002 +9.87084778104958204814e-001 -1.40079186229702279398e-001
                           +9.87084778104958204814e-001 -1.40079186229702279398e-001 -2.77414536367925901317e-003 -1.23084635183711987860e-002 +5.60543687696811107624e-003 +3.37569496557218670652e-002 +4.86055772129549180927e-003 +2.85916420365908835466e-002
                           -2.77414536367925901317e-003 -1.23084635183711987860e-002 +9.87084778104958204814e-001 -1.40079186229702279398e-001 +4.86055772129549180927e-003 +2.85916420365908835466e-002 +5.60543687696811107624e-003 +3.37569496557218670652e-002
7.00000000000000000000e+007 +7.49853586191545455619e-003 +3.91224641179494514454e-002 +6.50660854709585352584e-003 +3.31304098266391039429e-002 +9.82900201799060568852e-001 -1.63073836723372778135e-001 -3.75812348738280288529e-003 -1.41930847368516854790e-002
                           +6.50660854709585352584e-003 +3.31304098266391039429e-002 +7.49853586191545455619e-003 +3.91224641179494514454e-002 -3.75812348738280288529e-003 -1.41930847368516854790e-002 +9.82900201799060568852e-001 -1.63073836723372778135e-001
                           +9.82900201799060568852e-001 -1.63073836723372778135e-001 -3.75812348738280288529e-003 -1.41930847368516854790e-002 +7.49853586191545455619e-003 +3.91224641179494514454e-002 +6.50660854709585352584e-003 +3.31304098266391039429e-002
                           -3.75812348738280288529e-003 -1.41930847368516854790e-002 +9.82900201799060568852e-001 -1.63073836723372778135e-001 +6.50660854709585352584e-003 +3.31304098266391039429e-002 +7.49853586191545455619e-003 +3.91224641179494514454e-002
8.00000000000000000000e+007 +9.65396539254434644939e-003 +4.43747690107997375120e-002 +8.38056460259871231766e-003 +3.75696728954521483312e-002 +9.78134863017295796972e-001 -1.85917365443021759264e-001 -4.87732134851381893270e-003 -1.60045625803869329129e-002
                           +8.38056460259871231766e-003 +3.75696728954521483312e-002 +9.65396539254434644939e-003 +4.43747690107997375120e-002 -4.87732134851381893270e-003 -1.60045625803869329129e-002 +9.78134863017295796972e-001 -1.85917365443021759264e-001
                           +9.78134863017295796972e-001 -1.85917365443021759264e-001 -4.87732134851381893270e-003 -1.60045625803869329129e-002 +9.65396539254434644939e-003 +4.43747690107997375120e-002 +8.38056460259871231766e-003 +3.75696728954521483312e-002
                           -4.87732134851381893270e-003 -1.60045625803869329129e-002 +9.78134863017295796972e-001 -1.85917365443021759264e-001 +8.38056460259871231766e-003 +3.75696728954521483312e-002 +9.65396539254434644939e-003 +4.43747690107997375120e-002
9.00000000000000000000e+007 +1.20644644790081599639e-002 +4.95002754010584952726e-002 +1.04757995925085223288e-002 +4.18972772949208135951e-002 +9.72795641724883752843e-001 -2.08591611564699047632e-001 -6.12581341109813548584e-003 -1.77342424340933835225e-002
                           +1.04757995925085223288e-002 +4.18972772949208135951e-002 +1.20644644790081599639e-002 +4.95002754010584952726e-002 -6.12581341109813548584e-003 -1.77342424340933835225e-002 +9.72795641724883752843e-001 -2.08591611564699047632e-001
                           +9.72795641724883752843e-001 -2.08591611564699047632e-001 -6.12581341109813548584e-003 -1.77342424340933835225e-002 +1.20644644790081599639e-002 +4.95002754010584952726e-002 +1.04757995925085223288e-002 +4.18972772949208135951e-002
                           -6.12581341109813548584e-003 -1.77342424340933835225e-002 +9.72795641724883752843e-001 -2.08591611564699047632e-001 +1.04757995925085223288e-002 +4.18972772949208135951e-002 +1.20644644790081599639e-002 +4.95002754010584952726e-002
1.00000000000000000000e+008 +1.47219620301757524172e-002 +5.44859456963117799733e-002 +1.27849474547087789411e-002 +4.61015899476434343196e-002 +9.66890432745980077378e-001 -2.31078939851841802522e-001 -7.49712082574249816247e-003 -1.93739735949875896415e-002
                           +1.27849474547087789411e-002 +4.61015899476434343196e-002 +1.47219620301757524172e-002 +5.44859456963117799733e-002 -7.49712082574249816247e-003 -1.93739735949875896415e-002 +9.66890432745980077378e-001 -2.31078939851841802522e-001
                           +9.66890432745980077378e-001 -2.31078939851841802522e-001 -7.49712082574249816247e-003 -1.93739735949875896415e-002 +1.47219620301757524172e-002 +5.44859456963117799733e-002 +1.27849474547087789411e-002 +4.61015899476434343196e-002
                           -7.49712082574249816247e-003 -1.93739735949875896415e-002 +9.66890432745980077378e-001 -2.31078939851841802522e-001 +1.27849474547087789411e-002 +4.61015899476434343196e-002 +1.47219620301757524172e-002 +5.44859456963117799733e-002
1.10000000000000000000e+008 +1.76176413785206556484e-002 +5.93193441579786054363e-002 +1.52999617815355194034e-002 +5.01715461226346845502e-002 +9.60428020585013086929e-001 -2.53362294439814283997e-001 -8.98424783908374768870e-003 -2.09161517862722634575e-002
                           +1.52999617815355194034e-002 +5.01715461226346845502e-002 +1.76176413785206556484e-002 +5.93193441579786054363e-002 -8.98424783908374768870e-003 -2.09161517862722634575e-002 +9.60428020585013086929e-001 -2.53362294439814283997e-001
                           +9.60428020585013086929e-001 -2.53362294439814283997e-001 -8.98424783908374768870e-003 -2.09161517862722634575e-002 +1.76176413785206556484e-002 +5.93193441579786054363e-002 +1.52999617815355194034e-002 +5.01715461226346845502e-002
                           -8.98424783908374768870e-003 -2.09161517862722634575e-002 +9.60428020585013086929e-001 -2.53362294439814283997e-001 +1.52999617815355194034e-002 +5.01715461226346845502e-002 +1.76176413785206556484e-002 +5.93193441579786054363e-002
1.20000000000000000000e+008 +2.07420020672498470193e-002 +6.39886814393711284010e-002 +1.80121738404740716621e-002 +5.40966911888377532946e-002 +9.53417981576427431278e-001 -2.75425245269921292746e-001 -1.05797260836381634697e-002 -2.23537565558953044142e-002
                           +1.80121738404740716621e-002 +5.40966911888377532946e-002 +2.07420020672498470193e-002 +6.39886814393711284010e-002 -1.05797260836381634697e-002 -2.23537565558953044142e-002 +9.53417981576427431278e-001 -2.75425245269921292746e-001
                           +9.53417981576427431278e-001 -2.75425245269921292746e-001 -1.05797260836381634697e-002 -2.23537565558953044142e-002 +2.07420020672498470193e-002 +6.39886814393711284010e-002 +1.80121738404740716621e-002 +5.40966911888377532946e-002
                           -1.05797260836381634697e-002 -2.23537565558953044142e-002 +9.53417981576427431278e-001 -2.75425245269921292746e-001 +1.80121738404740716621e-002 +5.40966911888377532946e-002 +2.07420020672498470193e-002 +6.39886814393711284010e-002
1.30000000000000000000e+008 +2.40849210400897011108e-002 +6.84828532642678677878e-002 +2.09123506838122842633e-002 +5.78672166967483803113e-002 +9.45870600095776836724e-001 -2.97252027811152008674e-001 -1.22756640242843717559e-002 -2.36803833513062056415e-002
                           +2.09123506838122842633e-002 +5.78672166967483803113e-002 +2.40849210400897011108e-002 +6.84828532642678677878e-002 -1.22756640242843717559e-002 -2.36803833513062056415e-002 +9.45870600095776836724e-001 -2.97252027811152008674e-001
                           +9.45870600095776836724e-001 -2.97252027811152008674e-001 -1.22756640242843717559e-002 -2.36803833513062056415e-002 +2.40849210400897011108e-002 +6.84828532642678677878e-002 +2.09123506838122842633e-002 +5.78672166967483803113e-002
                           -1.22756640242843717559e-002 -2.36803833513062056415e-002 +9.45870600095776836724e-001 -2.97252027811152008674e-001 +2.09123506838122842633e-002 +5.78672166967483803113e-002 +2.40849210400897011108e-002 +6.84828532642678677878e-002
1.40000000000000000000e+008 +2.76357140090432301660e-002 +7.27914732882657955493e-002 +2.39907537960803649013e-002 +6.14739907954696407355e-002 +9.37796792432668446793e-001 -3.18827576405813106764e-001 -1.40637998796423469017e-002 -2.48902701309668406005e-002
                           +2.39907537960803649013e-002 +6.14739907954696407355e-002 +2.76357140090432301660e-002 +7.27914732882657955493e-002 -1.40637998796423469017e-002 -2.48902701309668406005e-002 +9.37796792432668446793e-001 -3.18827576405813106764e-001
                           +9.37796792432668446793e-001 -3.18827576405813106764e-001 -1.40637998796423469017e-002 -2.48902701309668406005e-002 +2.76357140090432301660e-002 +7.27914732882657955493e-002 +2.39907537960803649013e-002 +6.14739907954696407355e-002
                           -1.40637998796423469017e-002 -2.48902701309668406005e-002 +9.37796792432668446793e-001 -3.18827576405813106764e-001 +2.39907537960803649013e-002 +6.14739907954696407355e-002 +2.76357140090432301660e-002 +7.27914732882657955493e-002
1.50000000000000000000e+008 +3.13831971405127765906e-002 +7.69049001818832289601e-002 +2.72371982453959403381e-002 +6.49085830048761747157e-002 +9.29208035144792221516e-001 -3.40137551452342701275e-001 -1.59355568313760964649e-002 -2.59783184436244984905e-002
                           +2.72371982453959403381e-002 +6.49085830048761747157e-002 +3.13831971405127765906e-002 +7.69049001818832289601e-002 -1.59355568313760964649e-002 -2.59783184436244984905e-002 +9.29208035144792221516e-001 -3.40137551452342701275e-001
                           +9.29208035144792221516e-001 -3.40137551452342701275e-001 -1.59355568313760964649e-002 -2.59783184436244984905e-002 +3.13831971405127765906e-002 +7.69049001818832289601e-002 +2.72371982453959403381e-002 +6.49085830048761747157e-002
                           -1.59355568313760964649e-002 -2.59783184436244984905e-002 +9.29208035144792221516e-001 -3.40137551452342701275e-001 +2.72371982453959403381e-002 +6.49085830048761747157e-002 +3.13831971405127765906e-002 +7.69049001818832289601e-002
1.60000000000000000000e+008 +3.53157488897979793263e-002 +8.08142590030369728504e-002 +3.06411120712579976288e-002 +6.81632833998064707748e-002 +9.20116296327246674380e-001 -3.61168360600796822801e-001 -1.78820995940636717769e-002 -2.69401089757384804013e-002
                           +3.06411120712579976288e-002 +6.81632833998064707748e-002 +3.53157488897979793263e-002 +8.08142590030369728504e-002 -1.78820995940636717769e-002 -2.69401089757384804013e-002 +9.20116296327246674380e-001 -3.61168360600796822801e-001
                           +9.20116296327246674380e-001 -3.61168360600796822801e-001 -1.78820995940636717769e-002 -2.69401089757384804013e-002 +3.53157488897979793263e-002 +8.08142590030369728504e-002 +3.06411120712579976288e-002 +6.81632833998064707748e-002
                           -1.78820995940636717769e-002 -2.69401089757384804013e-002 +9.20116296327246674380e-001 -3.61168360600796822801e-001 +3.06411120712579976288e-002 +6.81632833998064707748e-002 +3.53157488897979793263e-002 +8.08142590030369728504e-002
1.70000000000000000000e+008 +3.94213716612265493988e-002 +8.45114569693090067481e-002 +3.41915955297286203174e-002 +7.12311163109114464653e-002 +9.10533969083140437561e-001 -3.81907174140445837551e-001 -1.98943915706526475162e-002 -2.77719116338905058772e-002
                           +3.41915955297286203174e-002 +7.12311163109114464653e-002 +3.94213716612265493988e-002 +8.45114569693090067481e-002 -1.98943915706526475162e-002 -2.77719116338905058772e-002 +9.10533969083140437561e-001 -3.81907174140445837551e-001
                           +9.10533969083140437561e-001 -3.81907174140445837551e-001 -1.98943915706526475162e-002 -2.77719116338905058772e-002 +3.94213716612265493988e-002 +8.45114569693090067481e-002 +3.41915955297286203174e-002 +7.12311163109114464653e-002
                           -1.98943915706526475162e-002 -2.77719116338905058772e-002 +9.10533969083140437561e-001 -3.81907174140445837551e-001 +3.41915955297286203174e-002 +7.12311163109114464653e-002 +3.94213716612265493988e-002 +8.45114569693090067481e-002
1.80000000000000000000e+008 +4.36877529012464557723e-002 +8.79891937881975283453e-002 +3.78774797701890500456e-002 +7.41058486974720542761e-002 +9.00473806944944055175e-001 -4.02341934782994514741e-001 -2.19632519201813369847e-002 -2.84706902910819292796e-002
                           +3.78774797701890500456e-002 +7.41058486974720542761e-002 +4.36877529012464557723e-002 +8.79891937881975283453e-002 -2.19632519201813369847e-002 -2.84706902910819292796e-002 +9.00473806944944055175e-001 -4.02341934782994514741e-001
                           +9.00473806944944055175e-001 -4.02341934782994514741e-001 -2.19632519201813369847e-002 -2.84706902910819292796e-002 +4.36877529012464557723e-002 +8.79891937881975283453e-002 +3.78774797701890500456e-002 +7.41058486974720542761e-002
                           -2.19632519201813369847e-002 -2.84706902910819292796e-002 +9.00473806944944055175e-001 -4.02341934782994514741e-001 +3.78774797701890500456e-002 +7.41058486974720542761e-002 +4.36877529012464557723e-002 +8.79891937881975283453e-002
1.90000000000000000000e+008 +4.81023252085491723196e-002 +9.12409667512633915099e-002 +4.16873845082270863549e-002 +7.67819933969659251805e-002 +8.89948861250484002383e-001 -4.22461362077674040805e-001 -2.40794119417777618963e-002 -2.90341023824720878554e-002
                           +4.16873845082270863549e-002 +7.67819933969659251805e-002 +4.81023252085491723196e-002 +9.12409667512633915099e-002 -2.40794119417777618963e-002 -2.90341023824720878554e-002 +8.89948861250484002383e-001 -4.22461362077674040805e-001
                           +8.89948861250484002383e-001 -4.22461362077674040805e-001 -2.40794119417777618963e-002 -2.90341023824720878554e-002 +4.81023252085491723196e-002 +9.12409667512633915099e-002 +4.16873845082270863549e-002 +7.67819933969659251805e-002
                           -2.40794119417777618963e-002 -2.90341023824720878554e-002 +8.89948861250484002383e-001 -4.22461362077674040805e-001 +4.16873845082270863549e-002 +7.67819933969659251805e-002 +4.81023252085491723196e-002 +9.12409667512633915099e-002
2.00000000000000000000e+008 +5.26523250499346395781e-002 +9.42610708427656651676e-002 +4.56097742721729842996e-002 +7.92548075019062214785e-002 +8.78972420613619132013e-001 -4.42254951729357304036e-001 -2.62335702446939711407e-002 -2.94604935865477313151e-002
