# HZ S RI R 50
1.00000000000000000000e+007 +2.30563666054372315309e-005 +7.23869941951543706057e-004 +7.88764313670133255423e-005 +2.24310073813905296036e-003 +9.99571026608333856878e-001 -1.53315409887779894454e-002 +1.67204525736153186699e-006 -7.41921761178624891708e-004
                           +7.88764313670133255423e-005 +2.24310073813905296036e-003 +2.30563666054372315309e-005 +7.23869941951543706057e-004 +1.67204525736153186699e-006 -7.41921761178624891708e-004 +9.99571026608333856878e-001 -1.53315409887779894454e-002
                           +9.99571026608333856878e-001 -1.53315409887779894454e-002 +1.67204525736153186699e-006 -7.41921761178624891708e-004 +2.30563666054372315309e-005 +7.23869941951543706057e-004 +7.88764313670133255423e-005 +2.24310073813905296036e-003
                           +1.67204525736153186699e-006 -7.41921761178624891708e-004 +9.99571026608333856878e-001 -1.53315409887779894454e-002 +7.88764313670133255423e-005 +2.24310073813905296036e-003 +2.30563666054372315309e-005 +7.23869941951543706057e-004
2.00000000000000000000e+007 +6.93978429817008823184e-005 +1.44536627532416560478e-003 +2.12677283639564780864e-004 +4.48303711068748830110e-003 +9.99008279289602452167e-001 -3.06528207063541738298e-002 -3.75178250391350331938e-005 -1.48259717016977626836e-003
                           +2.12677283639564780864e-004 +4.48303711068748830110e-003 +6.93978429817008823184e-005 +1.44536627532416560478e-003 -3.75178250391350331938e-005 -1.48259717016977626836e-003 +9.99008279289602452167e-001 -3.06528207063541738298e-002
                           +9.99008279289602452167e-001 -3.06528207063541738298e-002 -3.75178250391350331938e-005 -1.48259717016977626836e-003 +6.93978429817008823184e-005 +1.44536627532416560478e-003 +2.12677283639564780864e-004 +4.48303711068748830110e-003
                           -3.75178250391350331938e-005 -1.48259717016977626836e-003 +9.99008279289602452167e-001 -3.06528207063541738298e-002 +2.12677283639564780864e-004 +4.48303711068748830110e-003 +6.93978429817008823184e-005 +1.44536627532416560478e-003
3.00000000000000000000e+007 +1.40722292736887002931e-004 +2.16362171934681400687e-003 +4.13701251644713735838e-004 +6.71782249591729684057e-003 +9.98222349330477931595e-001 -4.59606132252814436612e-002 -1.05055169284495875104e-004 -2.22117996744133558429e-003
                           +4.13701251644713735838e-004 +6.71782249591729684057e-003 +1.40722292736887002931e-004 +2.16362171934681400687e-003 -1.05055169284495875104e-004 -2.22117996744133558429e-003 +9.98222349330477931595e-001 -4.59606132252814436612e-002
                           +9.98222349330477931595e-001 -4.59606132252814436612e-002 -1.05055169284495875104e-004 -2.22117996744133558429e-003 +1.40722292736887002931e-004 +2.16362171934681400687e-003 +4.13701251644713735838e-004 +6.71782249591729684057e-003
                           -1.05055169284495875104e-004 -2.22117996744133558429e-003 +9.98222349330477931595e-001 -4.59606132252814436612e-002 +4.13701251644713735838e-004 +6.71782249591729684057e-003 +1.40722292736887002931e-004 +2.16362171934681400687e-003
4.00000000000000000000e+007 +2.37052534118039367854e-004 +2.87774822742199037906e-003 +6.82918230479650470617e-004 +8.94533251263128492692e-003 +9.97205040291574862366e-001 -6.12511666264097948131e-002 -1.99661309371712558658e-004 -2.95686734249369850835e-003
                           +6.82918230479650470617e-004 +8.94533251263128492692e-003 +2.37052534118039367854e-004 +2.87774822742199037906e-003 -1.99661309371712558658e-004 -2.95686734249369850835e-003 +9.97205040291574862366e-001 -6.12511666264097948131e-002
                           +9.97205040291574862366e-001 -6.12511666264097948131e-002 -1.99661309371712558658e-004 -2.95686734249369850835e-003 +2.37052534118039367854e-004 +2.87774822742199037906e-003 +6.82918230479650470617e-004 +8.94533251263128492692e-003
                           -1.99661309371712558658e-004 -2.95686734249369850835e-003 +9.97205040291574862366e-001 -6.12511666264097948131e-002 +6.82918230479650470617e-004 +8.94533251263128492692e-003 +2.37052534118039367854e-004 +2.87774822742199037906e-003
5.00000000000000000000e+007 +3.58273142736663786998e-004 +3.58685893281699558210e-003 +1.02050477986511908303e-003 +1.11634183136903753636e-002 +9.95953449422440462158e-001 -7.65206125210073501153e-002 -3.20755586557475158571e-004 -3.68886990174205342541e-003
                           +1.02050477986511908303e-003 +1.11634183136903753636e-002 +3.58273142736663786998e-004 +3.58685893281699558210e-003 -3.20755586557475158571e-004 -3.68886990174205342541e-003 +9.95953449422440462158e-001 -7.65206125210073501153e-002
                           +9.95953449422440462158e-001 -7.65206125210073501153e-002 -3.20755586557475158571e-004 -3.68886990174205342541e-003 +3.58273142736663786998e-004 +3.58685893281699558210e-003 +1.02050477986511908303e-003 +1.11634183136903753636e-002
                           -3.20755586557475158571e-004 -3.68886990174205342541e-003 +9.95953449422440462158e-001 -7.65206125210073501153e-002 +1.02050477986511908303e-003 +1.11634183136903753636e-002 +3.58273142736663786998e-004 +3.58685893281699558210e-003
6.00000000000000000000e+007 +5.04203816648957818883e-004 +4.29007274331868245637e-003 +1.42634477315996526653e-003 +1.33699276072163746043e-002 +9.94466358138798689481e-001 -9.17650374945555014072e-002 -4.67954421573157919312e-004 -4.41640767204481976549e-003
                           +1.42634477315996526653e-003 +1.33699276072163746043e-002 +5.04203816648957818883e-004 +4.29007274331868245637e-003 -4.67954421573157919312e-004 -4.41640767204481976549e-003 +9.94466358138798689481e-001 -9.17650374945555014072e-002
                           +9.94466358138798689481e-001 -9.17650374945555014072e-002 -4.67954421573157919312e-004 -4.41640767204481976549e-003 +5.04203816648957818883e-004 +4.29007274331868245637e-003 +1.42634477315996526653e-003 +1.33699276072163746043e-002
                           -4.67954421573157919312e-004 -4.41640767204481976549e-003 +9.94466358138798689481e-001 -9.17650374945555014072e-002 +1.42634477315996526653e-003 +1.33699276072163746043e-002 +5.04203816648957818883e-004 +4.29007274331868245637e-003
7.00000000000000000000e+007 +6.74618346452106462316e-004 +4.98651673485377752021e-003 +1.90015715542810287135e-003 +1.55627136992897152634e-002 +9.92743312223888674239e-001 -1.06980510246079296710e-001 -6.40943873514154827120e-004 -5.13870938407661598246e-003
                           +1.90015715542810287135e-003 +1.55627136992897152634e-002 +6.74618346452106462316e-004 +4.98651673485377752021e-003 -6.40943873514154827120e-004 -5.13870938407661598246e-003 +9.92743312223888674239e-001 -1.06980510246079296710e-001
                           +9.92743312223888674239e-001 -1.06980510246079296710e-001 -6.40943873514154827120e-004 -5.13870938407661598246e-003 +6.74618346452106462316e-004 +4.98651673485377752021e-003 +1.90015715542810287135e-003 +1.55627136992897152634e-002
                           -6.40943873514154827120e-004 -5.13870938407661598246e-003 +9.92743312223888674239e-001 -1.06980510246079296710e-001 +1.90015715542810287135e-003 +1.55627136992897152634e-002 +6.74618346452106462316e-004 +4.98651673485377752021e-003
8.00000000000000000000e+007 +8.69251836311281866551e-004 +5.67532788728981017756e-003 +2.44154297761266757261e-003 +1.77396409354156556204e-002 +9.90784285195674963020e-001 -1.22163095342670335874e-001 -8.39433250720278412160e-004 -5.85501270633264486731e-003
                           +2.44154297761266757261e-003 +1.77396409354156556204e-002 +8.69251836311281866551e-004 +5.67532788728981017756e-003 -8.39433250720278412160e-004 -5.85501270633264486731e-003 +9.90784285195674963020e-001 -1.22163095342670335874e-001
                           +9.90784285195674963020e-001 -1.22163095342670335874e-001 -8.39433250720278412160e-004 -5.85501270633264486731e-003 +8.69251836311281866551e-004 +5.67532788728981017756e-003 +2.44154297761266757261e-003 +1.77396409354156556204e-002
                           -8.39433250720278412160e-004 -5.85501270633264486731e-003 +9.90784285195674963020e-001 -1.22163095342670335874e-001 +2.44154297761266757261e-003 +1.77396409354156556204e-002 +8.69251836311281866551e-004 +5.67532788728981017756e-003
9.00000000000000000000e+007 +1.08780421009721669189e-003 +6.35565454999094392452e-003 +3.05000673717228422410e-003 +1.98985886894921075452e-002 +9.88589527832545944541e-001 -1.37308861578542051873e-001 -1.06313464528184908886e-003 -6.56456483842625393432e-003
                           +3.05000673717228422410e-003 +1.98985886894921075452e-002 +1.08780421009721669189e-003 +6.35565454999094392452e-003 -1.06313464528184908886e-003 -6.56456483842625393432e-003 +9.88589527832545944541e-001 -1.37308861578542051873e-001
                           +9.88589527832545944541e-001 -1.37308861578542051873e-001 -1.06313464528184908886e-003 -6.56456483842625393432e-003 +1.08780421009721669189e-003 +6.35565454999094392452e-003 +3.05000673717228422410e-003 +1.98985886894921075452e-002
                           -1.06313464528184908886e-003 -6.56456483842625393432e-003 +9.88589527832545944541e-001 -1.37308861578542051873e-001 +3.05000673717228422410e-003 +1.98985886894921075452e-002 +1.08780421009721669189e-003 +6.35565454999094392452e-003
1.00000000000000000000e+008 +1.32994227585172988641e-003 +7.02665776913784321384e-003 +3.72496759741456837101e-003 +2.20374546513607272313e-002 +9.86159491435014246008e-001 -1.52413887755240451405e-001 -1.31175277476891505302e-003 -7.26662325760719929324e-003
                           +3.72496759741456837101e-003 +2.20374546513607272313e-002 +1.32994227585172988641e-003 +7.02665776913784321384e-003 -1.31175277476891505302e-003 -7.26662325760719929324e-003 +9.86159491435014246008e-001 -1.52413887755240451405e-001
                           +9.86159491435014246008e-001 -1.52413887755240451405e-001 -1.31175277476891505302e-003 -7.26662325760719929324e-003 +1.32994227585172988641e-003 +7.02665776913784321384e-003 +3.72496759741456837101e-003 +2.20374546513607272313e-002
                           -1.31175277476891505302e-003 -7.26662325760719929324e-003 +9.86159491435014246008e-001 -1.52413887755240451405e-001 +3.72496759741456837101e-003 +2.20374546513607272313e-002 +1.32994227585172988641e-003 +7.02665776913784321384e-003
1.10000000000000000000e+008 +1.59530115750413769432e-003 +7.68751253012046713298e-003 +4.46576603105835676089e-003 +2.41541577273203661447e-002 +9.83494784752105499770e-001 -1.67474267075069321864e-001 -1.58497956194947331454e-003 -7.96045653151861154484e-003
                           +4.46576603105835676089e-003 +2.41541577273203661447e-002 +1.59530115750413769432e-003 +7.68751253012046713298e-003 -1.58497956194947331454e-003 -7.96045653151861154484e-003 +9.83494784752105499770e-001 -1.67474267075069321864e-001
                           +9.83494784752105499770e-001 -1.67474267075069321864e-001 -1.58497956194947331454e-003 -7.96045653151861154484e-003 +1.59530115750413769432e-003 +7.68751253012046713298e-003 +4.46576603105835676089e-003 +2.41541577273203661447e-002
                           -1.58497956194947331454e-003 -7.96045653151861154484e-003 +9.83494784752105499770e-001 -1.67474267075069321864e-001 +4.46576603105835676089e-003 +2.41541577273203661447e-002 +1.59530115750413769432e-003 +7.68751253012046713298e-003
1.20000000000000000000e+008 +1.88348542885117100146e-003 +8.33740893883666046860e-003 +5.27166818942461333497e-003 +2.62466407018496356018e-002 +9.80596147922640604122e-001 -1.82486110718492078320e-001 -1.88249113643063070711e-003 -8.64534515508920409221e-003
                           +5.27166818942461333497e-003 +2.62466407018496356018e-002 +1.88348542885117100146e-003 +8.33740893883666046860e-003 -1.88249113643063070711e-003 -8.64534515508920409221e-003 +9.80596147922640604122e-001 -1.82486110718492078320e-001
                           +9.80596147922640604122e-001 -1.82486110718492078320e-001 -1.88249113643063070711e-003 -8.64534515508920409221e-003 +1.88348542885117100146e-003 +8.33740893883666046860e-003 +5.27166818942461333497e-003 +2.62466407018496356018e-002
                           -1.88249113643063070711e-003 -8.64534515508920409221e-003 +9.80596147922640604122e-001 -1.82486110718492078320e-001 +5.27166818942461333497e-003 +2.62466407018496356018e-002 +1.88348542885117100146e-003 +8.33740893883666046860e-003
1.30000000000000000000e+008 +2.19407010437312364678e-003 +8.97555335313123502095e-003 +6.14186906399681598057e-003 +2.83128727364907253894e-002 +9.77464435700347689107e-001 -1.97445550904370548118e-001 -2.20394618119384988475e-003 -9.32058238885698220333e-003
                           +6.14186906399681598057e-003 +2.83128727364907253894e-002 +2.19407010437312364678e-003 +8.97555335313123502095e-003 -2.20394618119384988475e-003 -9.32058238885698220333e-003 +9.77464435700347689107e-001 -1.97445550904370548118e-001
                           +9.77464435700347689107e-001 -1.97445550904370548118e-001 -2.20394618119384988475e-003 -9.32058238885698220333e-003 +2.19407010437312364678e-003 +8.97555335313123502095e-003 +6.14186906399681598057e-003 +2.83128727364907253894e-002
                           -2.20394618119384988475e-003 -9.32058238885698220333e-003 +9.77464435700347689107e-001 -1.97445550904370548118e-001 +6.14186906399681598057e-003 +2.83128727364907253894e-002 +2.19407010437312364678e-003 +8.97555335313123502095e-003
1.40000000000000000000e+008 +2.52660156408815103624e-003 +9.60116946969161340342e-003 +7.07549497806567000147e-003 +3.03508517471261299314e-002 +9.74100606055277262740e-001 -2.12348743600468348180e-001 -2.54898507830608744840e-003 -9.98547508530563121543e-003
                           +7.07549497806567000147e-003 +3.03508517471261299314e-002 +2.52660156408815103624e-003 +9.60116946969161340342e-003 -2.54898507830608744840e-003 -9.98547508530563121543e-003 +9.74100606055277262740e-001 -2.12348743600468348180e-001
                           +9.74100606055277262740e-001 -2.12348743600468348180e-001 -2.54898507830608744840e-003 -9.98547508530563121543e-003 +2.52660156408815103624e-003 +9.60116946969161340342e-003 +7.07549497806567000147e-003 +3.03508517471261299314e-002
                           -2.54898507830608744840e-003 -9.98547508530563121543e-003 +9.74100606055277262740e-001 -2.12348743600468348180e-001 +7.07549497806567000147e-003 +3.03508517471261299314e-002 +2.52660156408815103624e-003 +9.60116946969161340342e-003
1.50000000000000000000e+008 +2.88059845328705182999e-003 +1.02134993687425564696e-002 +8.07160569786175528806e-003 +3.23586066829001234302e-002 +9.70505712039526180490e-001 -2.27191870983065036249e-001 -2.91722955760459479180e-003 -1.06393444946287357711e-002
                           +8.07160569786175528806e-003 +3.23586066829001234302e-002 +2.88059845328705182999e-003 +1.02134993687425564696e-002 -2.91722955760459479180e-003 -1.06393444946287357711e-002 +9.70505712039526180490e-001 -2.27191870983065036249e-001
                           +9.70505712039526180490e-001 -2.27191870983065036249e-001 -2.91722955760459479180e-003 -1.06393444946287357711e-002 +2.88059845328705182999e-003 +1.02134993687425564696e-002 +8.07160569786175528806e-003 +3.23586066829001234302e-002
                           -2.91722955760459479180e-003 -1.06393444946287357711e-002 +9.70505712039526180490e-001 -2.27191870983065036249e-001 +8.07160569786175528806e-003 +3.23586066829001234302e-002 +2.88059845328705182999e-003 +1.02134993687425564696e-002
1.60000000000000000000e+008 +3.25555257960182973728e-003 +1.08118045173176240137e-002 +9.12919632724035721993e-003 +3.43341997201616205837e-002 +9.66680895711922838487e-001 -2.41971143706485564140e-001 -3.30828267816424270720e-003 -1.12815270440315973399e-002
                           +9.12919632724035721993e-003 +3.43341997201616205837e-002 +3.25555257960182973728e-003 +1.08118045173176240137e-002 -3.30828267816424270720e-003 -1.12815270440315973399e-002 +9.66680895711922838487e-001 -2.41971143706485564140e-001
                           +9.66680895711922838487e-001 -2.41971143706485564140e-001 -3.30828267816424270720e-003 -1.12815270440315973399e-002 +3.25555257960182973728e-003 +1.08118045173176240137e-002 +9.12919632724035721993e-003 +3.43341997201616205837e-002
                           -3.30828267816424270720e-003 -1.12815270440315973399e-002 +9.66680895711922838487e-001 -2.41971143706485564140e-001 +9.12919632724035721993e-003 +3.43341997201616205837e-002 +3.25555257960182973728e-003 +1.08118045173176240137e-002
1.70000000000000000000e+008 +3.65092981997987330381e-003 +1.13953667310419531900e-002 +1.02471990828319533401e-002 +3.62757283791248497096e-002 +9.62627383402111846955e-001 -2.56682803021178074232e-001 -3.72172903984724356974e-003 -1.19113750862851752732e-002
                           +1.02471990828319533401e-002 +3.62757283791248497096e-002 +3.65092981997987330381e-003 +1.13953667310419531900e-002 -3.72172903984724356974e-003 -1.19113750862851752732e-002 +9.62627383402111846955e-001 -2.56682803021178074232e-001
                           +9.62627383402111846955e-001 -2.56682803021178074232e-001 -3.72172903984724356974e-003 -1.19113750862851752732e-002 +3.65092981997987330381e-003 +1.13953667310419531900e-002 +1.02471990828319533401e-002 +3.62757283791248497096e-002
                           -3.72172903984724356974e-003 -1.19113750862851752732e-002 +9.62627383402111846955e-001 -2.56682803021178074232e-001 +1.02471990828319533401e-002 +3.62757283791248497096e-002 +3.65092981997987330381e-003 +1.13953667310419531900e-002
1.80000000000000000000e+008 +4.06617104454691426912e-003 +1.19634890939098580825e-002 +1.14244850087550954554e-002 +3.81813275675591326519e-002 +9.58346481868010746652e-001 -2.71323122765519841870e-001 -4.15713516023080709161e-003 -1.25282576142608514935e-002
                           +1.14244850087550954554e-002 +3.81813275675591326519e-002 +4.06617104454691426912e-003 +1.19634890939098580825e-002 -4.15713516023080709161e-003 -1.25282576142608514935e-002 +9.58346481868010746652e-001 -2.71323122765519841870e-001
                           +9.58346481868010746652e-001 -2.71323122765519841870e-001 -4.15713516023080709161e-003 -1.25282576142608514935e-002 +4.06617104454691426912e-003 +1.19634890939098580825e-002 +1.14244850087550954554e-002 +3.81813275675591326519e-002
                           -4.15713516023080709161e-003 -1.25282576142608514935e-002 +9.58346481868010746652e-001 -2.71323122765519841870e-001 +1.14244850087550954554e-002 +3.81813275675591326519e-002 +4.06617104454691426912e-003 +1.19634890939098580825e-002
1.90000000000000000000e+008 +4.50069306103871059899e-003 +1.25154968353114876001e-002 +1.26598656677662079612e-002 +4.00491715537481807186e-002 +9.53839575061240507736e-001 -2.85888411248083562644e-001 -4.61404997449282872068e-003 -1.31315609388574228156e-002
                           +1.26598656677662079612e-002 +4.00491715537481807186e-002 +4.50069306103871059899e-003 +1.25154968353114876001e-002 -4.61404997449282872068e-003 -1.31315609388574228156e-002 +9.53839575061240507736e-001 -2.85888411248083562644e-001
                           +9.53839575061240507736e-001 -2.85888411248083562644e-001 -4.61404997449282872068e-003 -1.31315609388574228156e-002 +4.50069306103871059899e-003 +1.25154968353114876001e-002 +1.26598656677662079612e-002 +4.00491715537481807186e-002
                           -4.61404997449282872068e-003 -1.31315609388574228156e-002 +9.53839575061240507736e-001 -2.85888411248083562644e-001 +1.26598656677662079612e-002 +4.00491715537481807186e-002 +4.50069306103871059899e-003 +1.25154968353114876001e-002
2.00000000000000000000e+008 +4.95388958145238835623e-003 +1.30507381634637278922e-002 +1.39520948321736476538e-002 +4.18774758696748225506e-002 +9.49108121312935981706e-001 -3.00375013031650650586e-001 -5.09200542939985956181e-003 -1.37206893282155184544e-002
