! Created with skrf (http://scikit-rf.org).
# GHz S RI R 50.0 
!freq ReS11 ImS11 ReS12 ImS12 ReS13 ImS13
! ReS14 ImS14
! ReS21 ImS21 ReS22 ImS22 ReS23 ImS23
! ReS24 ImS24
! ReS31 ImS31 ReS32 ImS32 ReS33 ImS33
! ReS34 ImS34
! ReS41 ImS41 ReS42 ImS42 ReS43 ImS43
! ReS44 ImS44
!
0.01 0.00020155567400159641 0.002557633665106792 0.0006296103868540617 0.008436841697434536 0.9975116962694278 -0.05396544780906382 -0.0001096457544430959 -0.0027266063914756075
 0.0006296103868540617 0.008436841697434538 0.0002015556740015965 0.002557633665106792 -0.00010964575444309588 -0.0027266063914756075 0.9975116962694281 -0.053965447809063816
 0.9975116962694253 -0.0539654478091169 -0.00010964575444324098 -0.002726606391475602 0.00020155567400377206 0.0025576336651598297 0.0006296103868542061 0.008436841697434522
 -0.00010964575444324095 -0.0027266063914756027 0.9975116962694254 -0.05396544780911689 0.0006296103868542061 0.00843684169743452 0.00020155567400377208 0.00255763366515983
0.02 0.0007076826098338087 0.005052605707516056 0.002121423797368241 0.01675206048510804 0.9923818341195207 -0.10768127174718685 -0.0006107617495220356 -0.005410568592471917
 0.0021214237973682408 0.01675206048510804 0.000707682609833809 0.005052605707516057 -0.0006107617495220357 -0.00541056859247192 0.9923818341195202 -0.10768127174718682
 0.9923818341195174 -0.10768127174721609 -0.0006107617495221951 -0.005410568592471901 0.0007076826098373415 0.005052605707545108 0.002121423797368399 0.016752060485108022
 -0.000610761749522195 -0.005410568592471897 0.992381834119517 -0.10768127174721608 0.0021214237973683986 0.016752060485108026 0.0007076826098373408 0.005052605707545105
0.03 0.001514751875508486 0.007433326342069247 0.0045026710854882265 0.02484947281141218 0.9843421998002112 -0.16097964945979337 -0.0014471938025775817 -0.008013801337523482
 0.0045026710854882265 0.02484947281141218 0.001514751875508488 0.0074333263420692545 -0.0014471938025775817 -0.00801380133752348 0.9843421998002118 -0.16097964945979343
 0.984342199800212 -0.1609796494597907 -0.0014471938025775607 -0.008013801337523488 0.0015147518755077645 0.0074333263420666195 0.0045026710854882065 0.024849472811412185
 -0.0014471938025775604 -0.008013801337523488 0.9843421998002124 -0.16097964945979076 0.004502671085488206 0.02484947281141218 0.0015147518755077645 0.007433326342066619
0.04 0.002601972301878098 0.009650494652709328 0.0077469028778413135 0.032634204683784356 0.9734015680117812 -0.21368962477179415 -0.002600783975522884 -0.010500687830667486
 0.007746902877841314 0.032634204683784356 0.0026019723018780964 0.009650494652709323 -0.002600783975522885 -0.010500687830667486 0.9734015680117808 -0.21368962477179393
 0.9734015680117805 -0.21368962477179718 -0.0026007839755229174 -0.010500687830667477 0.0026019723018797045 0.009650494652712078 0.007746902877841344 0.03263420468378435
 -0.0026007839755229174 -0.010500687830667479 0.9734015680117801 -0.21368962477179695 0.007746902877841344 0.032634204683784335 0.002601972301879702 0.009650494652712074
0.05 0.003940728332213578 0.011658461275774112 0.011814478541916546 0.04001540295702091 0.9595974778581756 -0.2656429536454135 -0.004051715969507721 -0.012838378897538543
 0.011814478541916546 0.04001540295702091 0.00394072833221358 0.011658461275774119 -0.004051715969507721 -0.012838378897538543 0.9595974778581756 -0.26564295364541357
 0.9595974778581732 -0.2656429536454172 -0.004051715969507768 -0.012838378897538508 0.003940728332214097 0.01165846127577801 0.011814478541916598 0.0400154029570209
 -0.004051715969507769 -0.012838378897538512 0.9595974778581733 -0.2656429536454173 0.0118144785419166 0.040015402957020905 0.0039407283322140975 0.011658461275778007
0.06 0.005495625709732192 0.013416248454542394 0.016655120982220675 0.04690766418721698 0.9429838646737656 -0.3166759600553278 -0.005777154310572632 -0.014997370256027353
 0.016655120982220672 0.04690766418721698 0.005495625709732191 0.013416248454542395 -0.0057771543105726315 -0.014997370256027358 0.9429838646737654 -0.3166759600553277
 0.9429838646737664 -0.3166759600553274 -0.005777154310572626 -0.014997370256027372 0.005495625709732101 0.013416248454541807 0.01665512098222066 0.04690766418721698
 -0.005777154310572629 -0.014997370256027367 0.9429838646737663 -0.31667596005532744 0.01665512098222066 0.046907664187216994 0.005495625709732102 0.013416248454541804
0.07 0.007225355883513703 0.014888422726139645 0.022209210401283257 0.05323219194913473 0.9236273170368321 -0.3666307635571366 -0.007751408638803628 -0.01695201254498991
 0.022209210401283257 0.05323219194913472 0.007225355883513708 0.014888422726139652 -0.007751408638803628 -0.016952012544989913 0.923627317036832 -0.3666307635571367
 0.9236273170368337 -0.36663076355713603 -0.007751408638803619 -0.016952012544989938 0.007225355883514547 0.014888422726138302 0.02220921040128323 0.05323219194913473
 -0.007751408638803618 -0.016952012544989934 0.9236273170368333 -0.3666307635571361 0.022209210401283222 0.05323219194913472 0.007225355883514552 0.014888422726138294
0.08 0.009083597956410653 0.016045825852524575 0.028408894545400857 0.058917772732763364 0.9016051232174416 -0.41535621540295026 -0.00994648564476276 -0.018680903682450876
 0.028408894545400853 0.05891777273276337 0.00908359795641065 0.016045825852524568 -0.00994648564476276 -0.018680903682450883 0.9016051232174416 -0.4153562154029503
 0.9016051232174384 -0.4153562154029556 -0.00994648564476287 -0.018680903682450803 0.009083597956411792 0.016045825852530334 0.02840889454540097 0.05891777273276331
 -0.00994648564476287 -0.018680903682450796 0.901605123217438 -0.4153562154029556 0.02840889454540097 0.058917772732763316 0.009083597956411789 0.016045825852530327
0.09 0.01101997752087503 0.016866158437005226 0.03517919555828252 0.06390158591065595 0.8770038445082182 -0.46270862226900883 -0.012332791616797486 -0.020167143920957708
 0.035179195558282535 0.06390158591065594 0.011019977520875041 0.016866158437005244 -0.012332791616797489 -0.020167143920957715 0.8770038445082186 -0.46270862226900894
 0.8770038445082171 -0.46270862226901055 -0.01233279161679753 -0.020167143920957684 0.011019977520876044 0.016866158437006815 0.03517919555828255 0.0639015859106559
 -0.012332791616797525 -0.020167143920957677 0.8770038445082174 -0.46270862226901077 0.035179195558282556 0.06390158591065591 0.011019977520876044 0.0168661584370068
0.1 0.012981068508304652 0.01733441252204366 0.042439144687947836 0.06812985086038777 0.8499180797317094 -0.5085522831885527 -0.014879897907400508 -0.021398445398687713
 0.04243914468794784 0.06812985086038778 0.012981068508304652 0.017334412522043655 -0.014879897907400508 -0.021398445398687717 0.8499180797317097 -0.5085522831885527
 0.8499180797317104 -0.5085522831885528 -0.014879897907400514 -0.021398445398687748 0.012981068508304926 0.01733441252204303 0.04243914468794778 0.06812985086038775
 -0.014879897907400512 -0.021398445398687745 0.849918079731711 -0.5085522831885528 0.04243914468794779 0.06812985086038775 0.012981068508304919 0.017334412522043
0.11 0.014911416550560004 0.017443153659178926 0.0501029391848542 0.07155831404972952 0.820449319942414 -0.5527598523644675 -0.017557320119374022 -0.022367095380291357
 0.0501029391848542 0.07155831404972954 0.014911416550560016 0.017443153659178944 -0.01755732011937402 -0.022367095380291354 0.8204493199424141 -0.5527598523644678
 0.8204493199424163 -0.552759852364465 -0.017557320119373956 -0.022367095380291423 0.014911416550557513 0.017443153659177157 0.05010293918485418 0.07155831404972965
 -0.01755732011937395 -0.022367095380291427 0.8204493199424163 -0.552759852364465 0.0501029391848542 0.07155831404972965 0.014911416550557527 0.017443153659177178
0.12 0.016754561394364407 0.017192657373687657 0.058081105310441604 0.07415258160916159 0.7887048669234101 -0.5952125386936655 -0.020335275567666167 -0.02306977827205419
 0.0580811053104416 0.07415258160916159 0.01675456139436439 0.01719265737368765 -0.020335275567666157 -0.023069778272054184 0.78870486692341 -0.5952125386936654
 0.7887048669234116 -0.5952125386936635 -0.020335275567666105 -0.023069778272054225 0.016754561394362596 0.017192657373686623 0.05808110531044161 0.07415258160916166
 -0.020335275567666112 -0.023069778272054236 0.7887048669234114 -0.5952125386936636 0.058081105310441604 0.07415258160916167 0.016754561394362592 0.017192657373686648
0.13 0.018454037500225683 0.016590908926028068 0.06628164934784675 0.07588830614359407 0.7547968156785441 -0.6358001543629808 -0.02318539059525806 -0.02350726638816477
 0.06628164934784674 0.07588830614359407 0.01845403750022569 0.01659090892602806 -0.02318539059525805 -0.02350726638816476 0.7547968156785446 -0.6358001543629813
 0.7547968156785444 -0.6358001543629793 -0.02318539059525801 -0.023507266388164767 0.01845403750022492 0.016590908926027596 0.06628164934784674 0.07588830614359414
 -0.023185390595258017 -0.023507266388164777 0.7547968156785448 -0.6358001543629799 0.06628164934784674 0.07588830614359414 0.018454037500224944 0.016590908926027586
0.14 0.01995433481254218 0.015653478502715003 0.07461117977789777 0.07675123939623528 0.7188411105072743 -0.6744210272482893 -0.026081334367233193 -0.02368399341901448
 0.07461117977789777 0.07675123939623527 0.019954334812542194 0.015653478502715003 -0.026081334367233186 -0.02368399341901448 0.7188411105072748 -0.6744210272482898
 0.7188411105072756 -0.6744210272482869 -0.026081334367233096 -0.023683993419014532 0.019954334812539744 0.015653478502714233 0.07461117977789783 0.07675123939623539
 -0.026081334367233103 -0.023683993419014535 0.7188411105072763 -0.6744210272482871 0.07461117977789783 0.07675123939623538 0.019954334812539765 0.015653478502714244
0.15 0.021201805215974437 0.014403286298860044 0.08297598653232324 0.07673716451756937 0.6809566866013893 -0.7109817940910498 -0.02899936022637286 -0.023607527613667113
 0.08297598653232321 0.07673716451756937 0.021201805215974444 0.014403286298860056 -0.02899936022637287 -0.02360752761366711 0.6809566866013889 -0.7109817940910496
 0.6809566866013953 -0.7109817940910443 -0.028999360226372686 -0.02360752761366736 0.02120180521597029 0.01440328629885583 0.08297598653232317 0.07673716451756964
 -0.028999360226372672 -0.023607527613667356 0.6809566866013951 -0.7109817940910443 0.08297598653232316 0.07673716451756962 0.021201805215970267 0.014403286298855796
0.16 0.022145504030825876 0.012870273340545713 0.09128306663941993 0.07585172297514073 0.6412647083286734 -0.7453970931635416 -0.0319187399434493 -0.02328796385503269
 0.09128306663941992 0.07585172297514074 0.02214550403082588 0.012870273340545718 -0.0319187399434493 -0.023287963855032682 0.6412647083286737 -0.7453970931635417
 0.6412647083286744 -0.7453970931635403 -0.031918739943449244 -0.023287963855032727 0.022145504030825193 0.012870273340544714 0.09128306663941992 0.0758517229751408
 -0.03191873994344924 -0.023287963855032734 0.6412647083286748 -0.7453970931635404 0.09128306663941993 0.07585172297514081 0.022145504030825207 0.012870273340544724
0.17 0.022737959767865492 0.011090994353418811 0.09944108917263224 0.07411015154700377 0.5998879131874161 -0.7775891762351713 -0.03482208027847539 -0.02273725513413655
 0.09944108917263225 0.07411015154700376 0.022737959767865502 0.011090994353418818 -0.03482208027847539 -0.02273725513413655 0.5998879131874165 -0.7775891762351715
 0.5998879131874156 -0.7775891762351708 -0.03482208027847536 -0.02273725513413653 0.022737959767864944 0.011090994353419655 0.09944108917263234 0.07411015154700377
 -0.03482208027847536 -0.022737255134136537 0.5998879131874162 -0.7775891762351709 0.09944108917263232 0.07411015154700376 0.02273795976786494 0.011090994353419616
0.18 0.02293586904250161 0.009108148587373318 0.10736129589847616 0.07153694442572496 0.5569500676684538 -0.8074874601232903 -0.03769551512471396 -0.021968504511070533
 0.10736129589847618 0.07153694442572497 0.022935869042501597 0.009108148587373332 -0.03769551512471396 -0.02196850451107053 0.5569500676684536 -0.8074874601232905
 0.556950067668454 -0.8074874601232898 -0.03769551512471393 -0.02196850451107055 0.02293586904250113 0.009108148587373237 0.10736129589847622 0.07153694442572496
 -0.037695515124713926 -0.021968504511070554 0.5569500676684538 -0.8074874601232896 0.1073612958984762 0.07153694442572496 0.022935869042501132 0.009108148587373235
0.19 0.022700716866620126 0.006970063362665739 0.11495833718642903 0.06816545431872888 0.5125755383975004 -0.8350280380269429 -0.04052877005762295 -0.020995238604140914
 0.11495833718642905 0.06816545431872888 0.02270071686662013 0.006970063362665724 -0.04052877005762292 -0.020995238604140903 0.5125755383975008 -0.8350280380269431
 0.5125755383974985 -0.8350280380269437 -0.04052877005762296 -0.02099523860414081 0.022700716866621166 0.006970063362666249 0.11495833718642895 0.06816545431872875
 -0.04052877005762298 -0.020995238604140824 0.5125755383974989 -0.8350280380269439 0.11495833718642896 0.06816545431872877 0.022700716866621222 0.0069700633626662584
0.2 0.02199932536421545 0.004730143339514784 0.12215104544207868 0.0640374446893239 0.46688897919526984 -0.8601531703104209 -0.043315099296723364 -0.019830683110248156
 0.12215104544207867 0.0640374446893239 0.02199932536421548 0.0047301433395147904 -0.043315099296723364 -0.019830683110248153 0.46688897919527006 -0.860153170310421
 0.4668889791952649 -0.8601531703104243 -0.04331509929672352 -0.019830683110247906 0.021999325364218465 0.004730143339515994 0.12215104544207853 0.0640374446893236
 -0.0433150992967235 -0.019830683110247903 0.46688897919526523 -0.8601531703104244 0.12215104544207855 0.06403744468932361 0.0219993253642185 0.004730143339515971
0.21 0.020804336204433976 0.0024462962716422787 0.12886315045730523 0.05920260307878712 0.4200151322120267 -0.8828107735500061 -0.04605109788183074 -0.01848705996658792
 0.12886315045730523 0.059202603078787094 0.020804336204433935 0.0024462962716422466 -0.04605109788183074 -0.01848705996658794 0.4200151322120261 -0.8828107735500064
 0.4200151322120284 -0.8828107735500063 -0.04605109788183076 -0.018487059966588032 0.020804336204433276 0.0024462962716416746 0.12886315045730531 0.059202603078787226
 -0.046051097881830746 -0.018487059966588018 0.4200151322120279 -0.8828107735500064 0.12886315045730534 0.059202603078787226 0.02080433620443327 0.0024462962716417097
0.22 0.01909463365797596 0.00018034342643805993 0.1350239425781421 0.05371802292363087 0.3720787391126436 -0.9029539256037973 -0.04873639427229188 -0.016974924646404852
 0.1350239425781421 0.05371802292363084 0.01909463365797596 0.00018034342643806576 -0.04873639427229187 -0.016974924646404845 0.37207873911264383 -0.902953925603797
 0.3720787391126436 -0.9029539256037963 -0.04873639427229182 -0.016974924646404845 0.019094633657975636 0.0001803434264382136 0.13502394257814213 0.05371802292363084
 -0.04873639427229183 -0.016974924646404863 0.37207873911264394 -0.9029539256037964 0.13502394257814215 0.053718022923630836 0.01909463365797565 0.00018034342643827566
0.23 0.016855716132528745 -0.0020025799231234006 0.1405688904438383 0.0476476585698062 0.323204556401578 -0.9205404033185488 -0.0513732306364234 -0.015302560853190532
 0.14056889044383827 0.047647658569806184 0.016855716132528762 -0.0020025799231234084 -0.051373230636423406 -0.015302560853190535 0.32320455640157836 -0.9205404033185491
 0.3232045564015779 -0.9205404033185496 -0.05137323063642344 -0.015302560853190528 0.01685571613252888 -0.002002579923123436 0.14056889044383827 0.04764765856980624
 -0.05137323063642343 -0.015302560853190521 0.3232045564015782 -0.9205404033185499 0.14056889044383827 0.04764765856980624 0.016855716132528908 -0.002002579923123455
0.24 0.01408002432645384 -0.004034631378314297 0.14544022024474385 0.04106175541415928 0.27351746733650656 -0.9355322683355572 -0.0539659398712517 -0.01347544862744923
 0.14544022024474385 0.04106175541415928 0.014080024326453815 -0.004034631378314289 -0.05396593987125169 -0.013475448627449232 0.2735174673365063 -0.935532268335557
 0.2735174673365068 -0.9355322683355562 -0.053965939871251645 -0.013475448627449243 0.014080024326453618 -0.004034631378314319 0.14544022024474387 0.041061755414159296
 -0.05396593987125164 -0.013475448627449246 0.27351746733650656 -0.9355322683355562 0.14544022024474393 0.041061755414159316 0.014080024326453586 -0.004034631378314294
0.25 0.010767233768177713 -0.0058458759114601135 0.14958746299391454 0.03403625439086734 0.22314268141415342 -0.9478955153569125 -0.056520329961692796 -0.011495820668608598
 0.14958746299391448 0.03403625439086735 0.010767233768177738 -0.005845875911460113 -0.0565203299616928 -0.011495820668608586 0.2231426814141535 -0.9478955153569127
 0.2231426814141515 -0.9478955153569121 -0.05652032996169279 -0.011495820668608476 0.010767233768178374 -0.005845875911460319 0.14958746299391434 0.034036254390867375
 -0.056520329961692754 -0.011495820668608485 0.22314268141415156 -0.9478955153569125 0.14958746299391434 0.03403625439086735 0.0107672337681784 -0.005845875911460335
0.26 0.006924518504879538 -0.007364910869956695 0.1529679752314366 0.026652167475454513 0.1722060110345812 -0.9575997962109779 -0.059042987745708195 -0.00936232053026103
 0.15296797523143657 0.026652167475454517 0.006924518504879551 -0.007364910869956727 -0.0590429877457082 -0.00936232053026104 0.17220601103458089 -0.9575997962109783
 0.1722060110345818 -0.957599796210978 -0.05904298774570821 -0.009362320530261068 0.006924518504879436 -0.007364910869956636 0.15296797523143651 0.026652167475454517
 -0.05904298774570821 -0.00936232053026107 0.1722060110345815 -0.9575997962109786 0.15296797523143651 0.02665216747545452 0.006924518504879407 -0.007364910869956691
0.27 0.002566791098630711 -0.008519506762320881 0.15554743691305778 0.018994918604093664 0.12083421356921953 -0.9646182321044686 -0.06154051559287059 -0.007069775264678797
 0.15554743691305775 0.018994918604093664 0.002566791098630714 -0.008519506762320885 -0.06154051559287057 -0.007069775264678804 0.12083421356921968 -0.9646182321044681
 0.12083421356921993 -0.9646182321044664 -0.06154051559287046 -0.007069775264678833 0.0025667910986304126 -0.008519506762320684 0.15554743691305795 0.01899491860409359
 -0.061540515592870465 -0.007069775264678825 0.12083421356922007 -0.9646182321044664 0.15554743691305795 0.01899491860409359 0.0025667910986304477 -0.00851950676232065
0.28 -0.0022830780814863303 -0.009237271124007703 0.15730032801414728 0.011153642501560571 0.06915538558543911 -0.9689273255279387 -0.06401871601773788 -0.004609094034001809
 0.1573003280141473 0.011153642501560571 -0.002283078081486305 -0.009237271124007736 -0.06401871601773788 -0.004609094034001819 0.0691553855854391 -0.9689273255279385
 0.06915538558543823 -0.9689273255279381 -0.06401871601773786 -0.004609094034001762 -0.0022830780814861963 -0.009237271124007618 0.1573003280141472 0.01115364250156049
 -0.06401871601773788 -0.004609094034001752 0.06915538558543813 -0.9689273255279384 0.1573003280141472 0.011153642501560491 -0.0022830780814862076 -0.00923727112400764
0.29 -0.007594061971518326 -0.009446344318739927 0.1582103826524297 0.003220432479135794 0.017299394341299876 -0.970506982318954 -0.06648174091246092 -0.0019673030992438715
 0.1582103826524297 0.0032204324791357958 -0.007594061971518382 -0.009446344318739978 -0.06648174091246098 -0.0019673030992438953 0.017299394341299568 -0.9705069823189546
 0.01729939434130078 -0.970506982318954 -0.06648174091246097 -0.0019673030992439517 -0.007594061971518475 -0.009446344318739806 0.1582103826524297 0.003220432479135676
 -0.06648174091246094 -0.001967303099243941 0.017299394341300497 -0.9705069823189545 0.15821038265242973 0.003220432479135672 -0.007594061971518471 -0.009446344318739834
0.3 -0.01332680118091323 -0.009076137116278832 0.15827101635548982 -0.004710472589315532 -0.034601670194997866 -0.9693406532790801 -0.06893122394894882 0.0008722736569754434
