# HZ S RI R 50
1.00000000000000000000e+007 -7.02422301696764052065e-005 -1.73802688480524636892e-003 +1.74116660285163741715e-004 +3.92678140854481848299e-003 +9.99197146430570337650e-001 -2.45148161792794437586e-002 +1.46272473187914034453e-005 -9.98755071703092940985e-004
                           +1.74116660285163741715e-004 +3.92678140854481848299e-003 -7.02422301696763916540e-005 -1.73802688480524593524e-003 +1.46272473187914102215e-005 -9.98755071703092724145e-004 +9.99197146430569782538e-001 -2.45148161792794298808e-002
                           +9.99197146430570337650e-001 -2.45148161792794437586e-002 +1.46272473187914085275e-005 -9.98755071703092724145e-004 -7.02422301696764187591e-005 -1.73802688480524615208e-003 +1.74116660285163741715e-004 +3.92678140854481935035e-003
                           +1.46272473187914000571e-005 -9.98755071703092940985e-004 +9.99197146430569782538e-001 -2.45148161792794298808e-002 +1.74116660285163741715e-004 +3.92678140854481935035e-003 -7.02422301696763781015e-005 -1.73802688480524615208e-003
2.00000000000000000000e+007 -2.07999822289052765240e-004 -3.47443215336202615787e-003 +5.08911755031632938827e-004 +7.83955339533348900816e-003 +9.97944802096026206684e-001 -4.89970844324926352309e-002 -3.40683028129348355645e-005 -1.99671884555419716298e-003
                           +5.08911755031632938827e-004 +7.83955339533348900816e-003 -2.07999822289052873660e-004 -3.47443215336203006099e-003 -3.40683028129348016832e-005 -1.99671884555419716298e-003 +9.97944802096026983840e-001 -4.89970844324926699254e-002
                           +9.97944802096026206684e-001 -4.89970844324926352309e-002 -3.40683028129347949069e-005 -1.99671884555419716298e-003 -2.07999822289052927870e-004 -3.47443215336203006099e-003 +5.08911755031632938827e-004 +7.83955339533349074288e-003
                           -3.40683028129348423408e-005 -1.99671884555419716298e-003 +9.97944802096026983840e-001 -4.89970844324926699254e-002 +5.08911755031632938827e-004 +7.83955339533349074288e-003 -2.07999822289052819450e-004 -3.47443215336202832627e-003
3.00000000000000000000e+007 -4.21925795759076982874e-004 -5.20893424827327099907e-003 +1.02671735435872933315e-003 +1.17290551225463831470e-002 +9.96101696583385098904e-001 -7.34324354128863820979e-002 -1.22645617514860781139e-004 -2.99307765391655959328e-003
                           +1.02671735435872933315e-003 +1.17290551225463831470e-002 -4.21925795759076874454e-004 -5.20893424827326926435e-003 -1.22645617514860781139e-004 -2.99307765391655959328e-003 +9.96101696583384876860e-001 -7.34324354128863820979e-002
                           +9.96101696583385098904e-001 -7.34324354128863820979e-002 -1.22645617514860781139e-004 -2.99307765391655959328e-003 -4.21925795759076874454e-004 -5.20893424827327186644e-003 +1.02671735435872933315e-003 +1.17290551225463831470e-002
                           -1.22645617514860781139e-004 -2.99307765391655959328e-003 +9.96101696583384876860e-001 -7.34324354128863820979e-002 +1.02671735435872933315e-003 +1.17290551225463831470e-002 -4.21925795759076874454e-004 -5.20893424827327013171e-003
4.00000000000000000000e+007 -7.13186612863483688357e-004 -6.94101454192283875977e-003 +1.72815647315334637059e-003 +1.55856635769185750129e-002 +9.93656021093378249986e-001 -9.78051919817718856676e-002 -2.48854644034703239262e-004 -3.98721023447668691114e-003
                           +1.72815647315334637059e-003 +1.55856635769185750129e-002 -7.13186612863483254676e-004 -6.94101454192283268824e-003 -2.48854644034703347683e-004 -3.98721023447668691114e-003 +9.93656021093378027942e-001 -9.78051919817718440342e-002
                           +9.93656021093378249986e-001 -9.78051919817718856676e-002 -2.48854644034703347683e-004 -3.98721023447668691114e-003 -7.13186612863482820995e-004 -6.94101454192282141253e-003 +1.72815647315334615375e-003 +1.55856635769185715434e-002
                           -2.48854644034703239262e-004 -3.98721023447668691114e-003 +9.93656021093378027942e-001 -9.78051919817718440342e-002 +1.72815647315334615375e-003 +1.55856635769185715434e-002 -7.13186612863483363096e-004 -6.94101454192283182087e-003
5.00000000000000000000e+007 -1.08258053626346514506e-003 -8.67005974518277738872e-003 +2.61196479935748258894e-003 +1.93997600716961093870e-002 +9.90604737165593829396e-001 -1.22099433388741990258e-001 -4.11812410785556022846e-004 -4.97854486307440502468e-003
                           +2.61196479935748258894e-003 +1.93997600716961093870e-002 -1.08258053626346536190e-003 -8.67005974518277738872e-003 -4.11812410785556077056e-004 -4.97854486307440675941e-003 +9.90604737165593607351e-001 -1.22099433388741948625e-001
                           +9.90604737165593829396e-001 -1.22099433388741990258e-001 -4.11812410785556077056e-004 -4.97854486307440675941e-003 -1.08258053626346492822e-003 -8.67005974518277565399e-003 +2.61196479935748258894e-003 +1.93997600716961024481e-002
                           -4.11812410785556077056e-004 -4.97854486307440502468e-003 +9.90604737165593607351e-001 -1.22099433388741948625e-001 +2.61196479935748258894e-003 +1.93997600716961024481e-002 -1.08258053626346579558e-003 -8.67005974518278259289e-003
6.00000000000000000000e+007 -1.53087169683885577012e-003 -1.03953769743725266822e-002 +3.67593659804922459969e-003 +2.31618159178731825021e-002 +9.86947837428954199979e-001 -1.46299192383339216050e-001 -6.11062738113178432163e-004 -5.96653656938991080322e-003
                           +3.67593659804922459969e-003 +2.31618159178731825021e-002 -1.53087169683885577012e-003 -1.03953769743725249475e-002 -6.11062738113178540583e-004 -5.96653656938991167058e-003 +9.86947837428954311001e-001 -1.46299192383339243806e-001
                           +9.86947837428954199979e-001 -1.46299192383339216050e-001 -6.11062738113178432163e-004 -5.96653656938991167058e-003 -1.53087169683885490276e-003 -1.03953769743725284169e-002 +3.67593659804922416601e-003 +2.31618159178731929104e-002
                           -6.11062738113178432163e-004 -5.96653656938991080322e-003 +9.86947837428954311001e-001 -1.46299192383339243806e-001 +3.67593659804922416601e-003 +2.31618159178731929104e-002 -1.53087169683885577012e-003 -1.03953769743725266822e-002
7.00000000000000000000e+007 -2.05887138361515904805e-003 -1.21161922736479302914e-002 +4.91717156380253647002e-003 +2.68624412556411201747e-002 +9.82686879592180040355e-001 -1.70388538461331867646e-001 -8.46338530349944923210e-004 -6.95065952245064577059e-003
                           +4.91717156380253647002e-003 +2.68624412556411201747e-002 -2.05887138361515904805e-003 -1.21161922736479250873e-002 -8.46338530349944923210e-004 -6.95065952245064837267e-003 +9.82686879592179596266e-001 -1.70388538461331867646e-001
                           +9.82686879592180040355e-001 -1.70388538461331867646e-001 -8.46338530349945031631e-004 -6.95065952245064837267e-003 -2.05887138361515731333e-003 -1.21161922736479302914e-002 +4.91717156380253647002e-003 +2.68624412556411201747e-002
                           -8.46338530349945031631e-004 -6.95065952245064577059e-003 +9.82686879592179596266e-001 -1.70388538461331867646e-001 +4.91717156380253647002e-003 +2.68624412556411201747e-002 -2.05887138361515818069e-003 -1.21161922736479233526e-002
8.00000000000000000000e+007 -2.66746402802246892691e-003 -1.38316443683017369082e-002 +6.33217166104762998330e-003 +3.04924224420367387389e-002 +9.77824445720205326360e-001 -1.94351626367896684888e-001 -1.11747662618976199497e-003 -7.93040367236647232574e-003
                           +6.33217166104762998330e-003 +3.04924224420367387389e-002 -2.66746402802246849323e-003 -1.38316443683017386429e-002 -1.11747662618976177813e-003 -7.93040367236647059102e-003 +9.77824445720205215338e-001 -1.94351626367896712644e-001
                           +9.77824445720205326360e-001 -1.94351626367896684888e-001 -1.11747662618976177813e-003 -7.93040367236647059102e-003 -2.66746402802246892691e-003 -1.38316443683017334387e-002 +6.33217166104763085066e-003 +3.04924224420367387389e-002
                           -1.11747662618976199497e-003 -7.93040367236647232574e-003 +9.77824445720205215338e-001 -1.94351626367896712644e-001 +6.33217166104763085066e-003 +3.04924224420367387389e-002 -2.66746402802246936059e-003 -1.38316443683017386429e-002
9.00000000000000000000e+007 -3.35761508849414559708e-003 -1.55407767394773847769e-002 +7.91689121972181768239e-003 +3.40427544502537871018e-002 +9.72363896066637534155e-001 -2.18172730224232780394e-001 -1.42438153571417913494e-003 -8.90527282596071181886e-003
                           +7.91689121972181768239e-003 +3.40427544502537871018e-002 -3.35761508849414516339e-003 -1.55407767394773795727e-002 -1.42438153571417956862e-003 -8.90527282596071355358e-003 +9.72363896066637312110e-001 -2.18172730224232697127e-001
                           +9.72363896066637534155e-001 -2.18172730224232780394e-001 -1.42438153571417956862e-003 -8.90527282596071181886e-003 -3.35761508849414559708e-003 -1.55407767394773882463e-002 +7.91689121972181594766e-003 +3.40427544502537871018e-002
                           -1.42438153571417913494e-003 -8.90527282596071181886e-003 +9.72363896066637312110e-001 -2.18172730224232697127e-001 +7.91689121972181594766e-003 +3.40427544502537871018e-002 -3.35761508849414776548e-003 -1.55407767394773865116e-002
1.00000000000000000000e+008 -4.13037138382360991679e-003 -1.72425291415540735129e-002 +9.66676943566083420045e-003 +3.75046704887932388917e-002 +9.66309238965829875312e-001 -2.41836270402437852889e-001 -1.76700867843696354277e-003 -9.87478314494751735486e-003
                           +9.66676943566083420045e-003 +3.75046704887932388917e-002 -4.13037138382361338623e-003 -1.72425291415540839213e-002 -1.76700867843696289225e-003 -9.87478314494751735486e-003 +9.66309238965829653267e-001 -2.41836270402437880644e-001
                           +9.66309238965829875312e-001 -2.41836270402437852889e-001 -1.76700867843696289225e-003 -9.87478314494751735486e-003 -4.13037138382361338623e-003 -1.72425291415540839213e-002 +9.66676943566083593518e-003 +3.75046704887932319528e-002
                           -1.76700867843696354277e-003 -9.87478314494751735486e-003 +9.66309238965829653267e-001 -2.41836270402437880644e-001 +9.66676943566083593518e-003 +3.75046704887932319528e-002 -4.13037138382361165151e-003 -1.72425291415540804518e-002
1.10000000000000000000e+008 -4.98685765415075778900e-003 -1.89357290601139607866e-002 +1.15767556052701718616e-002 +4.08696697250441193239e-002 +9.59665053235573828339e-001 -2.65326836121806686197e-001 -2.14535661598194704602e-003 -1.08384616223776118760e-002
                           +1.15767556052701718616e-002 +4.08696697250441193239e-002 -4.98685765415076039109e-003 -1.89357290601139677255e-002 -2.14535661598194661234e-003 -1.08384616223776118760e-002 +9.59665053235573717316e-001 -2.65326836121806741708e-001
                           +9.59665053235573828339e-001 -2.65326836121806686197e-001 -2.14535661598194661234e-003 -1.08384616223776118760e-002 -4.98685765415075692164e-003 -1.89357290601139538477e-002 +1.15767556052701683922e-002 +4.08696697250441193239e-002
                           -2.14535661598194704602e-003 -1.08384616223776118760e-002 +9.59665053235573717316e-001 -2.65326836121806741708e-001 +1.15767556052701683922e-002 +4.08696697250441193239e-002 -4.98685765415075865636e-003 -1.89357290601139607866e-002
1.20000000000000000000e+008 -5.92827094063972000193e-003 -2.06190833665987685586e-002 +1.36413313385407106854e-002 +4.41295434978163786388e-002 +9.52436436744759307160e-001 -2.88629205157340085197e-001 -2.55946388077504848393e-003 -1.17958443114899481918e-002
                           +1.36413313385407106854e-002 +4.41295434978163786388e-002 -5.92827094063971653248e-003 -2.06190833665987616197e-002 -2.55946388077504891762e-003 -1.17958443114899499266e-002 +9.52436436744759085116e-001 -2.88629205157340085197e-001
                           +9.52436436744759307160e-001 -2.88629205157340085197e-001 -2.55946388077504891762e-003 -1.17958443114899499266e-002 -5.92827094063971306304e-003 -2.06190833665987546808e-002 +1.36413313385407089506e-002 +4.41295434978163855777e-002
                           -2.55946388077504848393e-003 -1.17958443114899481918e-002 +9.52436436744759085116e-001 -2.88629205157340085197e-001 +1.36413313385407089506e-002 +4.41295434978163855777e-002 -5.92827094063971479776e-003 -2.06190833665987581502e-002
1.30000000000000000000e+008 -6.95587354373342070524e-003 -2.22911703171260640322e-002 +1.58545316790393332751e-002 +4.72764001890456087018e-002 +9.44628968965363857713e-001 -3.11728361363469819167e-001 -3.00940832543003132168e-003 -1.27464741792479123450e-002
                           +1.58545316790393332751e-002 +4.72764001890456087018e-002 -6.95587354373342157260e-003 -2.22911703171260675016e-002 -3.00940832543003088800e-003 -1.27464741792479123450e-002 +9.44628968965363857713e-001 -3.11728361363469819167e-001
                           +9.44628968965363857713e-001 -3.11728361363469819167e-001 -3.00940832543003088800e-003 -1.27464741792479123450e-002 -6.95587354373342070524e-003 -2.22911703171260813794e-002 +1.58545316790393367445e-002 +4.72764001890456156407e-002
                           -3.00940832543003132168e-003 -1.27464741792479123450e-002 +9.44628968965363857713e-001 -3.11728361363469819167e-001 +1.58545316790393367445e-002 +4.72764001890456156407e-002 -6.95587354373341983788e-003 -2.22911703171260640322e-002
1.40000000000000000000e+008 -8.07098496454245091514e-003 -2.39504319879556420991e-002 +1.82099660670945531771e-002 +5.03026888251121573337e-002 +9.36248681401011140224e-001 -3.34609510387914532714e-001 -3.49530791183495651367e-003 -1.36898985071551779202e-002
                           +1.82099660670945531771e-002 +5.03026888251121573337e-002 -8.07098496454244918041e-003 -2.39504319879556282213e-002 -3.49530791183495868207e-003 -1.36898985071551813897e-002 +9.36248681401010363068e-001 -3.34609510387914366181e-001
                           +9.36248681401011140224e-001 -3.34609510387914532714e-001 -3.49530791183495781471e-003 -1.36898985071551813897e-002 -8.07098496454243877207e-003 -2.39504319879556143436e-002 +1.82099660670945601160e-002 +5.03026888251121573337e-002
                           -3.49530791183495694735e-003 -1.36898985071551779202e-002 +9.36248681401010363068e-001 -3.34609510387914366181e-001 +1.82099660670945601160e-002 +5.03026888251121573337e-002 -8.07098496454244571097e-003 -2.39504319879556282213e-002
1.50000000000000000000e+008 -9.27497306747753977318e-003 -2.55951672091954789134e-002 +2.07008396161635702115e-002 +5.32012214295079846615e-002 +9.27302032636852402447e-001 -3.57258093783483721140e-001 -4.01732232476730618392e-003 -1.46256657911356426072e-002
                           +2.07008396161635702115e-002 +5.32012214295079846615e-002 -9.27497306747753456901e-003 -2.55951672091954719745e-002 -4.01732232476730705129e-003 -1.46256657911356443419e-002 +9.27302032636852513470e-001 -3.57258093783483721140e-001
                           +9.27302032636852402447e-001 -3.57258093783483721140e-001 -4.01732232476730705129e-003 -1.46256657911356443419e-002 -9.27497306747752589540e-003 -2.55951672091954580968e-002 +2.07008396161635702115e-002 +5.32012214295079777227e-002
                           -4.01732232476730618392e-003 -1.46256657911356426072e-002 +9.27302032636852513470e-001 -3.57258093783483721140e-001 +2.07008396161635702115e-002 +5.32012214295079777227e-002 -9.27497306747753109957e-003 -2.55951672091954511579e-002
1.60000000000000000000e+008 -1.05692446181744979100e-002 -2.72235250392210484383e-002 +2.33199749367511977027e-002 +5.59651941245930401037e-002 +9.17795886196610011254e-001 -3.79659801636849314477e-001 -4.57565502941537343568e-003 -1.55533221113312060402e-002
                           +2.33199749367511977027e-002 +5.59651941245930401037e-002 -1.05692446181744996447e-002 -2.72235250392210588466e-002 -4.57565502941537603776e-003 -1.55533221113312095096e-002 +9.17795886196610011254e-001 -3.79659801636849314477e-001
                           +9.17795886196610011254e-001 -3.79659801636849314477e-001 -4.57565502941537517040e-003 -1.55533221113312095096e-002 -1.05692446181744944406e-002 -2.72235250392210519077e-002 +2.33199749367512046416e-002 +5.59651941245930470425e-002
                           -4.57565502941537343568e-003 -1.55533221113312060402e-002 +9.17795886196610011254e-001 -3.79659801636849314477e-001 +2.33199749367512046416e-002 +5.59651941245930470425e-002 -1.05692446181744961753e-002 -2.72235250392210692549e-002
1.70000000000000000000e+008 -1.19552353053783855935e-002 -2.88334988093900818074e-002 +2.60598346159838963054e-002 +5.85882069689480089458e-002 +9.07737490165281157850e-001 -4.01800583785253018210e-001 -5.17055551760869751277e-003 -1.64724069565373790192e-002
                           +2.60598346159838963054e-002 +5.85882069689480089458e-002 -1.19552353053783873282e-002 -2.88334988093900956851e-002 -5.17055551760869924749e-003 -1.64724069565373859581e-002 +9.07737490165281490917e-001 -4.01800583785253184743e-001
                           +9.07737490165281157850e-001 -4.01800583785253018210e-001 -5.17055551760869924749e-003 -1.64724069565373859581e-002 -1.19552353053783873282e-002 -2.88334988093900956851e-002 +2.60598346159839067138e-002 +5.85882069689480089458e-002
                           -5.17055551760869838013e-003 -1.64724069565373790192e-002 +9.07737490165281490917e-001 -4.01800583785253184743e-001 +2.60598346159839067138e-002 +5.85882069689480089458e-002 -1.19552353053783838588e-002 -2.88334988093900956851e-002
1.80000000000000000000e+008 -1.34343993293056518379e-002 -3.04229207592834303975e-002 +2.89125443900469687730e-002 +6.10642825124815755156e-002 +8.97134457971319854153e-001 -4.23666659666435185816e-001 -5.80232155821708110721e-003 -1.73824484990376185167e-002
                           +2.89125443900469687730e-002 +6.10642825124815755156e-002 -1.34343993293056535726e-002 -3.04229207592834546836e-002 -5.80232155821708023985e-003 -1.73824484990376150473e-002 +8.97134457971319854153e-001 -4.23666659666435185816e-001
                           +8.97134457971319854153e-001 -4.23666659666435185816e-001 -5.80232155821707937249e-003 -1.73824484990376150473e-002 -1.34343993293056587768e-002 -3.04229207592834650919e-002 +2.89125443900469722425e-002 +6.10642825124815824545e-002
                           -5.80232155821708110721e-003 -1.73824484990376185167e-002 +8.97134457971319854153e-001 -4.23666659666435185816e-001 +2.89125443900469722425e-002 +6.10642825124815824545e-002 -1.34343993293056535726e-002 -3.04229207592834650919e-002
1.90000000000000000000e+008 -1.50081986228507817394e-002 -3.19894572755262951436e-002 +3.18699170054910774219e-002 +6.33878830509487234401e-002 +8.85994749977682349851e-001 -4.45244526834248754987e-001 -6.47130130901799396903e-003 -1.82829583249870912531e-002
                           +3.18699170054910774219e-002 +6.33878830509487234401e-002 -1.50081986228507817394e-002 -3.19894572755262812658e-002 -6.47130130901799396903e-003 -1.82829583249870912531e-002 +8.85994749977682016784e-001 -4.45244526834248643965e-001
                           +8.85994749977682349851e-001 -4.45244526834248754987e-001 -6.47130130901799396903e-003 -1.82829583249870912531e-002 -1.50081986228507852088e-002 -3.19894572755262812658e-002 +3.18699170054910774219e-002 +6.33878830509487095624e-002
                           -6.47130130901799396903e-003 -1.82829583249870912531e-002 +8.85994749977682016784e-001 -4.45244526834248643965e-001 +3.18699170054910774219e-002 +6.33878830509487095624e-002 -1.50081986228507800046e-002 -3.19894572755262882047e-002
2.00000000000000000000e+008 -1.66780917612220982993e-002 -3.35306047415307728610e-002 +3.49234767409586366327e-002 +6.55539265631803202972e-002 +8.74326655686446074789e-001 -4.66520968167252247927e-001 -7.17789517336750275411e-003 -1.91734256338580606738e-002
