! Created with skrf (http://scikit-rf.org).
# GHz S RI R 50.0 
!freq ReS11 ImS11 ReS12 ImS12 ReS13 ImS13
! ReS14 ImS14
! ReS21 ImS21 ReS22 ImS22 ReS23 ImS23
! ReS24 ImS24
! ReS31 ImS31 ReS32 ImS32 ReS33 ImS33
! ReS34 ImS34
! ReS41 ImS41 ReS42 ImS42 ReS43 ImS43
! ReS44 ImS44
!
0.01 0.00030622805772414537 0.006125242830099079 0.0002487977105227968 0.004858133964112049 0.9990044729444559 -0.029791599384137148 -6.778467740063373e-05 -0.002119527640574019
 0.00024879771052279683 0.004858133964112048 0.0003062280577241453 0.006125242830099081 -6.778467740063371e-05 -0.002119527640574019 0.9990044729444563 -0.02979159938413715
 0.9990044729444545 -0.02979159938419031 -6.778467740074649e-05 -0.002119527640574016 0.0003062280577250381 0.00612524283015223 0.0002487977105229096 0.004858133964112046
 -6.778467740074651e-05 -0.002119527640574016 0.9990044729444547 -0.029791599384190307 0.0002487977105229096 0.004858133964112047 0.0003062280577250382 0.00612524283015223
0.02 0.0009585362201129687 0.012216590332167819 0.0007829866107176379 0.009690051322729624 0.9972496828039529 -0.0595262551593764 -0.000349974683828873 -0.004221470897541351
 0.0007829866107176379 0.009690051322729624 0.0009585362201129686 0.012216590332167817 -0.0003499746838288729 -0.004221470897541351 0.9972496828039525 -0.0595262551593764
 0.997249682803951 -0.059526255159405794 -0.0003499746838289974 -0.00422147089754134 0.000958536220115102 0.012216590332197136 0.0007829866107177618 0.009690051322729607
 -0.0003499746838289974 -0.0042214708975413405 0.9972496828039508 -0.05952625515940579 0.0007829866107177617 0.009690051322729607 0.000958536220115102 0.012216590332197137
0.03 0.00198577334766224 0.018251276986822478 0.0016244057250712238 0.014476704841096947 0.9945782148202986 -0.0891711986755302 -0.0008198963988694128 -0.006291404807996491
 0.0016244057250712238 0.014476704841096946 0.0019857733476622394 0.018251276986822478 -0.0008198963988694128 -0.006291404807996492 0.9945782148202982 -0.0891711986755302
 0.9945782148202993 -0.08917119867552752 -0.0008198963988693959 -0.006291404807996499 0.0019857733476617034 0.018251276986819772 0.0016244057250712075 0.014476704841096949
 -0.0008198963988693959 -0.006291404807996498 0.9945782148202992 -0.08917119867552747 0.0016244057250712073 0.014476704841096949 0.001985773347661704 0.018251276986819765
0.04 0.003386163961257236 0.024206147492522267 0.002771400565253276 0.01919878203462622 0.9909802161517071 -0.11869205277795675 -0.0014718619720585086 -0.008315193737257785
 0.002771400565253275 0.019198782034626213 0.003386163961257235 0.024206147492522263 -0.0014718619720585078 -0.008315193737257781 0.9909802161517071 -0.11869205277795676
 0.9909802161517068 -0.11869205277795986 -0.0014718619720585342 -0.00831519373725778 0.0033861639612585903 0.024206147492525205 0.0027714005652532984 0.0191987820346262
 -0.0014718619720585347 -0.008315193737257781 0.9909802161517067 -0.11869205277795987 0.002771400565253299 0.019198782034626195 0.003386163961258591 0.024206147492525212
0.05 0.005154508509614086 0.03005832409145629 0.004219556648862709 0.02383722968815766 0.9864569255742894 -0.14805442854717366 -0.002300472720377863 -0.010279072325001224
 0.004219556648862709 0.02383722968815766 0.005154508509614084 0.030058324091456295 -0.0023004727203778633 -0.010279072325001226 0.9864569255742891 -0.14805442854717363
 0.9864569255742875 -0.1480544285471775 -0.002300472720377902 -0.010279072325001203 0.005154508509614134 0.030058324091460323 0.004219556648862752 0.023837229688157654
 -0.0023004727203779027 -0.010279072325001203 0.9864569255742872 -0.14805442854717749 0.004219556648862752 0.023837229688157657 0.0051545085096141325 0.030058324091460305
0.06 0.007283514657744931 0.03578541694369529 0.005962720804195268 0.028373429646438048 0.9810141507489624 -0.17722429289280192 -0.003299672858279701 -0.012169741482286488
 0.005962720804195266 0.028373429646438044 0.007283514657744932 0.035785416943695275 -0.0032996728582797017 -0.012169741482286492 0.9810141507489623 -0.17722429289280198
 0.981014150748963 -0.1772242928928015 -0.0032996728582796965 -0.012169741482286502 0.007283514657744926 0.03578541694369468 0.0059627208041952585 0.02837342964643805
 -0.003299672858279696 -0.012169741482286498 0.981014150748963 -0.1772242928928015 0.0059627208041952585 0.028373429646438048 0.007283514657744925 0.03578541694369467
0.07 0.00976417931164809 0.04136567023193876 0.007993301023592692 0.03278932465716919 0.9746605652874752 -0.20616817085944564 -0.004462548556686141 -0.013974461665973145
 0.007993301023592692 0.03278932465716918 0.009764179311648092 0.04136567023193874 -0.00446254855668614 -0.013974461665973145 0.974660565287475 -0.20616817085944553
 0.9746605652874765 -0.2061681708594449 -0.004462548556686132 -0.013974461665973164 0.009764179311649199 0.0413656702319375 0.00799330102359267 0.032789324657169154
 -0.004462548556686132 -0.013974461665973164 0.9746605652874764 -0.2061681708594448 0.007993301023592669 0.03278932465716917 0.009764179311649197 0.0413656702319375
0.08 0.012585972877411936 0.04677808415391775 0.010302417262750718 0.03706752461560521 0.967407042707482 -0.234853293394708 -0.005781295711633564 -0.01568114066791903
 0.010302417262750718 0.03706752461560522 0.012585972877411932 0.04677808415391774 -0.0057812957116335625 -0.01568114066791902 0.9674070427074818 -0.23485329339470795
 0.9674070427074796 -0.23485329339471384 -0.005781295711633656 -0.015681140667918966 0.012585972877411955 0.04677808415392399 0.010302417262750815 0.03706752461560517
 -0.005781295711633657 -0.015681140667918973 0.9674070427074792 -0.2348532933947138 0.010302417262750817 0.03706752461560517 0.012585972877411956 0.04677808415392402
0.09 0.01573696632536906 0.05200252247034211 0.012880010084050732 0.041191400381767 0.9592663155256695 -0.26324771848615974 -0.007247246887390269 -0.017278414566976565
 0.012880010084050732 0.041191400381767 0.015736966325369063 0.05200252247034211 -0.007247246887390267 -0.017278414566976562 0.9592663155256697 -0.26324771848615974
 0.9592663155256691 -0.2632477184861617 -0.007247246887390303 -0.01727841456697654 0.01573696632536977 0.052002522470344016 0.01288001008405077 0.04119140038176699
 -0.007247246887390305 -0.017278414566976544 0.959266315525669 -0.2632477184861617 0.012880010084050772 0.041191400381766996 0.01573696632536977 0.052002522470344016
0.1 0.01920394004393717 0.05701980852721375 0.015714936631977993 0.045145167237082895 0.9502527588015967 -0.29132043502057564 -0.008850925666775578 -0.018755720912079454
 0.015714936631977997 0.0451451672370829 0.019203940043937162 0.05701980852721374 -0.008850925666775577 -0.018755720912079457 0.9502527588015965 -0.2913204350205756
 0.9502527588015978 -0.2913204350205755 -0.008850925666775575 -0.018755720912079468 0.019203940043937627 0.05701980852721311 0.01571493663197798 0.045145167237082874
 -0.008850925666775578 -0.01875572091207948 0.9502527588015978 -0.2913204350205755 0.015714936631977976 0.04514516723708288 0.019203940043937634 0.05701980852721312
0.11 0.022972487645931808 0.06181181065691143 0.018795063744133176 0.04891395854677616 0.9403822273488328 -0.3190414529985855 -0.010582116388583905 -0.020103363432832082
 0.018795063744133176 0.04891395854677617 0.022972487645931815 0.06181181065691144 -0.010582116388583905 -0.020103363432832082 0.9403822273488328 -0.31904145299858566
 0.9403822273488343 -0.31904145299858244 -0.010582116388583843 -0.02010336343283213 0.02297248764592961 0.0618118106569088 0.018795063744133134 0.048913958546776236
 -0.01058211638858384 -0.020103363432832127 0.9403822273488344 -0.31904145299858255 0.018795063744133127 0.048913958546776236 0.022972487645929615 0.061811810656908765
0.12 0.027027119522296826 0.06636151718705348 0.022107361616933628 0.05248388971215567 0.9296719178834221 -0.346381881645822 -0.012429943624872817 -0.02131256775065531
 0.022107361616933625 0.05248388971215566 0.02702711952229682 0.06636151718705345 -0.01242994362487281 -0.021312567750655303 0.9296719178834224 -0.3463818816458222
 0.9296719178834227 -0.3463818816458198 -0.01242994362487276 -0.021312567750655327 0.02702711952229515 0.06636151718705172 0.0221073616169336 0.05248388971215572
 -0.012429943624872769 -0.021312567750655334 0.9296719178834233 -0.34638188164582 0.022107361616933604 0.05248388971215572 0.027027119522295157 0.06636151718705173
0.13 0.031351367746685885 0.07065310107162877 0.025637999009138688 0.055842112368897905 0.9181402433949223 -0.37331399612720717 -0.014382958169252799 -0.022375527722993695
 0.025637999009138688 0.05584211236889791 0.03135136774668589 0.0706531010716288 -0.014382958169252795 -0.022375527722993692 0.9181402433949223 -0.3733139961272072
 0.9181402433949218 -0.37331399612720584 -0.014382958169252762 -0.022375527722993692 0.03135136774668519 0.07065310107162795 0.025637999009138678 0.05584211236889793
 -0.014382958169252766 -0.022375527722993695 0.9181402433949222 -0.37331399612720595 0.025637999009138678 0.05584211236889793 0.031351367746685205 0.07065310107162798
0.14 0.035927892572882626 0.07467197413399881 0.029372439927972668 0.05897685879946343 0.9058067138826027 -0.39981129324654413 -0.016429227348134838 -0.02328544220383241
 0.029372439927972668 0.058976858799463426 0.035927892572882626 0.0746719741339988 -0.016429227348134835 -0.023285442203832406 0.9058067138826027 -0.3998112932465441
 0.9058067138826033 -0.39981129324654124 -0.016429227348134755 -0.023285442203832437 0.035927892572880094 0.07467197413399693 0.029372439927972643 0.05897685879946353
 -0.016429227348134758 -0.023285442203832434 0.905806713882603 -0.39981129324654113 0.02937243992797264 0.05897685879946352 0.035927892572880094 0.07467197413399691
0.15 0.04073859014163615 0.07840483096127711 0.033295541270265454 0.061877476599299625 0.8926918208048206 -0.42584853640701703 -0.018556427969722098 -0.024036542147706265
 0.03329554127026546 0.061877476599299625 0.04073859014163615 0.07840483096127711 -0.018556427969722105 -0.024036542147706282 0.8926918208048207 -0.425848536407017
 0.8926918208048243 -0.4258485364070097 -0.018556427969721907 -0.024036542147706442 0.040738590141633085 0.07840483096127021 0.0332955412702653 0.06187747659929982
 -0.0185564279697219 -0.024036542147706435 0.8926918208048245 -0.42584853640700976 0.0332955412702653 0.06187747659929983 0.04073859014163308 0.07840483096127018
0.16 0.0457647007216796 0.08183968257665916 0.03739165067625855 0.06453445373207584 0.8788169241835557 -0.4514017901084317 -0.02075194050231789 -0.024624108120266476
 0.03739165067625854 0.06453445373207585 0.04576470072167959 0.08183968257665916 -0.020751940502317878 -0.024624108120266466 0.8788169241835557 -0.45140179010843173
 0.8788169241835561 -0.45140179010842996 -0.020751940502317826 -0.024624108120266493 0.04576470072167925 0.0818396825766576 0.03739165067625848 0.06453445373207584
 -0.020751940502317833 -0.024624108120266493 0.8788169241835561 -0.45140179010843 0.03739165067625848 0.06453445373207586 0.045764700721679256 0.08183968257665761
0.17 0.05098691668211101 0.08496588011366604 0.041644703768381856 0.06693943421201447 0.8642041421311175 -0.4764484443036785 -0.023002943250912657 -0.025044478405001697
 0.04164470376838186 0.06693943421201444 0.05098691668211101 0.08496588011366603 -0.023002943250912643 -0.025044478405001694 0.8642041421311174 -0.4764484443036785
 0.8642041421311168 -0.4764484443036782 -0.02300294325091264 -0.025044478405001673 0.05098691668210982 0.08496588011366678 0.04164470376838188 0.06693943421201447
 -0.023002943250912646 -0.025044478405001677 0.8642041421311168 -0.4764484443036783 0.04164470376838188 0.06693943421201445 0.05098691668210983 0.08496588011366676
0.18 0.056385489355487727 0.08777412881495959 0.04603831993352018 0.06908522475210949 0.8488762429963408 -0.5009672290046722 -0.025296505434626047 -0.025295048011096114
 0.046038319933520186 0.06908522475210951 0.05638548935548771 0.08777412881495959 -0.025296505434626044 -0.025295048011096114 0.848876242996341 -0.5009672290046723
 0.8488762429963408 -0.5009672290046713 -0.025296505434626016 -0.025295048011096118 0.05638548935548714 0.08777412881495916 0.04603831993352018 0.06908522475210953
 -0.025296505434626013 -0.025295048011096118 0.8488762429963408 -0.5009672290046714 0.04603831993352018 0.06908522475210953 0.056385489355487144 0.08777412881495918
0.19 0.06194033396541981 0.09025649277151783 0.0505558958361796 0.07096579281037932 0.8328565405435604 -0.5249382196016866 -0.02761967818256101 -0.02537425899024659
 0.050555895836179594 0.07096579281037933 0.0619403339654198 0.09025649277151783 -0.027619678182561013 -0.02537425899024659 0.8328565405435602 -0.5249382196016865
 0.8328565405435593 -0.5249382196016884 -0.027619678182561065 -0.025374258990246534 0.061940333965420945 0.09025649277151926 0.050555895836179636 0.07096579281037926
 -0.02761967818256106 -0.025374258990246534 0.832856540543559 -0.5249382196016883 0.05055589583617962 0.07096579281037925 0.061940333965420924 0.09025649277151924
0.2 0.06763113183909364 0.09240639090123273 0.05518069590576539 0.07257625654903968 0.8161687926711191 -0.5483428334305377 -0.02995958257344162 -0.02528158255944676
 0.05518069590576539 0.07257625654903968 0.06763113183909367 0.09240639090123272 -0.02995958257344163 -0.02528158255944676 0.8161687926711192 -0.5483428334305377
 0.8161687926711164 -0.548342833430543 -0.0299595825734418 -0.02528158255944659 0.06763113183909719 0.09240639090123673 0.05518069590576547 0.0725762565490395
 -0.029959582573441796 -0.02528158255944659 0.8161687926711164 -0.548342833430543 0.05518069590576547 0.07257625654903949 0.06763113183909718 0.0924063909012367
0.21 0.07343742919231758 0.09421858473724494 0.05989593911440859 0.07391286729173951 0.7988371041971823 -0.5711638181848767 -0.03230349394994165 -0.025017493601588534
 0.05989593911440859 0.07391286729173951 0.07343742919231759 0.09421858473724495 -0.03230349394994167 -0.025017493601588545 0.7988371041971822 -0.5711638181848768
 0.798837104197184 -0.5711638181848758 -0.03230349394994165 -0.025017493601588617 0.07343742919231698 0.0942185847372435 0.05989593911440856 0.07391286729173961
 -0.032303493949941635 -0.025017493601588607 0.7988371041971838 -0.5711638181848757 0.05989593911440855 0.0739128672917396 0.07343742919231695 0.09421858473724347
0.22 0.0793387318552595 0.09568915865486152 0.06468488144619351 0.07497298512061806 0.7808858342168414 -0.5933852328236138 -0.03463892184356282 -0.02458343817576449
 0.06468488144619351 0.07497298512061805 0.0793387318552595 0.09568915865486151 -0.03463892184356281 -0.02458343817576449 0.7808858342168413 -0.5933852328236138
 0.7808858342168411 -0.593385232823613 -0.03463892184356277 -0.024583438175764482 0.07933873185525879 0.09568915865486158 0.06468488144619353 0.07497298512061806
 -0.0346389218435628 -0.024583438175764492 0.7808858342168412 -0.5933852328236131 0.06468488144619355 0.07497298512061808 0.0793387318552588 0.09568915865486159
0.23 0.08531459539496483 0.09681549321012757 0.06953089354959893 0.07575504829770788 0.7623395084843222 -0.6149924216636778 -0.03695368495016173 -0.02398179471464737
 0.06953089354959892 0.07575504829770788 0.08531459539496485 0.09681549321012754 -0.036953684950161714 -0.02398179471464737 0.7623395084843219 -0.6149924216636773
 0.7623395084843224 -0.6149924216636784 -0.036953684950161755 -0.023981794714647377 0.08531459539496523 0.09681549321012763 0.06953089354959896 0.07575504829770788
 -0.03695368495016177 -0.02398179471464737 0.7623395084843223 -0.6149924216636782 0.06953089354959896 0.07575504829770788 0.08531459539496519 0.09681549321012761
0.24 0.09134471018316745 0.09759623229425633 0.07441753315911205 0.07625853722401883 0.743222737207195 -0.635971982376684 -0.0392359806990645 -0.023215829617352968
 0.07441753315911204 0.07625853722401883 0.09134471018316741 0.0975962322942563 -0.039235980699064484 -0.02321582961735296 0.7432227372071949 -0.6359719823766838
 0.7432227372071946 -0.6359719823766832 -0.03923598069906445 -0.023215829617352957 0.09134471018316696 0.09759623229425608 0.07441753315911204 0.07625853722401885
 -0.03923598069906446 -0.023215829617352968 0.7432227372071946 -0.635971982376683 0.07441753315911204 0.07625853722401883 0.09134471018316698 0.09759623229425607
0.25 0.0974089810508414 0.09803124482567942 0.07932861196638573 0.07648393366519575 0.7235601385641549 -0.6563117286235851 -0.04147444905885297 -0.022289647963723555
 0.07932861196638574 0.07648393366519575 0.0974089810508414 0.09803124482567939 -0.04147444905885297 -0.022289647963723555 0.7235601385641551 -0.6563117286235853
 0.7235601385641532 -0.6563117286235861 -0.04147444905885298 -0.022289647963723465 0.09740898105084309 0.09803124482567976 0.07932861196638569 0.07648393366519565
 -0.04147444905885298 -0.02228964796372347 0.7235601385641532 -0.6563117286235862 0.0793286119663857 0.07648393366519567 0.09740898105084313 0.09803124482567978
0.26 0.10348760126260734 0.09812158170669162 0.08424825671380506 0.07643267597564976 0.7033762681788442 -0.6760006480652647 -0.043658230319173714 -0.02120814008075249
 0.08424825671380508 0.07643267597564977 0.10348760126260735 0.09812158170669161 -0.043658230319173714 -0.021208140080752492 0.7033762681788444 -0.6760006480652646
 0.703376268178845 -0.6760006480652646 -0.043658230319173735 -0.021208140080752527 0.10348760126260695 0.09812158170669143 0.08424825671380506 0.07643267597564979
 -0.04365823031917373 -0.021208140080752523 0.7033762681788449 -0.6760006480652645 0.08424825671380508 0.07643267597564977 0.10348760126260692 0.09812158170669139
0.27 0.10956112063218264 0.09786942876551948 0.08916096437203344 0.07610711104461254 0.6826955547029439 -0.6950288564798287 -0.04577701667908226 -0.0199769246851096
 0.08916096437203343 0.07610711104461255 0.10956112063218261 0.09786942876551946 -0.045777016679082266 -0.0199769246851096 0.6826955547029436 -0.6950288564798284
 0.6826955547029432 -0.695028856479827 -0.04577701667908216 -0.0199769246851096 0.10956112063218143 0.09786942876551966 0.08916096437203355 0.0761071110446126
 -0.045777016679082155 -0.019976924685109594 0.6826955547029431 -0.6950288564798268 0.08916096437203354 0.0761071110446126 0.10956112063218139 0.09786942876551964
0.28 0.11561050768325004 0.09727805638815228 0.09405165134654178 0.07551044366889463 0.6615422415851951 -0.7133875487002516 -0.047821097557445694 -0.01860228930870769
 0.09405165134654182 0.07551044366889467 0.11561050768325008 0.09727805638815233 -0.04782109755744571 -0.01860228930870769 0.6615422415851953 -0.7133875487002519
 0.661542241585194 -0.7133875487002517 -0.04782109755744571 -0.018602289308707644 0.11561050768325018 0.097278056388153 0.09405165134654181 0.07551044366889458
 -0.047821097557445694 -0.01860228930870764 0.6615422415851945 -0.713387548700252 0.09405165134654182 0.0755104436688946 0.11561050768325017 0.09727805638815298
0.29 0.1216172058371002 0.0963517665190426 0.09890569673519696 0.07464668402954197 0.6399403350309175 -0.7310689470603728 -0.049781398618942894 -0.01709112868830274
 0.09890569673519699 0.07464668402954196 0.12161720583710017 0.09635176651904259 -0.04978139861894289 -0.01709112868830274 0.6399403350309173 -0.7310689470603726
 0.6399403350309182 -0.7310689470603725 -0.049781398618942874 -0.017091128688302794 0.12161720583709923 0.09635176651904279 0.09890569673519703 0.074646684029542
 -0.049781398618942874 -0.017091128688302794 0.639940335030918 -0.7310689470603722 0.09890569673519703 0.074646684029542 0.12161720583709922 0.09635176651904279
0.3 0.12756318367838115 0.09509583767690588 0.10370897972881506 0.07352059391450264 0.6179135580902234 -0.7480662480041081 -0.05164951457956758 -0.015450881766714244
 0.10370897972881506 0.07352059391450264 0.12756318367838113 0.09509583767690585 -0.05164951457956755 -0.015450881766714239 0.6179135580902233 -0.7480662480041083
