! Created with skrf (http://scikit-rf.org).
# GHz S RI R 50.0 
!freq ReS11 ImS11 ReS21 ImS21 ReS12 ImS12 ReS22 ImS22
0.01 9.565215278571802e-05 -0.0002771883505639773 1.0012001560331092 -0.023424454821555758 0.9999519242835706 -0.024269612102672547 0.00014769674648790922 -0.0004293481309505414
0.02 -0.0003797331309261372 0.0014550114524891535 0.9973947686036808 -0.05164830848714235 0.9971247626148901 -0.04867146234945049 -0.00023881395063506488 0.000900476936916826
0.03 -3.365040143264694e-05 0.00015818143906291208 0.9977647446577526 -0.07557289280087535 0.9941537334495513 -0.07610089005171472 -0.00027102504533345703 0.001267619970141181
0.04 -0.00023177650452154536 0.0013476662156094881 0.9942727295097037 -0.10336702564960805 0.9928535218399871 -0.10532149728338587 -0.0005618486612470261 0.0032556797756364557
0.05 -0.0002370448246855023 0.0017128430524902412 0.989854202699617 -0.1263211768199307 0.992041659003352 -0.12439840457788004 -0.0002199173244511065 0.0016134494733039658
0.06 -0.00030245474894156443 0.002977834569413956 0.984135035860693 -0.1583200155079404 0.9850306903956362 -0.15621395087365877 -0.0001816202085780315 0.0017382622420803373
0.07 -0.00028911381742172213 0.004113318986339477 0.9826362160354496 -0.17817386265236584 0.9830613486450074 -0.17850397302336368 -0.0002737230858167534 0.0037718161747493737
0.08 -0.0001826097218756003 0.004765937256201947 0.9778847596524128 -0.20410882133913286 0.9773671219748501 -0.20492404788471683 -0.0002155789393077995 0.0048335457354392545
0.09 -9.048367206012596e-05 0.006411717617078376 0.9716429554548917 -0.22898016498255394 0.9722552925386553 -0.22886195245892627 -9.467919128164418e-05 0.0059365404420819
0.1 0.00012188315975704044 0.006267222068095552 0.9666416139791993 -0.2509235066218003 0.9642610641075455 -0.2515196061607188 7.460488013839076e-05 0.005570718261413717
0.11 0.0002721340815030945 0.006194870891173358 0.9576634831873527 -0.27865788447914014 0.9571971161416221 -0.27867374985547766 0.00031315449416275364 0.007309820943303833
0.12 0.0005697402434262745 0.00792572611529053 0.951109201529263 -0.3028761136334858 0.9520733309558556 -0.30063267954045 0.0005332445385739976 0.007444340005792602
0.13 0.0007319708573773622 0.007339412289431149 0.944359474228341 -0.32439219835077604 0.942967229936785 -0.3268902275011392 0.0008534538921118645 0.008582973917203867
0.14 0.0011972869588211556 0.009538659913121724 0.9334405925614392 -0.34775200593257083 0.9340212297247014 -0.349277764005653 0.0008787022046538493 0.006934257285447944
0.15 0.001702402471334965 0.010855442575479176 0.9256217219353967 -0.3688079136755584 0.9239025800718907 -0.37565083303281044 0.0016313128493452508 0.01038402762660682
0.16 0.0017423830259464335 0.009478919144609202 0.9155897566107049 -0.397051876159635 0.9142088557696694 -0.3941633120441885 0.0019114501555592687 0.010330558526751337
0.17 0.002316337182065663 0.011184887530557588 0.9039782930485127 -0.4201672971822714 0.9036854771595249 -0.4199546732625149 0.0023792528198373583 0.011448023049304036
0.18 0.0024325826415042312 0.010225913093874814 0.8911132333428207 -0.44146001253309586 0.8916398271385936 -0.44084534956537097 0.002762244191399825 0.011538349922531617
0.19 0.0032259457309162173 0.012284645239411923 0.8814385887312951 -0.463573680381607 0.8812448588623011 -0.46485815641268713 0.003131156593469156 0.011726637425191394
0.2 0.00379977451089692 0.012894214213472725 0.8682990116566264 -0.48839299596532315 0.870068308131329 -0.4868778243316281 0.003852942301713013 0.013188340340407853
0.21 0.0038916592620915954 0.012012662552926207 0.857504006105951 -0.507990172549395 0.8573725865006004 -0.5071081343454519 0.00375420976762782 0.011567007587094488
0.22 0.004898516876225242 0.014036024191058757 0.8418085655972444 -0.5323348091328582 0.8429305391718663 -0.5287351801702642 0.004944129086742493 0.014158729736376469
0.23 0.005991279164529851 0.015670201615999337 0.8280590441298342 -0.5528687674134078 0.8288215335187834 -0.552426172844586 0.005686695111438517 0.014984438738099074
0.24 0.005519306884972325 0.013580816573773408 0.8128746525340563 -0.5730953283311119 0.8132237282604224 -0.5736247339344667 0.006006651003372815 0.014692195718982944
0.25 0.006574220569145098 0.014948109055358956 0.7991737039044936 -0.5944191277406699 0.7988033421868425 -0.5906483658473686 0.006270185340559592 0.014260764168778712
0.26 0.0065957673846146914 0.014073582598284359 0.7836142186563252 -0.613020715792377 0.7854280610337238 -0.6117665787158915 0.0074750598023772905 0.015914414525056462
0.27 0.0085799434605637 0.017272959558958623 0.7681396119032559 -0.6333470403388526 0.7688345683378425 -0.6333977596994335 0.007960329631188909 0.015892261687954913
0.28 0.008208697877948612 0.015396549662143887 0.7536571058574044 -0.6505449560115311 0.753116107812638 -0.6511995585002492 0.0075539803943176585 0.014169386009515957
0.29 0.008992175758422438 0.01591292354660542 0.7331303712855985 -0.672200428273331 0.7337520635083443 -0.670496845950901 0.009213392344785444 0.01636946120244112
0.3 0.008779046245633663 0.014628842455348737 0.7158491703502261 -0.6886501912383257 0.7180752733890904 -0.6903110172824365 0.010747666679344304 0.01800521969854317
0.31 0.011211527275683676 0.017862495915366147 0.6984180032378299 -0.7070470129212598 0.6988786583137981 -0.7064066737675924 0.009734589893807898 0.015414146652404415
0.32 0.01117047119840634 0.016740519897091286 0.6815491643348203 -0.7246779424031725 0.6796623267833682 -0.7233709141732452 0.011496942791770147 0.01720509751056847
0.33 0.01170288966401226 0.0166779679430542 0.6607644761584941 -0.7407416893340845 0.6651828647409074 -0.739511018042039 0.012289536913797689 0.017454748040429808
0.34 0.012620285681487728 0.016973643029518936 0.643514369149387 -0.7574335462497943 0.6455552230652625 -0.7568996913106454 0.013048261354990433 0.01762969270239026
0.35 0.012964213522252212 0.0166824212380746 0.6234666057042245 -0.7718024449786852 0.6237774002095087 -0.7729854658145213 0.013726549712524495 0.017791288983681618
0.36 0.01450850082161312 0.017676046373281556 0.6036133332900974 -0.7892344749171128 0.6056342501513333 -0.7870906470743266 0.013844839750709013 0.016997542788954333
0.37 0.014071905587035782 0.01637484600516254 0.5854183797505937 -0.8013724846792201 0.5824731428873707 -0.8036941322734082 0.014714825504295908 0.017130170901742934
0.38 0.015089093242814452 0.016755450639798795 0.5637505654668661 -0.81771607111541 0.5598037862109556 -0.8184822151432628 0.014846419120639763 0.016631449910982955
0.39 0.01611752614548638 0.01707446164656466 0.5421277541847689 -0.8300689338536694 0.5432637086224061 -0.8304807749936447 0.015055201316401643 0.015886286304015933
0.4 0.017003308925883316 0.01714732244603381 0.5170576149132505 -0.8452498868075782 0.5218413394361392 -0.8427745575227756 0.01622940118700602 0.016411369658904752
0.41 0.016727502060266207 0.0161166801650139 0.4992309065992206 -0.8587385768890857 0.5007737853568022 -0.8588898027530105 0.017755693943464983 0.01713125231317904
0.42 0.016945204345813283 0.015514446111538464 0.47753616893861306 -0.8694497000710405 0.47846265621148887 -0.869496010147707 0.019036834964042768 0.017527394255786356
0.43 0.018734684700424182 0.01635351526044113 0.45475470816972285 -0.8819311983559964 0.4543305880480864 -0.8810881715512964 0.0181508554435276 0.015883324180923985
0.44 0.018725239860361093 0.015790198977965575 0.43198589159284473 -0.892369084277365 0.4333985558767355 -0.8914371270102818 0.020540896305952922 0.017164337641452816
0.45 0.019498679329495724 0.015522228697642812 0.40829053307649177 -0.9036227568724065 0.40730831800657247 -0.9038841166453166 0.020284488933055806 0.01604296061348445
0.46 0.020558154656743977 0.015549075574886845 0.3850726807469854 -0.9147437306520829 0.3835766028420032 -0.9131139402604376 0.01931007706904026 0.014714725339073394
0.47 0.0214159385219049 0.015464153409860237 0.3637188439986618 -0.9212505066750352 0.3641586424435198 -0.923441164410554 0.021154037122854727 0.015323514006841213
0.48 0.021432632345443958 0.014729152387193342 0.33772653644310746 -0.9322934397811145 0.3386266774075445 -0.9302104213287644 0.022301972770699386 0.015327905615928887
0.49 0.0211929753495843 0.01397845412911268 0.31598690839736066 -0.9384483936801276 0.31596251116547264 -0.9393394821673214 0.021385126982489403 0.014016266266971153
0.5 0.020190503750999723 0.012573055738238487 0.2875079854809773 -0.9464265167392362 0.2907682865732944 -0.9474778628824687 0.021751800758783486 0.013586039530894243
0.51 0.021688261248861654 0.012842938496391842 0.2659436300447481 -0.9535137702054127 0.26691347620542283 -0.9523665865038159 0.02155683571608116 0.012726323354480268
0.52 0.022134632042476045 0.012524513085789108 0.24181098812376717 -0.9598436340877338 0.24018368244387966 -0.9597517356352854 0.022382648893139415 0.01251500611258998
0.53 0.024185921734705452 0.012903651745900534 0.21864839056008636 -0.9655619786010955 0.2165388718485944 -0.9665677552727622 0.0219368122973592 0.011722840489705698
0.54 0.02248446333566426 0.01141265028419394 0.192945555573092 -0.9707552760095408 0.19242374829114062 -0.9682089315018216 0.02251776972691133 0.011425299341730208
0.55 0.022222248497439145 0.010666733434467116 0.16834182641784312 -0.9731643426905283 0.16959088411045126 -0.9759749092854024 0.023051359703621814 0.01104257541660324
0.56 0.022115138216513522 0.009945487062538269 0.1452618791703144 -0.97745951651392 0.14114679600940552 -0.9799770803327091 0.02500593992641224 0.011285044492478094
0.57 0.023267656035459047 0.010074710697508947 0.11904834394329357 -0.9829949374149836 0.1188567504585538 -0.9818214670584868 0.02443543645568454 0.010383167620257684
0.58 0.024049022648931974 0.009712045337306114 0.09496766381791125 -0.9870945450799531 0.09587372099285273 -0.9841465981841403 0.02378854765986606 0.009541789316687092
0.59 0.02508108725300281 0.009532731656582446 0.06631004722327125 -0.9879270135386741 0.06586746436014304 -0.9856813349474591 0.02325223973381859 0.00873664073171223
0.6 0.02341001148149409 0.008463122416149781 0.04510940798715338 -0.9866940597401707 0.04189604753674768 -0.9881022911278664 0.024148881704912327 0.008560930313562738
0.61 0.02305686159681698 0.007603751250063261 0.01831737081476235 -0.9891837022217894 0.021144630708805366 -0.9888726592675166 0.02547447218409943 0.008558767174140594
0.62 0.02371779681166673 0.007383708720337263 -0.002864840154715924 -0.989411159419175 -0.006084589041574596 -0.9882130418029074 0.024253615957095603 0.007511556839154553
0.63 0.0223668965660515 0.006460253479662249 -0.027778032226462183 -0.9882716589799571 -0.033079155739571875 -0.9872544061774525 0.02426685349916056 0.007036431477093247
0.64 0.023899263779906452 0.00640107692185353 -0.05598393749084929 -0.9858525602291154 -0.05646601825844133 -0.9870050137754154 0.02526312902665455 0.0067752594956968955
0.65 0.024244031782681183 0.00593864357537464 -0.08215928308351438 -0.9847239379107532 -0.0821607097688837 -0.9837392152683284 0.023294468258409227 0.0057274518178125336
0.66 0.023877899398360932 0.005413936915834589 -0.10552691748770468 -0.9814464444115073 -0.1066691351528891 -0.982346178796412 0.024451234070962998 0.005673320116902426
0.67 0.0247684680075296 0.0052119939498432525 -0.13191918490578522 -0.9800431988931524 -0.13365328252626596 -0.9790634232135761 0.023409721815219522 0.004934857883655531
0.68 0.024298132204916043 0.0045765571008277335 -0.15755015187020352 -0.9744830724855917 -0.15638209349594093 -0.9746535059684822 0.02314305335816658 0.004419546631063488
0.69 0.024349259211649304 0.004258574898677812 -0.18024582069870657 -0.9693471758054254 -0.18109865446504228 -0.9705976562203689 0.022331001598786815 0.003908802675555862
0.7 0.022039959182268056 0.0034169406526203365 -0.20345075633012658 -0.9657236680738704 -0.20409472546833474 -0.9664415648694011 0.022970277060567017 0.0035779632280133833
0.71 0.021483834977180132 0.0029151507277380604 -0.23076574601453148 -0.9589552137791113 -0.2324706097392606 -0.9596290659115987 0.022772623388332233 0.003096910332783405
0.72 0.02190357016018684 0.0026132404658929026 -0.25483711633975675 -0.9540014038550666 -0.25283643272748857 -0.952076905431687 0.020842957495272877 0.0025392991053763683
0.73 0.02091546089855188 0.002224203309670379 -0.27460754594998593 -0.9489390096451695 -0.27649568424581855 -0.9476175886621846 0.02168966651469456 0.00229081448896457
0.74 0.021782108874773633 0.0019596595391541322 -0.30056424959621286 -0.9388825107648218 -0.3037089643213779 -0.9394337167173431 0.02003208704734928 0.0018297900674981026
0.75 0.02044387477628115 0.0016155326179929902 -0.32444305928635625 -0.9296205749602954 -0.32594960276868234 -0.9310157684912 0.018626584152702 0.0014753286744609085
0.76 0.020822406664184778 0.0014148089759968411 -0.3492597661125205 -0.922962640113052 -0.3511788778490831 -0.9212609873833721 0.019286668170227724 0.0012749123564251693
0.77 0.019804001388050444 0.0011039529087116778 -0.3673629409869528 -0.9153240727673564 -0.371638093106636 -0.9136861537417929 0.01809672471023064 0.0009516763986354379
0.78 0.01970633454918763 0.0008238206539567277 -0.3909324868595087 -0.9025153606274947 -0.3986193345859621 -0.901423495678646 0.017211739025352783 0.0007611345630211368
0.79 0.019111070182243308 0.0006633997284405879 -0.41783450651297255 -0.893498870831052 -0.4164668172144601 -0.8927177245678779 0.01943627727304395 0.0006626595590933168
0.8 0.017343282896049587 0.00047575371560017665 -0.44201855807502716 -0.8806265971551798 -0.438472877592461 -0.8817600283889939 0.017910107665436513 0.0004968999617294437
0.81 0.017966295937939972 0.0004857285308725931 -0.46334525926335635 -0.8695785644459092 -0.46162911491181197 -0.8706615720083003 0.017180419366029286 0.0003521080469685473
0.82 0.016960706611348 0.0003318493962430296 -0.4831881431448033 -0.8579284247280298 -0.4841832642786757 -0.857779627215274 0.015257089537955787 0.0002722319336607211
0.83 0.016323211611768286 0.0002778934859988686 -0.5074563738391153 -0.843197305994227 -0.5047406193670342 -0.8457311019887742 0.015536590370572569 0.00028066882042566
0.84 0.014889057309045101 0.000301471013912673 -0.5288472203014776 -0.8316218529070339 -0.5282868959548265 -0.8319532284426582 0.015308788041684548 0.00024669908457828396
0.85 0.014940653700283201 0.00025051554735088416 -0.5482083826468476 -0.8180057028234604 -0.5454465312514643 -0.8173720691127161 0.014140863606156654 0.0002920553882153466
0.86 0.01560835676704437 0.00042943046824114775 -0.5665998763604051 -0.8054667514653834 -0.5667679277997729 -0.8055121520418209 0.014111187989392664 0.0003712853335723159
0.87 0.01259473391234065 0.0004356471091907139 -0.5875447303262886 -0.785325695940594 -0.5877673754940004 -0.7887654869929912 0.013589639764707838 0.00046621789064255455
0.88 0.012343020411498628 0.0005248986809542328 -0.6085154584797312 -0.7731880815200838 -0.6084060829628382 -0.775245061349274 0.010867623280486493 0.000526623023914199
0.89 0.013808040477560709 0.0009380561993133255 -0.6285711480765477 -0.755786489161832 -0.629894812681307 -0.7563149278926732 0.012657495310046224 0.000802128352802875
0.9 0.010242667994006466 0.0009175072956660066 -0.6435853772483916 -0.7411033548007085 -0.6459074399547924 -0.7418451316008949 0.010891717991327108 0.0009828816862720447
0.91 0.009321162782653807 0.0011361903254877642 -0.666070436319215 -0.723956038791571 -0.6622910858321382 -0.7266342086056604 0.0127814456602619 0.0015527189966263088
0.92 0.010905838062122836 0.0017420608108030986 -0.68359349626743 -0.7086474786658529 -0.6850184424888509 -0.7074446377106272 0.011550213388093724 0.0018060717622386717
0.93 0.009596165395396875 0.0019577436537347075 -0.7016427129689585 -0.6889669918069465 -0.6989200059280766 -0.6887524016815171 0.008596812381016413 0.0017403957529474785
0.94 0.009844447348232515 0.0026036871159045875 -0.7186542164817638 -0.673289822757979 -0.7182462088198059 -0.671755236992905 0.010038177240671634 0.002589952839532951
0.95 0.008838120742536466 0.0029175844947861864 -0.7331218740937279 -0.6533501867418562 -0.7341864052745495 -0.6525207619320906 0.007200800245285504 0.0023789482978216724
0.96 0.008993800059906135 0.003683002107529334 -0.7502986297042015 -0.6322196765509598 -0.7506489645408809 -0.6332844233752042 0.008576747942509925 0.003530406392861832
0.97 0.007168362144995911 0.003641887468530403 -0.7654806604729723 -0.6137088556640498 -0.767531215223511 -0.61353298099016 0.008506991980681236 0.004311041243410529
0.98 0.007196370330122712 0.004468493558141255 -0.7825045247000172 -0.5935408709505967 -0.7829701233297899 -0.5933365648426985 0.008516283169993765 0.005324887556007016
0.99 0.007306758690479858 0.005536322834609802 -0.7965216889347155 -0.5731607224509455 -0.7947783619562886 -0.5780747897277394 0.0060496645830565585 0.004579926336398083
1.0 0.006772924090147236 0.006215950825138712 -0.8128808833412368 -0.554018462637303 -0.8095380156260027 -0.5532970059484543 0.00637617079963108 0.0058441719313372
1.01 0.005630678275240556 0.006218115301669577 -0.8260358927325838 -0.5324369275533603 -0.8242816503844749 -0.534976915366117 0.005224029697171657 0.005794154939353693
1.02 0.005017002415481208 0.006610952080061542 -0.8374412818932008 -0.5113740998694932 -0.8364866597567914 -0.5108735030773133 0.004912441064292451 0.006441048144391848
1.03 0.004832674912275849 0.0075795061043464566 -0.8492115799433751 -0.49205445138514253 -0.8494739782787989 -0.4930216277272774 0.00505739379485229 0.007893220008034656
1.04 0.004923092967488628 0.009152463111942111 -0.8609749046908802 -0.4686382094712782 -0.8626042226219128 -0.47008517966363633 0.004937457387808395 0.009134207201914525
1.05 0.003920603154070214 0.0083772411738993 -0.8735711896850602 -0.44351079813519917 -0.8699083722180361 -0.45090033505398225 0.0038596841745802005 0.008259305276179286
1.06 0.0041033307668422005 0.010260824261571351 -0.8858010908620697 -0.4239092163188622 -0.8847622330680582 -0.4256440468202918 0.0037587803325814435 0.009379611515716698
1.07 0.0036701286940968862 0.010500447936060765 -0.8943073649823923 -0.4012385934912944 -0.893068564162463 -0.4026762048006095 0.0033171113481096554 0.009495292434049455
1.08 0.0032223303527033173 0.010512420105533011 -0.903959400865476 -0.37682071407606765 -0.9070008117719894 -0.377974460330157 0.003280290225302326 0.010729092496979098
1.09 0.0033439953468493103 0.012176575753487406 -0.9136122904595108 -0.3558976589679101 -0.9135793557753518 -0.35674454945200457 0.0031117193127193268 0.011287277303015104
1.1 0.003558836763774674 0.014344112572014393 -0.9229339017163767 -0.3338774483257594 -0.9227965662891054 -0.3312747049890165 0.0031955561709061217 0.012871173464574595
1.11 0.0030419449424775183 0.013663805710267355 -0.9317622573760498 -0.31097150123605516 -0.93136971510087 -0.3053597417312645 0.0030735631845318005 0.013286856446132742
1.12 0.0030987519934476612 0.01452253514679684 -0.9374116977493021 -0.2862858371931614 -0.9355714264364136 -0.28690301009156666 0.0033388938328566854 0.01553060049086614
1.13 0.0033162101970308417 0.016232031807272337 -0.9429839838960035 -0.26498145453822525 -0.94272406345788 -0.26283209052166623 0.003413143101427541 0.016952910922017072
1.14 0.0034859765643968565 0.01809488687992703 -0.9505427584605491 -0.23796142597363126 -0.9502251424603078 -0.23911292738713807 0.0032820747298415876 0.01648380265502847
1.15 0.0034076115836778713 0.01775985026414853 -0.955178759148578 -0.21199204784155534 -0.9547009641874545 -0.21370191494892649 0.0033088694096414534 0.01719774296494206
1.16 0.003322789021669988 0.01732431200935565 -0.960737888523034 -0.18704518221337285 -0.9597149277464184 -0.1911704370317264 0.003472578467462525 0.018144961266807674
1.17 0.0036032420982567716 0.018817672835169143 -0.9660399869595064 -0.16612431490698518 -0.9642387694239145 -0.16430413108668954 0.003467418554065583 0.017955870990331912
