!Created with skrf (http://scikit-rf.org).
# GHz S RI R 50.0 
!freq ReS11 ImS11 ReS21 ImS21 ReS12 ImS12 ReS22 ImS22
0.001 2.205032157415293e-06 4.7657611271142544e-05 0.9999281887007371 -0.0015790437042919913 0.9999281887007371 -0.0015790437042919913 2.205032157415293e-06 4.7657611271142544e-05
0.002 3.9330559219731114e-06 0.00010624258901880684 0.9998884511661856 -0.0031470338227226158 0.9998884511661856 -0.0031470338227226158 3.9330559219731114e-06 0.00010624258901880681
0.003 5.710887595969858e-06 0.00016894705748258008 0.9998518557509721 -0.004710801875843231 0.9998518557509721 -0.004710801875843232 5.710887595969858e-06 0.00016894705748258008
0.004 7.620071423770214e-06 0.00023432348049314808 0.9998157053305639 -0.006271800924154321 0.9998157053305639 -0.006271800924154321 7.620071423770214e-06 0.00023432348049314808
0.005 9.696289500238496e-06 0.0003016840219587926 0.9997789621100934 -0.007830720095680362 0.9997789621100934 -0.007830720095680362 9.696289500231559e-06 0.00030168402195879273
0.006 1.1959871831955139e-05 0.0003706232598862099 0.9997410970622407 -0.00938796422035744 0.9997410970622407 -0.00938796422035744 1.1959871831962076e-05 0.0003706232598862098
0.007 1.4424136222026422e-05 0.0004408730518261618 0.9997017978011626 -0.010943799809630105 0.9997017978011626 -0.010943799809630105 1.4424136222026422e-05 0.0004408730518261618
0.008 1.709860428312938e-05 0.0005122425966144028 0.9996608620328097 -0.012498415387465163 0.9996608620328097 -0.012498415387465163 1.7098604283122443e-05 0.0005122425966144028
0.009 1.999050363440091e-05 0.0005845890356262838 0.9996181501306561 -0.01405195110050909 0.9996181501306561 -0.014051951100509089 1.999050363440091e-05 0.0005845890356262838
0.01 2.310556369437133e-05 0.0006578013051690269 0.9995735611024332 -0.01560451499115363 0.9995735611024332 -0.01560451499115363 2.310556369437133e-05 0.0006578013051690269
0.011 2.644847696792925e-05 0.0007317905189722504 0.9995270192319361 -0.017156192694906827 0.9995270192319361 -0.017156192694906827 2.6448476967922316e-05 0.0007317905189722505
0.012 3.0023185239073453e-05 0.000806483878806361 0.999478466119758 -0.01870705358338725 0.999478466119758 -0.01870705358338725 3.0023185239080392e-05 0.000806483878806361
0.013 3.383306684870115e-05 0.0008818206296135837 0.9994278556758612 -0.02025715484671965 0.9994278556758612 -0.020257154846719652 3.383306684870115e-05 0.0008818206296135834
0.014 3.7881064623592975e-05 0.000957749266783183 0.999375150828235 -0.02180654431342924 0.999375150828235 -0.02180654431342924 3.7881064623592975e-05 0.000957749266783183
0.015 4.2169776413834845e-05 0.0010342255454871847 0.9993203212800919 -0.023355262461333116 0.9993203212800919 -0.023355262461333116 4.2169776413841784e-05 0.0010342255454871842
0.016 4.6701521097042157e-05 0.0011112110232432025 0.9992633419346619 -0.024903343890393472 0.9992633419346619 -0.024903343890393472 4.6701521097042157e-05 0.0011112110232432025
0.017 5.1478387928058055e-05 0.0011886719682704457 0.9992041917600232 -0.026450818426348454 0.9992041917600232 -0.026450818426348454 5.1478387928064994e-05 0.0011886719682704457
0.018 5.6502274246734875e-05 0.0012665785255995777 0.9991428529526959 -0.027997711964084692 0.9991428529526959 -0.027997711964084692 5.650227424674181e-05 0.0012665785255995777
0.019 6.177491483968191e-05 0.0013449040690710844 0.9990793103093669 -0.029544047123254695 0.9990793103093669 -0.029544047123254695 6.177491483969579e-05 0.001344904069071084
0.02 6.72979051854417e-05 0.0014236246901411698 0.9990135507468718 -0.031089843765669273 0.9990135507468718 -0.031089843765669273 6.729790518544864e-05 0.0014236246901411695
0.021 7.307272012909937e-05 0.0015027187891908191 0.9989455629298756 -0.032635119409092334 0.9989455629298756 -0.032635119409092334 7.307272012909937e-05 0.0015027187891908191
0.022 7.910072908139036e-05 0.0015821667448662124 0.9988753369782165 -0.03417988956214889 0.9988753369782165 -0.03417988956214889 7.91007290813973e-05 0.0015821667448662122
0.023 8.538320853493131e-05 0.00166195064367214 0.9988028642340578 -0.03572416799830063 0.9988028642340578 -0.03572416799830063 8.538320853493825e-05 0.0016619506436721396
0.024 9.192135247925366e-05 0.0017420540566902285 0.9987281370746122 -0.03726796698215274 0.9987281370746122 -0.03726796698215274 9.19213524792606e-05 0.0017420540566902283
0.025 9.871628115110588e-05 0.0018224618535835938 0.9986511487600129 -0.03881129745803242 0.9986511487600129 -0.03881129745803242 9.871628115110586e-05 0.0018224618535835936
0.026 0.00010576904844858986 0.0019031600464163496 0.9985718933086403 -0.04035416920839223 0.9985718933086403 -0.04035416920839222 0.00010576904844859679 0.0019031600464163492
0.027 0.00011308064826413558 0.001984135657543678 0.9984903653940747 -0.041896590987844144 0.9984903653940747 -0.041896590987844144 0.00011308064826413559 0.001984135657543679
0.028 0.00012065201993160741 0.002065376607107586 0.9984065602593138 -0.04343857063734093 0.9984065602593138 -0.04343857063734093 0.00012065201993160741 0.0020653766071075863
0.029 0.00012848405294403143 0.002146871616631604 0.9983204736448229 -0.044980115182049835 0.9983204736448229 -0.044980115182049835 0.00012848405294403143 0.002146871616631604
0.03 0.00013657759106326537 0.0022286101259346484 0.9982321017278367 -0.046521230915732716 0.9982321017278367 -0.046521230915732716 0.00013657759106326537 0.002228610125934648
0.031 0.00014493343592130334 0.0023105822211409123 0.9981414410708093 -0.04806192347388073 0.9981414410708093 -0.04806192347388073 0.00014493343592128947 0.0023105822211409123
0.032 0.000153552350191538 0.00239277857199371 0.9980484885774215 -0.049602197897418404 0.9980484885774215 -0.049602197897418404 0.00015355235019154492 0.00239277857199371
0.033 0.0001624350603960169 0.0024751903770176813 0.9979532414548162 -0.051142058688449794 0.9979532414548162 -0.051142058688449794 0.00016243506039602385 0.0024751903770176813
0.034 0.00017158225940050188 0.002557809315338497 0.9978556971810447 -0.05268150985925345 0.9978556971810447 -0.05268150985925345 0.00017158225940049494 0.0025578093153384965
0.035 0.00018099460864247225 0.002640627504180139 0.9977558534768569 -0.05422055497551762 0.9977558534768569 -0.05422055497551763 0.00018099460864246533 0.00264062750418014
0.036 0.00019067274012782756 0.002723637461227508 0.9976537082811685 -0.055759197194639516 0.9976537082811685 -0.055759197194639516 0.00019067274012782756 0.002723637461227508
0.037 0.00020061725822703561 0.002806832071177876 0.9975492597296337 -0.05729743929977317 0.9975492597296337 -0.05729743929977317 0.00020061725822702868 0.002806832071177876
0.038 0.00021082874129668819 0.0028902045559145747 0.9974425061358495 -0.058835283730200465 0.9974425061358495 -0.058835283730200465 0.00021082874129667434 0.002890204555914575
0.039 0.0002213077431479454 0.002973748447825715 0.9973334459748316 -0.06037273260850916 0.9973334459748316 -0.06037273260850916 0.00022130774314795925 0.002973748447825715
0.04 0.0002320547943804627 0.003057457565864367 0.9972220778684199 -0.06190978776498682 0.9972220778684199 -0.06190978776498682 0.0002320547943804627 0.003057457565864367
0.041 0.00024307040359776525 0.003141325994007084 0.9971084005723511 -0.06344645075957839 0.9971084005723511 -0.06344645075957839 0.00024307040359776528 0.0031413259940070845
0.042 0.0002543550585172957 0.0032253480618180085 0.996992412964782 -0.06498272290170498 0.996992412964782 -0.06498272290170498 0.00025435505851728883 0.003225348061818009
0.043 0.0002659092269874614 0.0033095183268677347 0.9968741140360559 -0.06651860526819717 0.9968741140360559 -0.06651860526819718 0.0002659092269874615 0.0033095183268677347
0.044 0.0002777333579209486 0.0033938315587908677 0.9967535028795731 -0.06805409871956379 0.9967535028795731 -0.06805409871956379 0.0002777333579209555 0.003393831558790867
0.045 0.0002898278821539945 0.0034782827247960574 0.9966305786836024 -0.06958920391478282 0.9966305786836024 -0.06958920391478284 0.00028982788215400137 0.003478282724796057
0.046 0.000302193213238727 0.003562866976466743 0.9965053407239389 -0.07112392132478079 0.9965053407239389 -0.07112392132478079 0.000302193213238727 0.003562866976466743
0.047 0.00031482974817529676 0.0036475796377125067 0.9963777883572904 -0.07265825124474165 0.9963777883572904 -0.07265825124474165 0.00031482974817529676 0.0036475796377125067
0.048 0.0003277378680902434 0.003732416193748033 0.9962479210153119 -0.07419219380536987 0.9962479210153119 -0.07419219380536987 0.00032773786809025033 0.003732416193748033
0.049 0.00034091793886548193 0.0038173722809931422 0.9961157381992228 -0.07572574898321749 0.9961157381992228 -0.0757257489832175 0.000340917938865475 0.003817372280993143
0.05 0.00035437031172321203 0.00390244367779908 0.9959812394749163 -0.07725891661016888 0.9959812394749163 -0.07725891661016888 0.00035437031172321203 0.00390244367779908
0.051 0.0003680953237704005 0.003987626295918976 0.9958444244685357 -0.07879169638216912 0.9958444244685357 -0.07879169638216912 0.0003680953237704005 0.003987626295918976
0.052 0.00038209329850666374 0.004072916172649337 0.9957052928624408 -0.08032408786726898 0.9957052928624408 -0.08032408786726898 0.00038209329850665675 0.004072916172649337
0.053 0.000396364546298734 0.004158309463577455 0.9955638443915384 -0.08185609051305212 0.9955638443915384 -0.08185609051305211 0.0003963645462987339 0.004158309463577453
0.054 0.0004109093648241755 0.0042438024358782385 0.9954200788399357 -0.08338770365350386 0.9954200788399357 -0.08338770365350386 0.00041090936482418236 0.004243802435878238
0.055 0.0004257280394871649 0.004329391462109138 0.9952739960378807 -0.08491892651537201 0.9952739960378807 -0.08491892651537201 0.00042572803948716484 0.0043293914621091376
0.056 0.00044082084380871726 0.004415073014457838 0.9951255958589557 -0.08644975822406623 0.9951255958589557 -0.08644975822406623 0.0004408208438087104 0.004415073014457838
0.057 0.0004561880397931527 0.004500843659402377 0.9949748782175093 -0.08798019780913698 0.9949748782175093 -0.08798019780913698 0.0004561880397931527 0.004500843659402378
0.058 0.000471829878272779 0.004586700052747448 0.9948218430663024 -0.08951024420937212 0.9948218430663024 -0.08951024420937212 0.00047182987827277205 0.004586700052747448
0.059 0.0004877465992326537 0.004672638935004193 0.9946664903943325 -0.09103989627754151 0.9946664903943325 -0.09103989627754151 0.0004877465992326537 0.004672638935004192
0.06 0.0005039384321168512 0.004758657127084957 0.9945088202248381 -0.09256915278482232 0.9945088202248381 -0.09256915278482232 0.0005039384321168375 0.004758657127084957
0.061 0.0005204055961174157 0.004844751526285798 0.9943488326134553 -0.09409801242492913 0.9943488326134553 -0.09409801242492913 0.0005204055961174157 0.0048447515262857975
0.062 0.0005371483004475925 0.004930919102533917 0.9941865276465205 -0.09562647381797529 0.9941865276465205 -0.09562647381797529 0.0005371483004475855 0.004930919102533918
0.063 0.0005541667446002756 0.005017156894878572 0.9940219054394944 -0.09715453551408502 0.9940219054394944 -0.09715453551408502 0.0005541667446002756 0.005017156894878572
0.064 0.0005714611185928457 0.005103462008205333 0.99385496613551 -0.0986821959967779 0.99385496613551 -0.0986821959967779 0.0005714611185928321 0.0051034620082053336
0.065 0.0005890316031991011 0.005189831610157333 0.9936857099040223 -0.1002094536861417 0.9936857099040223 -0.1002094536861417 0.000589031603199108 0.005189831610157333
0.066 0.000606878370169868 0.005276262928246777 0.9935141369395549 -0.10173630694181131 0.9935141369395549 -0.1017363069418113 0.0006068783701698543 0.005276262928246778
0.067 0.0006250015824415586 0.00536275324714244 0.9933402474605462 -0.10326275406576826 0.9933402474605462 -0.10326275406576825 0.0006250015824415655 0.00536275324714244
0.068 0.0006434013943356378 0.005449299906120299 0.9931640417082626 -0.10478879330497307 0.9931640417082626 -0.10478879330497307 0.0006434013943356239 0.0054492999061203
0.069 0.0006620779517474587 0.005535900296664933 0.9929855199457959 -0.10631442285384386 0.9929855199457959 -0.10631442285384386 0.0006620779517474587 0.005535900296664933
0.07 0.0006810313923266875 0.005622551860210926 0.9928046824571277 -0.10783964085659187 0.9928046824571277 -0.10783964085659187 0.0006810313923266875 0.005622551860210926
0.071 0.0007002618456489345 0.005709252086014164 0.9926215295462566 -0.10936444540942437 0.9926215295462566 -0.10936444540942437 0.0007002618456489345 0.005709252086014164
0.072 0.0007197694333796423 0.0057959985091441055 0.992436061536383 -0.11088883456262394 0.992436061536383 -0.11088883456262394 0.0007197694333796353 0.0057959985091441055
0.073 0.000739554269430491 0.005882788708588214 0.9922482787691503 -0.11241280632251296 0.9922482787691503 -0.11241280632251296 0.0007395542694304978 0.005882788708588212
0.074 0.0007596164601088607 0.005969620305461205 0.9920581816039308 -0.11393635865331087 0.9920581816039308 -0.11393635865331087 0.0007596164601088676 0.005969620305461205
0.075 0.0007799561042605412 0.006056490961311774 0.9918657704171606 -0.11545948947889195 0.9918657704171606 -0.11545948947889195 0.0007799561042605481 0.006056490961311773
0.076 0.000800573293406606 0.006143398376520665 0.9916710456017194 -0.11698219668444983 0.9916710456017196 -0.11698219668444984 0.000800573293406613 0.006143398376520665
0.077 0.0008214681118741895 0.006230340288783503 0.9914740075663417 -0.1185044781180747 0.9914740075663417 -0.1185044781180747 0.0008214681118741826 0.006230340288783503
0.078 0.0008426406369217469 0.006317314471673234 0.9912746567350713 -0.12002633159224964 0.9912746567350713 -0.12002633159224964 0.0008426406369217469 0.006317314471673234
0.079 0.0008640909388592893 0.006404318733277271 0.991072993546749 -0.12154775488527056 0.991072993546749 -0.12154775488527056 0.0008640909388592824 0.006404318733277273
0.08 0.0008858190811638864 0.006491350914903993 0.9908690184545227 -0.12306874574259404 0.9908690184545227 -0.12306874574259404 0.0008858190811638796 0.0064913509149039945
0.081 0.0009078251205898709 0.006578408889854833 0.9906627319254021 -0.1245893018781201 0.9906627319254021 -0.1245893018781201 0.0009078251205898778 0.006578408889854832
0.082 0.0009301091072757071 0.006665490562257608 0.9904541344398223 -0.12610942097540992 0.9904541344398223 -0.12610942097540992 0.0009301091072757003 0.006665490562257608
0.083 0.0009526710848456069 0.006752593865957294 0.9902432264912496 -0.12762910068884667 0.9902432264912496 -0.12762910068884664 0.0009526710848456069 0.006752593865957294
0.084 0.0009755110905081878 0.006839716763461089 0.9900300085857938 -0.12914833864473907 0.9900300085857938 -0.12914833864473907 0.0009755110905081809 0.006839716763461087
0.085 0.0009986291551506467 0.006926857244934449 0.9898144812418608 -0.13066713244237457 0.9898144812418608 -0.13066713244237457 0.0009986291551506534 0.006926857244934448
0.086 0.001022025303430102 0.007014013327244318 0.9895966449898049 -0.13218547965502236 0.9895966449898049 -0.13218547965502236 0.001022025303430109 0.007014013327244318
0.087 0.0010456995538608552 0.007101183053048476 0.9893765003716222 -0.1337033778308905 0.9893765003716222 -0.1337033778308905 0.0010456995538608484 0.0071011830530484776
0.088 0.0010696519188992375 0.007188364489926401 0.9891540479406397 -0.13522082449403935 0.9891540479406397 -0.13522082449403933 0.0010696519188992375 0.0071883644899264024
0.089 0.0010938824050247269 0.0072755557295507665 0.9889292882612382 -0.1367378171452544 0.9889292882612382 -0.1367378171452544 0.00109388240502472 0.007275555729550769
0.09 0.0011183910128188422 0.007362754886896564 0.9887022219085789 -0.1382543532628797 0.9887022219085789 -0.1382543532628797 0.0011183910128188352 0.007362754886896565
0.091 0.0011431777370407166 0.0074499600994860134 0.9884728494683545 -0.13977043030361502 0.9884728494683545 -0.13977043030361505 0.0011431777370407169 0.0074499600994860134
0.092 0.0011682425667004805 0.0075371695266670405 0.9882411715365456 -0.1412860457032788 0.9882411715365456 -0.1412860457032788 0.0011682425667004874 0.00753716952666704
0.093 0.0011935854851300386 0.007624381348923726 0.9880071887191938 -0.14280119687753706 0.9880071887191938 -0.14280119687753706 0.0011935854851300386 0.007624381348923726
0.094 0.001219206470051396 0.0077115937672172195 0.9877709016321845 -0.14431588122260305 0.9877709016321845 -0.14431588122260303 0.001219206470051396 0.0077115937672172195
0.095 0.0012451054936428408 0.007798805002354574 0.9875323109010464 -0.14583009611590636 0.9875323109010464 -0.14583009611590636 0.0012451054936428478 0.007798805002354573
0.096 0.0012712825226030558 0.007886013294385326 0.9872914171607512 -0.1473438389167342 0.9872914171607512 -0.1473438389167342 0.0012712825226030558 0.007886013294385326
0.097 0.00129773751821288 0.007973216902023447 0.9870482210555356 -0.14885710696684779 0.9870482210555356 -0.14885710696684779 0.001297737518212873 0.007973216902023447
0.098 0.0013244704363954214 0.00806041410209345 0.9868027232387219 -0.15036989759107144 0.9868027232387219 -0.15036989759107142 0.001324470436395421 0.008060414102093447
0.099 0.0013514812277741373 0.008147603188999805 0.986554924372556 -0.15188220809786054 0.986554924372556 -0.15188220809786054 0.0013514812277741373 0.008147603188999802
0.1 0.0013787698377292464 0.008234782474218154 0.9863048251280436 -0.15339403577984442 0.9863048251280436 -0.15339403577984442 0.0013787698377292464 0.008234782474218154
0.101 0.001406336206452197 0.00832195028580748 0.9860524261848063 -0.15490537791435016 0.9860524261848063 -0.15490537791435016 0.001406336206452197 0.00832195028580748
0.102 0.0014341802689987913 0.008409104967941818 0.9857977282309341 -0.1564162317639043 0.9857977282309341 -0.15641623176390426 0.0014341802689987982 0.008409104967941818
0.103 0.0014623019553405023 0.008496244880461096 0.9855407319628522 -0.15792659457671604 0.9855407319628522 -0.15792659457671604 0.001462301955340509 0.008496244880461093
0.104 0.0014907011904144744 0.008583368398439381 0.98528143808519 -0.15943646358714253 0.98528143808519 -0.15943646358714253 0.0014907011904144744 0.008583368398439381
0.105 0.00151937789417188 0.008670473911770744 0.9850198473106582 -0.16094583601613519 0.9850198473106582 -0.16094583601613519 0.0015193778941718732 0.008670473911770744
0.106 0.0015483319816250894 0.008757559824770854 0.9847559603599302 -0.16245470907167062 0.9847559603599302 -0.16245470907167062 0.0015483319816250963 0.008757559824770852
0.107 0.0015775633628934665 0.008844624555794312 0.9844897779615339 -0.16396307994916548 0.9844897779615339 -0.1639630799491655 0.0015775633628934596 0.008844624555794312
0.108 0.0016070719432477454 0.008931666536866487 0.9842213008517395 -0.16547094583187535 0.9842213008517395 -0.16547094583187535 0.0016070719432477384 0.008931666536866487
0.109 0.001636857623153441 0.009018684213329686 0.9839505297744608 -0.16697830389128004 0.9839505297744611 -0.16697830389128007 0.0016368576231534477 0.009018684213329683
0.11 0.0016669202983129988 0.009105676043502296 0.9836774654811562 -0.16848515128745475 0.9836774654811562 -0.16848515128745473 0.0016669202983129988 0.009105676043502296
0.111 0.0016972598597065581 0.009192640498351112 0.9834021087307372 -0.1699914851694279 0.9834021087307372 -0.16999148516942794 0.0016972598597065442 0.009192640498351116
0.112 0.001727876193632155 0.009279576061175672 0.9831244602894766 -0.17149730267552707 0.9831244602894766 -0.17149730267552704 0.001727876193632155 0.009279576061175672
0.113 0.0017587691817443109 0.009366481227304303 0.982844520930931 -0.1730026009337123 0.982844520930931 -0.1730026009337123 0.0017587691817443107 0.0093664812273043
0.114 0.0017899387010922316 0.009453354503801109 0.9825622914358466 -0.17450737706189715 0.9825622914358466 -0.17450737706189715 0.0017899387010922386 0.009453354503801109
0.115 0.0018213846241564731 0.009540194409184091 0.9822777725920957 -0.17601162816826119 0.9822777725920957 -0.17601162816826119 0.0018213846241564595 0.009540194409184091
