!Created with skrf (http://scikit-rf.org).
# GHz S RI R 50.0 
!freq ReS11 ImS11 ReS21 ImS21 ReS12 ImS12 ReS22 ImS22
0.001 -9.5827728368123e-06 5.1725524988035456e-05 0.9999287110129982 -0.001575407095695695 0.9999287110129982 -0.001575407095695695 -9.582772836805362e-06 5.172552498803285e-05
0.002 -1.9824429389104722e-05 0.00011343422331431597 0.9998894782640725 -0.003140480368709706 0.9998894782640725 -0.0031404803687097057 -1.9824429389104722e-05 0.00011343422331431597
0.003 -3.005367889546247e-05 0.00017898370343668812 0.9998534156244605 -0.004701606350756231 0.9998534156244605 -0.004701606350756229 -3.0053678895483286e-05 0.0001789837034366873
0.004 -4.017181579288292e-05 0.0002470429226887392 0.9998178206868323 -0.006260143251933017 0.9998178206868323 -0.006260143251933017 -4.0171815792882925e-05 0.00024704292268873835
0.005 -5.013572720604837e-05 0.00031697757286760684 0.9997816521324959 -0.007816735148745804 0.9997816521324959 -0.007816735148745804 -5.0135727206055315e-05 0.00031697757286760597
0.006 -5.992094427375251e-05 0.00038841315096220064 0.9997443784866492 -0.009371760344486085 0.9997443784866492 -0.009371760344486085 -5.9920944273773325e-05 0.0003884131509621999
0.007 -6.951151664840035e-05 0.00046110166930218236 0.9997056855614499 -0.010925467831470265 0.9997056855614499 -0.010925467831470264 -6.951151664840035e-05 0.00046110166930217976
0.008 -7.889610097817427e-05 0.0005348665048632509 0.999665369673642 -0.012478033689866079 0.999665369673642 -0.012478033689866077 -7.889610097817425e-05 0.0005348665048632526
0.009 -8.806613212630819e-05 0.0006095753130706068 0.9996232900871546 -0.014029588768682794 0.9996232900871546 -0.014029588768682794 -8.806613212630818e-05 0.0006095753130706076
0.01 -9.701485417627596e-05 0.0006851251355498934 0.9995793448986089 -0.015580233899054486 0.9995793448986089 -0.015580233899054486 -9.701485417626903e-05 0.0006851251355498926
0.011 -0.00010573675899051141 0.0007614335232843149 0.9995334576268431 -0.01713004896035001 0.9995334576268431 -0.01713004896035001 -0.00010573675899051835 0.000761433523284315
0.012 -0.00011422723821680182 0.0008384329125354104 0.9994855692184438 -0.01867909862346475 0.9994855692184438 -0.018679098623464743 -0.00011422723821678793 0.0008384329125354112
0.013 -0.00012248235589228503 0.0009160668870069391 0.9994356330157298 -0.02022743616771346 0.9994356330157298 -0.020227436167713452 -0.000122482355892285 0.00091606688700694
0.014 -0.00013049869338808257 0.0009942875958962078 0.9993836114476891 -0.021775106117416343 0.9993836114476891 -0.021775106117416343 -0.0001304986933880895 0.0009942875958962078
0.015 -0.00013827323990585772 0.0010730539127206005 0.9993294737740815 -0.02332214612213371 0.9993294737740815 -0.02332214612213371 -0.00013827323990585772 0.0010730539127206005
0.016 -0.00014580331283558162 0.0011523300868433606 0.9992731945003338 -0.02486858833386758 0.9992731945003338 -0.02486858833386758 -0.00014580331283558856 0.00115233008684336
0.017 -0.00015308649836258252 0.0012320847331218038 0.9992147522347158 -0.02641446043905277 0.9992147522347158 -0.02641446043905277 -0.00015308649836258252 0.0012320847331218038
0.018 -0.00016012060621140142 0.0013122900598933616 0.9991541288459707 -0.02795978644721124 0.9991541288459707 -0.02795978644721124 -0.00016012060621140836 0.001312290059893361
0.019 -0.00016690363450773085 0.0013929212689014646 0.9990913088302622 -0.029504587304052334 0.9990913088302622 -0.02950458730405233 -0.00016690363450773085 0.0013929212689014646
0.02 -0.0001734337420440817 0.0014739560817986822 0.9990262788273109 -0.031048881375328498 0.9990262788273109 -0.031048881375328505 -0.00017343374204407475 0.0014739560817986822
0.021 -0.0001797092260677785 0.0015553743615122986 0.9989590272449553 -0.03259268483382181 0.9989590272449553 -0.032592684833821814 -0.00017970922606777155 0.0015553743615123003
0.022 -0.00018572850425928295 0.0016371578058420393 0.998889543963901 -0.034136011972564016 0.998889543963901 -0.034136011972564016 -0.00018572850425927596 0.0016371578058420409
0.023 -0.00019149009993949065 0.0017192896968445046 0.998817820102721 -0.03567887546107932 0.998817820102721 -0.03567887546107931 -0.0001914900999394837 0.0017192896968445054
0.024 -0.00019699262979967107 0.001801754693858512 0.9987438478287787 -0.03722128655705038 0.9987438478287787 -0.03722128655705038 -0.0001969926297996849 0.001801754693858513
0.025 -0.00020223479362668008 0.0018845386610663601 0.9986676202045701 -0.038763255282702795 0.9986676202045701 -0.0387632552827028 -0.00020223479362668008 0.0018845386610663593
0.026 -0.00020721536562431317 0.001967628522675637 0.9985891310617389 -0.040304790572970345 0.9985891310617389 -0.04030479057297034 -0.00020721536562431323 0.0019676285226756345
0.027 -0.00021193318702570114 0.002051012140403405 0.998508374896927 -0.04184590040087082 0.998508374896927 -0.04184590040087082 -0.00021193318702569417 0.002051012140403406
0.028 -0.00021638715975782656 0.0021346782091291507 0.9984253467850084 -0.043386591884314006 0.9984253467850084 -0.043386591884314006 -0.00021638715975783347 0.0021346782091291516
0.029 -0.00022057624097351273 0.0022186161674682403 0.9983400423063143 -0.044926871377659376 0.9983400423063143 -0.044926871377659376 -0.00022057624097351268 0.002218616167468243
0.03 -0.00022449943830213265 0.0023028161206918116 0.9982524574851969 -0.04646674455065261 0.9982524574851969 -0.04646674455065262 -0.00022449943830212568 0.0023028161206918125
0.031 -0.00022815580570166618 0.002387268773933255 0.9981625887378419 -0.04800621645684518 0.9981625887378419 -0.04800621645684518 -0.00022815580570167312 0.002387268773933255
0.032 -0.00023154443981676122 0.002471965374021288 0.9980704328277036 -0.04954529159319246 0.9980704328277036 -0.04954529159319246 -0.00023154443981675428 0.0024719653740212875
0.033 -0.0002346644767653802 0.0025568976585905075 0.997975986827249 -0.051083973952209705 0.997975986827249 -0.05108397395220971 -0.00023466447676537326 0.0025568976585905066
0.034 -0.00023751508929074 0.0026420578113661806 0.9978792480849505 -0.0526222670678119 0.9978792480849505 -0.052622267067811895 -0.000237515089290747 0.002642057811366178
0.035 -0.00024009548422631444 0.0027274384227147863 0.9977802141966912 -0.054160174055767465 0.9977802141966912 -0.054160174055767465 -0.0002400954842263075 0.0027274384227147863
0.036 -0.0002424049002300957 0.0028130324547075026 0.9976788829808618 -0.0556976976495331 0.9976788829808618 -0.055697697649533105 -0.0002424049002300957 0.0028130324547075017
0.037 -0.00024444260575289537 0.002898833210069689 0.9975752524566314 -0.05723484023211389 0.9975752524566314 -0.05723484023211389 -0.00024444260575289537 0.002898833210069689
0.038 -0.0002462078972087784 0.0029848343044904992 0.9974693208248537 -0.05877160386448179 0.9974693208248537 -0.05877160386448179 -0.00024620789720877144 0.0029848343044904984
0.039 -0.0002477000973233619 0.0030710296418509815 0.9973610864512924 -0.060307990311008954 0.9973610864512924 -0.060307990311008954 -0.0002477000973233689 0.0030710296418509806
0.04 -0.00024891855363719305 0.0031574133919956473 0.9972505478517829 -0.061844001062295026 0.9972505478517829 -0.06184400106229503 -0.0002489185536371861 0.003157413391995648
0.041 -0.0002498626371461211 0.003243979970729759 0.9971377036791031 -0.0633796373557166 0.9971377036791031 -0.06337963735571658 -0.0002498626371461142 0.003243979970729758
0.042 -0.00025053174106226317 0.0033307240217708466 0.9970225527112885 -0.06491490019397399 0.9970225527112885 -0.06491490019397399 -0.0002505317410622424 0.0033307240217708457
0.043 -0.00025092527968267534 0.003417640400421226 0.9969050938412415 -0.06644979036187684 0.9969050938412415 -0.06644979036187686 -0.0002509252796826892 0.0034176404004212253
0.044 -0.00025104268735271493 0.0035047241587619887 0.9967853260674195 -0.06798430844156855 0.9967853260674195 -0.06798430844156857 -0.00025104268735271493 0.0035047241587619887
0.045 -0.0002508834175148129 0.00359197053219498 0.9966632484855131 -0.06951845482637176 0.9966632484855131 -0.06951845482637176 -0.00025088341751480596 0.0035919705321949807
0.046 -0.0002504469418333342 0.0036793749271830144 0.9965388602809621 -0.07105222973340429 0.9965388602809621 -0.0710522297334043 -0.00025044694183334117 0.003679374927183012
0.047 -0.0002497327493876452 0.003766932910058177 0.9964121607222143 -0.07258563321510099 0.9964121607222143 -0.07258563321510099 -0.00024973274938766603 0.003766932910058178
0.048 -0.00024874034592667436 0.0038546401967843947 0.9962831491546531 -0.0741186651697567 0.9962831491546531 -0.07411866516975671 -0.00024874034592666053 0.003854640196784393
0.049 -0.0002474692531787762 0.00394249264357489 0.9961518249950957 -0.07565132535119336 0.9961518249950957 -0.07565132535119337 -0.00024746925317877623 0.003942492643574889
0.05 -0.00024591900821202306 0.004030486238277141 0.9960181877268176 -0.07718361337763922 0.9960181877268176 -0.07718361337763922 -0.0002459190082120369 0.004030486238277143
0.051 -0.00024408916283964974 0.004118617092448677 0.9958822368950235 -0.07871552873990002 0.9958822368950235 -0.07871552873990002 -0.00024408916283965662 0.004118617092448679
0.052 -0.00024197928306680423 0.0042068814340560385 0.9957439721027403 -0.08024707080889057 0.9957439721027403 -0.08024707080889058 -0.00024197928306679035 0.0042068814340560385
0.053 -0.0002395889485751031 0.0042952756007363126 0.9956033930070652 -0.08177823884258904 0.9956033930070652 -0.08177823884258904 -0.0002395889485750962 0.004295275600736312
0.054 -0.00023691775224111324 0.004383796033569515 0.9954604993157443 -0.0833090319924675 0.9954604993157443 -0.08330903199246749 -0.00023691775224112712 0.004383796033569514
0.055 -0.00023396529968649734 0.004472439271312498 0.9953152907840443 -0.08483944930944776 0.9953152907840443 -0.08483944930944774 -0.00023396529968649737 0.004472439271312497
0.056 -0.00023073120885651403 0.004561201945054603 0.995167767211884 -0.08636948974942522 0.995167767211884 -0.08636948974942522 -0.00023073120885650717 0.004561201945054601
0.057 -0.00022721510962523452 0.004650080773255541 0.995017928441209 -0.08789915217839978 0.995017928441209 -0.08789915217839975 -0.00022721510962523458 0.00465008077325554
0.058 -0.00022341664342447564 0.004739072557132969 0.9948657743535742 -0.08942843537724761 0.9948657743535742 -0.08942843537724761 -0.00022341664342446872 0.004739072557132969
0.059 -0.0002193354628954162 0.004828174176369406 0.9947113048679241 -0.09095733804616515 0.9947113048679241 -0.09095733804616515 -0.00021933546289541625 0.004828174176369405
0.06 -0.00021497123156042857 0.004917382585111227 0.9945545199385433 -0.09248585880881273 0.9945545199385433 -0.09248585880881273 -0.0002149712315604285 0.004917382585111229
0.061 -0.0002103236235139944 0.005006694808235525 0.9943954195531702 -0.0940139962161832 0.9943954195531702 -0.09401399621618318 -0.00021032362351400125 0.005006694808235528
0.062 -0.00020539232313126772 0.005096107937862694 0.9942340037312536 -0.09554174875021809 0.9942340037312536 -0.09554174875021809 -0.00020539232313126777 0.005096107937862693
0.063 -0.00020017702479257989 0.0051856191300953675 0.9940702725223407 -0.09706911482719092 0.9940702725223407 -0.09706911482719094 -0.00020017702479257986 0.0051856191300953675
0.064 -0.00019467743262306105 0.005275225601964934 0.9939042260045756 -0.0985960928008768 0.9939042260045756 -0.0985960928008768 -0.00019467743262306105 0.005275225601964934
0.065 -0.00018889326024671476 0.005364924628570354 0.9937358642833302 -0.1001226809655257 0.9937358642833302 -0.1001226809655257 -0.00018889326024671476 0.005364924628570354
0.066 -0.00018282423055261324 0.0054547135403937375 0.9935651874899036 -0.1016488775586518 0.9935651874899036 -0.1016488775586518 -0.0001828242305526271 0.0054547135403937375
0.067 -0.00017647007547400034 0.0055445897207793745 0.9933921957803385 -0.10317468076365649 0.9933921957803385 -0.10317468076365649 -0.00017647007547400023 0.005544589720779376
0.068 -0.00016983053577817632 0.005634550603564539 0.9932168893343075 -0.1047000887122944 0.9932168893343075 -0.1047000887122944 -0.00016983053577816244 0.005634550603564539
0.069 -0.00016290536086712817 0.005724593670850393 0.9930392683540794 -0.10622509948699578 0.9930392683540794 -0.10622509948699578 -0.00016290536086712825 0.005724593670850391
0.07 -0.00015569430858794004 0.005814716450902549 0.9928593330635558 -0.10774971112305441 0.9928593330635558 -0.10774971112305441 -0.00015569430858793312 0.005814716450902548
0.071 -0.00014819714505240588 0.0059049165161731915 0.9926770837073756 -0.10927392161069205 0.9926770837073756 -0.10927392161069205 -0.00014819714505240588 0.0059049165161731915
0.072 -0.00014041364446513923 0.005995191481434967 0.9924925205500742 -0.11079772889700665 0.9924925205500742 -0.11079772889700665 -0.00014041364446513234 0.005995191481434965
0.073 -0.00013234358895991788 0.006085539002018951 0.9923056438752953 -0.11232113088781265 0.9923056438752953 -0.11232113088781266 -0.00013234358895992487 0.00608553900201895
0.074 -0.00012398676844351097 0.006175956772151159 0.9921164539850648 -0.11384412544938251 0.9921164539850648 -0.11384412544938251 -0.00012398676844351778 0.0061759567721511605
0.075 -0.0001153429804466253 0.0062664425233781825 0.9919249511991018 -0.11536671041009332 0.9919249511991018 -0.11536671041009332 -0.00011534298044662544 0.00626644252337818
0.076 -0.0001064120299814245 0.0063569940230787944 0.9917311358541708 -0.11688888356198682 0.9917311358541708 -0.11688888356198682 -0.00010641202998141756 0.006356994023078794
0.077 -9.719372940553833e-05 0.0064476090730538616 0.991535008303484 -0.11841064266224818 0.991535008303484 -0.11841064266224817 -9.719372940554522e-05 0.0064476090730538616
0.078 -8.768789829195e-05 0.0065382855081906 0.9913365689161365 -0.11993198543460833 0.9913365689161365 -0.11993198543460833 -8.768789829195e-05 0.006538285508190602
0.079 -7.789436330412621e-05 0.00662902119519578 0.9911358180765681 -0.12145290957067445 0.9911358180765681 -0.12145290957067445 -7.789436330411247e-05 0.0066290211951957785
0.08 -6.781295807693294e-05 0.00671981403139382 0.9909327561840698 -0.12297341273119482 0.9909327561840698 -0.1229734127311948 -6.781295807693294e-05 0.00671981403139382
0.081 -5.744352310205309e-05 0.0068106619435858076 0.99072738365231 -0.12449349254725953 0.99072738365231 -0.12449349254725953 -5.744352310206008e-05 0.006810661943585807
0.082 -4.678590561845827e-05 0.006901562886965211 0.9905197009088956 -0.12601314662144433 0.9905197009088956 -0.12601314662144433 -4.6785905618451304e-05 0.006901562886965211
0.083 -3.583995950694985e-05 0.006992514844087227 0.9903097083949519 -0.12753237252889688 0.9903097083949519 -0.12753237252889685 -3.583995950694988e-05 0.006992514844087227
0.084 -2.4605545189192727e-05 0.007083515823888713 0.9900974065647336 -0.1290511678183735 0.9900974065647336 -0.1290511678183735 -2.4605545189199557e-05 0.007083515823888714
0.085 -1.3082529530607413e-05 0.007174563860754941 0.9898827958852521 -0.13056953001322544 0.9898827958852521 -0.13056953001322547 -1.3082529530607522e-05 0.00717456386075494
0.086 -1.2707857469855088e-06 0.007265657013630918 0.9896658768359267 -0.13208745661234 0.9896658768359267 -0.13208745661234 -1.2707857469994137e-06 0.007265657013630918
0.087 1.0829806685316596e-05 0.007356793365175251 0.9894466499082535 -0.13360494509103793 0.9894466499082535 -0.13360494509103787 1.0829806685330365e-05 0.007356793365175249
0.088 2.3219362115671157e-05 0.007447971020952538 0.9892251156054996 -0.1351219929019311 0.9892251156054996 -0.1351219929019311 2.3219362115678096e-05 0.007447971020952538
0.089 3.589798880262177e-05 0.007539188108663854 0.989001274442397 -0.13663859747573961 0.989001274442397 -0.13663859747573961 3.589798880261483e-05 0.007539188108663854
0.09 4.8865788993679514e-05 0.007630442777411888 0.9887751269448758 -0.13815475622207526 0.9887751269448762 -0.13815475622207526 4.88657889936793e-05 0.007630442777411884
0.091 6.212285900287611e-05 0.00772173319699929 0.9885466736497923 -0.1396704665301884 0.9885466736497923 -0.1396704665301884 6.212285900287611e-05 0.00772173319699929
0.092 7.56692892850962e-05 0.00781305755725898 0.9883159151046826 -0.14118572576968386 0.9883159151046826 -0.14118572576968386 7.56692892850962e-05 0.00781305755725898
0.093 8.950516450793102e-05 0.007904414067413157 0.9880828518675243 -0.14270053129120527 0.9880828518675243 -0.14270053129120527 8.950516450793113e-05 0.00790441406741316
0.094 0.00010363056362119736 0.007995800955461303 0.9878474845065124 -0.14421488042709119 0.9878474845065124 -0.14421488042709119 0.00010363056362120424 0.007995800955461301
0.095 0.0001180455599237314 0.008087216467594069 0.9876098135998476 -0.1457287704920033 0.9876098135998476 -0.14572877049200333 0.00011804555992373845 0.008087216467594072
0.096 0.00013275022112833884 0.00817865886763285 0.9873698397355305 -0.14724219878352812 0.9873698397355305 -0.14724219878352815 0.00013275022112832502 0.00817865886763285
0.097 0.00014774460942410742 0.008270126436492848 0.9871275635111745 -0.1487551625827556 0.9871275635111745 -0.14875516258275556 0.00014774460942410742 0.008270126436492848
0.098 0.00016302878153711455 0.008361617471668702 0.9868829855338199 -0.15026765915483237 0.9868829855338199 -0.1502676591548324 0.00016302878153711455 0.008361617471668702
0.099 0.00017860278878886954 0.008453130286742215 0.9866361064197604 -0.1517796857494939 0.9866361064197604 -0.15177968574949394 0.00017860278878886266 0.008453130286742215
0.1 0.0001944666771529449 0.008544663210909565 0.9863869267943827 -0.15329123960157603 0.9863869267943827 -0.15329123960157603 0.00019446667715293102 0.008544663210909565
0.101 0.00021062048730987064 0.008636214588528656 0.9861354472920023 -0.15480231793150478 0.9861354472920023 -0.15480231793150478 0.0002106204873098843 0.008636214588528653
0.102 0.00022706425470032026 0.008727782778684124 0.985881668555721 -0.15631291794576882 0.985881668555721 -0.15631291794576882 0.0002270642547003065 0.008727782778684124
0.103 0.00024379800957636893 0.008819366154770884 0.9856255912372841 -0.15782303683737328 0.9856255912372841 -0.1578230368373733 0.00024379800957636893 0.008819366154770884
0.104 0.00026082177705179715 0.008910963104092878 0.9853672159969369 -0.15933267178627547 0.9853672159969369 -0.15933267178627547 0.00026082177705180387 0.008910963104092874
0.105 0.0002781355771500775 0.00900257202747912 0.9851065435033101 -0.16084181995980593 0.9851065435033101 -0.1608418199598059 0.0002781355771500707 0.00900257202747912
0.106 0.0002957394248517789 0.009094191338913891 0.9848435744332802 -0.16235047851307155 0.9848435744332802 -0.16235047851307155 0.0002957394248517789 0.009094191338913891
0.107 0.0003136333301397284 0.009185819465181507 0.9845783094718664 -0.16385864458934654 0.9845783094718664 -0.16385864458934654 0.00031363333013973544 0.00918581946518151
0.108 0.00033181729804369366 0.00927745484552506 0.9843107493121089 -0.1653663153204464 0.9843107493121089 -0.1653663153204464 0.0003318172980436866 0.009277454845525057
0.109 0.0003502913286830071 0.009369095931317769 0.9840408946549687 -0.16687348782709102 0.9840408946549687 -0.166873487827091 0.00035029132868300017 0.00936909593131777
0.11 0.00036905541730864616 0.009460741185747358 0.983768746209219 -0.16838015921925253 0.983768746209219 -0.16838015921925253 0.0003690554173086531 0.00946074118574736
0.111 0.00038810955434366514 0.009552389083511505 0.9834943046913543 -0.169886326596492 0.9834943046913543 -0.169886326596492 0.0003881095543436789 0.009552389083511501
0.112 0.0004074537254227371 0.009644038110525666 0.9832175708254945 -0.17139198704828518 0.9832175708254945 -0.1713919870482852 0.0004074537254227233 0.009644038110525667
0.113 0.0004270879114306442 0.0097356867636409 0.9829385453432901 -0.17289713765433426 0.9829385453432901 -0.17289713765433426 0.0004270879114306579 0.009735686763640899
