! Created with skrf (http://scikit-rf.org).
# GHz S RI R 50.0 
!freq ReS11 ImS11 ReS21 ImS21 ReS12 ImS12 ReS22 ImS22
0.01 -0.00014127036136320944 0.0004095160183242805 0.9992909229064776 -0.025813825202549337 0.9992909229064794 -0.025813825202498558 -0.00014127036136180252 0.000409516018375029
0.02 -0.00025350996425264953 0.0009579784031194643 0.9980538151416048 -0.05146419688674778 0.9980538151416062 -0.051464196886703964 -0.000253509964250495 0.0009579784031631658
0.03 -0.0003338302634045075 0.0015607629468131646 0.9961833858401233 -0.07701959057326906 0.9961833858401232 -0.0770195905732754 -0.0003338302634048734 0.0015607629468068237
0.04 -0.00038017001554665634 0.002198145714013745 0.9936727556096046 -0.10248173866739577 0.993672755609604 -0.10248173866739278 -0.0003801700155459112 0.002198145714016581
0.05 -0.00039119937652283635 0.002859614687671724 0.9905211751034603 -0.12784288886390663 0.9905211751034627 -0.12784288886390482 -0.00039119937652289544 0.002859614687673722
0.06 -0.0003660379819873896 0.0035380720821542207 0.9867299293051904 -0.15309180031858846 0.9867299293051898 -0.1530918003185866 -0.0003660379819870062 0.003538072082155936
0.07 -0.0003041329251373632 0.00422807925818751 0.9823013445014577 -0.17821557900550644 0.9823013445014557 -0.17821557900550927 -0.0003041329251372714 0.00422807925818432
0.08 -0.00020519432544659119 0.004925137963161043 0.977238443685273 -0.20320044290595674 0.9772384436852757 -0.20320044290594927 -0.00020519432544676634 0.004925137963169025
0.09 -6.915663793049284e-05 0.005625342536893773 0.971544800882781 -0.2280321028920519 0.9715448008827812 -0.22803210289205045 -6.915663792988178e-05 0.005625342536895148
0.1 0.00010384690057777135 0.006325192735755702 0.9652244708318451 -0.252695976641668 0.9652244708318439 -0.2526959766416658 0.00010384690057758993 0.0063251927357574666
0.11 0.0003135025029649049 0.007021485466458592 0.9582819513452038 -0.2771773201809033 0.9582819513452024 -0.27717732018090874 0.0003135025029628029 0.007021485466453519
0.12 0.0005593297278648432 0.0077112489702887 0.9507221612286876 -0.30146131486981753 0.9507221612286867 -0.30146131486982064 0.0005593297278635558 0.007711248970285873
0.13 0.0008406926998485295 0.00839170145550466 0.9425504260928683 -0.32553312852423777 0.9425504260928682 -0.32553312852424043 0.0008406926998472915 0.008391701455502486
0.14 0.0011568096338788172 0.009060224572660992 0.9337724683401759 -0.3493779606564977 0.9337724683401756 -0.3493779606565019 0.0011568096338765588 0.009060224572657753
0.15 0.0015067612702584386 0.00971434627955294 0.9243943994060579 -0.37298107750035703 0.9243943994060547 -0.372981077500364 0.0015067612702561503 0.009714346279546102
0.16 0.0018894986091626319 0.010351729839370681 0.9144227132104848 -0.39632784019965955 0.914422713210484 -0.3963278401996627 0.0018894986091618007 0.01035172983936773
0.17 0.002303850201429757 0.010970166922843617 0.9038642802304355 -0.4194037282608183 0.9038642802304363 -0.419403728260819 0.0023038502014283177 0.010970166922843796
0.18 0.002748529168383548 0.01156757350316722 0.8927263418504039 -0.4421943596201774 0.8927263418504046 -0.4421943596201774 0.002748529168383219 0.01156757350316779
0.19 0.00322214006846612 0.012141987669477935 0.8810165047871908 -0.4646855082212145 0.8810165047871917 -0.4646855082212125 0.003222140068467425 0.012141987669479569
0.2 0.0037231856913132774 0.012691568759736444 0.86874273546632 -0.4868631197098063 0.8687427354663227 -0.4868631197098012 0.003723185691316847 0.012691568759740299
0.21 0.00425007383412816 0.013214597392074472 0.8559133542763839 -0.5087133256698335 0.8559133542763822 -0.5087133256698348 0.004250073834127935 0.013214597392072296
0.22 0.004801124096960596 0.013709476092513818 0.842537029657509 -0.5302224566982023 0.8425370296575089 -0.5302224566982026 0.004801124096959716 0.013709476092514203
0.23 0.005374574720190346 0.01417473029779326 0.8286227719993574 -0.5513770545342878 0.8286227719993564 -0.5513770545342873 0.005374574720190612 0.01417473029779268
0.24 0.0059685894778266895 0.014609009568578874 0.814179927335842 -0.5721638834013234 0.8141799273358427 -0.572163883401324 0.005968589477825992 0.014609009568579188
0.25 0.006581264632888907 0.015011088888554801 0.7992181708318962 -0.5925699406762384 0.799218170831899 -0.5925699406762369 0.0065812646328917215 0.015011088888555478
0.26 0.007210635955532128 0.015379869953677253 0.7837475000627236 -0.6125824669752039 0.783747500062723 -0.6125824669752037 0.007210635955531539 0.015379869953677796
0.27 0.007854685800374347 0.01571438237780443 0.7677782280893287 -0.6321889557215111 0.7677782280893296 -0.6321889557215129 0.007854685800372619 0.015714382377804446
0.28 0.008511350236104035 0.016013784756593097 0.7513209763365655 -0.6513771622464182 0.7513209763365666 -0.6513771622464174 0.008511350236103976 0.016013784756594335
0.29 0.009178526217853433 0.01627736554424607 0.7343866672812918 -0.6701351124626717 0.7343866672812919 -0.6701351124626721 0.009178526217852789 0.016277365544246764
0.3 0.009854078790848677 0.01650454370711797 0.7169865169592256 -0.6884511111417189 0.7169865169592256 -0.688451111141721 0.009854078790848632 0.016504543707116383
0.31 0.010535848312185885 0.016694869125772057 0.6991320272997701 -0.706313749819188 0.6991320272997684 -0.7063137498191884 0.010535848312185077 0.016694869125771915
0.32 0.01122165767640132 0.016848022723288718 0.680834978298268 -0.7237119143486063 0.6808349782982693 -0.7237119143486076 0.011221657676401845 0.016848022723288298
0.33 0.011909319529455816 0.01696381630238027 0.6621074200355146 -0.7406347921194241 0.6621074200355139 -0.7406347921194247 0.011909319529454801 0.01696381630237968
0.34 0.012596643455170465 0.01704219207833243 0.6429616645540328 -0.7570718789529625 0.6429616645540343 -0.7570718789529597 0.012596643455172331 0.017042192078333476
0.35 0.013281443117512136 0.017083221897941366 0.6234102776008911 -0.7730129856874479 0.6234102776008911 -0.7730129856874467 0.013281443117511539 0.017083221897942945
0.36 0.01396154334174818 0.017087106137790783 0.6034660702463915 -0.7884482444619657 0.6034660702463901 -0.7884482444619667 0.013961543341746704 0.017087106137790707
0.37 0.014634787117429283 0.017054172277771094 0.5831420903878182 -0.8033681147077699 0.5831420903878168 -0.8033681147077728 0.01463478711742762 0.01705417227776976
0.38 0.015299042505871737 0.016984873147959056 0.5624516141471779 -0.8177633888545258 0.5624516141471773 -0.8177633888545268 0.015299042505870839 0.01698487314795821
0.39 0.01595220943496073 0.01687978484902435 0.5414081371714623 -0.8316251977582911 0.541408137171462 -0.8316251977582896 0.015952209434961416 0.01687978484902454
0.4 0.016592226364130692 0.016739604348108582 0.5200253658437044 -0.8449450158575227 0.5200253658437073 -0.8449450158575205 0.01659222636413264 0.01673960434811031
0.41 0.01721707680267056 0.016565146753811287 0.4983172084125841 -0.8577146660629659 0.4983172084125854 -0.8577146660629663 0.017217076802670386 0.016565146753812647
0.42 0.01782479566460516 0.01635734227528749 0.4762977660481404 -0.8699263243868793 0.47629776604814017 -0.8699263243868794 0.017824795664604445 0.016357342275288112
0.43 0.018413475444010313 0.0161172328719832 0.45398132383049294 -0.8815725243168882 0.4539813238304913 -0.8815725243168882 0.018413475444009498 0.01611723287198337
0.44 0.018981272194753044 0.015845968601626174 0.43138234167830364 -0.8926461609394407 0.4313823416783024 -0.8926461609394407 0.01898127219475243 0.015845968601625987
0.45 0.019526411299318404 0.0155448036753488 0.4085154452230943 -0.9031404948176812 0.40851544522309524 -0.9031404948176821 0.019526411299318123 0.015544803675349194
0.46 0.02004719301180329 0.015215092229848824 0.38539541663524823 -0.9130491556283864 0.38539541663524796 -0.9130491556283867 0.020047193011803112 0.01521509222984833
0.47 0.020541997760838766 0.014858283827516338 0.3620371854069068 -0.9223661455624707 0.36203718540690666 -0.9223661455624715 0.020541997760838576 0.01485828382751624
0.48 0.021009291198613545 0.01447591869631594 0.338455819096918 -0.9310858424933024 0.3384558190969188 -0.931085842493303 0.021009291198613403 0.014475918696316058
0.49 0.021447628983114017 0.014069622722130515 0.31466651404210083 -0.9392030029170533 0.314666514042102 -0.939203002917053 0.021447628983114482 0.014069622722130932
0.5 0.021855661281141255 0.013641102207030617 0.2906845860391074 -0.9467127646689989 0.29068458603910774 -0.946712764669 0.021855661281141206 0.01364110220702999
0.51 0.022232136980540624 0.01319213840764271 0.2665254610005653 -0.9536106494195811 0.2665254610005643 -0.9536106494195811 0.022232136980539826 0.013192138407643517
0.52 0.02257590760082236 0.012724581868522596 0.24220466558882067 -0.9598925649538005 0.2422046655888206 -0.9598925649538004 0.022575907600822384 0.01272458186852302
0.53 0.022885930892081678 0.012240346565953993 0.21773781783040494 -0.9655548072373147 0.2177378178304055 -0.9655548072373147 0.02288593089208235 0.012240346565953873
0.54 0.023161274113047928 0.01174140387825688 0.19314061771375787 -0.970594062272376 0.1931406177137574 -0.9705940622723751 0.02316127411304788 0.011741403878257025
0.55 0.0234011169798217 0.011229776399125067 0.16842883777275025 -0.9750074077464996 0.16842883777275036 -0.9750074077465023 0.02340111697982104 0.011229776399124683
0.56 0.023604754277827142 0.010707531610975554 0.14361831365800198 -0.9787923144765062 0.14361831365800273 -0.978792314476506 0.02360475427782706 0.010707531610975507
0.57 0.02377159813032894 0.010176775435727106 0.11872493469786921 -0.9819466476502421 0.11872493469786818 -0.9819466476502436 0.02377159813032855 0.010176775435727505
0.58 0.02390117991775943 0.009639645680724871 0.09376463445076663 -0.9844686678681347 0.09376463445076677 -0.9844686678681348 0.023901179917759426 0.0096396456807246
0.59 0.023993151843047757 0.00909830539786367 0.06875338125024366 -0.9863570319862429 0.06875338125024394 -0.9863570319862435 0.02399315184304812 0.00909830539786356
0.6 0.024047288139045157 0.00855493617420159 0.043707168744073044 -0.987610793762343 0.04370716874407324 -0.9876107937623406 0.024047288139045296 0.008554936174201997
0.61 0.024063485915075015 0.00801173137254941 0.01864200642854033 -0.988229404306141 0.01864200642854008 -0.9882294043061414 0.024063485915075115 0.008011731372549551
0.62 0.024041765640593456 0.0074708893406648155 -0.0064260898210248 -0.988212712334462 -0.006426089821025188 -0.9882127123344591 0.024041765640593453 0.007470889340665086
0.63 0.023982271264852945 0.0069346066078147415 -0.03148110722244768 -0.9875609642318673 -0.03148110722244807 -0.9875609642318682 0.02398227126485288 0.006934606607814737
0.64 0.023885269972486058 0.006405071087474947 -0.05650704556073333 -0.9862748039169279 -0.0565070455607348 -0.9862748039169297 0.02388526997248592 0.00640507108747447
0.65 0.023751151575785997 0.0058844553049809956 -0.0814879266628333 -0.9843552725139375 -0.08148792666283453 -0.9843552725139374 0.023751151575785737 0.0058844553049811205
0.66 0.02358042754548908 0.005374909668882673 -0.1064078038721933 -0.9818038078296343 -0.10640780387219416 -0.9818038078296348 0.023580427545489255 0.005374909668882622
0.67 0.023373729682768317 0.004878555804655075 -0.13125077152194442 -0.9786222436341336 -0.13125077152194495 -0.9786222436341336 0.023373729682768195 0.004878555804655432
0.68 0.023131808436106262 0.00439747996931566 -0.156000974405518 -0.9748128087449955 -0.15600097440551763 -0.974812808744996 0.023131808436106113 0.0043974799693153165
0.69 0.022855530867656435 0.0039337265652594645 -0.18064261724335026 -0.9703781259130376 -0.18064261724335048 -0.9703781259130373 0.022855530867656106 0.003933726565259572
0.7 0.02254587827462247 0.003489291771454555 -0.20515997414408313 -0.9653212105082757 -0.20515997414408427 -0.9653212105082755 0.022545878274622753 0.0034892917714551067
0.71 0.022203943472103447 0.003066117309803367 -0.22953739805854317 -0.9596454690040823 -0.22953739805854148 -0.9596454690040831 0.022203943472103596 0.0030661173098034625
0.72 0.021830927744761502 0.002666084364196854 -0.2537593302245149 -0.9533546972574365 -0.25375933022451364 -0.9533546972574366 0.02183092774476133 0.002666084364196993
0.73 0.02142813747557265 0.002291007669397962 -0.2778103096000541 -0.9464530785829205 -0.2778103096000537 -0.9464530785829207 0.021428137475572512 0.0022910076693977346
0.74 0.02099698046075912 0.0019426297864803543 -0.30167498228283096 -0.9389451816179433 -0.30167498228283013 -0.9389451816179426 0.020996980460759082 0.0019426297864798478
0.75 0.02053896192090242 0.0016226155810950948 -0.325338110912598 -0.9308359579765113 -0.3253381109125988 -0.9308359579765108 0.02053896192090257 0.0016226155810951538
0.76 0.020055680219035338 0.001332546920339071 -0.34878458405368273 -0.9221307396887175 -0.3487845840536822 -0.9221307396887168 0.020055680219035546 0.0013325469203396868
0.77 0.01954882229734542 0.0010739176034442466 -0.3719994255539175 -0.9128352364230548 -0.3719994255539173 -0.9128352364230563 0.019548822297345093 0.001073917603443714
0.78 0.01902015884489213 0.0008481285409315358 -0.3949678038761436 -0.9029555324885666 -0.39496780387614117 -0.9029555324885651 0.019020158844891964 0.0008481285409316936
0.79 0.018471539209513523 0.0006564831962582156 -0.4176750413979963 -0.8924980836138268 -0.41767504139799566 -0.8924980836138269 0.01847153920951322 0.0006564831962582902
0.8 0.017904886067827478 0.0005001833032769777 -0.44010662367532105 -0.8814697134997549 -0.44010662367532105 -0.8814697134997549 0.017904886067827343 0.0005001833032770697
0.81 0.017322189867919672 0.0003803248721819426 -0.46224820866413546 -0.8698776101432812 -0.4622482086641351 -0.8698776101432811 0.017322189867919575 0.000380324872182352
0.82 0.01672550305998504 0.0002978944958206449 -0.4840856358956968 -0.8577293219289965 -0.48408563589569775 -0.8577293219289958 0.01672550305998528 0.00029789449582063796
0.83 0.01611693413082805 0.00025376596749958173 -0.5056049355987766 -0.8450327534859805 -0.505604935598778 -0.8450327534859803 0.016116934130828223 0.0002537659674997587
0.84 0.015498641458697903 0.0002486972205965471 -0.526792337762885 -0.8317961613072292 -0.5267923377628854 -0.8317961613072309 0.015498641458697556 0.00024869722059605616
0.85 0.014872827005505993 0.0002833275994241005 -0.5476342811357704 -0.8180281491291912 -0.5476342811357704 -0.8180281491291922 0.01487282700550584 0.0002833275994239097
0.86 0.014241729863989736 0.00035817546993994684 -0.5681174221481057 -0.8037376630692614 -0.5681174221481051 -0.8037376630692615 0.014241729863989581 0.00035817546994001796
0.87 0.01360761967780515 0.0004736361779746866 -0.5882286437579803 -0.7889339865192226 -0.5882286437579798 -0.7889339865192225 0.013607619677805253 0.0004736361779750526
0.88 0.012972789953048586 0.0006299803616983124 -0.6079550642072882 -0.7736267347930759 -0.6079550642072884 -0.7736267347930766 0.012972789953047955 0.0006299803616977972
0.89 0.012339551279961874 0.0008273526241172752 -0.6272840456819635 -0.7578258495278603 -0.6272840456819637 -0.7578258495278601 0.012339551279962162 0.0008273526241177756
0.9 0.011710224484009477 0.0010657705704004965 -0.6462032028674995 -0.7415415928365707 -0.6462032028674995 -0.7415415928365713 0.011710224484009584 0.0010657705704001947
0.91 0.011087133725718613 0.0013451242137792682 -0.6647004113909877 -0.7247845412126428 -0.664700411390988 -0.724784541212642 0.011087133725718297 0.0013451242137794191
0.92 0.010472599568920217 0.0016651757528446422 -0.6827638161406165 -0.7075655791858537 -0.6827638161406163 -0.7075655791858542 0.010472599568920528 0.0016651757528448425
0.93 0.009868932037218458 0.002025559721905334 -0.7003818394532786 -0.6898958927300374 -0.7003818394532785 -0.6898958927300376 0.009868932037218416 0.0020255597219049713
0.94 0.00927842367857934 0.002425783515121401 -0.7175431891607756 -0.6717869624234393 -0.7175431891607754 -0.67178696242344 0.00927842367857903 0.0024257835151214628
0.95 0.008703342658037277 0.0028652282840097108 -0.7342368664848596 -0.6532505563630524 -0.7342368664848593 -0.6532505563630531 0.00870334265803678 0.0028652282840099545
0.96 0.008145925898485057 0.003343150206861767 -0.7504521737712584 -0.6342987228348557 -0.7504521737712602 -0.6342987228348564 0.008145925898485108 0.0033431502068615544
0.97 0.0076083722894773765 0.0038586821275522 -0.7661787220526595 -0.614943782742372 -0.7661787220526592 -0.6149437827423715 0.007608372289478256 0.003858682127551403
0.98 0.007092835983832302 0.004410835560147423 -0.7814064384306103 -0.5951983217965618 -0.7814064384306101 -0.5951983217965628 0.007092835983832212 0.004410835560147984
0.99 0.006601419801679796 0.004998503054642639 -0.7961255732662068 -0.5750751824706677 -0.7961255732662065 -0.575075182470668 0.006601419801679151 0.004998503054643508
1.0 0.0061361687613469395 0.0056204609180877906 -0.8103267071694749 -0.554587455724179 -0.8103267071694744 -0.5545874557241799 0.006136168761346178 0.005620460918087204
1.01 0.005699063756161825 0.006275372284354095 -0.8240007577774109 -0.5337484725007191 -0.8240007577774114 -0.5337484725007188 0.00569906375616221 0.0062753722843541405
1.02 0.0052920153959556855 0.00696179052471437 -0.8371389863107033 -0.5125717950052244 -0.8371389863107035 -0.5125717950052249 0.0052920153959554565 0.006961790524714645
1.03 0.004916858031571847 0.007678162990386504 -0.849733003899324 -0.49107120776645646 -0.8497330038993233 -0.49107120776645685 0.004916858031570943 0.007678162990386401
1.04 0.004575343980276848 0.008422835077230732 -0.8617747776673645 -0.4692607084913851 -0.8617747776673638 -0.46926070849138624 0.004575343980276394 0.008422835077231
1.05 0.004269137969408899 0.009194054601774165 -0.8732566365676895 -0.447154498718677 -0.873256636567689 -0.4471544987186772 0.0042691379694090245 0.009194054601774544
1.06 0.003999811815025903 0.009989976476811558 -0.8841712769572698 -0.4247669742790379 -0.8841712769572689 -0.42476697427903753 0.0039998118150258236 0.00998997647681148
1.07 0.0037688393516893963 0.010808667673913705 -0.8945117679043709 -0.402112715570731 -0.894511767904371 -0.40211271557073125 0.00376883935168959 0.01080866767391352
1.08 0.0035775916288405506 0.011648112459262793 -0.9042715562191108 -0.3792064776592111 -0.9042715562191099 -0.37920647765921084 0.003577591628841092 0.011648112459262401
1.09 0.003427332388451578 0.012506217888443406 -0.9134444711993139 -0.35606318021021577 -0.9134444711993135 -0.3560631802102176 0.003427332388451377 0.0125062178884429
1.1 0.0033192138379068824 0.013380819544948498 -0.9220247290840167 -0.3326978972663358 -0.922024729084016 -0.3326978972663355 0.003319213837907429 0.013380819544948255
1.11 0.003254272731173441 0.01426968750647898 -0.9300069372074458 -0.30912584687733424 -0.9300069372074464 -0.3091258468773347 0.0032542727311729754 0.014269687506478107
1.12 0.0032334267705033644 0.015170532522290593 -0.9373860978467947 -0.28536238059523145 -0.937386097846796 -0.28536238059523134 0.003233426770502628 0.015170532522290074
1.13 0.0032574713399516385 0.016081012384313732 -0.9441576117576969 -0.26142297284526017 -0.9441576117576957 -0.2614229728452604 0.0032574713399519672 0.016081012384314416
1.14 0.003327076581068236 0.016998738474032587 -0.950317281391805 -0.23732321018445002 -0.9503172813918054 -0.23732321018445035 0.0033270765810675257 0.016998738474032597
1.15 0.0034427848201059423 0.017921282466626498 -0.9558613137915724 -0.21307878045979467 -0.9558613137915737 -0.21307878045979595 0.003442784820104452 0.017921282466627803
1.16 0.0036050083551069593 0.01884618317337634 -0.960786323157844 -0.18870546187826753 -0.960786323157844 -0.18870546187826664 0.0036050083551067112 0.018846183173375906
1.17 0.0038140276101423353 0.019770953502826386 -0.9650893330866206 -0.1642191120012732 -0.9650893330866221 -0.16421911200127332 0.003814027610142337 0.019770953502826
