!Created with skrf (http://scikit-rf.org).
# GHz S RI R 50.0 
!freq ReS11 ImS11 ReS21 ImS21 ReS12 ImS12 ReS22 ImS22
0.001 2.372692416415312e-06 5.126503866012792e-05 0.9999283266519124 -0.0015754362265479021 0.9999283266519124 -0.0015754362265479021 2.3726924164222503e-06 5.126503866012791e-05
0.002 4.175024755780028e-06 0.00011273329093129497 0.9998886233551907 -0.0031405428799839083 0.9998886233551907 -0.0031405428799839083 4.175024755780028e-06 0.00011273329093129498
0.003 6.020842049128399e-06 0.00017804752791162882 0.9998520573369883 -0.004701700834173641 0.9998520573369883 -0.004701700834173641 6.020842049128399e-06 0.00017804752791162882
0.004 7.997764606595823e-06 0.0002458560184037859 0.9998159375269502 -0.006260267345620782 0.9998159375269502 -0.006260267345620782 7.997764606595823e-06 0.0002458560184037859
0.005 1.0143539391142273e-05 0.0003155164254771854 0.9997792280232404 -0.007816886043358881 0.9997792280232404 -0.007816886043358883 1.0143539391149209e-05 0.00031551642547718534
0.006 1.247941243881079e-05 0.00038665012277441454 0.9997414005601976 -0.009371934961310013 0.9997414005601976 -0.009371934961310013 1.2479412438817726e-05 0.00038665012277441443
0.007 1.5019158264777651e-05 0.00045900667082927557 0.9997021430831857 -0.01092566290719315 0.9997021430831857 -0.01092566290719315 1.5019158264763777e-05 0.0004590066708292757
0.008 1.77725364179182e-05 0.0005324078483194999 0.9996612534346604 -0.012478245824142269 0.9996612534346604 -0.012478245824142269 1.77725364179182e-05 0.0005324078483194998
0.009 2.0746896277096846e-05 0.0006067202004594609 0.999618592026981 -0.014029814453801411 0.999618592026981 -0.014029814453801413 2.0746896277103785e-05 0.0006067202004594609
0.01 2.3948022658191074e-05 0.0006818399609575289 0.9995740578545748 -0.015580469539875996 0.9995740578545748 -0.015580469539875996 2.3948022658184135e-05 0.0006818399609575289
0.011 2.7380623588791155e-05 0.0007576840715803675 0.9995275751590218 -0.017130290888465738 0.9995275751590218 -0.017130290888465734 2.738062358878422e-05 0.0007576840715803675
0.012 3.104863156510785e-05 0.0008341844961623612 0.9994790854824868 -0.01867934310769318 0.9994790854824868 -0.01867934310769318 3.104863156510785e-05 0.0008341844961623612
0.013 3.49553998489628e-05 0.0009112844437038148 0.9994285426675618 -0.020227679422151052 0.9994285426675618 -0.020227679422151052 3.495539984896974e-05 0.0009112844437038148
0.014 3.910383601872682e-05 0.000988935760670058 0.9993759095702365 -0.02177534430778669 0.9993759095702365 -0.02177534430778669 3.9103836018719884e-05 0.000988935760670058
0.015 4.349649612405916e-05 0.0010670970722193903 0.9993211558197076 -0.023322375370911832 0.9993211558197076 -0.023322375370911832 4.349649612405916e-05 0.0010670970722193903
0.016 4.813565307751842e-05 0.0011457324213334625 0.9992642562447869 -0.024868804724496738 0.9992642562447869 -0.024868804724496738 4.813565307752535e-05 0.0011457324213334625
0.017 5.302334761141107e-05 0.0012248102495071495 0.9992051897397302 -0.026414660019473454 0.9992051897397302 -0.026414660019473454 5.302334761140414e-05 0.00122481024950715
0.018 5.816142708405003e-05 0.001304302618115582 0.9991439384284458 -0.027959965232856376 0.9991439384284458 -0.02795996523285638 5.81614270840431e-05 0.0013043026181155822
0.019 6.355157560107662e-05 0.0013841846033536673 0.9990804870365885 -0.02950474128042259 0.9990804870365885 -0.02950474128042259 6.355157560106969e-05 0.001384184603353667
0.02 6.91953377892739e-05 0.001464433818918693 0.9990148224117494 -0.031049006500230673 0.9990148224117494 -0.031049006500230673 6.919533778926697e-05 0.001464433818918693
0.021 7.509413784000769e-05 0.0015450300344042383 0.9989469331512534 -0.032592777039333526 0.9989469331512534 -0.032592777039333526 7.509413784001463e-05 0.0015450300344042381
0.022 8.124929496569127e-05 0.0016259548665550822 0.9988768093095358 -0.03413606716677375 0.9988768093095358 -0.03413606716677375 8.124929496569821e-05 0.0016259548665550827
0.023 8.766203609333084e-05 0.0017071915267824562 0.9988044421652955 -0.035678889529639324 0.9988044421652955 -0.035678889529639324 8.766203609333778e-05 0.001707191526782456
0.024 9.433350640074358e-05 0.001788724612681347 0.9987298240341819 -0.03722125536457239 0.9987298240341819 -0.03722125536457239 9.433350640074358e-05 0.0017887246126813473
0.025 0.00010126477814606969 0.0018705399343634532 0.9986529481166257 -0.038763174674021114 0.9986529481166257 -0.038763174674021114 0.00010126477814606969 0.001870539934363453
0.026 0.00010845685813226274 0.0019526243686290219 0.9985738083730936 -0.04030465637429107 0.9985738083730936 -0.04030465637429108 0.0001084568581322558 0.0019526243686290219
0.027 0.00011591069406777795 0.002034965735614169 0.9984923994209861 -0.04184570842082334 0.9984923994209861 -0.04184570842082334 0.00011591069406777795 0.002034965735614169
0.028 0.00012362718002661006 0.0021175526937445483 0.9984087164487736 -0.043386337914917916 0.9984087164487736 -0.04338633791491792 0.0001236271800265962 0.0021175526937445488
0.029 0.00013160716116649373 0.0022003746497210558 0.9983227551439864 -0.04492655119521761 0.9983227551439864 -0.0449265511952176 0.00013160716116649373 0.0022003746497210553
0.03 0.00013985143783150553 0.002283421680941761 0.9982345116324385 -0.046466353916579814 0.9982345116324385 -0.046466353916579814 0.0001398514378314986 0.002283421680941762
0.031 0.0001483607691397341 0.00236668446828469 0.9981439824266144 -0.04800575111843902 0.9981439824266144 -0.04800575111843902 0.00014836076913972716 0.00236668446828469
0.032 0.0001571358761372232 0.002450154237577806 0.9980511643816096 -0.04954474728435472 0.9980511643816096 -0.04954474728435473 0.00015713587613721625 0.002450154237577806
0.033 0.00016617744458438753 0.002533822708397025 0.9979560546573036 -0.051083346394122174 0.9979560546573036 -0.051083346394122174 0.00016617744458439446 0.002533822708397024
0.034 0.0001754861274290481 0.0026176820490806446 0.9978586506857456 -0.052621551969572494 0.9978586506857456 -0.0526215519695725 0.00017548612742905503 0.0026176820490806446
0.035 0.00018506254701064316 0.002701724837045 0.997758950142884 -0.054159367114989726 0.997758950142884 -0.054159367114989726 0.00018506254701064316 0.002701724837045
0.036 0.00019490729703263744 0.0027859440236427495 0.9976569509239863 -0.055696794552914305 0.9976569509239863 -0.055696794552914305 0.00019490729703265127 0.0027859440236427486
0.037 0.00020502094433443672 0.0028703329029326 0.9975526511221516 -0.057233836655972765 0.9975526511221516 -0.057233836655972765 0.0002050209443344367 0.002870332902932599
0.038 0.00021540403048816162 0.0029548850838309786 0.9974460490094772 -0.058770495475270884 0.9974460490094772 -0.058770495475270884 0.00021540403048816162 0.0029548850838309795
0.039 0.00022605707324338284 0.0030395944652003314 0.997337143020477 -0.060306772765801736 0.997337143020477 -0.060306772765801736 0.00022605707324338978 0.003039594465200331
0.04 0.00023698056783708708 0.0031244552134971583 0.9972259317374523 -0.061842670009252046 0.9972259317374523 -0.061842670009252046 0.0002369805678371009 0.0031244552134971574
0.041 0.0002481749881861648 0.003209461742659293 0.9971124138775158 -0.06337818843453061 0.9971124138775158 -0.0633781884345306 0.0002481749881861648 0.0032094617426592937
0.042 0.0002596407879748889 0.0032946086959593744 0.9969965882810856 -0.06491332903629808 0.9969965882810856 -0.06491332903629808 0.000259640787974875 0.0032946086959593744
0.043 0.0002713784016501984 0.0033798909295899085 0.9968784539016056 -0.06644809259173351 0.9968784539016056 -0.06644809259173351 0.0002713784016501984 0.0033798909295899085
0.044 0.00028338824533426156 0.0034653034977785604 0.9967580097963881 -0.06798247967574553 0.9967580097963881 -0.06798247967574551 0.00028338824533426156 0.003465303497778561
0.045 0.0002956707176632619 0.003550841639259443 0.9966352551183861 -0.06951649067480156 0.9966352551183861 -0.06951649067480156 0.0002956707176632619 0.003550841639259443
0.046 0.00030822620056010264 0.0036365007649498556 0.9965101891088295 -0.07105012579953192 0.9965101891088295 -0.07105012579953192 0.00030822620056010264 0.0036365007649498556
0.047 0.00032105505994823035 0.0037222764467007997 0.9963828110905704 -0.0725833850962381 0.9963828110905704 -0.0725833850962381 0.00032105505994822346 0.0037222764467008005
0.048 0.0003341576464114561 0.003808164407007811 0.9962531204621051 -0.07411626845742542 0.9962531204621051 -0.0741162684574254 0.0003341576464114493 0.0038081644070078117
0.049 0.00034753429580596423 0.0038941605095807394 0.9961211166921478 -0.0756487756314586 0.9961211166921478 -0.07564877563145858 0.0003475342958059712 0.00389416050958074
0.05 0.00036118532982859155 0.003980260750686039 0.995986799314729 -0.07718090623143159 0.995986799314729 -0.07718090623143159 0.00036118532982858467 0.003980260750686039
0.051 0.0003751110565452478 0.0040664612511832204 0.9958501679247403 -0.07871265974332935 0.9958501679247403 -0.07871265974332935 0.0003751110565452409 0.004066461251183222
0.052 0.00038931177088362076 0.004152758249187908 0.9957112221738808 -0.08024403553355061 0.9957112221738808 -0.08024403553355061 0.00038931177088362076 0.004152758249187908
0.053 0.00040378775509292104 0.004239148093301037 0.995569961766968 -0.08177503285585423 0.995569961766968 -0.08177503285585423 0.00040378775509292104 0.004239148093301037
0.054 0.00041853927917343074 0.004325627236350643 0.9954263864585747 -0.08330565085778245 0.9954263864585747 -0.08330565085778245 0.00041853927917342385 0.004325627236350644
0.055 0.0004335666012791639 0.004412192229598769 0.9952804960499368 -0.08483588858660888 0.9952804960499368 -0.08483588858660888 0.00043356660127916386 0.004412192229598769
0.056 0.0004488699680948337 0.0044988397173713664 0.9951322903861409 -0.0863657449948561 0.9951322903861409 -0.0863657449948561 0.0004488699680948476 0.0044988397173713664
0.057 0.0004644496151900718 0.004585566432073006 0.9949817693535398 -0.08789521894542052 0.9949817693535398 -0.08789521894542052 0.00046444961519005805 0.004585566432073007
0.058 0.0004803057673521491 0.00467236918955294 0.9948289328773705 -0.08942430921633761 0.9948289328773705 -0.0894243092163376 0.0004803057673521491 0.00467236918955294
0.059 0.0004964386388995399 0.0047592448847920184 0.9946737809195736 -0.09095301450522039 0.9946737809195736 -0.09095301450522039 0.0004964386388995399 0.0047592448847920184
0.06 0.0005128484339769832 0.0048461904878831265 0.994516313476776 -0.09248133343339814 0.994516313476776 -0.09248133343339814 0.0005128484339769832 0.0048461904878831265
0.061 0.0005295353468339561 0.004933203040281201 0.9943565305784426 -0.09400926454977991 0.9943565305784426 -0.09400926454977993 0.000529535346833963 0.004933203040281201
0.062 0.000546499562088039 0.005020279651299919 0.9941944322851521 -0.09553680633446543 0.9941944322851521 -0.09553680633446542 0.000546499562088046 0.005020279651299919
0.063 0.0005637412549735067 0.0051074174948356164 0.9940300186870186 -0.0970639572021243 0.9940300186870186 -0.0970639572021243 0.0005637412549735136 0.0051074174948356164
0.064 0.0005812605915768328 0.005194613806300529 0.9938632899022207 -0.0985907155051616 0.9938632899022207 -0.0985907155051616 0.0005812605915768328 0.005194613806300529
0.065 0.000599057729059934 0.0052818658797484 0.9936942460756434 -0.10011707953668612 0.9936942460756434 -0.10011707953668612 0.000599057729059941 0.0052818658797484
0.066 0.0006171328158716103 0.005369171065178289 0.9935228873776158 -0.10164304753329725 0.9935228873776158 -0.10164304753329725 0.0006171328158716034 0.0053691710651782906
0.067 0.0006354859919487121 0.005456526766002549 0.9933492140027335 -0.10316861767770268 0.9933492140027335 -0.10316861767770268 0.000635485991948719 0.00545652676600255
0.068 0.0006541173889067426 0.005543930436667083 0.9931732261687776 -0.10469378810118242 0.9931732261687776 -0.10469378810118242 0.0006541173889067495 0.0055439304366670826
0.069 0.0006730271302217398 0.00563137958041237 0.9929949241156931 -0.10621855688590684 0.9929949241156931 -0.10621855688590684 0.0006730271302217398 0.00563137958041237
0.07 0.0006922153314029561 0.0057188717471652805 0.9928143081046434 -0.1077429220671216 0.9928143081046434 -0.1077429220671216 0.0006922153314029561 0.0057188717471652805
0.071 0.000711682100157472 0.00580640453155203 0.9926313784171333 -0.10926688163520963 0.9926313784171333 -0.10926688163520963 0.000711682100157472 0.005806404531552031
0.072 0.0007314275365474298 0.005893975571024373 0.9924461353541792 -0.11079043353763492 0.9924461353541792 -0.11079043353763492 0.0007314275365474298 0.005893975571024373
0.073 0.0007514517331395867 0.005981582544090013 0.992258579235546 -0.11231357568078217 0.992258579235546 -0.11231357568078217 0.0007514517331395796 0.005981582544090012
0.074 0.0007717547751486751 0.0060692231686415455 0.9920687103990222 -0.11383630593169364 0.9920687103990222 -0.11383630593169364 0.0007717547751486614 0.006069223168641547
0.075 0.0007923367405738533 0.006156895200375765 0.99187652919975 -0.11535862211971441 0.99187652919975 -0.11535862211971441 0.0007923367405738533 0.006156895200375765
0.076 0.0008131977003297771 0.00624459643129878 0.9916820360095928 -0.11688052203804945 0.9916820360095928 -0.11688052203804945 0.0008131977003297702 0.006244596431298781
0.077 0.0008343377183715553 0.006332324688309771 0.9914852312165467 -0.11840200344524045 0.9914852312165467 -0.11840200344524045 0.0008343377183715416 0.006332324688309772
0.078 0.0008557568518146266 0.006420077831859668 0.9912861152241799 -0.1199230640665649 0.9912861152241799 -0.1199230640665649 0.0008557568518146265 0.006420077831859666
0.079 0.0008774551510498501 0.006507853754678922 0.9910846884511153 -0.12144370159536552 0.9910846884511153 -0.12144370159536552 0.0008774551510498572 0.006507853754678923
0.08 0.0008994326598534086 0.0065956503805705835 0.9908809513305429 -0.1229639136943124 0.9908809513305429 -0.1229639136943124 0.0008994326598534154 0.0065956503805705835
0.081 0.0009216894154926938 0.006683465663264363 0.9906749043097539 -0.124483697996602 0.9906749043097539 -0.124483697996602 0.0009216894154927004 0.006683465663264361
0.082 0.0009442254488278561 0.006771297585327766 0.9904665478497086 -0.12600305210709808 0.9904665478497086 -0.12600305210709808 0.0009442254488278698 0.006771297585327763
0.083 0.0009670407844091671 0.006859144157131241 0.990255882424635 -0.12752197360341821 0.990255882424635 -0.1275219736034182 0.0009670407844091671 0.006859144157131241
0.084 0.0009901354405709565 0.006947003415863569 0.990042908521633 -0.12904046003696576 0.990042908521633 -0.1290404600369658 0.0009901354405709498 0.0069470034158635695
0.085 0.0010135094295216983 0.007034873424595084 0.9898276266403223 -0.1305585089339172 0.9898276266403223 -0.13055850893391724 0.001013509429521698 0.007034873424595084
0.086 0.0010371627574309581 0.0071227522713850815 0.9896100372924908 -0.13207611779615963 0.9896100372924908 -0.13207611779615963 0.0010371627574309512 0.007122752271385081
0.087 0.0010610954245129226 0.007210638068431767 0.9893901410017775 -0.13359328410218724 0.9893901410017775 -0.13359328410218724 0.0010610954245129159 0.007210638068431767
0.088 0.0010853074251068215 0.007298528951261832 0.9891679383033688 -0.13511000530795741 0.9891679383033688 -0.13511000530795741 0.0010853074251068215 0.0072985289512618335
0.089 0.0011097987477548643 0.007386423077957123 0.9889434297437028 -0.13662627884770645 0.9889434297437028 -0.13662627884770648 0.0011097987477548573 0.007386423077957123
0.09 0.0011345693752769707 0.007474318628416727 0.9887166158802007 -0.13814210213473085 0.9887166158802007 -0.13814210213473083 0.0011345693752769707 0.0074743186284167255
0.091 0.0011596192848430343 0.00756221380365278 0.9884874972810102 -0.13965747256213332 0.9884874972810102 -0.13965747256213334 0.0011596192848430343 0.007562213803652778
0.092 0.0011849484480428787 0.0076501068251171225 0.9882560745247563 -0.14117238750353736 0.9882560745247563 -0.14117238750353733 0.0011849484480428718 0.007650106825117124
0.093 0.0012105568309534922 0.007737995934058229 0.9880223482003135 -0.14268684431377 0.9880223482003135 -0.14268684431377 0.0012105568309534786 0.007737995934058231
0.094 0.0012364443942043505 0.007825879390906228 0.9877863189065822 -0.14420084032951602 0.9877863189065822 -0.14420084032951602 0.0012364443942043642 0.007825879390906227
0.095 0.0012626110930403602 0.007913755474684293 0.9875479872522847 -0.1457143728699462 0.9875479872522847 -0.1457143728699462 0.001262611093040353 0.007913755474684292
0.096 0.0012890568773828192 0.008001622482445826 0.987307353855763 -0.14722743923731665 0.987307353855763 -0.14722743923731665 0.0012890568773828328 0.008001622482445826
0.097 0.0013157816918883988 0.008089478728734997 0.9870644193447949 -0.14874003671754657 0.9870644193447949 -0.14874003671754657 0.0013157816918883919 0.008089478728734997
0.098 0.0013427854760063103 0.00817732254507048 0.9868191843564107 -0.1502521625807701 0.9868191843564107 -0.1502521625807701 0.0013427854760063036 0.008177322545070483
0.099 0.0013700681640335546 0.008265152279450527 0.9865716495367299 -0.1517638140818682 0.9865716495367299 -0.1517638140818682 0.0013700681640335616 0.008265152279450525
0.1 0.0013976296851686656 0.008352966295878391 0.9863218155407946 -0.15327498846097748 0.9863218155407946 -0.15327498846097748 0.0013976296851686658 0.008352966295878391
0.101 0.0014254699635636854 0.008440762973907577 0.986069683032417 -0.15478568294398032 0.986069683032417 -0.15478568294398032 0.0014254699635636854 0.008440762973907577
0.102 0.0014535889183743904 0.008528540708204971 0.9858152526840382 -0.1562958947429758 0.9858152526840382 -0.1562958947429758 0.0014535889183743976 0.008528540708204971
0.103 0.0014819864638094997 0.008616297908131974 0.9855585251765829 -0.15780562105673207 0.9855585251765829 -0.15780562105673207 0.0014819864638094997 0.008616297908131974
0.104 0.0015106625091780694 0.008704032997342272 0.9852995011993273 -0.15931485907112156 0.9852995011993273 -0.15931485907112156 0.0015106625091780624 0.008704032997342273
0.105 0.0015396169589354872 0.008791744413395475 0.9850381814497808 -0.16082360595954076 0.9850381814497808 -0.16082360595954076 0.0015396169589354804 0.008791744413395475
0.106 0.0015688497127285764 0.008879430607385604 0.9847745666335531 -0.16233185888331256 0.9847745666335531 -0.16233185888331259 0.0015688497127285832 0.008879430607385604
0.107 0.0015983606654387948 0.008967090043584463 0.9845086574642534 -0.16383961499207636 0.9845086574642534 -0.16383961499207636 0.0015983606654387877 0.008967090043584461
0.108 0.0016281497072248925 0.009054721199098673 0.9842404546633666 -0.16534687142416027 0.9842404546633666 -0.16534687142416027 0.0016281497072248925 0.009054721199098673
0.109 0.00165821672356381 0.009142322563539324 0.9839699589601628 -0.16685362530694484 0.9839699589601628 -0.16685362530694484 0.0016582167235638168 0.009142322563539324
0.11 0.0016885615952911496 0.009229892638704768 0.9836971710915846 -0.16835987375720804 0.9836971710915846 -0.16835987375720804 0.0016885615952911494 0.009229892638704766
0.111 0.001719184198639704 0.009317429938274998 0.9834220918021602 -0.16986561388146307 0.9834220918021603 -0.16986561388146304 0.0017191841986397042 0.009317429938274998
0.112 0.0017500844052777524 0.009404932987517392 0.9831447218439091 -0.17137084277628123 0.9831447218439091 -0.1713708427762812 0.001750084405277766 0.009404932987517392
0.113 0.0017812620823460174 0.009492400323003688 0.982865061976255 -0.17287555752860487 0.982865061976255 -0.17287555752860487 0.0017812620823460243 0.009492400323003686
0.114 0.0018127170924935748 0.009579830492336776 0.9825831129659436 -0.17437975521604962 0.9825831129659436 -0.17437975521604962 0.0018127170924935748 0.009579830492336776
0.115 0.0018444492939130755 0.009667222053888138 0.9822988755869618 -0.1758834329071955 0.9822988755869618 -0.1758834329071955 0.0018444492939130753 0.009667222053888137
