! Created with skrf (http://scikit-rf.org).
# GHz S RI R 50.0 
!freq ReS11 ImS11 ReS21 ImS21 ReS12 ImS12 ReS22 ImS22
0.01 -0.0008598130020042151 -0.00761865467764773 0.9971117978898638 -0.05290670745593612 0.998403396044217 -0.05260376100815294 -0.0008448631996951985 -0.0075044115750554355
0.02 -0.0024887310892093696 -0.01514051831215317 0.9932018154384473 -0.10475031569869253 0.9934653366701313 -0.1049786607037176 -0.00283436728035528 -0.01723507670695542
0.03 -0.005503258345793422 -0.025212189452845615 0.9851017293889415 -0.15611880653035956 0.9866061584983379 -0.1564232658496375 -0.005555163145489309 -0.02543286217055724
0.04 -0.00895738977342199 -0.03284372305378019 0.9755802751841597 -0.20723743354321666 0.9762193353305008 -0.20755169384387898 -0.009004724499067392 -0.03293074179443504
0.05 -0.013376312282787472 -0.0406003889559636 0.9630861313713571 -0.2575171744790767 0.9625226826990648 -0.25776752438483924 -0.012778588499629054 -0.03875522069786392
0.06 -0.018554295186986987 -0.04784073265445932 0.9439580467867543 -0.3065988312552733 0.9475671528181091 -0.30725266125344325 -0.01832318616399762 -0.04726811899207908
0.07 -0.02325696056727755 -0.051825814983750676 0.9286534107339547 -0.35551324234321263 0.9298700396937452 -0.3559116000065903 -0.022339285613397052 -0.049793780927473746
0.08 -0.02908308008827763 -0.05679562583223488 0.9059447056613769 -0.4015969146992935 0.9071351029283632 -0.40213432520513503 -0.02983336027040993 -0.05818028972166365
0.09 -0.03640829685880794 -0.06286174428026954 0.8859287947659252 -0.44870597929208106 0.884454654990362 -0.4482621559102446 -0.03639226861631615 -0.06281303541834356
0.1 -0.04388902372251891 -0.06754704095143764 0.8604945831709129 -0.49362439766374366 0.858693162597995 -0.492468843583499 -0.04364589136222462 -0.06717429023956183
0.11 -0.05189073085569056 -0.07146306623102014 0.831675258802042 -0.5358565967601876 0.8322602393552513 -0.5359288343010804 -0.05279469222894379 -0.0727355416339522
0.12 -0.060457839773530954 -0.07492748051087447 0.8017342439415994 -0.5773474555928678 0.803099427084354 -0.5782178065797181 -0.060257295007210304 -0.0746548537693348
0.13 -0.06726907775672969 -0.07509948219907661 0.7691091506319864 -0.6162688302214048 0.7698246217239287 -0.6169642556870052 -0.06824860528955862 -0.07618118464242171
0.14 -0.0780811541964919 -0.07866152871112797 0.7380472439884037 -0.6564447314396878 0.7373863195501461 -0.6557518696602568 -0.07776130860013614 -0.07836702154166154
0.15 -0.08682023899896879 -0.0789717642280335 0.7011591106514038 -0.6919304368333528 0.7007374953994298 -0.6915960126019163 -0.08769883350579677 -0.0797314218297786
0.16 -0.09705863711217685 -0.07959714723775482 0.664681252258951 -0.7268959130607783 0.6639013394264803 -0.725973544122304 -0.09630899718490571 -0.07905571021842203
0.17 -0.10730048142961095 -0.07925061054303105 0.6239742994810454 -0.7570368037288798 0.6240200193669877 -0.7573981382676829 -0.10792836526913284 -0.07963938444140282
0.18 -0.1147982030280315 -0.0760727867826186 0.5843088494422121 -0.7880662972511252 0.5830144188736024 -0.7862521440998153 -0.11721019241243114 -0.0776707633355554
0.19 -0.1266810912655184 -0.07496848022404883 0.5429122597599143 -0.8165459535828482 0.5416476545349934 -0.8152588493959556 -0.12741175869864402 -0.07546160784034597
0.2 -0.13609530996225003 -0.0714835791357401 0.49719948568873745 -0.8379401217006583 0.49848670513681653 -0.8409729386568479 -0.13735910197296705 -0.0720976480600034
0.21 -0.14592419869493356 -0.0674429717164799 0.4544511772202714 -0.8645603333333948 0.45413006144498935 -0.8637361153390658 -0.1486913589321161 -0.06869200672228136
0.22 -0.15824992776087268 -0.06362162926839487 0.40832570552129716 -0.8840838510739121 0.4090009615025556 -0.884597667879538 -0.15707067189374457 -0.06310247553720004
0.23 -0.16574572382431033 -0.05706989451849491 0.362596247567773 -0.9034033577309909 0.36254637686663527 -0.9028386423887136 -0.16326437542659716 -0.05623224608422097
0.24 -0.17522047845769465 -0.0506054649283023 0.31562734707872403 -0.9193400085374936 0.31474267881135315 -0.9178418622656671 -0.17427216362795006 -0.05027210242842737
0.25 -0.18224677502255776 -0.04277547810848441 0.2672607909774548 -0.931053803144656 0.2673601448281389 -0.9314240055871651 -0.1838472238419446 -0.04319028852697623
0.26 -0.19254616555968843 -0.03507965322719597 0.21906257082356032 -0.9415046140766343 0.21917274657207778 -0.9416404060466013 -0.19130223715836525 -0.034914868674009836
0.27 -0.20276962640164772 -0.026512888777647826 0.17050941569730133 -0.9513484918282209 0.17062125466279823 -0.9503232739368771 -0.20160839759019353 -0.026414842868585628
0.28 -0.20855175401700043 -0.016675741914619374 0.12177845072420625 -0.9567570448383724 0.12183835982051089 -0.9559888286471278 -0.20807205659404435 -0.016673576109557057
0.29 -0.21793995445491748 -0.006515386820042713 0.07257409322607221 -0.9598387593502952 0.07259455818031424 -0.9577848131235502 -0.21793000007154972 -0.006478200768828495
0.3 -0.22351591757841793 0.004564464428170017 0.023799611556411963 -0.9614051161872192 0.02385060028981023 -0.9603242032233431 -0.22389408456765691 0.004489702613569973
0.31 -0.22964351511730324 0.01612242758914107 -0.025114650731634974 -0.9584389517661429 -0.025050985178617285 -0.9590479996517823 -0.22668770071330305 0.016016989007813724
0.32 -0.23379855936862018 0.028208567284749842 -0.07323088251881589 -0.9535086973126835 -0.07327106871971814 -0.9539649118697576 -0.2364210948370858 0.028658431298227444
0.33 -0.23968812046849317 0.04115169392123783 -0.12115326021991825 -0.9472792331299684 -0.12109597627748798 -0.9466851731845443 -0.2399785766812003 0.04127010051021024
0.34 -0.24462603971637167 0.054728057791947726 -0.16828329141952603 -0.9370347983110751 -0.1687579036495229 -0.9388044295339687 -0.2443454334164162 0.05453488413403909
0.35 -0.24579720783474 0.06793808460166685 -0.21590967004521466 -0.92777341510543 -0.21526810742825048 -0.9258478882169932 -0.24564597970413538 0.06793377751690177
0.36 -0.24838045381966617 0.08218286179209228 -0.26159831474683426 -0.9109674201063238 -0.26089002679631473 -0.9102262866275708 -0.24759255449306208 0.08185798249791727
0.37 -0.24763949643018748 0.09580402277582693 -0.3061948649729225 -0.8946803522693466 -0.3070273551783074 -0.8970665647383623 -0.25037954675672197 0.09684453159179629
0.38 -0.24820536529156118 0.11042761021949211 -0.3511538711457462 -0.8781468665891172 -0.3500031777305958 -0.8759088420390456 -0.25059830782202025 0.11140121437984975
0.39 -0.2512017277158366 0.12707884512658532 -0.3936976475558281 -0.8575834398559798 -0.3936377086518807 -0.8566394396472855 -0.24966311240671674 0.12624670588166523
0.4 -0.2466162043206883 0.1404053968014327 -0.43483763445011414 -0.8333836671649052 -0.4355758851535162 -0.8340189422550226 -0.24705833692205492 0.14066453373053306
0.41 -0.24575642481891072 0.15662979180264724 -0.4745652252452014 -0.8076774667962794 -0.47532363403967204 -0.8085712223465318 -0.24450336018013735 0.15581219497664578
0.42 -0.2430104258696296 0.17219582768965433 -0.5152541574715609 -0.7835701654569067 -0.5131426038680207 -0.7807212960045222 -0.24160511165688267 0.17113363877341903
0.43 -0.23894533876771376 0.187574423482823 -0.5507647737356348 -0.7530942166574438 -0.5514199090848658 -0.7534560786267442 -0.23902689335965469 0.18774476739649526
0.44 -0.23428405228259627 0.20335720282413228 -0.5879918564155117 -0.7243398730148456 -0.5875983943612059 -0.7237221931984165 -0.2327748903659439 0.20213379436232767
0.45 -0.22578489703145355 0.21635708435666776 -0.6223802216706487 -0.692906273551497 -0.6217281579206406 -0.6916230880125772 -0.22624809045328187 0.2168110572160364
0.46 -0.21928003644045385 0.23172505144535424 -0.6531252959191876 -0.6573469153634318 -0.6530983103176532 -0.6574712734947493 -0.21921916890167772 0.23189539500510842
0.47 -0.21185385031439283 0.2471798959322133 -0.6847752663657142 -0.6235438943443169 -0.6851104060777052 -0.6235891496047729 -0.2109520035996129 0.24617034419540573
0.48 -0.2013033162053615 0.2594005608024405 -0.7128405694521058 -0.5865396005149108 -0.7136910235855232 -0.5872380227614198 -0.2032305336029079 0.26195037500062657
0.49 -0.19149743026194177 0.2735741186373577 -0.7413015291414458 -0.5505042307943387 -0.7396400797182434 -0.5491499050320391 -0.19102137781258186 0.27290629621962853
0.5 -0.18105478490314367 0.28761182858294937 -0.7641819165828254 -0.5101342196761242 -0.7650154984134542 -0.5108941187087225 -0.18094562119151933 0.28753570513637516
0.51 -0.1692325641016773 0.3004397811694703 -0.7883403782459937 -0.4716059103416012 -0.7871649725197167 -0.4704728001702478 -0.169312016133542 0.30036614206602164
0.52 -0.15612615122626575 0.3117703116282731 -0.8082731229748258 -0.43080903282414384 -0.8086786973621128 -0.43037439270562533 -0.15655843371411227 0.312639205465475
0.53 -0.14310575214339236 0.3243954649219728 -0.8262032507250441 -0.38819727415476696 -0.8264152400264673 -0.38833534507207446 -0.14280756629176433 0.32387778340956647
0.54 -0.1283249902588928 0.3338926868070477 -0.8424556316488985 -0.34602800400814904 -0.8427453003813486 -0.34600150760460313 -0.1288953778317606 0.33557113600711586
0.55 -0.11368140732076612 0.3454592429671083 -0.8556952629804638 -0.30281866304006155 -0.856939941322251 -0.3030895121724781 -0.11416391622025511 0.34629143882239466
0.56 -0.09788686369245833 0.35474699387429226 -0.8689128141134996 -0.2594040181616842 -0.8698234317201451 -0.2599275967329226 -0.09801591229724772 0.3546828396379029
0.57 -0.08164823714872851 0.3640504142039692 -0.8776761845211288 -0.21554952696993251 -0.8796562225425014 -0.21610086478601206 -0.08149791371609638 0.3626438429808525
0.58 -0.0647028693116456 0.37156778491627546 -0.8856638706027482 -0.17173867939085413 -0.8851239168111111 -0.1715019455159594 -0.06448638438805461 0.370485590871159
0.59 -0.04724765043462216 0.3781774446597317 -0.8927091776225783 -0.12755713743544086 -0.8915567567513006 -0.12714641377747976 -0.047236612743347 0.3783480229159973
0.6 -0.029148926667273454 0.3852366248219293 -0.8944314546420293 -0.08295793136374906 -0.8940297086351158 -0.0828748373892675 -0.02906533331042525 0.38398758145044637
0.61 -0.010541850791984123 0.3889102674558906 -0.8960111815520144 -0.03828127245075587 -0.8969573427461905 -0.038649773170970854 -0.01051454309871718 0.39135636696501747
0.62 0.008344527548766455 0.3945297316085555 -0.8927798989912674 0.005701356579883668 -0.8948895433911812 0.005695665477230169 0.008261027992952023 0.3924938403826888
0.63 0.027669336251648354 0.3959063950970648 -0.8909564702396955 0.04975441310355916 -0.8929475477102092 0.04982114918805179 0.02773259648300711 0.39573550407599567
0.64 0.04730215083912108 0.3999143902946527 -0.8855137268078962 0.0932522898457884 -0.8868475486756404 0.09326138810633024 0.047337178869381 0.3996222138027173
0.65 0.0671863504013686 0.4003835205899205 -0.8782644255748855 0.13636304592277276 -0.8777011226916116 0.13623738557545895 0.06666551689867183 0.3980677701328515
0.66 0.08648831452157915 0.39767820305834 -0.8677645429730452 0.17849763348813644 -0.8686145989772478 0.17905207361212866 0.08709986185732405 0.3998368936636345
0.67 0.1062640021458075 0.39561683567980144 -0.8550250444144765 0.220555925062412 -0.8564173986850722 0.22098371304318226 0.10688735464225889 0.3976990019388475
0.68 0.12640256613275075 0.3938037353827822 -0.8417720421696616 0.2619975208602829 -0.8440447569794991 0.2623201388688905 0.12748870469533805 0.39687737621682917
0.69 0.14708014854664728 0.3924398320797953 -0.8268286672195664 0.30229836279966177 -0.8265736086422434 0.3024831544805784 0.1469102007421228 0.39178821590672464
0.7 0.16676814420943428 0.38705533648098145 -0.8087527918162494 0.3415147849563462 -0.8089677672083465 0.3421496761091743 0.16695238994043016 0.3873206091666723
0.71 0.1857835826371651 0.37980613361314686 -0.7886834728528848 0.37966260618641395 -0.7911845074226057 0.3809060308606251 0.1865346537829874 0.3811572384130872
0.72 0.20576765438007913 0.373720797306524 -0.766812615423266 0.4167157782862092 -0.7684839531701895 0.41761768679072514 0.20655980284016248 0.37541914056462966
0.73 0.22636067369824542 0.3681332756237675 -0.7451225748120522 0.45331166843262677 -0.744840665065525 0.4532622287005249 0.2253566840675556 0.36667551373068674
0.74 0.2446544581095794 0.3581541284044563 -0.7212886431544447 0.48892675838381633 -0.7210402209670683 0.4890907259248999 0.24374727817224834 0.3567825247153792
0.75 0.2639800508667892 0.3489877631288611 -0.696796920806392 0.5238691031098912 -0.6953438493791206 0.5228621156935241 0.26358288533461893 0.34857075153168776
0.76 0.2806535566255957 0.33646034653746093 -0.6666249043646247 0.5543137525145483 -0.6681044184232096 0.5553531028133277 0.28092275623738483 0.3365538698245379
0.77 0.2992571441045961 0.32537334522306693 -0.6370508516872271 0.5841293315700323 -0.6374723484921142 0.58482884515706 0.299262868832992 0.32564390943567717
0.78 0.31778919646309267 0.31377436449626245 -0.6082639013715668 0.6152823205822164 -0.6080704979331499 0.6152607739218086 0.3159515932814151 0.3119976823226602
0.79 0.33225977871462187 0.29804739752839365 -0.5750129952757812 0.6414369679180225 -0.5752007083184001 0.6421851848019331 0.3312740442910559 0.29707343039064166
0.8 0.3483660935256657 0.28339976831728125 -0.541684560004578 0.6675947981482947 -0.5411689133121562 0.6664902853040479 0.3482490066129209 0.283296841421922
0.81 0.36353257407335576 0.267847022063046 -0.5088349779757224 0.693131804270456 -0.5083206368752233 0.6930498786394521 0.3638017056019239 0.26808530899278515
0.82 0.37767652397890994 0.2513252664882765 -0.4726030455125842 0.7144993218737969 -0.472626932269018 0.7146891363120097 0.37875641041955005 0.2518971916580434
0.83 0.3925626570250112 0.23470778648099544 -0.43669846298417314 0.73572831202529 -0.43636632868373154 0.7355234637832906 0.3909315475329659 0.23370764257868862
0.84 0.4054275934120408 0.21670484126716186 -0.39997321905535416 0.7552853272018203 -0.39992578743521956 0.7558881852267593 0.40417610160199496 0.21592040018340117
0.85 0.41471124219143773 0.19654138631780596 -0.3616750873994531 0.7719070400418666 -0.36136002233908693 0.7720197014899063 0.41416656714365024 0.1963903169162321
0.86 0.4254735810527342 0.1770725810545847 -0.3233047183917287 0.7884299425843051 -0.323427093123384 0.7882763790477835 0.42517248055824236 0.17701374227231337
0.87 0.4335981670176202 0.15658024600738593 -0.2837390037508755 0.8006867637219273 -0.2835405416838238 0.7998868369255729 0.43652981413602865 0.15768167453262685
0.88 0.4453593874360127 0.13686746010981296 -0.24441877576356016 0.8134515511498716 -0.24391559171251034 0.8115018840915652 0.44478487640177544 0.13672154554790014
0.89 0.45218683969147255 0.11528491522410401 -0.2043428394215438 0.8234193686291974 -0.20391357374121838 0.8222727509164561 0.45274078295796744 0.11566082678180648
0.9 0.45829526517051433 0.0938855925774304 -0.1638042631238863 0.8302200705871295 -0.16327981939192648 0.8294748372055623 0.45707907161184935 0.09341572454312022
0.91 0.4633225748974203 0.07169024383625375 -0.1222556529773177 0.834218671119354 -0.12241964477671977 0.8359971613224975 0.4631465453783904 0.07172524254631864
0.92 0.46897559615864076 0.04952016498041711 -0.08183601909991238 0.8392755253614869 -0.08180958009045133 0.8396292553855066 0.46902345102084686 0.049568248164556024
0.93 0.47228328184188595 0.026930917805790263 -0.040320639779491886 0.8411927551473999 -0.04029557290787096 0.8401295406534237 0.47134573985657163 0.026874798203323443
0.94 0.4732767278498754 0.0041486422113192305 0.0006044059159963015 0.8395886091849565 0.0006351185877720811 0.8402307313407791 0.47570782979842324 0.004079767386147441
0.95 0.47590256071492104 -0.018973689507489094 0.04105097951089293 0.8369556171436237 0.041533278203241625 0.837837322502845 0.4761021464587947 -0.01894466843840759
0.96 0.47382680938446253 -0.041876800511778625 0.08196212340819727 0.8322212981317221 0.08194668064471687 0.832302449165623 0.47653584499868695 -0.04221206486681584
0.97 0.4732267636574853 -0.0649388782215033 0.12222478600777265 0.8269987629275499 0.12263291953499057 0.8292062892195177 0.47488262220360045 -0.06517379677556433
0.98 0.47267268721786593 -0.0883421685900259 0.16249714927621797 0.819814633146541 0.1626932499958429 0.8211195083246648 0.4699452815640522 -0.08814796463624769
0.99 0.46617381700864796 -0.11095636068824556 0.20166473576908606 0.8088197104737752 0.20198710016745575 0.8113233038878044 0.4670078620010512 -0.11122587877950266
1.0 0.4634631239580824 -0.13438274978633233 0.2406328766148035 0.7977455749191219 0.24046810504289926 0.7968879614745781 0.46269993814747956 -0.13408362415908637
1.01 0.4573514286255395 -0.15702795029237734 0.2786752642556702 0.7832038176162812 0.2784442548799665 0.782021472387028 0.45569093858452575 -0.1564840186070405
1.02 0.4506427034377086 -0.17955022074638002 0.3158055116858545 0.7664786956785747 0.3161244902314302 0.7674029030626306 0.4503622438326086 -0.17954127151023808
1.03 0.4412087407442167 -0.20150717957123834 0.3525754586941998 0.7493238269637947 0.35221687391206097 0.7485975226348299 0.4392955694654364 -0.2005456214911051
1.04 0.430973167566234 -0.22275239091002283 0.3873473572743231 0.7290788453718464 0.38859745838549853 0.7313317871458116 0.4296652592710367 -0.22208967199756727
1.05 0.4190856655180321 -0.24309742481621013 0.4231649804291285 0.7108648960835315 0.42302672412342 0.7103188692569401 0.4206931963334384 -0.24407558076252017
1.06 0.41035350430636824 -0.26562484300592487 0.456636858259879 0.6871669156599933 0.4560114212178463 0.6867004465682773 0.40846479592732476 -0.2644965803341809
1.07 0.3962447461207362 -0.2850228918920533 0.4877377961580469 0.6622306208851907 0.48830006273151194 0.6625032746237877 0.396268263103148 -0.284965962267155
1.08 0.3829683192820059 -0.30496468983642183 0.5202130088118766 0.6376748631815471 0.5207186854573075 0.638532322381236 0.38412518162560516 -0.3057737023485589
1.09 0.36923336979970944 -0.32479277672149676 0.548761510515862 0.6098804080217807 0.5496161292308913 0.6106116966480374 0.36767472609107055 -0.32331058701383225
1.1 0.35256381131099424 -0.3422386826177557 0.5783995384194134 0.5826925559488788 0.5766302409323575 0.5810241298289522 0.35358866172676046 -0.34328502340199046
1.11 0.33724852432147756 -0.36134481789637596 0.6052102853695501 0.5523081115563274 0.6046992344315361 0.5524553836660514 0.3367288555368805 -0.3606352459941972
1.12 0.3186435563448528 -0.3771043141769262 0.6314978725882225 0.5221166157031252 0.6278785275251713 0.5195086551528414 0.31857580762821414 -0.37690548189175294
1.13 0.29968836177628483 -0.3923669978570866 0.6535509942478211 0.48874219919947937 0.6519292913997201 0.4880764731064287 0.30037708069467495 -0.3929890501694542
1.14 0.2811438085287063 -0.4080251383197234 0.6751925679528498 0.4552484117435976 0.6754420594909255 0.4554617999288432 0.28096610374673964 -0.4078441631413139
1.15 0.26177063431157366 -0.4231465566073837 0.6972647459880978 0.4217051869529777 0.6957914417916169 0.42095843756998735 0.2615803673623445 -0.4227698253335243
1.16 0.24140933795335015 -0.437255062838031 0.7159327410312956 0.38681372687390786 0.715482078590016 0.38700820303552064 0.24070784910760476 -0.43586160376099214
1.17 0.2190103053915873 -0.4472762717827891 0.7311375506572166 0.34994119022050496 0.7310763367372791 0.3495151928733753 0.2195946991805668 -0.44875900714149586
1.18 0.19765462787954352 -0.4601610441018816 0.7465099178316706 0.3130881806785872 0.7462781632997119 0.31290550401430134 0.19711610206147714 -0.45855997447787294
1.19 0.17503906825870372 -0.46966896942813585 0.7612275000486419 0.27625629446006333 0.7594542370199148 0.2756185438856985 0.17528514274598644 -0.47086871168066047
1.2 0.1516998709958031 -0.4784355976863123 0.7704046527058264 0.23730875796583478 0.770432703997535 0.23734924698059398 0.15179203283045448 -0.4796725923114192
