!Created with skrf (http://scikit-rf.org).
# GHz S RI R 50.0 
!freq ReS11 ImS11 ReS21 ImS21 ReS12 ImS12 ReS22 ImS22
0.001 -8.063217927991606e-05 -0.0011426140966050193 0.9998056912005862 -0.004378640051573865 0.9998056912005862 -0.004378640051573865 -8.063217928002707e-05 -0.0011426140966050206
0.002 -0.00015089319834139258 -0.0022471665314830807 0.9996747755691128 -0.008718415900472825 0.9996747755691128 -0.008718415900472825 -0.00015089319834150357 -0.0022471665314830764
0.003 -0.0002274055497733852 -0.0033367536615004235 0.9995375642645771 -0.013042895158778902 0.9995375642645771 -0.013042895158778904 -0.00022740554977332975 -0.003336753661500428
0.004 -0.00031155255121529274 -0.004416305620681715 0.9993876441099571 -0.017357052696279518 0.9993876441099571 -0.017357052696279518 -0.00031155255121529264 -0.004416305620681712
0.005 -0.00040382084424967613 -0.005488136512992162 0.999222581295771 -0.021663208149713318 0.999222581295771 -0.021663208149713318 -0.00040382084424981485 -0.00548813651299216
0.006 -0.0005044318100286759 -0.006553585324899586 0.999041156339513 -0.025962691797748395 0.999041156339513 -0.02596269179774839 -0.0005044318100287866 -0.006553585324899579
0.007 -0.000613497924479376 -0.007613516324128055 0.9988426641960171 -0.03025635223606235 0.9988426641960171 -0.030256352236062344 -0.0006134979244794593 -0.007613516324128056
0.008 -0.0007310783980076665 -0.008668526087254148 0.9986266598410266 -0.034544766377321755 0.9986266598410266 -0.03454476637732175 -0.0007310783980076945 -0.008668526087254156
0.009 -0.0008572033107310105 -0.009719045175976238 0.9983928454519351 -0.038828342588392246 0.9983928454519351 -0.038828342588392246 -0.0008572033107310658 -0.009719045175976231
0.01 -0.0009918855135739703 -0.01076539404067226 0.9981410134642391 -0.04310737740342782 0.9981410134642391 -0.04310737740342782 -0.0009918855135739148 -0.010765394040672265
0.011 -0.001135127052592819 -0.011807816343820533 0.9978710150582998 -0.047382089335573536 0.9978710150582998 -0.04738208933557354 -0.0011351270525928744 -0.011807816343820533
0.012 -0.0012869228787931917 -0.012846500073249886 0.997582741469643 -0.051652640304017054 0.997582741469643 -0.051652640304017054 -0.001286922878793192 -0.012846500073249886
0.013 -0.0014472631050227015 -0.013881591574677745 0.9972761122884709 -0.055919149878393526 0.9972761122884709 -0.055919149878393526 -0.0014472631050227293 -0.013881591574677736
0.014 -0.0016161344369225836 -0.014913205245105195 0.9969510678089453 -0.06018170512098897 0.9969510678089453 -0.060181705120988964 -0.0016161344369226113 -0.014913205245105192
0.015 -0.0017935211110417315 -0.015941430445339667 0.9966075638442327 -0.06444036760722019 0.9966075638442327 -0.06444036760722019 -0.0017935211110415932 -0.015941430445339678
0.016 -0.001979405526937867 -0.016966336562914006 0.9962455681056535 -0.06869517856901936 0.9962455681056535 -0.06869517856901936 -0.0019794055269379504 -0.016966336562914
0.017 -0.0021737686828532305 -0.01798797680569606 0.9958650576088547 -0.07294616274980939 0.9958650576088547 -0.07294616274980938 -0.0021737686828531473 -0.017987976805696065
0.018 -0.0023765904817152433 -0.019006391100794127 0.9954660167744165 -0.07719333135113726 0.9954660167744165 -0.07719333135113728 -0.0023765904817151322 -0.01900639110079413
0.019 -0.002587849949455405 -0.02002160834803655 0.9950484360102423 -0.08143668432391614 0.9950484360102423 -0.08143668432391613 -0.0025878499494553786 -0.020021608348036558
0.02 -0.0028075253928127 -0.02103364819832356 0.9946123106355443 -0.0856762121771035 0.9946123106355443 -0.08567621217710349 -0.0028075253928125893 -0.021033648198323575
0.021 -0.0030355945146128198 -0.02204252247592344 0.9941576400519803 -0.08991189742467968 0.9941576400519803 -0.08991189742467966 -0.0030355945146127643 -0.02204252247592345
0.022 -0.0032720344987098183 -0.023048236329669028 0.9936844270965709 -0.09414371575716712 0.9936844270965709 -0.09414371575716714 -0.003272034498709929 -0.023048236329669014
0.023 -0.0035168220729862765 -0.02405078917479693 0.9931926775305847 -0.09837163700038652 0.9931926775305847 -0.09837163700038652 -0.0035168220729862756 -0.024050789174796933
0.024 -0.0037699335563041226 -0.02505017547102515 0.9926823996313707 -0.10259562590774605 0.9926823996313707 -0.10259562590774607 -0.003769933556304149 -0.025050175471025136
0.025 -0.004031344893596806 -0.02604638537104829 0.9921536038632597 -0.10681564282078236 0.9921536038632597 -0.10681564282078233 -0.00403134489359689 -0.026046385371048284
0.026 -0.004301031682121888 -0.027039405265413048 0.9916063026098436 -0.11103164422432743 0.9916063026098436 -0.11103164422432746 -0.004301031682121888 -0.02703940526541305
0.027 -0.004578969191079559 -0.028029218243730093 0.991040509954358 -0.11524358321657382 0.991040509954358 -0.11524358321657382 -0.004578969191079587 -0.028029218243730093
0.028 -0.004865132376224432 -0.029015804487744865 0.9904562414982183 -0.1194514099098169 0.9904562414982183 -0.1194514099098169 -0.004865132376224404 -0.02901580448774488
0.029 -0.005159495890678367 -0.029999141608451362 0.9898535142099749 -0.12365507177425286 0.9898535142099749 -0.12365507177425288 -0.0051594958906783705 -0.029999141608451366
0.03 -0.005462034092851277 -0.030979204936913963 0.9892323462988252 -0.12785451393466152 0.9892323462988252 -0.12785451393466152 -0.005462034092851306 -0.030979204936913956
0.031 -0.0057727210521615925 -0.031955967776523146 0.9885927571079949 -0.1320496794278251 0.9885927571079949 -0.1320496794278251 -0.005772721052161564 -0.03195596777652313
0.032 -0.006091530553074033 -0.03292940162291514 0.9879347670243877 -0.136240509427022 0.9879347670243877 -0.136240509427022 -0.0060915305530739525 -0.032929401622915175
0.033 -0.006418436097860455 -0.03389947635661682 0.9872583974015999 -0.14042694343874043 0.9872583974015999 -0.14042694343874043 -0.006418436097860538 -0.03389947635661681
0.034 -0.0067534109083886825 -0.03486616041255219 0.9865636704939845 -0.1446089194758208 0.9865636704939845 -0.14460891947582083 -0.0067534109083887935 -0.03486616041255219
0.035 -0.007096427927180177 -0.03582942092982116 0.9858506093999168 -0.1487863742104986 0.9858506093999168 -0.14878637421049856 -0.0070964279271802325 -0.03582942092982115
0.036 -0.0074474598179210235 -0.0367892238845695 0.9851192380127367 -0.15295924311021228 0.9851192380127367 -0.15295924311021228 -0.007447459817920972 -0.03678922388456952
0.037 -0.0078064789655726725 -0.037745534208304135 0.9843695809781461 -0.15712746055857596 0.9843695809781461 -0.15712746055857596 -0.0078064789655726205 -0.037745534208304156
0.038 -0.008173457476191812 -0.03869831589362193 0.9836016636570724 -0.16129095996352005 0.9836016636570724 -0.16129095996352005 -0.008173457476191921 -0.0386983158936219
0.039 -0.008548367176549058 -0.03964753208901016 0.9828155120931265 -0.16544967385428583 0.9828155120931265 -0.16544967385428583 -0.008548367176548947 -0.03964753208901017
0.04 -0.008931179613616447 -0.04059314518412213 0.9820111529840111 -0.16960353396870523 0.9820111529840111 -0.16960353396870523 -0.008931179613616417 -0.04059314518412213
0.041 -0.009321866053976613 -0.04153511688671744 0.9811886136562638 -0.1737524713319765 0.9811886136562638 -0.1737524713319765 -0.009321866053976585 -0.04153511688671745
0.042 -0.009720397483193406 -0.04247340829228737 0.9803479220428936 -0.17789641632797643 0.9803479220428936 -0.1778964163279764 -0.009720397483193598 -0.04247340829228735
0.043 -0.010126744605183237 -0.043407979947232896 0.9794891066634815 -0.18203529876399135 0.9794891066634815 -0.18203529876399135 -0.010126744605183185 -0.04340797994723292
0.044 -0.010540877841601841 -0.044338791906349345 0.9786121966064188 -0.18616904792963684 0.9786121966064188 -0.18616904792963684 -0.010540877841601813 -0.044338791906349345
0.045 -0.010962767331278654 -0.04526580378526081 0.9777172215129798 -0.19029759265061938 0.9777172215129798 -0.19029759265061938 -0.010962767331278708 -0.045265803785260794
0.046 -0.011392382929701666 -0.046188974808368026 0.9768042115630159 -0.1944208613379187 0.9768042115630159 -0.1944208613379187 -0.011392382929701697 -0.04618897480836804
0.047 -0.011829694208573417 -0.04710826385279514 0.9758731974620236 -0.19853878203288244 0.9758731974620236 -0.19853878203288244 -0.01182969420857344 -0.047108263852795144
0.048 -0.012274670455440397 -0.04802362948876217 0.9749242104294308 -0.20265128244866695 0.9749242104294308 -0.20265128244866695 -0.012274670455440236 -0.04802362948876221
0.049 -0.012727280673402275 -0.04893503001675331 0.9739572821879533 -0.20675829000840806 0.9739572821879533 -0.20675829000840806 -0.012727280673402331 -0.048935030016753284
0.05 -0.013187493580910481 -0.049842423501808064 0.9729724449538656 -0.21085973188044754 0.9729724449538656 -0.2108597318804476 -0.013187493580910505 -0.04984242350180805
0.051 -0.013655277611650625 -0.05074576780522252 0.9719697314281037 -0.21495553501091622 0.9719697314281037 -0.21495553501091622 -0.013655277611650574 -0.05074576780522254
0.052 -0.014130600914515493 -0.05164502061391242 0.9709491747880735 -0.21904562615392326 0.9709491747880735 -0.2190456261539232 -0.014130600914515469 -0.051645020613912455
0.053 -0.014613431353668382 -0.05254013946766298 0.9699108086800864 -0.22312993189958574 0.9699108086800864 -0.22312993189958583 -0.014613431353668544 -0.05254013946766294
0.054 -0.015103736508695304 -0.053431081784462674 0.9688546672123687 -0.22720837870010077 0.9688546672123687 -0.2272083787001008 -0.01510373650869531 -0.05343108178446269
0.055 -0.015601483674845977 -0.05431780488409942 0.9677807849485484 -0.23128089289403708 0.9677807849485484 -0.23128089289403708 -0.015601483674845837 -0.05431780488409943
0.056 -0.016106639863361392 -0.05520026601017259 0.9666891969015852 -0.23534740072900892 0.9666891969015852 -0.23534740072900892 -0.01610663986336144 -0.055200266010172534
0.057 -0.016619171801889158 -0.056078422350663765 0.9655799385280782 -0.239407828382873 0.9655799385280782 -0.239407828382873 -0.01661917180188921 -0.056078422350663744
0.058 -0.017139045934981816 -0.056952231057190925 0.9644530457229273 -0.24346210198358076 0.9644530457229273 -0.2434621019835808 -0.017139045934981736 -0.05695223105719095
0.059 -0.017666228424674944 -0.05782164926305658 0.9633085548142931 -0.24751014762779494 0.9633085548142931 -0.24751014762779494 -0.017666228424674867 -0.05782164926305662
0.06 -0.018200685151151207 -0.058686634100192675 0.9621465025588146 -0.2515518913983759 0.9621465025588146 -0.2515518913983759 -0.018200685151151183 -0.05868663410019271
0.061 -0.01874238171347431 -0.05954714271509211 0.9609669261370946 -0.25558725938083415 0.9609669261370946 -0.25558725938083415 -0.018742381713474175 -0.05954714271509215
0.062 -0.019291283430406172 -0.06040313228380862 0.9597698631493794 -0.2596161776788271 0.9597698631493794 -0.2596161776788271 -0.019291283430406272 -0.06040313228380856
0.063 -0.0198473553412915 -0.061254560026097214 0.9585553516114222 -0.26363857242877364 0.9585553516114222 -0.26363857242877364 -0.01984735534129163 -0.06125456002609717
0.064 -0.020410562207015443 -0.06210138321876593 0.957323429950546 -0.2676543698136667 0.957323429950546 -0.2676543698136667 -0.02041056220701544 -0.06210138321876591
0.065 -0.0209808685110313 -0.0629435592082935 0.9560741370018214 -0.27166349607612916 0.9560741370018214 -0.27166349607612916 -0.020980868511031227 -0.06294355920829352
0.066 -0.02155823846045226 -0.06378104542277223 0.9548075120044036 -0.2756658775307807 0.9548075120044036 -0.2756658775307807 -0.021558238460452225 -0.06378104542277224
0.067 -0.022142635987207962 -0.06461379938322673 0.9535235945979953 -0.2796614405759677 0.9535235945979953 -0.2796614405759677 -0.02214263598720812 -0.06461379938322667
0.068 -0.02273402474926518 -0.06544177871434614 0.9522224248193927 -0.28365011170488963 0.9522224248193927 -0.28365011170488963 -0.022734024749265183 -0.06544177871434617
0.069 -0.02333236813190621 -0.06626494115468118 0.9509040430991434 -0.28763181751617733 0.9509040430991434 -0.28763181751617733 -0.023332368131906183 -0.06626494115468115
0.07 -0.023937629249063962 -0.06708324456633674 0.9495684902582908 -0.2916064847239574 0.9495684902582908 -0.2916064847239574 -0.023937629249063966 -0.06708324456633676
0.071 -0.02454977094471856 -0.06789664694419696 0.9482158075051902 -0.29557404016743527 0.9482158075051902 -0.2955740401674353 -0.024549770944718562 -0.06789664694419698
0.072 -0.025168755794340403 -0.06870510642471374 0.9468460364323952 -0.29953441082003335 0.9468460364323952 -0.29953441082003335 -0.025168755794340403 -0.06870510642471374
0.073 -0.02579454610639198 -0.06950858129428791 0.9454592190136015 -0.3034875237981102 0.9454592190136015 -0.3034875237981102 -0.02579454610639177 -0.06950858129428797
0.074 -0.026427103923875792 -0.07030702999726843 0.9440553976006487 -0.30743330636928995 0.9440553976006487 -0.30743330636928995 -0.02642710392387576 -0.07030702999726841
0.075 -0.027066391025932713 -0.0711004111435961 0.9426346149205719 -0.3113716859604289 0.9426346149205719 -0.3113716859604289 -0.027066391025932786 -0.07110041114359605
0.076 -0.027712368929487276 -0.07188868351611138 0.9411969140726868 -0.31530259016523404 0.9411969140726868 -0.31530259016523404 -0.027712368929487193 -0.0718886835161114
0.077 -0.028364998890936487 -0.0726718060775479 0.9397423385257242 -0.31922594675156535 0.9397423385257238 -0.3192259467515652 -0.0283649988909364 -0.07267180607754795
0.078 -0.029024241907884142 -0.07344973797723253 0.9382709321149865 -0.3231416836684342 0.9382709321149865 -0.3231416836684342 -0.029024241907884288 -0.07344973797723245
0.079 -0.029690058720917192 -0.07422243855750557 0.936782739039543 -0.32704972905271606 0.936782739039543 -0.32704972905271606 -0.029690058720917286 -0.0742224385575055
0.08 -0.03036240981542107 -0.07498986735988174 0.9352778038594531 -0.3309500112356008 0.9352778038594531 -0.3309500112356008 -0.030362409815421102 -0.07498986735988174
0.081 -0.0310412554234361 -0.07575198413096164 0.9337561714929975 -0.33484245874878316 0.9337561714929975 -0.33484245874878316 -0.03104125542343613 -0.07575198413096164
0.082 -0.03172655552555087 -0.07650874882811301 0.9322178872139403 -0.3387270003304196 0.9322178872139403 -0.3387270003304196 -0.0317265555255509 -0.07650874882811298
0.083 -0.03241826985283263 -0.0772601216249298 0.9306629966488195 -0.3426035649308637 0.9306629966488195 -0.3426035649308637 -0.03241826985283268 -0.07726012162492979
0.084 -0.03311635788879168 -0.07800606291648438 0.9290915457742235 -0.34647208171817806 0.9290915457742235 -0.3464720817181781 -0.03311635788879183 -0.0780060629164844
0.085 -0.033820778871382434 -0.07874653332438197 0.927503580914113 -0.35033248008345735 0.927503580914113 -0.35033248008345735 -0.033820778871382504 -0.07874653332438193
0.086 -0.03453149179503361 -0.07948149370162712 0.9258991487371305 -0.3541846896459508 0.9258991487371305 -0.35418468964595073 -0.03453149179503358 -0.07948149370162717
0.087 -0.03524845541271401 -0.08021090513731348 0.9242782962539299 -0.3580286402580061 0.9242782962539299 -0.3580286402580061 -0.03524845541271391 -0.08021090513731347
0.088 -0.035971628238025376 -0.0809347289611447 0.9226410708145152 -0.36186426200984445 0.9226410708145152 -0.36186426200984445 -0.035971628238025355 -0.0809347289611447
0.089 -0.03670096854732762 -0.0816529267477943 0.9209875201055794 -0.3656914852341653 0.9209875201055794 -0.36569148523416534 -0.03670096854732766 -0.08165292674779427
0.09 -0.037436434381891724 -0.08236546032111249 0.9193176921478583 -0.3695102405106024 0.9193176921478583 -0.3695102405106024 -0.03743643438189171 -0.08236546032111246
0.091 -0.03817798355007691 -0.0830722917581879 0.9176316352934772 -0.37332045867002417 0.9176316352934772 -0.37332045867002417 -0.038177983550076934 -0.08307229175818791
0.092 -0.03892557362954086 -0.08377338339326942 0.9159293982233131 -0.37712207079869764 0.9159293982233131 -0.37712207079869764 -0.03892557362954081 -0.08377338339326944
0.093 -0.039679161969468274 -0.08446869782155496 0.9142110299443511 -0.3809150082423145 0.9142110299443511 -0.3809150082423145 -0.03967916196946823 -0.08446869782155501
0.094 -0.040438705692829424 -0.08515819790285396 0.9124765797870443 -0.3846992026098879 0.9124765797870443 -0.3846992026098879 -0.04043870569282919 -0.08515819790285405
0.095 -0.04120416169865988 -0.08584184676512785 0.9107260974026847 -0.3884745857775274 0.9107260974026848 -0.3884745857775273 -0.04120416169865986 -0.08584184676512786
0.096 -0.04197548666436335 -0.08651960780791351 0.9089596327607541 -0.39224108989209183 0.9089596327607541 -0.3922410898920918 -0.041975486664363376 -0.08651960780791348
0.097 -0.042752637048037674 -0.08719144470563472 0.9071772361462981 -0.3959986473747324 0.9071772361462981 -0.3959986473747324 -0.04275263704803764 -0.08719144470563472
0.098 -0.04353556909082034 -0.08785732141080899 0.9053789581572919 -0.3997471909243281 0.9053789581572919 -0.3997471909243281 -0.043535569090820174 -0.08785732141080906
0.099 -0.044324238819256505 -0.08851720215714558 0.9035648497019787 -0.40348665352080126 0.9035648497019787 -0.4034866535208012 -0.044324238819256505 -0.08851720215714555
0.1 -0.04511860204768446 -0.0891710514625515 0.9017349619962723 -0.4072169684283646 0.9017349619962723 -0.4072169684283646 -0.0451186020476844 -0.08917105146255148
0.101 -0.04591861438064183 -0.08981883413203694 0.8998893465610809 -0.4109380691986343 0.8998893465610809 -0.4109380691986343 -0.045918614380641785 -0.08981883413203699
0.102 -0.04672423121528903 -0.09046051526052966 0.8980280552196871 -0.4146498896736765 0.8980280552196871 -0.4146498896736765 -0.046724231215289035 -0.09046051526052967
0.103 -0.04753540774385131 -0.09109606023560335 0.8961511400950968 -0.418352363988954 0.8961511400950968 -0.418352363988954 -0.04753540774385136 -0.09109606023560338
0.104 -0.0483520989560767 -0.09172543474011649 0.8942586536073978 -0.42204542657618516 0.8942586536073978 -0.42204542657618516 -0.04835209895607682 -0.09172543474011645
0.105 -0.049174259641709635 -0.09234860475477258 0.8923506484711151 -0.4257290121661258 0.8923506484711151 -0.4257290121661258 -0.04917425964170966 -0.09234860475477255
0.106 -0.05000184439298107 -0.09296553656059639 0.8904271776925579 -0.42940305579126214 0.8904271776925579 -0.4294030557912621 -0.050001844392980985 -0.0929655365605965
0.107 -0.05083480760711432 -0.09357619674133806 0.8884882945671728 -0.43306749278843465 0.8884882945671728 -0.43306749278843465 -0.050834807607114306 -0.09357619674133805
0.108 -0.051673103488843054 -0.09418055218579552 0.8865340526768883 -0.43672225880137644 0.8865340526768883 -0.43672225880137644 -0.0516731034888432 -0.09418055218579549
0.109 -0.052516686052944885 -0.09477857009007191 0.8845645058874619 -0.44036728978318906 0.8845645058874619 -0.4403672897831891 -0.05251668605294496 -0.09477857009007189
0.11 -0.05336550912678656 -0.09537021795975739 0.8825797083458252 -0.44400252199874174 0.8825797083458252 -0.44400252199874174 -0.053365509126786545 -0.09537021795975736
0.111 -0.05421952635288294 -0.09595546361204443 0.8805797144774181 -0.4476278920270002 0.8805797144774181 -0.44762789202700015 -0.05421952635288281 -0.09595546361204439
0.112 -0.05507869119146751 -0.09653427517777717 0.8785645789835322 -0.4512433367632948 0.8785645789835322 -0.4512433367632948 -0.055078691191467424 -0.09653427517777718
0.113 -0.05594295692307382 -0.09710662110343618 0.8765343568386467 -0.45484879342151885 0.8765343568386467 -0.45484879342151885 -0.05594295692307381 -0.09710662110343615
0.114 -0.056812276651128625 -0.09767247015306046 0.8744891032877657 -0.45844419953626836 0.8744891032877657 -0.45844419953626836 -0.05681227665112863 -0.09767247015306048
0.115 -0.05768660330455545 -0.09823179141010815 0.872428873843743 -0.46202949296491674 0.872428873843743 -0.46202949296491674 -0.057686603304555474 -0.09823179141010809
