!Created with skrf (http://scikit-rf.org).
# GHz S RI R 50.0 
!freq ReS11 ImS11 ReS21 ImS21 ReS12 ImS12 ReS22 ImS22
0.001 -4.72905823114955e-05 -0.0011572862889507598 0.999814236696589 -0.004392494798141286 0.999814236696589 -0.004392494798141286 -4.7290582311634245e-05 -0.001157286288950759
0.002 -8.382975106228216e-05 -0.0022735000483243405 0.9996919049960838 -0.008743433880670823 0.9996919049960838 -0.008743433880670823 -8.382975106222667e-05 -0.0022735000483243405
0.003 -0.00012662672721225384 -0.003373938153385913 0.9995631392601761 -0.013078183839816382 0.9995631392601761 -0.013078183839816382 -0.0001266267272122816 -0.0033739381533859115
0.004 -0.00017710126828072303 -0.004463935828627889 0.9994215368101043 -0.017402084921510002 0.9994215368101043 -0.017402084921510002 -0.00017710126828072303 -0.004463935828627889
0.005 -0.00023575470474012581 -0.005545994535114394 0.9992646723564491 -0.02171762848140307 0.9992646723564491 -0.02171762848140307 -0.0002357547047400148 -0.005545994535114396
0.006 -0.00030281643241399325 -0.00662156167253044 0.9990913326290464 -0.02602624507121957 0.9990913326290464 -0.02602624507121957 -0.0003028164324139932 -0.006621561672530438
0.007 -0.0003784041596228903 -0.0076915721167271035 0.9989008171646684 -0.03032884899469119 0.9989008171646684 -0.03032884899469119 -0.0003784041596229457 -0.007691572116727101
0.008 -0.0004625809678959086 -0.00875667197485537 0.9986926843777574 -0.03462606346638252 0.9986926843777574 -0.03462606346638252 -0.00046258096789615817 -0.008756671974855364
0.009 -0.0005553800734697151 -0.009817328375319515 0.9984666390582546 -0.03891833115774 0.9984666390582546 -0.03891833115774 -0.000555380073469826 -0.00981732837531951
0.01 -0.0006568170397838421 -0.010873889789534387 0.9982224756378452 -0.0432059749678806 0.9982224756378452 -0.0432059749678806 -0.0006568170397837867 -0.010873889789534387
0.011 -0.0007668963702011479 -0.01192662196838316 0.9979600468202191 -0.04748923424612626 0.9979600468202191 -0.047489234246126256 -0.0007668963702011479 -0.011926621968383158
0.012 -0.0008856153146328823 -0.012975730700164114 0.9976792449928217 -0.05176828774217456 0.9976792449928217 -0.05176828774217456 -0.0008856153146328822 -0.012975730700164115
0.013 -0.001012966184696507 -0.014021376930054232 0.9973799906001872 -0.0560432688602415 0.9973799906001872 -0.0560432688602415 -0.0010129661846965347 -0.014021376930054234
0.014 -0.001148937820959571 -0.015063687200598199 0.9970622245484084 -0.06031427619716094 0.9970622245484084 -0.06031427619716094 -0.0011489378209595712 -0.015063687200598197
0.015 -0.0012935165542495633 -0.016102761094634526 0.9967259030623022 -0.06458138105805704 0.9967259030623022 -0.06458138105805702 -0.0012935165542494803 -0.016102761094634533
0.016 -0.001446686852849695 -0.01713867668514313 0.99637099409742 -0.06884463296169947 0.99637099409742 -0.06884463296169947 -0.00144668685284975 -0.017138676685143125
0.017 -0.0016084317681084699 -0.01817149461771795 0.995997474772213 -0.07310406376618597 0.995997474772213 -0.07310406376618597 -0.0016084317681085531 -0.018171494617717943
0.018 -0.0017787332469991692 -0.01920126122946729 0.9956053294896253 -0.07735969082206917 0.9956053294896253 -0.07735969082206917 -0.0017787332469991139 -0.019201261229467293
0.019 -0.001957572354755413 -0.0202280109729709 0.9951945485365301 -0.08161151942383565 0.9951945485365301 -0.08161151942383565 -0.0019575723547553855 -0.020228010972970896
0.02 -0.0021449294354631233 -0.02125176832877433 0.9947651270218559 -0.08585954474482999 0.9947651270218559 -0.08585954474482999 -0.0021449294354631233 -0.02125176832877434
0.021 -0.0023407842290845524 -0.022272549334671717 0.994317064059467 -0.09010375338503339 0.994317064059467 -0.09010375338503339 -0.002340784229084553 -0.02227254933467173
0.022 -0.0025451159574203072 -0.023290362823272556 0.9938503621310336 -0.09434412462404577 0.9938503621310336 -0.09434412462404576 -0.0025451159574203077 -0.023290362823272546
0.023 -0.002757903387620351 -0.024305211434326266 0.9933650265833319 -0.09858063144638156 0.9933650265833319 -0.09858063144638157 -0.002757903387620378 -0.024305211434326266
0.024 -0.002979124879290604 -0.025317092450892413 0.9928610652273273 -0.10281324138864838 0.9928610652273273 -0.10281324138864838 -0.002979124879290659 -0.025317092450892396
0.025 -0.0032087584194911583 -0.026325998496142897 0.9923384880153264 -0.10704191724576662 0.9923384880153264 -0.10704191724576662 -0.0032087584194910755 -0.026325998496142908
0.026 -0.0034467816487185965 -0.027331918118735136 0.9917973067786846 -0.11126661766445713 0.9917973067786846 -0.11126661766445713 -0.0034467816487186507 -0.027331918118735133
0.027 -0.003693171880135984 -0.028334836288232967 0.991237535012965 -0.11548729764570025 0.991237535012965 -0.11548729764570025 -0.0036931718801359844 -0.02833483628823297
0.028 -0.0039479061137088515 -0.029334734817270402 0.990659187700651 -0.11970390897304133 0.990659187700651 -0.11970390897304133 -0.003947906113708852 -0.029334734817270402
0.029 -0.004210961046489235 -0.03033159272356858 0.9900622811638262 -0.12391640057999768 0.9900622811638262 -0.12391640057999768 -0.00421096104648918 -0.03033159272356858
0.03 -0.004482313079975217 -0.03132538654219882 0.9894468329409801 -0.1281247188670782 0.9894468329409801 -0.1281247188670782 -0.004482313079975164 -0.031325386542198824
0.031 -0.004761938325241746 -0.03231609059640307 0.9888128616833594 -0.13232880797682015 0.9888128616833594 -0.13232880797682015 -0.004761938325241718 -0.032316090596403065
0.032 -0.005049812606389284 -0.03330367723366788 0.9881603870672536 -0.13652861003361788 0.9881603870672536 -0.13652861003361788 -0.005049812606389229 -0.0333036772336679
0.033 -0.005345911462705641 -0.034288117032496485 0.9874894297194211 -0.14072406535385548 0.9874894297194211 -0.14072406535385548 -0.005345911462705644 -0.0342881170324965
0.034 -0.005650210149861426 -0.035269378984325736 0.9868000111533243 -0.14491511263084192 0.9868000111533243 -0.14491511263084192 -0.0056502101498613734 -0.03526937898432576
0.035 -0.005962683640383906 -0.03624743065425115 0.9860921537143517 -0.14910168909825566 0.9860921537143517 -0.14910168909825566 -0.005962683640383908 -0.036247430654251164
0.036 -0.006283306623591829 -0.03722223832359554 0.9853658805325776 -0.1532837306751766 0.9853658805325776 -0.1532837306751766 -0.006283306623591883 -0.037222238323595516
0.037 -0.006612053505142473 -0.038193767116845904 0.9846212154818075 -0.1574611720952588 0.9846212154818075 -0.1574611720952588 -0.006612053505142527 -0.038193767116845904
0.038 -0.00694889840630085 -0.039161981115077626 0.9838581831439446 -0.16163394702219105 0.9838581831439446 -0.16163394702219105 -0.006948898406300851 -0.039161981115077626
0.039 -0.007293815163023249 -0.04012684345764618 0.9830768087778593 -0.1658019881532514 0.9830768087778593 -0.1658019881532514 -0.007293815163023276 -0.04012684345764616
0.04 -0.007646777324921874 -0.04108831643365339 0.9822771182920726 -0.16996522731247876 0.9822771182920726 -0.16996522731247876 -0.007646777324921984 -0.04108831643365336
0.041 -0.008007758154168097 -0.04204636156446899 0.9814591382207023 -0.17412359553476317 0.9814591382207023 -0.17412359553476317 -0.008007758154168206 -0.04204636156446896
0.042 -0.008376730624369192 -0.04300093967840134 0.9806228957022095 -0.17827702314196336 0.9806228957022095 -0.17827702314196336 -0.008376730624369244 -0.04300093967840132
0.043 -0.008753667419459961 -0.04395201097845101 0.9797684184605285 -0.1824254398119952 0.9797684184605285 -0.1824254398119952 -0.008753667419459878 -0.043952010978451014
0.044 -0.009138540932629063 -0.044899535103954225 0.9788957347882727 -0.18656877464171473 0.9788957347882727 -0.1865687746417147 -0.009138540932629067 -0.04489953510395422
0.045 -0.009531323265298241 -0.04584347118681111 0.9780048735317092 -0.19070695620429487 0.9780048735317092 -0.19070695620429487 -0.009531323265298264 -0.04584347118681109
0.046 -0.009931986226172472 -0.04678377790290118 0.977095864077299 -0.19483991260171274 0.977095864077299 -0.19483991260171277 -0.009931986226172496 -0.04678377790290117
0.047 -0.010340501330369666 -0.04772041351920779 0.9761687363395559 -0.1989675715128718 0.9761687363395559 -0.1989675715128718 -0.01034050133036964 -0.0477204135192078
0.048 -0.010756839798638479 -0.0486533359371108 0.9752235207500876 -0.2030898602378295 0.9752235207500876 -0.20308986023782943 -0.010756839798638482 -0.04865333593711081
0.049 -0.011180972556668974 -0.04958250273224314 0.9742602482476409 -0.2072067057385273 0.9742602482476409 -0.2072067057385273 -0.011180972556669057 -0.04958250273224311
0.05 -0.011612870234499544 -0.05050787119126672 0.9732789502690689 -0.2113180346763927 0.9732789502690689 -0.2113180346763927 -0.011612870234499518 -0.05050787119126672
0.051 -0.012052503166023687 -0.0514293983458681 0.9722796587410218 -0.2154237734471025 0.9722796587410218 -0.2154237734471025 -0.012052503166023631 -0.05142939834586811
0.052 -0.012499841388596982 -0.05234704100425345 0.9712624060723827 -0.21952384821281176 0.9712624060723827 -0.21952384821281176 -0.012499841388597038 -0.05234704100425344
0.053 -0.012954854642742021 -0.053260755780377485 0.9702272251472623 -0.2236181849320696 0.9702272251472623 -0.2236181849320696 -0.012954854642741969 -0.0532607557803775
0.054 -0.013417512371956522 -0.05417049912112064 0.9691741493185294 -0.2277067093876469 0.9691741493185294 -0.2277067093876469 -0.013417512371956496 -0.05417049912112063
0.055 -0.013887783722615638 -0.05507622733160587 0.9681032124018274 -0.2317893472124725 0.9681032124018274 -0.23178934721247252 -0.013887783722615746 -0.055076227331605845
0.056 -0.01436563754397346 -0.055977896598820576 0.9670144486699824 -0.23586602391384226 0.9670144486699824 -0.23586602391384226 -0.01436563754397351 -0.05597789659882057
0.057 -0.014851042388259305 -0.05687546301369365 0.9659078928477696 -0.23993666489605134 0.9659078928477696 -0.23993666489605134 -0.014851042388259302 -0.05687546301369363
0.058 -0.015343966510864759 -0.05776888259176635 0.9647835801070264 -0.24400119548159943 0.9647835801070264 -0.24400119548159946 -0.015343966510864846 -0.057768882591766345
0.059 -0.015844377870623802 -0.058658111292571896 0.9636415460620269 -0.24805954093107796 0.9636415460620269 -0.24805954093107796 -0.01584437787062383 -0.0586581112925719
0.06 -0.016352244130178436 -0.05954310503783514 0.962481826765108 -0.25211162646185153 0.962481826765108 -0.2521116264618515 -0.016352244130178488 -0.059543105037835095
0.061 -0.016867532656432538 -0.06042381972858869 0.9613044587025361 -0.25615737726564225 0.9613044587025361 -0.25615737726564225 -0.016867532656432458 -0.060423819728588714
0.062 -0.01739021052108465 -0.06130021126129473 0.9601094787905586 -0.26019671852509474 0.9601094787905586 -0.26019671852509474 -0.017390210521084658 -0.06130021126129474
0.063 -0.017920244501247292 -0.06217223554304656 0.9588969243716248 -0.26422957542940556 0.9588969243716247 -0.26422957542940556 -0.017920244501247296 -0.06217223554304655
0.064 -0.018457601080137172 -0.06303984850592878 0.9576668332107787 -0.26825587318909416 0.9576668332107787 -0.26825587318909416 -0.01845760108013706 -0.0630398485059288
0.065 -0.01900224644784704 -0.06390300612059457 0.9564192434921789 -0.27227553704997703 0.9564192434921789 -0.27227553704997703 -0.01900224644784712 -0.06390300612059457
0.066 -0.01955414650218874 -0.06476166440912073 0.9551541938157315 -0.276288492306402 0.9551541938157315 -0.27628849230640207 -0.019554146502188733 -0.06476166440912076
0.067 -0.020113266849604 -0.06561577945719792 0.9538717231938666 -0.2802946643138111 0.9538717231938666 -0.2802946643138111 -0.02011326684960403 -0.0656157794571979
0.068 -0.020679572806148256 -0.06646530742569506 0.9525718710483558 -0.2842939785006563 0.9525718710483558 -0.2842939785006563 -0.02067957280614826 -0.06646530742569508
0.069 -0.021253029398537408 -0.0673102045616541 0.9512546772072715 -0.2882863603797436 0.9512546772072715 -0.2882863603797436 -0.021253029398537463 -0.06731020456165411
0.07 -0.021833601365260528 -0.0681504272087452 0.9499201819019737 -0.29227173555901836 0.9499201819019737 -0.29227173555901836 -0.021833601365260528 -0.06815042720874523
0.071 -0.02242125315775276 -0.06898593181722557 0.9485684257641994 -0.2962500297518521 0.9485684257641995 -0.2962500297518521 -0.02242125315775273 -0.06898593181722561
0.072 -0.023015948941628533 -0.06981667495343279 0.9471994498231877 -0.30022116878684885 0.9471994498231877 -0.30022116878684885 -0.02301594894162849 -0.06981667495343283
0.073 -0.023617652597973094 -0.07064261330884422 0.9458132955028625 -0.3041850786172119 0.9458132955028625 -0.3041850786172119 -0.023617652597973042 -0.07064261330884422
0.074 -0.02422632772468902 -0.07146370370873147 0.9444100046190657 -0.3081416853296955 0.9444100046190657 -0.3081416853296955 -0.024226327724688954 -0.07146370370873145
0.075 -0.024841937637897445 -0.07227990312043411 0.9429896193768209 -0.312090915153172 0.9429896193768209 -0.312090915153172 -0.02484193763789744 -0.07227990312043414
0.076 -0.02546444537339 -0.07309116866127877 0.9415521823676358 -0.3160326944668314 0.9415521823676358 -0.3160326944668314 -0.02546444537339003 -0.07309116866127877
0.077 -0.0260938136881337 -0.07389745760616455 0.9400977365668375 -0.31996694980804674 0.9400977365668375 -0.31996694980804674 -0.026093813688133807 -0.07389745760616452
0.078 -0.026730005061821396 -0.07469872739483417 0.9386263253309316 -0.3238936078799163 0.9386263253309316 -0.3238936078799163 -0.026730005061821323 -0.07469872739483424
0.079 -0.027372981698470755 -0.07549493563885154 0.9371379923949772 -0.3278125955585051 0.9371379923949772 -0.3278125955585051 -0.027372981698470786 -0.07549493563885157
0.08 -0.028022705528071228 -0.07628604012829963 0.935632781869985 -0.3317238398998032 0.935632781869985 -0.3317238398998032 -0.028022705528071234 -0.07628604012829959
0.081 -0.028679138208269884 -0.0770719988382205 0.9341107382403405 -0.3356272681464223 0.9341107382403405 -0.3356272681464222 -0.028679138208269856 -0.07707199883822052
0.082 -0.029342241126104156 -0.07785276993480486 0.932571906361228 -0.3395228077340334 0.932571906361228 -0.3395228077340334 -0.029342241126104184 -0.07785276993480482
0.083 -0.03001197539977435 -0.07862831178135028 0.9310163314560665 -0.3434103862975732 0.9310163314560665 -0.34341038629757326 -0.030011975399774363 -0.07862831178135031
0.084 -0.030688301880455016 -0.07939858294399885 0.9294440591139594 -0.34728993167722044 0.9294440591139594 -0.34728993167722044 -0.030688301880455116 -0.07939858294399878
0.085 -0.03137118115414696 -0.08016354219726535 0.9278551352871551 -0.3511613719241653 0.9278551352871551 -0.3511613719241653 -0.03137118115414693 -0.08016354219726536
0.086 -0.0320605735435639 -0.08092314852936874 0.9262496062885011 -0.35502463530617256 0.9262496062885012 -0.35502463530617256 -0.0320605735435639 -0.08092314852936869
0.087 -0.03275643911005839 -0.08167736114737416 0.9246275187889094 -0.3588796503129563 0.9246275187889094 -0.3588796503129563 -0.03275643911005838 -0.08167736114737419
0.088 -0.0334587376555793 -0.08242613948215899 0.9229889198148276 -0.36272634566137235 0.9229889198148276 -0.3627263456613724 -0.03345873765557922 -0.08242613948215899
0.089 -0.03416742872466507 -0.08316944319320604 0.921333856745698 -0.36656465030043656 0.921333856745698 -0.36656465030043656 -0.03416742872466513 -0.08316944319320604
0.09 -0.03488247160647061 -0.08390723217323932 0.9196623773114363 -0.3703944934161835 0.9196623773114363 -0.3703944934161835 -0.034882471606470594 -0.08390723217323928
0.091 -0.03560382533682174 -0.08463946655270266 0.9179745295898921 -0.3742158044363634 0.9179745295898921 -0.3742158044363634 -0.035603825336821764 -0.08463946655270264
0.092 -0.03633144870030517 -0.08536610670409397 0.9162703620043128 -0.37802851303499224 0.9162703620043128 -0.37802851303499224 -0.036331448700305094 -0.08536610670409399
0.093 -0.037065300232385245 -0.08608711324615671 0.914549923320811 -0.38183254913676035 0.914549923320811 -0.3818325491367604 -0.037065300232385294 -0.0860871132461567
0.094 -0.03780533822154918 -0.08680244704794277 0.9128132626458322 -0.3856278429213089 0.9128132626458322 -0.3856278429213089 -0.03780533822154921 -0.08680244704794274
0.095 -0.03855152071148187 -0.0875120692327401 0.9110604294235943 -0.38941432482736354 0.9110604294235943 -0.38941432482736354 -0.0385515207114819 -0.08751206923274008
0.096 -0.03930380550326503 -0.08821594118188365 0.9092914734335494 -0.39319192555675614 0.9092914734335494 -0.39319192555675614 -0.039303805503265114 -0.08821594118188365
0.097 -0.0400621501576053 -0.0889140245384471 0.9075064447878388 -0.39696057607832785 0.9075064447878388 -0.3969605760783279 -0.040062150157605385 -0.08891402453844707
0.098 -0.04082651199708407 -0.08960628121082008 0.9057053939287244 -0.4007202076317056 0.9057053939287244 -0.4007202076317056 -0.04082651199708404 -0.0896062812108201
0.099 -0.041596848108434406 -0.09029267337617934 0.903888371626032 -0.4044707517309811 0.903888371626032 -0.4044707517309811 -0.04159684810843444 -0.09029267337617933
0.1 -0.04237311534484047 -0.09097316348385524 0.9020554289745882 -0.40821214016828 0.9020554289745882 -0.40821214016828 -0.04237311534484042 -0.09097316348385524
0.101 -0.043155270328258055 -0.09164771425859791 0.9002066173916404 -0.41194430501722845 0.9002066173916404 -0.41194430501722845 -0.04315527032825808 -0.0916477142585979
0.102 -0.043943269451759935 -0.09231628870374596 0.8983419886142829 -0.41566717863632247 0.8983419886142829 -0.41566717863632247 -0.04394326945176004 -0.09231628870374593
0.103 -0.04473706888190128 -0.09297885010430501 0.8964615946968664 -0.419380693672206 0.8964615946968664 -0.41938069367220604 -0.04473706888190132 -0.09297885010430498
0.104 -0.04553662456110328 -0.09363536202993375 0.8945654880084184 -0.42308478306285746 0.8945654880084184 -0.42308478306285746 -0.045536624561103314 -0.09363536202993378
0.105 -0.04634189221006003 -0.09428578833784541 0.8926537212300344 -0.4267793800406848 0.8926537212300344 -0.4267793800406848 -0.04634189221005998 -0.09428578833784546
0.106 -0.047152827330163676 -0.09493009317562405 0.8907263473522818 -0.4304644181355413 0.8907263473522818 -0.4304644181355413 -0.0471528273301635 -0.09493009317562408
0.107 -0.04796938520594543 -0.0955682409839619 0.8887834196725926 -0.43413983117766 0.8887834196725926 -0.43413983117766 -0.047969385205945445 -0.0955682409839619
0.108 -0.04879152090753841 -0.09620019649931495 0.8868249917926361 -0.43780555330050097 0.8868249917926361 -0.43780555330050097 -0.048791520907538445 -0.09620019649931494
0.109 -0.04961918929315407 -0.0968259247564881 0.8848511176157167 -0.4414615189435358 0.8848511176157168 -0.4414615189435357 -0.04961918929315407 -0.09682592475648807
0.11 -0.0504523450115773 -0.09744539109114145 0.8828618513441302 -0.44510766285494513 0.8828618513441302 -0.44510766285494513 -0.05045234501157724 -0.09744539109114149
0.111 -0.051290942504677424 -0.0980585611422279 0.880857247476537 -0.44874392009425135 0.880857247476537 -0.44874392009425135 -0.051290942504677424 -0.0980585611422279
0.112 -0.05213493600993317 -0.09866540085436148 0.8788373608053227 -0.4523702260348803 0.8788373608053227 -0.45237022603488025 -0.05213493600993317 -0.09866540085436154
0.113 -0.052984279562974385 -0.09926587648011773 0.876802246413953 -0.4559865163666557 0.876802246413953 -0.4559865163666557 -0.0529842795629744 -0.09926587648011775
0.114 -0.0538389270001359 -0.09985995458226958 0.8747519596743276 -0.45959272709822957 0.8747519596743276 -0.45959272709822946 -0.0538389270001359 -0.09985995458226957
0.115 -0.05469883196102701 -0.10044760203595682 0.8726865562441122 -0.4631887945594388 0.8726865562441122 -0.4631887945594388 -0.054698831961026956 -0.10044760203595682
0.116 -0.05556394789111318 -0.10102878603079786 0.870606092064089 -0.4667746554036167 0.870606092064089 -0.4667746554036167 -0.05556394789111307 -0.1010287860307979
