! Created with skrf (http://scikit-rf.org).
# GHz S RI R 50.0 
!freq ReS11 ImS11 ReS21 ImS21 ReS12 ImS12 ReS22 ImS22
0.01 -0.0009846773619378267 -0.008728875798728592 0.9976422016527615 -0.052699219733359295 0.9976422016527623 -0.052699219733321895 -0.0009846773619367126 -0.008728875798691289
0.02 -0.0027866193124517994 -0.01693717622679226 0.9927705268333675 -0.10477673776977428 0.992770526833371 -0.10477673776974762 -0.00278661931244783 -0.016937176226765847
0.03 -0.0054078429523463445 -0.024800787065706646 0.9851911113965596 -0.15633036411908902 0.9851911113965586 -0.15633036411908752 -0.005407842952346861 -0.02480078706570515
0.04 -0.008819122761726228 -0.03230794394521945 0.9749237209822749 -0.20726566707854097 0.9749237209822752 -0.20726566707853983 -0.008819122761723993 -0.032307943945218784
0.05 -0.012988768779856077 -0.0394224326567681 0.9620057195848698 -0.2574632271372205 0.9620057195848714 -0.2574632271372209 -0.012988768779858075 -0.03942243265676782
0.06 -0.017882452650637856 -0.046100703689060926 0.9464843298603124 -0.30679644149241364 0.9464843298603133 -0.30679644149240554 -0.017882452650636173 -0.046100703689053245
0.07 -0.023462989132631583 -0.05229718588301119 0.9284148280139684 -0.3551371952424437 0.9284148280139674 -0.3551371952424407 -0.023462989132629883 -0.05229718588300904
0.08 -0.029690271889662334 -0.057966579996871485 0.9078598502021642 -0.4023584140142072 0.9078598502021687 -0.40235841401419825 -0.029690271889660395 -0.057966579996862125
0.09 -0.03652131616743444 -0.06306506820833827 0.8848889884132708 -0.4483354922103039 0.8848889884132727 -0.44833549221030156 -0.03652131616743236 -0.06306506820833634
0.1 -0.04391037020634407 -0.06755104849392465 0.8595784685250227 -0.4929472257165527 0.8595784685250204 -0.49294722571655425 -0.04391037020634482 -0.06755104849392662
0.11 -0.05180907232730493 -0.07138562891388571 0.8320108464994703 -0.5360764921797342 0.8320108464994695 -0.5360764921797353 -0.051809072327306395 -0.07138562891388607
0.12 -0.0601666397449784 -0.07453298586543214 0.8022747007262426 -0.5776107865283501 0.8022747007262421 -0.5776107865283518 -0.060166639744981 -0.07453298586543242
0.13 -0.06893008030403068 -0.07696063721684665 0.7704643128412711 -0.6174426643112929 0.7704643128412699 -0.6174426643112961 -0.0689300803040331 -0.07696063721684873
0.14 -0.0780444212772287 -0.07863965720373152 0.7366793347364582 -0.6554701204771567 0.7366793347364562 -0.6554701204771596 -0.07804442127723163 -0.07863965720373252
0.15 -0.08745295110846117 -0.07954484817031522 0.7010244416503538 -0.6915969189420712 0.7010244416503447 -0.6915969189420788 -0.08745295110846685 -0.07954484817032245
0.16 -0.09709747105140132 -0.0796548780488142 0.6636089721445065 -0.7257328818569231 0.6636089721445041 -0.7257328818569252 -0.09709747105140334 -0.07965487804881576
0.17 -0.10691855433080301 -0.07895238904740992 0.6245465561650267 -0.7577941439276267 0.6245465561650257 -0.7577941439276277 -0.10691855433080558 -0.07895238904740899
0.18 -0.11685581089292199 -0.07742408104000006 0.5839547325583723 -0.7877033750960468 0.5839547325583723 -0.7877033750960493 -0.11685581089292287 -0.07742408104000069
0.19 -0.12684815610349534 -0.07506077196690213 0.5419545574819757 -0.8153899736750249 0.5419545574819765 -0.8153899736750234 -0.12684815610349456 -0.07506077196690224
0.2 -0.13683408194937097 -0.07185743682751608 0.4986702051786702 -0.8407902312948987 0.498670205178675 -0.8407902312948942 -0.136834081949368 -0.07185743682751375
0.21 -0.14675192943489532 -0.06781322638893979 0.45422856259455546 -0.8638474705688816 0.4542285625945545 -0.8638474705688818 -0.14675192943489523 -0.06781322638894142
0.22 -0.15654016095680182 -0.062931466444767 0.4087588193225974 -0.8845121561118694 0.40875881932259867 -0.8845121561118692 -0.15654016095680154 -0.062931466444765
0.23 -0.1661376315053516 -0.05721963827593616 0.36239205435533867 -0.9027419793872563 0.3623920543553389 -0.9027419793872533 -0.16613763150535044 -0.057219638275936235
0.24 -0.1754838575835544 -0.05068934085389463 0.31526082112887444 -0.9185019177715079 0.3152608211288753 -0.9185019177715085 -0.1754838575835539 -0.05068934085389404
0.25 -0.1845192827665178 -0.04335623526261934 0.2674987323383801 -0.9317642681922338 0.26749873233838234 -0.9317642681922337 -0.18451928276651697 -0.04335623526261944
0.26 -0.19318553884483494 -0.0352399717872681 0.2192400460018223 -0.9425086556965917 0.21924004600182107 -0.9425086556965918 -0.19318553884483555 -0.03523997178726871
0.27 -0.2014257015119166 -0.02636410011256844 0.17061925424142776 -0.9507220173342006 0.17061925424142668 -0.9507220173342025 -0.2014257015119176 -0.026364100112567776
0.28 -0.20918453956888866 -0.0167559630886472 0.12177067624234389 -0.9563985617839048 0.12177067624234342 -0.9563985617839058 -0.20918453956888988 -0.016755963088647706
0.29 -0.216408756633963 -0.006446574550599801 0.07282805683218169 -0.9595397052130805 0.07282805683218062 -0.9595397052130811 -0.21640875663396328 -0.006446574550600523
0.3 -0.22304722435783292 0.004529518282223469 0.02392417210391358 -0.9601539839274398 0.02392417210391043 -0.9601539839274404 -0.22304722435783417 0.004529518282222944
0.31 -0.2290512061645052 0.016134387252767335 -0.02480955652327295 -0.9582569444456241 -0.024809556523274157 -0.958256944445624 -0.22905120616450517 0.016134387252766932
0.32 -0.23437457055893576 0.028326889929438936 -0.07324343844601626 -0.9538710117142606 -0.07324343844601583 -0.9538710117142607 -0.23437457055893546 0.02832688992943907
0.33 -0.23897399307008788 0.04106284979691567 -0.12124987890574904 -0.9470253362632342 -0.12124987890574977 -0.9470253362632343 -0.23897399307008774 0.04106284979691604
0.34 -0.24280914593145111 0.054295249222862434 -0.1687037316405258 -0.9377556211861648 -0.1687037316405226 -0.9377556211861648 -0.2428091459314505 0.05429524922286267
0.35 -0.2458428746411221 0.06797443438412329 -0.21548263795530587 -0.9261039299155378 -0.21548263795530423 -0.9261039299155379 -0.2458428746411217 0.06797443438412276
0.36 -0.24804136059063106 0.08204833127119643 -0.2614673510756178 -0.9121184758444584 -0.2614673510756197 -0.9121184758444586 -0.24804136059063156 0.08204833127119651
0.37 -0.24937426900622547 0.09646267182591901 -0.3065420447263631 -0.8958533949257376 -0.30654204472636565 -0.8958533949257377 -0.24937426900622572 0.09646267182591887
0.38 -0.24981488150798614 0.1111612292057714 -0.35059460496312383 -0.8773685024529593 -0.3505946049631247 -0.8773685024529594 -0.24981488150798664 0.11116122920577051
0.39 -0.24934021266121978 0.12608606111030254 -0.3935169043763762 -0.8567290352958231 -0.3935169043763761 -0.8567290352958218 -0.24934021266121983 0.12608606111030188
0.4 -0.24793110997015308 0.1411777600518863 -0.4352050578892235 -0.8340053809224607 -0.43520505788921915 -0.834005380922462 -0.24793110997015366 0.14117776005188704
0.41 -0.24557233684619786 0.15637570940554885 -0.47555965947569834 -0.809272794593313 -0.4755596594756974 -0.809272794593314 -0.24557233684619884 0.15637570940554854
0.42 -0.24225263817081105 0.1716183440318221 -0.5144859992385494 -0.7826111061539065 -0.5144859992385497 -0.782611106153906 -0.24225263817081136 0.1716183440318215
0.43 -0.23796478816565778 0.18684341423341763 -0.5518942604016203 -0.7541044178863744 -0.5518942604016208 -0.7541044178863734 -0.23796478816565708 0.18684341423341744
0.44 -0.23270562037970213 0.20198825178157187 -0.5876996958913148 -0.7238407949016439 -0.5876996958913143 -0.7238407949016425 -0.2327056203797024 0.20198825178157126
0.45 -0.22647603970261826 0.21699003673189848 -0.6218227843031104 -0.6919119495647703 -0.6218227843031108 -0.6919119495647702 -0.22647603970261854 0.2169900367318985
0.46 -0.21928101641593462 0.23178606374286914 -0.6541893651711406 -0.6584129214455258 -0.6541893651711413 -0.6584129214455249 -0.21928101641593437 0.23178606374286875
0.47 -0.21112956239610228 0.24631400661292158 -0.6847307535807164 -0.6234417542737477 -0.6847307535807172 -0.6234417542737476 -0.2111295623961023 0.24631400661292127
0.48 -0.20203468968650778 0.2605121797646889 -0.7133838342830364 -0.5870991713557502 -0.7133838342830362 -0.5870991713557508 -0.20203468968650803 0.26051217976468893
0.49 -0.1920133517567052 0.27431979542724744 -0.7400911355883901 -0.5494882508724792 -0.7400911355883898 -0.5494882508724802 -0.1920133517567055 0.27431979542724827
0.5 -0.1810863678663166 0.28767721529891493 -0.7648008834260623 -0.5107141024347192 -0.7648008834260629 -0.5107141024347194 -0.18108636786631604 0.2876772152989145
0.51 -0.169278331046451 0.300526195514161 -0.7874670360659212 -0.47088354621399 -0.7874670360659205 -0.4708835462139882 -0.16927833104645051 0.3005261955141597
0.52 -0.15661750030267893 0.3128101237878292 -0.8080493000966308 -0.4301047959019808 -0.8080493000966311 -0.43010479590198114 -0.15661750030267987 0.3128101237878284
0.53 -0.14313567772923708 0.3244742476676202 -0.8265131283475555 -0.38848714667660816 -0.8265131283475546 -0.38848714667660894 -0.14313567772923666 0.3244742476676206
0.54 -0.12886807130354977 0.3354658928911409 -0.8428297005251137 -0.3461406692697263 -0.8428297005251137 -0.34614066926972625 -0.12886807130355035 0.33546589289114026
0.55 -0.11385314420276114 0.34573467091549964 -0.856975887408499 -0.3031759111423489 -0.8569758874085002 -0.3031759111423498 -0.11385314420276181 0.3457346709154997
0.56 -0.09813245154871916 0.3552326747653171 -0.8689341995138377 -0.2597036056773747 -0.8689341995138375 -0.2597036056773748 -0.09813245154872029 0.3552326747653183
0.57 -0.08175046554481512 0.36391466242737225 -0.8786927211894916 -0.21583439020003886 -0.8786927211894934 -0.21583439020003856 -0.08175046554481588 0.36391466242737164
0.58 -0.06475439001642323 0.3717382271066089 -0.8862450311479618 -0.17167853353290088 -0.886245031147961 -0.17167853353289955 -0.06475439001642262 0.37173822710660825
0.59 -0.04719396540640245 0.3786639537475568 -0.8915901104714622 -0.12734567368646263 -0.891590110471463 -0.1273456736864624 -0.047193965406402874 0.3786639537475568
0.6 -0.029121265308088735 0.3846555613165178 -0.8947322391487744 -0.08294456618021584 -0.8947322391487739 -0.08294456618021528 -0.02912126530808922 0.38465556131651796
0.61 -0.010590485640339277 0.3896800304320934 -0.895680882210469 -0.03858284338261592 -0.8956808822104705 -0.038582843382616444 -0.010590485640338598 0.3896800304320937
0.62 0.008342272417295737 0.3937077160239563 -0.8944505665282175 0.005633214846163803 -0.8944505665282156 0.005633214846164386 0.008342272417296667 0.3937077160239557
0.63 0.027619224606038783 0.3967124447911537 -0.8910607493321496 0.04959889902687302 -0.8910607493321502 0.04959889902687263 0.027619224606040108 0.3967124447911535
0.64 0.04718112976584275 0.3986715973210714 -0.8855356794784748 0.09321127636595415 -0.8855356794784743 0.09321127636595522 0.04718112976584209 0.3986715973210706
0.65 0.06696751890013444 0.39956617481734563 -0.8779042524684534 0.13636938550261382 -0.8779042524684524 0.13636938550261496 0.0669675189001359 0.3995661748173446
0.66 0.08691692603564813 0.3993808504693164 -0.8681998601800287 0.17897441979684164 -0.8681998601800275 0.17897441979684295 0.08691692603564771 0.3993808504693164
0.67 0.10696711980982174 0.3981040055760116 -0.8564602362257149 0.2209298993385748 -0.8564602362257149 0.2209298993385751 0.10696711980982301 0.39810400557601056
0.68 0.12705533474880631 0.39572775061379434 -0.842727297795595 0.2621418319330009 -0.8427272977955949 0.2621418319330003 0.1270553347488066 0.39572775061379556
0.69 0.14711850123483364 0.39224793150854986 -0.8270469847832562 0.30251886338413403 -0.827046984783257 0.3025188633841337 0.14711850123483353 0.3922479315085491
0.7 0.167093473202221 0.38766412143958084 -0.8094690969264714 0.34197241745757073 -0.8094690969264725 0.3419724174575724 0.16709347320222012 0.3876641214395809
0.71 0.18691725264586276 0.38197959856403063 -0.7900471296237952 0.38041682595387805 -0.7900471296237954 0.3804168259538771 0.18691725264586273 0.3819795985640337
0.72 0.20652721007412372 0.37520131010647084 -0.7688381090146302 0.41776944936563576 -0.7688381090146311 0.4177694493656353 0.20652721007412445 0.37520131010647206
0.73 0.22586130008878227 0.36733982330882775 -0.7459024268341973 0.4539507886239996 -0.745902426834197 0.4539507886239994 0.22586130008878255 0.3673398233088271
0.74 0.24485827132778712 0.35840926378113175 -0.721303675477375 0.48888458846429506 -0.7213036754773741 0.4888845884642935 0.2448582713277879 0.3584092637811315
0.75 0.263457870061087 0.348427241833012 -0.6951084836277036 0.5224979329551076 -0.6951084836277042 0.5224979329551092 0.2634578700610862 0.34842724183301194
0.76 0.28160103678565646 0.33741476740064696 -0.6673863527303899 0.5547213337413999 -0.667386352730389 0.5547213337413995 0.28160103678565623 0.3374147674006477
0.77 0.29923009522213123 0.32539615421310475 -0.6382094945123703 0.58548881154969 -0.6382094945123712 0.5854888115496907 0.2992300952221314 0.3253961542131053
0.78 0.3162889331720307 0.3123989138666693 -0.6076526696788624 0.6147379714927608 -0.6076526696788619 0.6147379714927588 0.3162889331720306 0.31239891386667124
0.79 0.33272317475095436 0.29845364049564554 -0.5757930278451828 0.642410072692717 -0.5757930278451825 0.6424100726927171 0.33272317475095486 0.29845364049564677
0.8 0.34848034356897856 0.2835938867437062 -0.5427099486959372 0.6684500927154224 -0.542709948695937 0.6684500927154229 0.34848034356897833 0.28359388674370645
0.81 0.3635100164846726 0.2678560317513904 -0.5084848843012291 0.6928067872764627 -0.508484884301229 0.6928067872764625 0.36351001648467246 0.26785603175139033
0.82 0.3777639676132482 0.2512791418829591 -0.4732012024624063 0.7154327456397764 -0.47320120246240505 0.7154327456397763 0.3777639676132468 0.2512791418829588
0.83 0.39119630232238534 0.23390482491995804 -0.4369440309081801 0.7362844420852525 -0.4369440309081785 0.7362844420852521 0.39119630232238534 0.23390482491995812
0.84 0.40376358100101917 0.2157770784497155 -0.3998001021166204 0.7553222837717111 -0.39980010211662 0.7553222837717107 0.40376358100101906 0.21577707844971575
0.85 0.41542493243674 0.19694213317467535 -0.36185759849945565 0.7725106552675824 -0.36185759849945576 0.7725106552675828 0.41542493243673984 0.1969421331746758
0.86 0.4261421566864088 0.1774482918634923 -0.3232059976533258 0.7878179599635902 -0.3232059976533257 0.7878179599635895 0.42614215668640854 0.17744829186349176
0.87 0.4358798173721644 0.15734576465698624 -0.2839359173576887 0.8012166585210819 -0.28393591735768864 0.8012166585210823 0.4358798173721645 0.1573457646569859
0.88 0.44460532338092285 0.13668650143191843 -0.244138959981903 0.8126833044466119 -0.2441389599819027 0.8126833044466124 0.44460532338092246 0.1366865014319187
0.89 0.4522889999902376 0.11552402191285684 -0.20390755595407836 0.8221985768190789 -0.20390755595407675 0.8221985768190794 0.45228899999023703 0.1155240219128566
0.9 0.45890414948630454 0.09391324420759542 -0.1633348059423526 0.8297473101306737 -0.16333480594235394 0.8297473101306755 0.45890414948630404 0.09391324420759588
0.91 0.4644271013817083 0.07191031242447649 -0.12251432140471316 0.8353185211380815 -0.12251432140471302 0.8353185211380821 0.46442710138170795 0.07191031242447622
0.92 0.4688372523805545 0.049572424010733196 -0.08154006317674437 0.838905432556402 -0.08154006317674481 0.8389054325564009 0.4688372523805544 0.0495724240107329
0.93 0.4721170962773136 0.026957657429609032 -0.04050617778742491 0.840505493365951 -0.040506177787424685 0.8405054933659515 0.47211709627731413 0.026957657429609636
0.94 0.4742522440127667 0.004124800770492702 0.0004931687789070105 0.8401203954423117 0.0004931687789059835 0.8401203954423109 0.47425224401276744 0.004124800770492718
0.95 0.4752314341458462 -0.01886681813936456 0.041363960121179155 0.8377560861631274 0.04136396012117868 0.8377560861631278 0.4752314341458461 -0.018866818139363774
0.96 0.475046534033841 -0.041957499580697735 0.0820125014656424 0.8334227765924509 0.0820125014656431 0.8334227765924515 0.4750465340338411 -0.0419574995806979
0.97 0.4736925320452144 -0.06508733723487965 0.1223455948720483 0.8271349447949349 0.12234559487204764 0.8271349447949345 0.47369253204521455 -0.06508733723487992
0.98 0.4711675211589652 -0.08819638044461278 0.16227071770440743 0.8189113337891689 0.1622707177044067 0.8189113337891688 0.47116752115896604 -0.08819638044461278
0.99 0.46747267433194106 -0.11122479299823347 0.20169620440920527 0.8087749436119985 0.2016962044092049 0.8087749436119984 0.4674726743319416 -0.11122479299823299
1.0 0.46261221204047676 -0.1341130080295935 0.24053143157957427 0.7967530169347031 0.2405314315795736 0.7967530169347039 0.46261221204047626 -0.1341130080295937
1.01 0.45659336242492515 -0.1568018786638184 0.2786870062151027 0.7828770176478639 0.27868700621510323 0.7828770176478642 0.4565933624249251 -0.15680187866381862
1.02 0.44942631448487436 -0.17923282407964414 0.31607495701483096 0.7671826018148759 0.31607495701483124 0.767182601814876 0.4494263144848744 -0.1792328240796441
1.03 0.44112416478875044 -0.20134797070106977 0.3526089284657258 0.7497095803851942 0.3526089284657252 0.7497095803851934 0.4411241647887506 -0.2013479707010696
1.04 0.43170285817375315 -0.22309028827474112 0.3882043774118068 0.7305018730573607 0.38820437741180597 0.730501873057361 0.4317028581737532 -0.2230902882747417
1.05 0.4211811229205654 -0.24440372063434904 0.42277877171044564 0.7096074526894728 0.42277877171044576 0.7096074526894725 0.42118112292056575 -0.24440372063434948
1.06 0.40958040089139564 -0.26523331099928005 0.4562517905034694 0.6870782796706418 0.45625179050346953 0.6870782796706418 0.40958040089139525 -0.26523331099927994
1.07 0.396924773119781 -0.2855253217011693 0.4885455255519642 0.6629702256918741 0.48854552555196495 0.662970225691875 0.39692477311978097 -0.2855253217011693
1.08 0.3832408813357121 -0.3052273482786212 0.5195846830063411 0.6373429863882208 0.5195846830063409 0.6373429863882211 0.38324088133571294 -0.30522734827862175
1.09 0.3685578458998344 -0.32428842792662554 0.549296784908007 0.6102599823662292 0.549296784908007 0.6102599823662311 0.3685578458998345 -0.3242884279266256
1.1 0.3529071806059338 -0.3426591423324914 0.5776123696467498 0.5817882481816077 0.5776123696467491 0.5817882481816075 0.3529071806059338 -0.34265914233249156
1.11 0.33632270479108406 -0.36029171497397433 0.6044651905296967 0.5519983088910538 0.6044651905296967 0.5519983088910546 0.33632270479108406 -0.36029171497397455
1.12 0.3188404531681924 -0.3771401029969261 0.6297924115542265 0.5209640438695814 0.6297924115542266 0.520964043869582 0.31884045316819165 -0.3771401029969264
1.13 0.30049858376603117 -0.39316008382865303 0.653534799419389 0.4887625376595619 0.6535347994193881 0.4887625376595616 0.3004985837660311 -0.3931600838286524
1.14 0.28133728432754007 -0.40830933671859077 0.6756369107591498 0.4554739176999415 0.6756369107591506 0.45547391769994217 0.28133728432754007 -0.40830933671859093
1.15 0.26139867747847134 -0.42254751942909574 0.6960472735366894 0.42118117887299134 0.6960472735366903 0.4211811788729929 0.26139867747847045 -0.4225475194290955
1.16 0.2407267249357296 -0.43583634032554086 0.7147185615031126 0.3859699949008607 0.7147185615031122 0.38596999490085954 0.2407267249357301 -0.435836340325542
1.17 0.21936713097866617 -0.4481396261358871 0.7316077605966858 0.3499285167245736 0.7316077605966855 0.34992851672457337 0.21936713097866622 -0.44813962613588754
1.18 0.19736724535744987 -0.45942338566475294 0.7466763261410359 0.3131471581028954 0.7466763261410364 0.31314715810289584 0.19736724535744896 -0.45942338566475266
1.19 0.17477596576163806 -0.4696558697553931 0.7598903296928793 0.27571836877706957 0.7598903296928802 0.27571836877707034 0.17477596576163787 -0.4696558697553932
1.2 0.15164363991953933 -0.47880762779434227 0.7712205943926799 0.2377363956587243 0.7712205943926806 0.23773639565872398 0.15164363991953855 -0.47880762779434227
