!Created with skrf (http://scikit-rf.org).
# GHz S RI R 50.0 
!freq ReS11 ImS11 ReS21 ImS21 ReS12 ImS12 ReS22 ImS22
0.001 -4.672631289240978e-05 -0.0011438969138017603 0.9998147272616449 -0.0043791051669921765 0.9998147272616449 -0.0043791051669921765 -4.672631289240976e-05 -0.0011438969138017608
0.002 -8.290848783169088e-05 -0.002249413654103157 0.9996926671101047 -0.008719346332221219 0.9996926671101047 -0.008719346332221219 -8.29084878316909e-05 -0.0022494136541031566
0.003 -0.00012529140393574854 -0.0033401738589718807 0.9995642341989546 -0.0130444168224185 0.9995642341989546 -0.0130444168224185 -0.0001252914039357208 -0.003340173858971883
0.004 -0.00017528295586539597 -0.004421157546425001 0.9994230370665519 -0.017359301648780356 0.9994230370665519 -0.017359301648780356 -0.00017528295586547916 -0.004421157546425
0.005 -0.0002333830597552106 -0.005494697811930785 0.9992666512713018 -0.021666323771163745 0.9992666512713018 -0.021666323771163745 -0.00023338305975512734 -0.0054946978119307845
0.006 -0.000299822141759486 -0.006562143137062074 0.9990938620947329 -0.025966814792276353 0.9990938620947329 -0.025966814792276353 -0.00029982214175951373 -0.006562143137062072
0.007 -0.00037471965726112766 -0.007624363227608712 0.9989039670141446 -0.030261623814811494 0.9989039670141446 -0.030261623814811494 -0.0003747196572611832 -0.00762436322760871
0.008 -0.0004581406272183144 -0.008681958025672015 0.9986965222646019 -0.03455132785756485 0.9986965222646019 -0.03455132785756485 -0.0004581406272183143 -0.008681958025672011
0.009 -0.0005501202140678909 -0.009735360268927585 0.9984712305008596 -0.03883633517097258 0.9984712305008596 -0.03883633517097258 -0.0005501202140678629 -0.009735360268927585
0.01 -0.0006506758651576693 -0.010784891841322536 0.9982278841187284 -0.043116942036939804 0.9982278841187284 -0.043116942036939804 -0.0006506758651578355 -0.01078489184132253
0.011 -0.0007598138814897585 -0.011830797344760472 0.9979663338999802 -0.047393366626657475 0.9979663338999802 -0.047393366626657475 -0.0007598138814898418 -0.011830797344760467
0.012 -0.0008775332189815009 -0.012873265360084936 0.9976864704230091 -0.051665770453837946 0.9976864704230091 -0.051665770453837946 -0.0008775332189815837 -0.01287326536008493
0.013 -0.0010038278060692494 -0.013912442572427521 0.9973882124291614 -0.05593427263475611 0.9973882124291614 -0.05593427263475611 -0.0010038278060691662 -0.013912442572427528
0.014 -0.0011386880165258982 -0.014948443525514174 0.9970714992182704 -0.06019895974016817 0.9970714992182704 -0.06019895974016816 -0.0011386880165259257 -0.014948443525514174
0.015 -0.0012821016373696747 -0.01598135757563194 0.9967362854967519 -0.06445989282202289 0.9967362854967519 -0.06445989282202287 -0.0012821016373697576 -0.015981357575631933
0.016 -0.001434054522719439 -0.01701125398361553 0.9963825377810537 -0.06871711256094909 0.9963825377810537 -0.06871711256094909 -0.0014340545227194664 -0.017011253983615523
0.017 -0.0015945310457072081 -0.018038185729378917 0.9960102318220582 -0.07297064312398886 0.9960102318220582 -0.07297064312398886 -0.001594531045707264 -0.01803818572937892
0.018 -0.0017635144168309117 -0.01906219242622322 0.9956193507197151 -0.07722049511312111 0.9956193507197151 -0.07722049511312111 -0.0017635144168310223 -0.019062192426223205
0.019 -0.0019409869118182036 -0.02008330258587937 0.995209883516338 -0.08146666785781631 0.995209883516338 -0.08146666785781631 -0.0019409869118182034 -0.020083302585879367
0.02 -0.002126930036903389 -0.021101535405698004 0.994781824129297 -0.08570915122464476 0.994781824129297 -0.08570915122464476 -0.002126930036903333 -0.021101535405698015
0.021 -0.002321324650038044 -0.02211690219780364 0.9943351705291081 -0.0899479270649158 0.9943351705291081 -0.08994792706491579 -0.0023213246500380993 -0.02211690219780364
0.022 -0.0025241510505789946 -0.02312940754569386 0.9938699240980726 -0.09418297038668144 0.9938699240980726 -0.09418297038668143 -0.0025241510505789396 -0.02312940754569387
0.023 -0.002735389046126883 -0.024139050250387428 0.9933860891238266 -0.09841425031384456 0.9933860891238266 -0.09841425031384457 -0.0027353890461269113 -0.02413905025038743
0.024 -0.0029550180026027546 -0.02514582411198305 0.9928836723951093 -0.10264173087871656 0.9928836723951093 -0.10264173087871657 -0.0029550180026027273 -0.025145824111983045
0.025 -0.0031830168818982006 -0.026149718580998516 0.9923626828759656 -0.1068653716827639 0.9923626828759656 -0.10686537168276387 -0.0031830168818983116 -0.02614971858099851
0.026 -0.0034193642702379664 -0.027150719305593 0.9918231314408132 -0.11108512845193497 0.9918231314408132 -0.11108512845193497 -0.003419364270238104 -0.027150719305592992
0.027 -0.0036640383995461354 -0.028148808594738704 0.9912650306572526 -0.11530095350686104 0.9912650306572526 -0.11530095350686104 -0.003664038399546081 -0.02814880859473872
0.028 -0.0039170171635040715 -0.0291439658129408 0.9906883946066568 -0.11951279616370838 0.9906883946066568 -0.11951279616370838 -0.003917017163504264 -0.02914396581294077
0.029 -0.004178278129570248 -0.030136167718755456 0.9900932387349781 -0.12372060307808035 0.9900932387349781 -0.12372060307808035 -0.004178278129570275 -0.030136167718755453
0.03 -0.004447798547905483 -0.031125388756815357 0.989479579727812 -0.12792431854178798 0.989479579727812 -0.12792431854178798 -0.004447798547905566 -0.031125388756815336
0.031 -0.004725555357929669 -0.03211160131112899 0.9888474354052124 -0.13212388474036035 0.9888474354052124 -0.13212388474036035 -0.00472555535792967 -0.03211160131112899
0.032 -0.005011525193058227 -0.03309477592591206 0.9881968246325856 -0.13631924197762305 0.9881968246325856 -0.13631924197762307 -0.005011525193058117 -0.0330947759259121
0.033 -0.005305684384039127 -0.03407488149903527 0.9875277672448302 -0.1405103288724996 0.9875277672448302 -0.1405103288724996 -0.005305684384039102 -0.03407488149903528
0.034 -0.005608008961222992 -0.03505188545224491 0.9868402839814073 -0.14469708253224214 0.9868402839814073 -0.14469708253224214 -0.005608008961222994 -0.03505188545224492
0.035 -0.005918474656014775 -0.03602575388158096 0.9861343964305229 -0.14887943870556533 0.9861343964305229 -0.14887943870556533 -0.005918474656014885 -0.03602575388158097
0.036 -0.006237056901705518 -0.036996451690825397 0.9854101269808996 -0.1530573319185494 0.9854101269808996 -0.1530573319185494 -0.006237056901705654 -0.036996451690825376
0.037 -0.006563730833842113 -0.037963942710343125 0.9846674987799507 -0.15723069559571243 0.9846674987799507 -0.15723069559571243 -0.006563730833842111 -0.03796394271034311
0.038 -0.006898471290253484 -0.0389281898032938 0.9839065356973246 -0.16139946216825263 0.9839065356973246 -0.16139946216825263 -0.0068984712902535154 -0.038928189803293815
0.039 -0.007241252810828835 -0.03988915496087861 0.9831272622930293 -0.1655635631711523 0.9831272622930293 -0.1655635631711523 -0.007241252810828778 -0.03988915496087861
0.04 -0.007592049637125145 -0.040846799388029986 0.9823297037894286 -0.1697229293305684 0.9823297037894286 -0.1697229293305684 -0.007592049637125175 -0.040846799388029986
0.041 -0.00795083571185951 -0.041801083580741694 0.9815138860465474 -0.17387749064272567 0.9815138860465474 -0.17387749064272567 -0.007950835711859483 -0.04180108358074169
0.042 -0.008317584678336352 -0.04275196739606056 0.980679835540238 -0.17802717644535074 0.980679835540238 -0.17802717644535074 -0.008317584678336433 -0.04275196739606054
0.043 -0.00869226987984433 -0.04369941011561255 0.9798275793427622 -0.182171915482529 0.9798275793427622 -0.182171915482529 -0.008692269879844387 -0.04369941011561257
0.044 -0.009074864359050866 -0.044643370503418954 0.978957145105493 -0.18631163596375486 0.978957145105493 -0.18631163596375486 -0.009074864359050812 -0.04464337050341898
0.045 -0.009465340857418427 -0.04558380685864901 0.9780685610434331 -0.1904462656178297 0.9780685610434331 -0.1904462656178297 -0.009465340857418342 -0.045583806858649004
0.046 -0.009863671814659995 -0.04652067706387406 0.9771618559213049 -0.19457573174218326 0.9771618559213049 -0.19457573174218326 -0.009863671814660023 -0.046520677063874055
0.047 -0.010269829368243728 -0.04745393862931103 0.9762370590410198 -0.198699961248111 0.9762370590410198 -0.19869996124811098 -0.010269829368243697 -0.047453938629311035
0.048 -0.010683785352961989 -0.04838354873348298 0.9752942002303362 -0.2028188807023653 0.9752942002303362 -0.20281888070236526 -0.010683785352961985 -0.04838354873348297
0.049 -0.011105511300567838 -0.049309464260668685 0.9743333098325663 -0.20693241636547674 0.9743333098325663 -0.2069324163654767 -0.01110551130056795 -0.04930946426066867
0.05 -0.011534978439487826 -0.05023164183546837 0.9733544186971997 -0.21104049422713902 0.9733544186971997 -0.21104049422713902 -0.011534978439487687 -0.050231641835468396
0.051 -0.011972157694611138 -0.051150037854774795 0.9723575581713075 -0.21514304003894835 0.9723575581713075 -0.21514304003894835 -0.011972157694611135 -0.05115003785477476
0.052 -0.012417019687164285 -0.05206460851740177 0.9713427600916767 -0.2192399793447584 0.9713427600916767 -0.2192399793447584 -0.012417019687164306 -0.05206460851740173
0.053 -0.012869534734663849 -0.052975309851596396 0.9703100567775531 -0.2233312375088795 0.9703100567775531 -0.22333123750887945 -0.012869534734663794 -0.0529753098515964
0.054 -0.013329672850955147 -0.053882097740631726 0.9692594810239179 -0.2274167397423171 0.9692594810239179 -0.2274167397423171 -0.013329672850955179 -0.05388209774063175
0.055 -0.013797403746334735 -0.05478492794665933 0.9681910660952713 -0.23149641112724229 0.9681910660952713 -0.23149641112724229 -0.013797403746334733 -0.05478492794665932
0.056 -0.014272696827754745 -0.05568375613297555 0.9671048457198086 -0.2355701766398379 0.9671048457198086 -0.2355701766398379 -0.014272696827754745 -0.05568375613297554
0.057 -0.014755521199109863 -0.05657853788484635 0.9660008540840134 -0.23963796117168318 0.9660008540840134 -0.23963796117168318 -0.014755521199109787 -0.05657853788484638
0.058 -0.01524584566160489 -0.057469228729011425 0.9648791258275389 -0.24369968954978166 0.9648791258275389 -0.24369968954978166 -0.015245845661604843 -0.05746922872901144
0.059 -0.015743638714201886 -0.05835578415198497 0.9637396960384242 -0.24775528655537044 0.9637396960384242 -0.24775528655537044 -0.015743638714201993 -0.058355784151984946
0.06 -0.016248868554145344 -0.05923815961725008 0.9625826002485577 -0.2518046769415966 0.9625826002485577 -0.2518046769415966 -0.01624886855414529 -0.059238159617250104
0.061 -0.01676150307756275 -0.060116310581439826 0.9614078744293609 -0.2558477854501577 0.9614078744293609 -0.2558477854501577 -0.016761503077562696 -0.06011631058143983
0.062 -0.01728150988013923 -0.06099019250958622 0.9602155549877035 -0.2598845368269965 0.9602155549877035 -0.2598845368269965 -0.017281509880139205 -0.06099019250958623
0.063 -0.0178088562578654 -0.06185976088951159 0.959005678761981 -0.2639148558371143 0.959005678761981 -0.2639148558371144 -0.017808856257865296 -0.06185976088951164
0.064 -0.0183435092078544 -0.06272497124542772 0.9577782830183735 -0.26793866727858184 0.9577782830183735 -0.26793866727858184 -0.01834350920785432 -0.06272497124542775
0.065 -0.018885435429227014 -0.06358577915080536 0.9565334054472343 -0.2719558959957991 0.9565334054472343 -0.2719558959957991 -0.01888543542922695 -0.06358577915080535
0.066 -0.01943460132406508 -0.06444214024056617 0.9552710841596181 -0.27596646689206944 0.9552710841596181 -0.27596646689206944 -0.01943460132406516 -0.06444214024056617
0.067 -0.01999097299842642 -0.06529401022265115 0.9539913576839243 -0.2799703049415326 0.9539913576839243 -0.2799703049415326 -0.01999097299842639 -0.06529401022265116
0.068 -0.020554516263423347 -0.06614134488900619 0.9526942649626349 -0.2839673352005048 0.9526942649626349 -0.2839673352005049 -0.020554516263423347 -0.06614134488900622
0.069 -0.021125196636363704 -0.06698410012602819 0.9513798453491451 -0.2879574828182667 0.9513798453491451 -0.2879574828182667 -0.0211251966363637 -0.06698410012602818
0.07 -0.02170297934194688 -0.06782223192451169 0.9500481386046877 -0.2919406730473442 0.9500481386046877 -0.2919406730473443 -0.021702979341946933 -0.06782223192451169
0.071 -0.02228782931351947 -0.06865569638912616 0.9486991848953097 -0.2959168312533061 0.9486991848953097 -0.2959168312533061 -0.0222878293135195 -0.06865569638912616
0.072 -0.022879711194384967 -0.06948444974745796 0.9473330247889197 -0.29988588292411944 0.9473330247889197 -0.29988588292411944 -0.02287971119438495 -0.06948444974745799
0.073 -0.023478589339166862 -0.07030844835864643 0.9459496992523957 -0.3038477536790903 0.9459496992523957 -0.3038477536790903 -0.023478589339166783 -0.07030844835864647
0.074 -0.0240844278152234 -0.07112764872163907 0.9445492496487464 -0.3078023692774167 0.9445492496487464 -0.3078023692774167 -0.024084427815223457 -0.07112764872163904
0.075 -0.024697190404112026 -0.07194200748308897 0.943131717734286 -0.3117496556263712 0.943131717734286 -0.3117496556263712 -0.02469719040411203 -0.07194200748308902
0.076 -0.02531684060310463 -0.07275148144492131 0.9416971456558958 -0.3156895387891545 0.9416971456558958 -0.3156895387891545 -0.025316840603104553 -0.07275148144492134
0.077 -0.025943341626745095 -0.07355602757158497 0.9402455759482778 -0.3196219449924184 0.9402455759482778 -0.3196219449924184 -0.025943341626745057 -0.07355602757158503
0.078 -0.02657665640845709 -0.0743556029970094 0.9387770515312548 -0.32354680063349334 0.9387770515312548 -0.32354680063349334 -0.026576656408457123 -0.0743556029970094
0.079 -0.02721674760219301 -0.07515016503128548 0.9372916157070991 -0.32746403228733395 0.9372916157070991 -0.32746403228733395 -0.02721674760219301 -0.07515016503128548
0.08 -0.027863577584126713 -0.07593967116708608 0.935789312157873 -0.3313735667131958 0.935789312157873 -0.3313735667131958 -0.027863577584126654 -0.0759396711670861
0.081 -0.028517108454387017 -0.07672407908583873 0.9342701849427933 -0.3352753308610624 0.9342701849427933 -0.3352753308610624 -0.028517108454387076 -0.07672407908583871
0.082 -0.029177302038832505 -0.07750334666366833 0.9327342784956144 -0.33916925187783653 0.9327342784956144 -0.33916925187783653 -0.02917730203883255 -0.07750334666366832
0.083 -0.029844119890861626 -0.07827743197712012 0.9311816376220204 -0.34305525711330637 0.9311816376220204 -0.34305525711330637 -0.02984411989086163 -0.07827743197712003
0.084 -0.030517523293265864 -0.07904629330867374 0.9296123074970349 -0.34693327412590147 0.9296123074970349 -0.34693327412590147 -0.030517523293265857 -0.07904629330867383
0.085 -0.031197473260113556 -0.07980988915206173 0.9280263336624213 -0.35080323068824326 0.9280263336624213 -0.3508032306882432 -0.03119747326011347 -0.07980988915206169
0.086 -0.0318839305386735 -0.08056817821740231 0.9264237620241265 -0.3546650547925171 0.9264237620241265 -0.3546650547925171 -0.031883930538673576 -0.08056817821740227
0.087 -0.032576855611369214 -0.08132111943615387 0.9248046388496878 -0.3585186746556482 0.9248046388496878 -0.3585186746556482 -0.032576855611369214 -0.08132111943615385
0.088 -0.03327620869776907 -0.08206867196590205 0.9231690107656795 -0.3623640187243208 0.9231690107656795 -0.3623640187243208 -0.03327620869776913 -0.08206867196590205
0.089 -0.03398194975660643 -0.08281079519498721 0.9215169247551415 -0.36620101567982555 0.9215169247551415 -0.36620101567982555 -0.033981949756606386 -0.0828107951949872
0.09 -0.03469403848783169 -0.08354744874697834 0.9198484281550172 -0.3700295944427546 0.9198484281550172 -0.3700295944427546 -0.034694038487831584 -0.08354744874697835
0.091 -0.03541243433469511 -0.08427859248500286 0.9181635686535914 -0.3738496841775489 0.9181635686535914 -0.3738496841775488 -0.03541243433469512 -0.08427859248500288
0.092 -0.03613709648585656 -0.08500418651593789 0.9164623942879302 -0.3776612142969048 0.9164623942879302 -0.3776612142969048 -0.036137096485856474 -0.08500418651593789
0.093 -0.036867983877526454 -0.08572419119446878 0.9147449534413179 -0.3814641144660469 0.9147449534413179 -0.3814641144660469 -0.036867983877526406 -0.0857241911944688
0.094 -0.03760505519563128 -0.08643856712702068 0.9130112948406903 -0.3852583146068683 0.9130112948406903 -0.3852583146068683 -0.03760505519563117 -0.0864385671270207
0.095 -0.038348268878007574 -0.08714727517556804 0.9112614675540623 -0.3890437449019491 0.9112614675540623 -0.3890437449019491 -0.03834826887800761 -0.08714727517556804
0.096 -0.03909758311662053 -0.08785027646133323 0.9094955209879769 -0.3928203357984666 0.9094955209879769 -0.3928203357984666 -0.0390975831166205 -0.08785027646133323
0.097 -0.03985295585980791 -0.08854753236836511 0.9077135048849096 -0.39658801801197346 0.9077135048849096 -0.39658801801197346 -0.03985295585980792 -0.08854753236836507
0.098 -0.04061434481454763 -0.08923900454701882 0.9059154693207058 -0.4003467225300851 0.9059154693207058 -0.4003467225300851 -0.040614344814547544 -0.08923900454701882
0.099 -0.04138170744874842 -0.08992465491732826 0.9041014647019987 -0.404096380616055 0.9041014647019987 -0.404096380616055 -0.0413817074487485 -0.08992465491732822
0.1 -0.042155000993564826 -0.09060444567228092 0.902271541763618 -0.4078369238122486 0.902271541763618 -0.4078369238122486 -0.042155000993564826 -0.0906044456722809
0.101 -0.042934182445730926 -0.09127833928099764 0.9004257515660027 -0.41156828394352346 0.9004257515660029 -0.41156828394352335 -0.04293418244573087 -0.09127833928099766
0.102 -0.04371920856991832 -0.0919462984918215 0.898564145492612 -0.41529039312051946 0.898564145492612 -0.41529039312051946 -0.043719208569918296 -0.0919462984918215
0.103 -0.04451003590111238 -0.09260828633531608 0.896686775247312 -0.41900318374285045 0.8966867752473121 -0.41900318374285045 -0.04451003590111238 -0.09260828633531608
0.104 -0.04530662074700949 -0.09326426612718121 0.8947936928517859 -0.4227065885022221 0.8947936928517859 -0.42270658850222204 -0.04530662074700945 -0.09326426612718124
0.105 -0.04610891919043219 -0.09391420147108456 0.8928849506429114 -0.4264005403854552 0.8928849506429114 -0.4264005403854552 -0.04610891919043224 -0.09391420147108455
0.106 -0.046916887091764795 -0.09455805626141295 0.8909606012701515 -0.43008497267743523 0.8909606012701515 -0.43008497267743523 -0.04691688709176472 -0.09455805626141298
0.107 -0.04773048009140421 -0.09519579468594767 0.889020697692929 -0.43375981896397914 0.889020697692929 -0.43375981896397925 -0.04773048009140422 -0.0951957946859477
0.108 -0.04854965361223036 -0.09582738122846543 0.887065293178 -0.4374250131346338 0.887065293178 -0.4374250131346338 -0.048549653612230396 -0.09582738122846542
0.109 -0.04937436286209178 -0.09645278067126534 0.8850944412968262 -0.4410804893853932 0.8850944412968262 -0.4410804893853932 -0.049374362862091827 -0.09645278067126531
0.11 -0.050204562836308086 -0.09707195809762537 0.8831081959229232 -0.44472618222134835 0.8831081959229232 -0.44472618222134835 -0.050204562836307934 -0.09707195809762545
0.111 -0.05104020832018744 -0.09768487889419433 0.8811066112292375 -0.4483620264592742 0.8811066112292375 -0.4483620264592742 -0.051040208320187394 -0.09768487889419433
0.112 -0.051881253891559495 -0.09829150875331139 0.8790897416854807 -0.4519879572301391 0.8790897416854807 -0.4519879572301391 -0.051881253891559495 -0.09829150875331137
0.113 -0.052727653923321946 -0.09889181367526562 0.8770576420554788 -0.4556039099815549 0.8770576420554788 -0.4556039099815549 -0.052727653923321884 -0.09889181367526564
0.114 -0.05357936258600178 -0.09948575997049267 0.8750103673945198 -0.45920982048016823 0.8750103673945198 -0.45920982048016823 -0.05357936258600177 -0.09948575997049264
0.115 -0.054436333850328436 -0.10007331426170699 0.8729479730466819 -0.462805624813982 0.8729479730466819 -0.46280562481398213 -0.05443633385032831 -0.10007331426170703
0.116 -0.055298521489823615 -0.10065444348597692 0.8708705146421614 -0.46639125939462106 0.8708705146421614 -0.46639125939462106 -0.05529852148982363 -0.1006544434859769
