!Created with skrf (http://scikit-rf.org).
# Hz S RI R 50.0 
!freq ReS11 ImS11 ReS21 ImS21 ReS12 ImS12 ReS22 ImS22
1000000.0 -0.6821942925453186 0.01206644531339407 -6.235204637050629e-06 9.213574230670929e-06 0.0 0.0 0.0 0.0
2000000.0 -0.6820019483566284 0.02427070587873459 -7.398426532745361e-06 7.253140211105347e-06 0.0 0.0 0.0 0.0
3000000.0 -0.6802194118499756 0.03717499226331711 1.3959594070911407e-05 7.865950465202332e-06 0.0 0.0 0.0 0.0
4000000.0 -0.6801830530166626 0.05016947537660599 1.5636906027793884e-05 1.68532133102417e-05 0.0 0.0 0.0 0.0
5000000.0 -0.6789596676826477 0.06336066126823425 1.5447847545146942e-05 -4.0558166801929474e-05 0.0 0.0 0.0 0.0
6000000.0 -0.677994430065155 0.07638231664896011 -1.8863007426261902e-05 3.0943192541599274e-05 0.0 0.0 0.0 0.0
7000000.0 -0.6765356063842773 0.0892798975110054 7.836148142814636e-06 -2.4845823645591736e-05 0.0 0.0 0.0 0.0
8000000.0 -0.6743882894515991 0.10180357843637466 -4.7711655497550964e-05 1.5245750546455383e-06 0.0 0.0 0.0 0.0
9000000.0 -0.6726809144020081 0.11434075236320496 1.0369345545768738e-05 1.394655555486679e-05 0.0 0.0 0.0 0.0
10000000.0 -0.6711640954017639 0.1265050619840622 -4.0129758417606354e-05 3.135204315185547e-05 0.0 0.0 0.0 0.0
11000000.0 -0.6686150431632996 0.13935300707817078 2.5666318833827972e-05 4.149880260229111e-05 0.0 0.0 0.0 0.0
12000000.0 -0.6663071513175964 0.15172232687473297 -3.3760443329811096e-06 -4.793237894773483e-05 0.0 0.0 0.0 0.0
13000000.0 -0.6639893054962158 0.1640428602695465 2.903863787651062e-05 -1.2861564755439758e-06 0.0 0.0 0.0 0.0
14000000.0 -0.6613500714302063 0.1765228807926178 5.560927093029022e-06 1.8746592104434967e-05 0.0 0.0 0.0 0.0
15000000.0 -0.6583986878395081 0.18802927434444427 3.27136367559433e-05 3.3727847039699554e-05 0.0 0.0 0.0 0.0
16000000.0 -0.6559109091758728 0.20094610750675201 -2.5779008865356445e-05 -3.969762474298477e-05 0.0 0.0 0.0 0.0
17000000.0 -0.6528351902961731 0.21316476166248322 -2.4121254682540894e-05 1.943390816450119e-05 0.0 0.0 0.0 0.0
18000000.0 -0.6501525044441223 0.2250874638557434 -3.0873343348503113e-06 1.6810372471809387e-06 0.0 0.0 0.0 0.0
19000000.0 -0.6464382410049438 0.2390259951353073 8.896924555301666e-06 1.7916783690452576e-05 0.0 0.0 0.0 0.0
20000000.0 -0.6429914832115173 0.2506658434867859 5.364418029785156e-06 -4.618801176548004e-05 0.0 0.0 0.0 0.0
21000000.0 -0.6396328806877136 0.26277467608451843 -1.50362029671669e-05 1.6065314412117004e-06 0.0 0.0 0.0 0.0
22000000.0 -0.6357083916664124 0.27549025416374207 1.017749309539795e-05 -6.994232535362244e-07 0.0 0.0 0.0 0.0
23000000.0 -0.6313678026199341 0.28658580780029297 -1.0030344128608704e-05 -1.6016885638237e-05 0.0 0.0 0.0 0.0
24000000.0 -0.6273780465126038 0.2992585003376007 -1.208670437335968e-05 -2.4633482098579407e-05 0.0 0.0 0.0 0.0
25000000.0 -0.6228359341621399 0.31200775504112244 1.0950490832328796e-05 1.0648742318153381e-05 0.0 0.0 0.0 0.0
26000000.0 -0.6181880831718445 0.3247371017932892 -1.530442386865616e-05 -1.2062489986419678e-05 0.0 0.0 0.0 0.0
27000000.0 -0.6134328842163086 0.33584699034690857 -1.9747763872146606e-05 -4.019495099782944e-05 0.0 0.0 0.0 0.0
28000000.0 -0.6087486147880554 0.3488152027130127 -6.859190762042999e-06 4.330649971961975e-06 0.0 0.0 0.0 0.0
29000000.0 -0.6033743619918823 0.35947728157043457 2.413056790828705e-06 -2.3453496396541595e-05 0.0 0.0 0.0 0.0
30000000.0 -0.5982746481895447 0.3722321689128876 1.4612451195716858e-05 -4.4002197682857513e-05 0.0 0.0 0.0 0.0
31000000.0 -0.5928376913070679 0.38521403074264526 -2.8596259653568268e-05 1.7508864402770996e-07 0.0 0.0 0.0 0.0
32000000.0 -0.5867347717285156 0.3971911072731018 4.469882696866989e-05 -1.957174390554428e-05 0.0 0.0 0.0 0.0
33000000.0 -0.5811285376548767 0.40866872668266296 1.941155642271042e-05 -3.7550926208496094e-06 0.0 0.0 0.0 0.0
34000000.0 -0.5748388171195984 0.42111894488334656 2.311449497938156e-05 -1.3636425137519836e-05 0.0 0.0 0.0 0.0
35000000.0 -0.5682046413421631 0.4327447712421417 -4.2409636080265045e-05 -1.3700686395168304e-05 0.0 0.0 0.0 0.0
36000000.0 -0.5620529651641846 0.445080041885376 4.696659743785858e-06 3.276858478784561e-05 0.0 0.0 0.0 0.0
37000000.0 -0.555255115032196 0.456564337015152 3.824010491371155e-06 1.1381693184375763e-05 0.0 0.0 0.0 0.0
38000000.0 -0.5477151274681091 0.4682973325252533 2.5949440896511078e-05 -3.555230796337128e-05 0.0 0.0 0.0 0.0
39000000.0 -0.5405939221382141 0.48117926716804504 -6.8712979555130005e-06 -1.0192394256591797e-05 0.0 0.0 0.0 0.0
40000000.0 -0.5333622694015503 0.4923383891582489 1.2032687664031982e-06 -1.5973113477230072e-05 0.0 0.0 0.0 0.0
41000000.0 -0.5254715085029602 0.504755437374115 1.5856698155403137e-05 -4.24971804022789e-05 0.0 0.0 0.0 0.0
42000000.0 -0.5175804495811462 0.5161440372467041 -2.7662143111228943e-05 -3.5179778933525085e-05 0.0 0.0 0.0 0.0
43000000.0 -0.5092874765396118 0.5277459621429443 1.6475096344947815e-05 -1.4547258615493774e-05 0.0 0.0 0.0 0.0
44000000.0 -0.501005232334137 0.5398442149162292 4.1814520955085754e-05 1.706928014755249e-05 0.0 0.0 0.0 0.0
45000000.0 -0.49222391843795776 0.5515264868736267 1.62515789270401e-05 2.5015324354171753e-06 0.0 0.0 0.0 0.0
46000000.0 -0.48278674483299255 0.5622942447662354 -4.611164331436157e-05 5.211681127548218e-06 0.0 0.0 0.0 0.0
47000000.0 -0.4740009903907776 0.5740569829940796 -1.7686747014522552e-05 2.913735806941986e-05 0.0 0.0 0.0 0.0
48000000.0 -0.4641938805580139 0.5846365690231323 -2.8135254979133606e-06 1.198798418045044e-05 0.0 0.0 0.0 0.0
49000000.0 -0.4552948772907257 0.5963274836540222 8.053146302700043e-06 4.909466952085495e-05 0.0 0.0 0.0 0.0
50000000.0 -0.445139080286026 0.6077078580856323 4.864297807216644e-06 -2.164579927921295e-05 0.0 0.0 0.0 0.0
51000000.0 -0.43460604548454285 0.618434488773346 -2.2077001631259918e-05 -2.660788595676422e-06 0.0 0.0 0.0 0.0
52000000.0 -0.42372071743011475 0.629210889339447 -1.9947998225688934e-05 2.4877488613128662e-05 0.0 0.0 0.0 0.0
53000000.0 -0.4132390022277832 0.6401820182800293 -1.9120052456855774e-05 -1.162756234407425e-05 0.0 0.0 0.0 0.0
54000000.0 -0.4019473195075989 0.6515260934829712 4.1105784475803375e-05 2.1641142666339874e-05 0.0 0.0 0.0 0.0
55000000.0 -0.3911284804344177 0.6612840294837952 2.572033554315567e-05 -2.7785077691078186e-05 0.0 0.0 0.0 0.0
56000000.0 -0.3794519603252411 0.672953188419342 -3.594346344470978e-05 -5.783513188362122e-06 0.0 0.0 0.0 0.0
57000000.0 -0.3681568503379822 0.6822109222412109 2.5566667318344116e-05 3.1208619475364685e-05 0.0 0.0 0.0 0.0
58000000.0 -0.35542571544647217 0.6923497915267944 3.4994445741176605e-05 -9.834766387939453e-06 0.0 0.0 0.0 0.0
59000000.0 -0.34270864725112915 0.7022120952606201 8.843839168548584e-06 1.0464340448379517e-05 0.0 0.0 0.0 0.0
60000000.0 -0.33010798692703247 0.7124533653259277 -2.9354356229305267e-05 -5.59687614440918e-05 0.0 0.0 0.0 0.0
61000000.0 -0.31715822219848633 0.722018301486969 3.454834222793579e-05 -1.7297454178333282e-05 0.0 0.0 0.0 0.0
62000000.0 -0.3037954866886139 0.7308297157287598 -1.7080456018447876e-05 5.959533154964447e-06 0.0 0.0 0.0 0.0
63000000.0 -0.2899864614009857 0.7415647506713867 -9.52836126089096e-06 -2.8613954782485962e-05 0.0 0.0 0.0 0.0
64000000.0 -0.276721715927124 0.7495379447937012 -3.846362233161926e-06 -1.4133751392364502e-05 0.0 0.0 0.0 0.0
65000000.0 -0.262176513671875 0.7582710385322571 -1.070462167263031e-05 -1.2266449630260468e-05 0.0 0.0 0.0 0.0
66000000.0 -0.24776555597782135 0.7673017382621765 1.597777009010315e-05 -4.3138861656188965e-06 0.0 0.0 0.0 0.0
67000000.0 -0.23304906487464905 0.7754128575325012 2.6470981538295746e-05 -5.8741308748722076e-05 0.0 0.0 0.0 0.0
68000000.0 -0.21775859594345093 0.7841689586639404 7.984228432178497e-06 -2.2265128791332245e-05 0.0 0.0 0.0 0.0
69000000.0 -0.20273332297801971 0.7925990223884583 3.6885030567646027e-05 1.9352883100509644e-06 0.0 0.0 0.0 0.0
70000000.0 -0.18712709844112396 0.7990198135375977 -2.9637478291988373e-05 -4.586111754179001e-05 0.0 0.0 0.0 0.0
71000000.0 -0.17121680080890656 0.8070096969604492 -3.254041075706482e-06 2.8847716748714447e-05 0.0 0.0 0.0 0.0
72000000.0 -0.15487773716449738 0.8136785626411438 -8.244998753070831e-06 1.7218291759490967e-05 0.0 0.0 0.0 0.0
73000000.0 -0.13882720470428467 0.8217452168464661 -3.096088767051697e-05 -2.632569521665573e-05 0.0 0.0 0.0 0.0
74000000.0 -0.12138939648866653 0.8273073434829712 -1.4035031199455261e-06 -1.445971429347992e-05 0.0 0.0 0.0 0.0
75000000.0 -0.10468563437461853 0.8338183164596558 -1.8865801393985748e-05 -2.110656350851059e-05 0.0 0.0 0.0 0.0
76000000.0 -0.08745849132537842 0.8398764729499817 1.2135133147239685e-06 3.459397703409195e-05 0.0 0.0 0.0 0.0
77000000.0 -0.06966967135667801 0.8452575206756592 -1.101754605770111e-06 -1.9368715584278107e-05 0.0 0.0 0.0 0.0
78000000.0 -0.05175212770700455 0.8504728674888611 2.317875623703003e-05 8.24127346277237e-06 0.0 0.0 0.0 0.0
79000000.0 -0.034817926585674286 0.8551986217498779 -3.044120967388153e-05 2.9449351131916046e-05 0.0 0.0 0.0 0.0
80000000.0 -0.015524173155426979 0.8594761490821838 3.421027213335037e-05 -4.8425979912281036e-05 0.0 0.0 0.0 0.0
81000000.0 0.0019631627947092056 0.8630804419517517 2.090446650981903e-05 2.0442530512809753e-06 0.0 0.0 0.0 0.0
82000000.0 0.02129136584699154 0.8667564392089844 3.03611159324646e-06 -1.709815114736557e-05 0.0 0.0 0.0 0.0
83000000.0 0.039551135152578354 0.8698278069496155 2.0703300833702087e-06 8.538365364074707e-06 0.0 0.0 0.0 0.0
84000000.0 0.05932514742016792 0.8724609613418579 2.924073487520218e-05 -7.6266005635261536e-06 0.0 0.0 0.0 0.0
85000000.0 0.07837985455989838 0.8753045201301575 1.5408731997013092e-05 -1.8386170268058777e-05 0.0 0.0 0.0 0.0
86000000.0 0.0981365218758583 0.8762550950050354 -2.1877698600292206e-05 -1.8700957298278809e-06 0.0 0.0 0.0 0.0
87000000.0 0.11810977756977081 0.87776118516922 8.355826139450073e-06 -2.093333750963211e-05 0.0 0.0 0.0 0.0
88000000.0 0.1375684291124344 0.8786016702651978 1.191999763250351e-05 -3.6479905247688293e-06 0.0 0.0 0.0 0.0
89000000.0 0.15827906131744385 0.8787505626678467 -2.1401792764663696e-06 -3.063678741455078e-05 0.0 0.0 0.0 0.0
90000000.0 0.17823605239391327 0.8785347938537598 1.615099608898163e-05 -1.736823469400406e-05 0.0 0.0 0.0 0.0
91000000.0 0.1991037279367447 0.8784182071685791 -6.197020411491394e-06 4.397425800561905e-05 0.0 0.0 0.0 0.0
92000000.0 0.21892347931861877 0.8770897388458252 1.8027611076831818e-05 -6.173644214868546e-05 0.0 0.0 0.0 0.0
93000000.0 0.23995067179203033 0.8754329085350037 -4.04873862862587e-05 -2.9144808650016785e-05 0.0 0.0 0.0 0.0
94000000.0 0.26060670614242554 0.8723681569099426 9.899958968162537e-07 -2.03009694814682e-05 0.0 0.0 0.0 0.0
95000000.0 0.28045544028282166 0.870509684085846 5.5655837059021e-06 2.8001144528388977e-05 0.0 0.0 0.0 0.0
96000000.0 0.30205801129341125 0.8667322993278503 3.120116889476776e-05 1.8627382814884186e-05 0.0 0.0 0.0 0.0
97000000.0 0.3233449459075928 0.8626354932785034 5.133543163537979e-05 -1.172628253698349e-05 0.0 0.0 0.0 0.0
98000000.0 0.3434363305568695 0.8573861122131348 -6.28642737865448e-06 -7.654540240764618e-06 0.0 0.0 0.0 0.0
99000000.0 0.3641892373561859 0.8518915772438049 3.253761678934097e-05 -1.5066936612129211e-05 0.0 0.0 0.0 0.0
100000000.0 0.3844771087169647 0.8465031981468201 -2.7334317564964294e-05 1.9045546650886536e-05 0.0 0.0 0.0 0.0
101000000.0 0.4064478278160095 0.8397811651229858 2.0423904061317444e-05 -4.364177584648132e-06 0.0 0.0 0.0 0.0
102000000.0 0.4269343316555023 0.8334358930587769 6.419885903596878e-05 6.334297358989716e-05 0.0 0.0 0.0 0.0
103000000.0 0.44759541749954224 0.8255260586738586 -7.537193596363068e-06 -2.1323561668395996e-05 0.0 0.0 0.0 0.0
104000000.0 0.4675586521625519 0.8173384666442871 -5.405675619840622e-05 -4.1085295379161835e-05 0.0 0.0 0.0 0.0
105000000.0 0.4882314205169678 0.8086134791374207 -1.5703029930591583e-05 -3.821216523647308e-06 0.0 0.0 0.0 0.0
106000000.0 0.5082433819770813 0.798798680305481 -2.2168271243572235e-05 -2.9848888516426086e-06 0.0 0.0 0.0 0.0
107000000.0 0.5286030769348145 0.7888740301132202 4.545878618955612e-05 2.16607004404068e-05 0.0 0.0 0.0 0.0
108000000.0 0.5479649305343628 0.7780305743217468 -9.114854037761688e-06 -2.1290965378284454e-05 0.0 0.0 0.0 0.0
109000000.0 0.567301869392395 0.7674723863601685 5.5866315960884094e-05 3.6014243960380554e-06 0.0 0.0 0.0 0.0
110000000.0 0.5870117545127869 0.7555431127548218 4.3672509491443634e-05 -5.9917569160461426e-05 0.0 0.0 0.0 0.0
111000000.0 0.6059021353721619 0.7428741455078125 -1.742970198392868e-05 -4.1682273149490356e-05 0.0 0.0 0.0 0.0
112000000.0 0.6247045397758484 0.7297986149787903 1.3990327715873718e-05 -1.2680888175964355e-05 0.0 0.0 0.0 0.0
113000000.0 0.6426165103912354 0.7169351577758789 2.1637417376041412e-05 1.1999160051345825e-05 0.0 0.0 0.0 0.0
114000000.0 0.6605266332626343 0.7025661468505859 -5.338340997695923e-06 4.8381276428699493e-05 0.0 0.0 0.0 0.0
115000000.0 0.6790196895599365 0.687676191329956 -4.200264811515808e-07 -5.0698406994342804e-05 0.0 0.0 0.0 0.0
116000000.0 0.6958980560302734 0.6722322106361389 -1.4736317098140717e-05 2.3468397557735443e-05 0.0 0.0 0.0 0.0
117000000.0 0.7133540511131287 0.6569382548332214 4.3585896492004395e-07 -8.005648851394653e-06 0.0 0.0 0.0 0.0
118000000.0 0.7301040887832642 0.6409636735916138 3.075599670410156e-05 -5.986262112855911e-05 0.0 0.0 0.0 0.0
119000000.0 0.7448539137840271 0.624527096748352 4.445202648639679e-06 7.435213774442673e-05 0.0 0.0 0.0 0.0
120000000.0 0.7616967558860779 0.60788494348526 -1.0211020708084106e-05 -3.985315561294556e-05 0.0 0.0 0.0 0.0
121000000.0 0.7752772569656372 0.5901600122451782 -2.237129956483841e-05 -5.428679287433624e-05 0.0 0.0 0.0 0.0
122000000.0 0.7904947400093079 0.5717171430587769 7.272418588399887e-05 1.3578683137893677e-06 0.0 0.0 0.0 0.0
123000000.0 0.8035414218902588 0.5533412098884583 7.087737321853638e-05 1.5117228031158447e-05 0.0 0.0 0.0 0.0
124000000.0 0.8177067041397095 0.5345055460929871 5.7443976402282715e-06 1.7629936337471008e-05 0.0 0.0 0.0 0.0
125000000.0 0.8314601182937622 0.51640784740448 2.1733343601226807e-05 -3.147311508655548e-05 0.0 0.0 0.0 0.0
126000000.0 0.8435004353523254 0.4967963993549347 4.235561937093735e-05 2.452358603477478e-05 0.0 0.0 0.0 0.0
127000000.0 0.8555294275283813 0.4768249988555908 -1.1984258890151978e-05 -2.3826025426387787e-05 0.0 0.0 0.0 0.0
128000000.0 0.8655273914337158 0.4565414786338806 -1.7862766981124878e-05 -1.1699274182319641e-05 0.0 0.0 0.0 0.0
129000000.0 0.8757648468017578 0.4364095628261566 -2.997368574142456e-05 2.389773726463318e-06 0.0 0.0 0.0 0.0
130000000.0 0.8856598734855652 0.4159109592437744 -4.286132752895355e-05 3.065168857574463e-05 0.0 0.0 0.0 0.0
131000000.0 0.8955051302909851 0.3958111107349396 3.2306648790836334e-05 3.074388951063156e-05 0.0 0.0 0.0 0.0
132000000.0 0.9055424928665161 0.37492504715919495 5.326420068740845e-05 6.511807441711426e-06 0.0 0.0 0.0 0.0
133000000.0 0.9135367274284363 0.3529191315174103 -2.8429552912712097e-05 3.357976675033569e-05 0.0 0.0 0.0 0.0
134000000.0 0.921106219291687 0.33163121342658997 1.1724419891834259e-05 -2.251751720905304e-05 0.0 0.0 0.0 0.0
135000000.0 0.928049623966217 0.3107401728630066 6.059184670448303e-05 -4.289671778678894e-06 0.0 0.0 0.0 0.0
136000000.0 0.9345762133598328 0.2885735034942627 5.347561091184616e-05 1.1169351637363434e-05 0.0 0.0 0.0 0.0
137000000.0 0.9402226209640503 0.26794737577438354 5.362555384635925e-05 3.985501825809479e-05 0.0 0.0 0.0 0.0
138000000.0 0.945009708404541 0.24650870263576508 6.683170795440674e-06 5.885958671569824e-06 0.0 0.0 0.0 0.0
139000000.0 0.949147641658783 0.22426387667655945 2.5719404220581055e-05 -2.5136396288871765e-05 0.0 0.0 0.0 0.0
140000000.0 0.9539502263069153 0.20161773264408112 -2.2644177079200745e-05 -7.112696766853333e-05 0.0 0.0 0.0 0.0
141000000.0 0.9530074596405029 0.18317584693431854 -9.967014193534851e-06 -1.7624348402023315e-05 0.0 0.0 0.0 0.0
142000000.0 0.9554236531257629 0.1611202508211136 -2.7976930141448975e-06 9.760260581970215e-06 0.0 0.0 0.0 0.0
143000000.0 0.9581336975097656 0.13854320347309113 -1.279730349779129e-05 1.7024576663970947e-06 0.0 0.0 0.0 0.0
144000000.0 0.9599180817604065 0.11724822223186493 1.2599863111972809e-05 1.3988465070724487e-06 0.0 0.0 0.0 0.0
145000000.0 0.9613727927207947 0.09478290379047394 2.541579306125641e-06 -1.2939795851707458e-05 0.0 0.0 0.0 0.0
146000000.0 0.9620531797409058 0.07252038270235062 2.9280781745910645e-06 1.6423873603343964e-05 0.0 0.0 0.0 0.0
147000000.0 0.9628041982650757 0.050796229392290115 1.4494173228740692e-05 -1.3446435332298279e-05 0.0 0.0 0.0 0.0
148000000.0 0.9622182846069336 0.028990749269723892 -3.095250576734543e-05 1.4035962522029877e-05 0.0 0.0 0.0 0.0
149000000.0 0.9616574048995972 0.007422629743814468 -1.2106262147426605e-05 -2.664327621459961e-05 0.0 0.0 0.0 0.0
150000000.0 0.9599801898002625 -0.014144190587103367 3.5521574318408966e-05 -2.4298205971717834e-06 0.0 0.0 0.0 0.0
151000000.0 0.9573131203651428 -0.035852015018463135 -3.5371631383895874e-05 -2.2137537598609924e-05 0.0 0.0 0.0 0.0
152000000.0 0.9552457928657532 -0.05684046447277069 1.0327436029911041e-05 1.2799166142940521e-05 0.0 0.0 0.0 0.0
153000000.0 0.9528170228004456 -0.07876386493444443 -2.1476298570632935e-05 -2.234429121017456e-05 0.0 0.0 0.0 0.0
154000000.0 0.9483533501625061 -0.09919923543930054 -1.7648562788963318e-06 -1.1051073670387268e-05 0.0 0.0 0.0 0.0
155000000.0 0.94387286901474 -0.11985208094120026 7.892027497291565e-06 -1.1071562767028809e-05 0.0 0.0 0.0 0.0
156000000.0 0.9391279220581055 -0.14110559225082397 2.0563602447509766e-05 -3.377161920070648e-05 0.0 0.0 0.0 0.0
157000000.0 0.933539628982544 -0.16056019067764282 -2.3931264877319336e-05 6.82193785905838e-06 0.0 0.0 0.0 0.0
158000000.0 0.9271335601806641 -0.18035130202770233 3.99881973862648e-05 1.041218638420105e-06 0.0 0.0 0.0 0.0
159000000.0 0.9216917157173157 -0.20093728601932526 -3.1171366572380066e-06 2.6086345314979553e-06 0.0 0.0 0.0 0.0
160000000.0 0.9149718880653381 -0.2202644646167755 1.5982426702976227e-05 3.427639603614807e-05 0.0 0.0 0.0 0.0
161000000.0 0.9074303507804871 -0.2387702763080597 4.033278673887253e-05 -4.361104220151901e-05 0.0 0.0 0.0 0.0
162000000.0 0.899673581123352 -0.25776734948158264 -4.7330744564533234e-05 1.8139369785785675e-05 0.0 0.0 0.0 0.0
163000000.0 0.8912783861160278 -0.27628836035728455 -5.587935447692871e-09 -1.0166317224502563e-05 0.0 0.0 0.0 0.0
164000000.0 0.8832522034645081 -0.2951512932777405 1.3464130461215973e-05 -5.716457962989807e-06 0.0 0.0 0.0 0.0
165000000.0 0.8746122121810913 -0.31230661273002625 -2.5179237127304077e-05 3.628246486186981e-05 0.0 0.0 0.0 0.0
166000000.0 0.8656482100486755 -0.33119696378707886 -5.441717803478241e-06 3.236532211303711e-05 0.0 0.0 0.0 0.0
167000000.0 0.8555310368537903 -0.348356693983078 -4.530884325504303e-06 -1.6205012798309326e-05 0.0 0.0 0.0 0.0
168000000.0 0.8457338809967041 -0.36544525623321533 1.0848045349121094e-05 2.0703300833702087e-06 0.0 0.0 0.0 0.0
169000000.0 0.8352734446525574 -0.38193637132644653 -3.686826676130295e-05 2.7719885110855103e-05 0.0 0.0 0.0 0.0
170000000.0 0.8239737749099731 -0.39718300104141235 1.424923539161682e-07 1.7078593373298645e-05 0.0 0.0 0.0 0.0
171000000.0 0.8135320544242859 -0.4130571484565735 4.159286618232727e-06 -1.8477439880371094e-06 0.0 0.0 0.0 0.0
172000000.0 0.802539587020874 -0.43005263805389404 7.6051801443099976e-06 2.6106834411621094e-05 0.0 0.0 0.0 0.0
173000000.0 0.791424572467804 -0.4452280104160309 1.3727694749832153e-06 -2.2860243916511536e-05 0.0 0.0 0.0 0.0
174000000.0 0.7795924544334412 -0.4595814645290375 -1.21239572763443e-05 -4.6242959797382355e-05 0.0 0.0 0.0 0.0
175000000.0 0.7672387957572937 -0.4741203486919403 1.4993362128734589e-05 3.186054527759552e-06 0.0 0.0 0.0 0.0
176000000.0 0.7556732296943665 -0.48880913853645325 3.858190029859543e-05 1.125875860452652e-05 0.0 0.0 0.0 0.0
177000000.0 0.7425723671913147 -0.5021595358848572 4.274770617485046e-06 -2.3556873202323914e-05 0.0 0.0 0.0 0.0
