!Created with skrf (http://scikit-rf.org).
# Hz S RI R 50.0 
!freq ReS11 ImS11 ReS21 ImS21 ReS12 ImS12 ReS22 ImS22
1000000.0 0.0511312335729599 0.00039848964661359787 -3.764685243368149e-05 1.5186145901679993e-05 0.0 0.0 0.0 0.0
2000000.0 0.05113693326711655 0.0005442015826702118 2.2931955754756927e-05 -2.5641173124313354e-05 0.0 0.0 0.0 0.0
3000000.0 0.05168695002794266 0.0004986375570297241 -1.2052245438098907e-05 -1.1915341019630432e-05 0.0 0.0 0.0 0.0
4000000.0 0.05188760533928871 0.0007092412561178207 -1.7373822629451752e-05 -4.29302453994751e-05 0.0 0.0 0.0 0.0
5000000.0 0.05164972320199013 0.0004743468016386032 -3.7326477468013763e-05 -3.264565020799637e-05 0.0 0.0 0.0 0.0
6000000.0 0.0526357963681221 0.00019370205700397491 -1.3178214430809021e-05 -1.4824792742729187e-05 0.0 0.0 0.0 0.0
7000000.0 0.0528428815305233 0.00012673623859882355 -8.231028914451599e-06 1.031532883644104e-05 0.0 0.0 0.0 0.0
8000000.0 0.05278060585260391 -0.00014318805187940598 3.676023334264755e-05 -4.598218947649002e-05 0.0 0.0 0.0 0.0
9000000.0 0.052906181663274765 -0.0003246748819947243 4.735775291919708e-05 -3.0837953090667725e-05 0.0 0.0 0.0 0.0
10000000.0 0.053105518221855164 -0.00026822369545698166 -2.0342878997325897e-05 2.149585634469986e-05 0.0 0.0 0.0 0.0
11000000.0 0.05356612056493759 -0.0007252693176269531 -2.2642314434051514e-05 -1.1883676052093506e-05 0.0 0.0 0.0 0.0
12000000.0 0.05402190238237381 -0.0010568778961896896 -3.0850060284137726e-05 7.434748113155365e-06 0.0 0.0 0.0 0.0
13000000.0 0.05381888151168823 -0.0012398147955536842 4.3353065848350525e-06 1.0996125638484955e-05 0.0 0.0 0.0 0.0
14000000.0 0.05372496321797371 -0.0015396391972899437 4.705972969532013e-05 -1.9006431102752686e-05 0.0 0.0 0.0 0.0
15000000.0 0.053498201072216034 -0.0013125445693731308 1.4605000615119934e-05 8.940696716308594e-08 0.0 0.0 0.0 0.0
16000000.0 0.05424150824546814 -0.0010130340233445168 5.871988832950592e-06 -2.1818093955516815e-05 0.0 0.0 0.0 0.0
17000000.0 0.05434194952249527 -0.0013603847473859787 -2.7028843760490417e-05 -2.2452324628829956e-05 0.0 0.0 0.0 0.0
18000000.0 0.05446456000208855 -0.001153849996626377 -1.0084360837936401e-05 -4.793703556060791e-05 0.0 0.0 0.0 0.0
19000000.0 0.054775170981884 -0.0015759961679577827 1.1053867638111115e-05 7.593166083097458e-05 0.0 0.0 0.0 0.0
20000000.0 0.05467791482806206 -0.0016353689134120941 4.837010055780411e-05 -5.202740430831909e-05 0.0 0.0 0.0 0.0
21000000.0 0.05466976389288902 -0.0019355472177267075 6.044283509254456e-07 -6.093643605709076e-06 0.0 0.0 0.0 0.0
22000000.0 0.05430284142494202 -0.002087108790874481 1.535378396511078e-05 1.4975666999816895e-06 0.0 0.0 0.0 0.0
23000000.0 0.054544538259506226 -0.0026364298537373543 -1.6540288925170898e-06 -5.6819990277290344e-06 0.0 0.0 0.0 0.0
24000000.0 0.05457776039838791 -0.003038935363292694 -2.3595988750457764e-05 1.3171695172786713e-05 0.0 0.0 0.0 0.0
25000000.0 0.05436486750841141 -0.003645450808107853 -4.7439709305763245e-05 6.167218089103699e-06 0.0 0.0 0.0 0.0
26000000.0 0.05411175265908241 -0.0038377922028303146 1.8048100173473358e-05 4.313420504331589e-05 0.0 0.0 0.0 0.0
27000000.0 0.05378585681319237 -0.0044586313888430595 4.305131733417511e-05 1.0893680155277252e-05 0.0 0.0 0.0 0.0
28000000.0 0.053966276347637177 -0.004438197240233421 2.85981222987175e-05 2.1192245185375214e-05 0.0 0.0 0.0 0.0
29000000.0 0.05348531901836395 -0.005313199944794178 2.4349428713321686e-05 -9.216368198394775e-06 0.0 0.0 0.0 0.0
30000000.0 0.053608428686857224 -0.005789747461676598 -2.417340874671936e-05 -6.31473958492279e-05 0.0 0.0 0.0 0.0
31000000.0 0.05348046123981476 -0.006025034934282303 -1.0516494512557983e-05 1.994054764509201e-05 0.0 0.0 0.0 0.0
32000000.0 0.05350816249847412 -0.006155460141599178 3.0761584639549255e-06 -5.661509931087494e-06 0.0 0.0 0.0 0.0
33000000.0 0.05345723032951355 -0.006336457096040249 1.230929046869278e-05 -5.12879341840744e-06 0.0 0.0 0.0 0.0
34000000.0 0.05318287014961243 -0.006736107170581818 6.8070366978645325e-06 -2.6193447411060333e-05 0.0 0.0 0.0 0.0
35000000.0 0.05328551307320595 -0.007018820382654667 1.236703246831894e-05 -2.8910115361213684e-05 0.0 0.0 0.0 0.0
36000000.0 0.05321045592427254 -0.00713428296148777 7.850117981433868e-06 -1.537799835205078e-05 0.0 0.0 0.0 0.0
37000000.0 0.053180865943431854 -0.007625496946275234 4.258099943399429e-05 -2.977438271045685e-06 0.0 0.0 0.0 0.0
38000000.0 0.05300873517990112 -0.007785355672240257 1.150183379650116e-05 6.936490535736084e-06 0.0 0.0 0.0 0.0
39000000.0 0.05310124531388283 -0.008104722015559673 4.1525810956954956e-05 -1.9290484488010406e-05 0.0 0.0 0.0 0.0
40000000.0 0.05279339477419853 -0.00824176985770464 -6.165355443954468e-06 -3.845337778329849e-05 0.0 0.0 0.0 0.0
41000000.0 0.05276975780725479 -0.008230475708842278 4.246830940246582e-06 -3.52226197719574e-05 0.0 0.0 0.0 0.0
42000000.0 0.05266280472278595 -0.008460219018161297 -1.935753971338272e-05 -1.1974014341831207e-05 0.0 0.0 0.0 0.0
43000000.0 0.05230524390935898 -0.009032538160681725 3.649946302175522e-05 -9.940005838871002e-06 0.0 0.0 0.0 0.0
44000000.0 0.05230661481618881 -0.009273032657802105 9.43802297115326e-06 -2.8005801141262054e-05 0.0 0.0 0.0 0.0
45000000.0 0.05204927548766136 -0.009502959437668324 1.433398574590683e-05 -3.4485943615436554e-05 0.0 0.0 0.0 0.0
46000000.0 0.05206601321697235 -0.009826229885220528 -1.1513940989971161e-05 -7.1283429861068726e-06 0.0 0.0 0.0 0.0
47000000.0 0.05167681723833084 -0.010125873610377312 1.001451164484024e-05 2.964399755001068e-05 0.0 0.0 0.0 0.0
48000000.0 0.051767271012067795 -0.010210699401795864 1.6444362699985504e-05 1.0847114026546478e-05 0.0 0.0 0.0 0.0
49000000.0 0.051666002720594406 -0.010634314268827438 -3.818981349468231e-05 1.7541460692882538e-05 0.0 0.0 0.0 0.0
50000000.0 0.05140192434191704 -0.010801183059811592 -5.038455128669739e-06 -2.7408823370933533e-05 0.0 0.0 0.0 0.0
51000000.0 0.05111219733953476 -0.01055299025028944 2.494361251592636e-05 3.650877624750137e-05 0.0 0.0 0.0 0.0
52000000.0 0.051022302359342575 -0.011297852732241154 2.3739412426948547e-06 -5.7248398661613464e-06 0.0 0.0 0.0 0.0
53000000.0 0.050893448293209076 -0.011204470880329609 -5.077291280031204e-05 -2.5548972189426422e-05 0.0 0.0 0.0 0.0
54000000.0 0.05075955018401146 -0.011513350531458855 -4.352070391178131e-06 -1.9649043679237366e-05 0.0 0.0 0.0 0.0
55000000.0 0.05048173666000366 -0.011918151751160622 -1.2042000889778137e-05 -1.3399869203567505e-05 0.0 0.0 0.0 0.0
56000000.0 0.05021669715642929 -0.011944983154535294 -2.6971101760864258e-06 1.4622695744037628e-05 0.0 0.0 0.0 0.0
57000000.0 0.04989610239863396 -0.012386198155581951 4.3097883462905884e-05 1.9896775484085083e-05 0.0 0.0 0.0 0.0
58000000.0 0.04979194700717926 -0.012309287674725056 -8.937902748584747e-06 -8.200295269489288e-06 0.0 0.0 0.0 0.0
59000000.0 0.04948294162750244 -0.012367586605250835 -1.696869730949402e-05 1.2384727597236633e-05 0.0 0.0 0.0 0.0
60000000.0 0.049291256815195084 -0.012695538811385632 1.801922917366028e-05 2.8285197913646698e-05 0.0 0.0 0.0 0.0
61000000.0 0.04906459525227547 -0.01289753895252943 2.1762214601039886e-05 -9.331852197647095e-06 0.0 0.0 0.0 0.0
62000000.0 0.04898255318403244 -0.013109908439218998 -1.8038786947727203e-05 2.386048436164856e-06 0.0 0.0 0.0 0.0
63000000.0 0.048702601343393326 -0.013275113888084888 2.9010698199272156e-06 8.796341717243195e-06 0.0 0.0 0.0 0.0
64000000.0 0.04851570725440979 -0.013496416620910168 1.2532807886600494e-05 -6.7818909883499146e-06 0.0 0.0 0.0 0.0
65000000.0 0.04823911562561989 -0.013480844907462597 1.649651676416397e-05 -1.4277175068855286e-05 0.0 0.0 0.0 0.0
66000000.0 0.047703392803668976 -0.01396947167813778 1.6354024410247803e-06 -1.884065568447113e-06 0.0 0.0 0.0 0.0
67000000.0 0.04788461700081825 -0.014083079062402248 2.9206275939941406e-06 -2.1898187696933746e-05 0.0 0.0 0.0 0.0
68000000.0 0.04733732342720032 -0.014118136838078499 2.387911081314087e-06 -3.406591713428497e-05 0.0 0.0 0.0 0.0
69000000.0 0.04728852957487106 -0.014028712175786495 2.8191134333610535e-06 3.3766962587833405e-05 0.0 0.0 0.0 0.0
70000000.0 0.04699130728840828 -0.014273778535425663 8.186325430870056e-06 -3.9064325392246246e-05 0.0 0.0 0.0 0.0
71000000.0 0.04663914442062378 -0.014622505754232407 -1.3970769941806793e-05 -8.129514753818512e-06 0.0 0.0 0.0 0.0
72000000.0 0.04630541056394577 -0.014548116363584995 4.043802618980408e-06 -3.784149885177612e-05 0.0 0.0 0.0 0.0
73000000.0 0.04603501409292221 -0.014945161528885365 -3.7178397178649902e-06 -8.364208042621613e-06 0.0 0.0 0.0 0.0
74000000.0 0.04573765769600868 -0.015008670277893543 -2.0469538867473602e-05 -2.3770146071910858e-05 0.0 0.0 0.0 0.0
75000000.0 0.04565506428480148 -0.014882278628647327 -1.7901882529258728e-05 -5.1433220505714417e-05 0.0 0.0 0.0 0.0
76000000.0 0.04555344209074974 -0.015170492231845856 2.909637987613678e-05 -2.8355978429317474e-05 0.0 0.0 0.0 0.0
77000000.0 0.04515364393591881 -0.015367884188890457 -1.76113098859787e-05 -2.9535964131355286e-05 0.0 0.0 0.0 0.0
78000000.0 0.04468884691596031 -0.01523437537252903 3.7439167499542236e-06 8.310191333293915e-06 0.0 0.0 0.0 0.0
79000000.0 0.0444224588572979 -0.015533448196947575 3.3414922654628754e-05 1.2260861694812775e-05 0.0 0.0 0.0 0.0
80000000.0 0.04412608966231346 -0.015511013567447662 3.23047861456871e-05 -8.756294846534729e-06 0.0 0.0 0.0 0.0
81000000.0 0.04376203939318657 -0.01571453921496868 -3.073364496231079e-07 -1.1511147022247314e-06 0.0 0.0 0.0 0.0
82000000.0 0.043578531593084335 -0.01554708182811737 2.072937786579132e-05 4.472397267818451e-05 0.0 0.0 0.0 0.0
83000000.0 0.043399784713983536 -0.01583498902618885 7.927417755126953e-06 1.0464340448379517e-05 0.0 0.0 0.0 0.0
84000000.0 0.04290948435664177 -0.015472357161343098 1.4794990420341492e-05 1.2508593499660492e-05 0.0 0.0 0.0 0.0
85000000.0 0.042716629803180695 -0.015561123378574848 1.1441297829151154e-05 1.9994564354419708e-05 0.0 0.0 0.0 0.0
86000000.0 0.04230444133281708 -0.015548037365078926 -1.3263896107673645e-05 -1.3603828847408295e-05 0.0 0.0 0.0 0.0
87000000.0 0.0420183390378952 -0.015724850818514824 -1.2219883501529694e-05 -4.902668297290802e-05 0.0 0.0 0.0 0.0
88000000.0 0.04205465689301491 -0.01589222066104412 -2.475827932357788e-05 -1.0975636541843414e-05 0.0 0.0 0.0 0.0
89000000.0 0.04139240086078644 -0.015912657603621483 -1.671724021434784e-05 -1.1974945664405823e-05 0.0 0.0 0.0 0.0
90000000.0 0.042074788361787796 -0.016044968739151955 5.292985588312149e-05 2.8679147362709045e-05 0.0 0.0 0.0 0.0
91000000.0 0.04162813723087311 -0.01605636440217495 -2.6746653020381927e-05 -3.8798898458480835e-06 0.0 0.0 0.0 0.0
92000000.0 0.04141465947031975 -0.015624618157744408 -4.5979395508766174e-05 1.4184042811393738e-06 0.0 0.0 0.0 0.0
93000000.0 0.04089726135134697 -0.015806611627340317 -7.63963907957077e-06 -3.3853575587272644e-06 0.0 0.0 0.0 0.0
94000000.0 0.040575843304395676 -0.015765881165862083 -5.455687642097473e-06 -4.6475790441036224e-05 0.0 0.0 0.0 0.0
95000000.0 0.04037315025925636 -0.015653856098651886 -2.5155022740364075e-05 -6.72508031129837e-06 0.0 0.0 0.0 0.0
96000000.0 0.0401298888027668 -0.015656614676117897 7.57165253162384e-06 -4.366040229797363e-05 0.0 0.0 0.0 0.0
97000000.0 0.04003174602985382 -0.01584741286933422 1.5492551028728485e-05 1.6106292605400085e-05 0.0 0.0 0.0 0.0
98000000.0 0.03944188728928566 -0.015592345967888832 -9.36165452003479e-06 1.0091811418533325e-05 0.0 0.0 0.0 0.0
99000000.0 0.038962047547101974 -0.0155293308198452 5.1062554121017456e-05 1.0009855031967163e-05 0.0 0.0 0.0 0.0
100000000.0 0.039128974080085754 -0.01569012925028801 -3.299489617347717e-05 -4.394352436065674e-05 0.0 0.0 0.0 0.0
101000000.0 0.038642238825559616 -0.015596476383507252 -1.92960724234581e-05 -3.576651215553284e-05 0.0 0.0 0.0 0.0
102000000.0 0.03810928389430046 -0.015343538485467434 2.3874454200267792e-05 9.945593774318695e-06 0.0 0.0 0.0 0.0
103000000.0 0.03797892853617668 -0.015571687370538712 -3.082677721977234e-07 4.267878830432892e-05 0.0 0.0 0.0 0.0
104000000.0 0.03759195655584335 -0.015237842686474323 4.93442639708519e-05 1.607649028301239e-05 0.0 0.0 0.0 0.0
105000000.0 0.03721536695957184 -0.015215140767395496 -4.184432327747345e-05 4.1332095861434937e-05 0.0 0.0 0.0 0.0
106000000.0 0.037035055458545685 -0.015115819871425629 2.5783665478229523e-05 1.8975697457790375e-05 0.0 0.0 0.0 0.0
107000000.0 0.036849722266197205 -0.015307283960282803 1.550000160932541e-05 2.5548972189426422e-05 0.0 0.0 0.0 0.0
108000000.0 0.03639192879199982 -0.01524591539055109 2.3536384105682373e-05 -6.464589387178421e-05 0.0 0.0 0.0 0.0
109000000.0 0.03605661168694496 -0.015003672800958157 4.920177161693573e-06 -8.334405720233917e-06 0.0 0.0 0.0 0.0
110000000.0 0.035828735679388046 -0.014781617559492588 1.6298145055770874e-07 1.16787850856781e-05 0.0 0.0 0.0 0.0
111000000.0 0.03564869239926338 -0.014543415978550911 4.014559090137482e-05 1.2111850082874298e-05 0.0 0.0 0.0 0.0
112000000.0 0.03550014644861221 -0.014791472814977169 4.039425402879715e-05 2.901814877986908e-05 0.0 0.0 0.0 0.0
113000000.0 0.03498697280883789 -0.01430659182369709 -1.7974525690078735e-06 -4.7478824853897095e-06 0.0 0.0 0.0 0.0
114000000.0 0.034638661891222 -0.014087231829762459 1.413002610206604e-05 -1.3912096619606018e-05 0.0 0.0 0.0 0.0
115000000.0 0.034490738064050674 -0.014335698448121548 6.711110472679138e-06 2.0225532352924347e-05 0.0 0.0 0.0 0.0
116000000.0 0.034098491072654724 -0.013950970955193043 9.42964106798172e-06 -5.233194679021835e-05 0.0 0.0 0.0 0.0
117000000.0 0.03395911306142807 -0.013895507901906967 2.2454187273979187e-06 4.301033914089203e-05 0.0 0.0 0.0 0.0
118000000.0 0.03368348628282547 -0.013838531449437141 7.53551721572876e-05 1.906324177980423e-05 0.0 0.0 0.0 0.0
119000000.0 0.03353926166892052 -0.01341501995921135 8.417945355176926e-05 2.4578534066677094e-05 0.0 0.0 0.0 0.0
120000000.0 0.0331360399723053 -0.013363543897867203 4.353746771812439e-05 -1.185387372970581e-05 0.0 0.0 0.0 0.0
121000000.0 0.03301512077450752 -0.013135168701410294 4.019495099782944e-05 4.605390131473541e-06 0.0 0.0 0.0 0.0
122000000.0 0.0327264629304409 -0.012995988130569458 2.4969689548015594e-05 4.6387314796447754e-05 0.0 0.0 0.0 0.0
123000000.0 0.03234730660915375 -0.012782701291143894 -1.5385448932647705e-06 -5.7581812143325806e-05 0.0 0.0 0.0 0.0
124000000.0 0.03222266212105751 -0.01260330155491829 -3.109779208898544e-05 -4.0520913898944855e-05 0.0 0.0 0.0 0.0
125000000.0 0.03212624788284302 -0.012449527159333229 -2.4658627808094025e-05 3.618653863668442e-05 0.0 0.0 0.0 0.0
126000000.0 0.03183740749955177 -0.012298060581088066 1.35079026222229e-05 1.791398972272873e-05 0.0 0.0 0.0 0.0
127000000.0 0.03166038542985916 -0.01211116649210453 -9.006820619106293e-06 -5.4164789617061615e-05 0.0 0.0 0.0 0.0
128000000.0 0.03143833950161934 -0.011822405271232128 -6.57225027680397e-05 2.562534064054489e-05 0.0 0.0 0.0 0.0
129000000.0 0.031180936843156815 -0.011805960908532143 -1.1148862540721893e-05 6.335601210594177e-05 0.0 0.0 0.0 0.0
130000000.0 0.031018275767564774 -0.011459545232355595 6.711762398481369e-05 1.882202923297882e-05 0.0 0.0 0.0 0.0
131000000.0 0.030784880742430687 -0.011180222034454346 6.903894245624542e-06 8.139759302139282e-07 0.0 0.0 0.0 0.0
132000000.0 0.030493708327412605 -0.011159608140587807 -2.2258609533309937e-07 -6.547011435031891e-05 0.0 0.0 0.0 0.0
133000000.0 0.030383216217160225 -0.010750695131719112 -2.3060478270053864e-05 -3.1245872378349304e-05 0.0 0.0 0.0 0.0
134000000.0 0.030234547331929207 -0.01064259372651577 2.500135451555252e-05 -2.0895153284072876e-05 0.0 0.0 0.0 0.0
135000000.0 0.030074315145611763 -0.010363190434873104 3.038812428712845e-05 5.043111741542816e-06 0.0 0.0 0.0 0.0
136000000.0 0.029653990641236305 -0.01001691073179245 2.3113563656806946e-05 -9.945593774318695e-06 0.0 0.0 0.0 0.0
137000000.0 0.02965714782476425 -0.009886648505926132 1.6782432794570923e-06 -2.777203917503357e-06 0.0 0.0 0.0 0.0
138000000.0 0.029568800702691078 -0.009413952007889748 -1.88387930393219e-05 3.553461283445358e-05 0.0 0.0 0.0 0.0
139000000.0 0.02930411882698536 -0.00935330893844366 3.3008866012096405e-05 4.244223237037659e-05 0.0 0.0 0.0 0.0
140000000.0 0.02945893630385399 -0.009105941280722618 -1.0213814675807953e-05 1.3601034879684448e-05 0.0 0.0 0.0 0.0
141000000.0 0.028528867289423943 -0.008554616943001747 -1.701805740594864e-05 3.448408097028732e-05 0.0 0.0 0.0 0.0
142000000.0 0.02858498878777027 -0.008274499326944351 -7.135793566703796e-06 2.001039683818817e-05 0.0 0.0 0.0 0.0
143000000.0 0.02831333875656128 -0.00789145939052105 -1.5303492546081543e-05 1.434236764907837e-07 0.0 0.0 0.0 0.0
144000000.0 0.02808946557343006 -0.007512995041906834 -1.841410994529724e-05 1.6061589121818542e-05 0.0 0.0 0.0 0.0
145000000.0 0.028193045407533646 -0.007271964102983475 6.509944796562195e-06 -2.250075340270996e-06 0.0 0.0 0.0 0.0
146000000.0 0.027918362990021706 -0.006960579194128513 2.0442530512809753e-06 -1.0397285223007202e-05 0.0 0.0 0.0 0.0
147000000.0 0.027987999841570854 -0.00678811501711607 -1.8330290913581848e-05 -8.531846106052399e-06 0.0 0.0 0.0 0.0
148000000.0 0.027850814163684845 -0.006331738084554672 2.8284266591072083e-06 9.252689778804779e-06 0.0 0.0 0.0 0.0
149000000.0 0.027575723826885223 -0.006135084666311741 1.8629245460033417e-05 1.362524926662445e-05 0.0 0.0 0.0 0.0
150000000.0 0.027392830699682236 -0.005995411425828934 -5.408190190792084e-06 -1.7358921468257904e-05 0.0 0.0 0.0 0.0
151000000.0 0.027551641687750816 -0.00553349032998085 2.3116357624530792e-05 1.4705583453178406e-05 0.0 0.0 0.0 0.0
152000000.0 0.02742045186460018 -0.005138884298503399 3.123842179775238e-05 -1.2299977242946625e-05 0.0 0.0 0.0 0.0
153000000.0 0.027139738202095032 -0.004919084720313549 -9.092502295970917e-06 -1.0794028639793396e-05 0.0 0.0 0.0 0.0
154000000.0 0.027125293388962746 -0.004652125760912895 -8.330680429935455e-06 -1.0988675057888031e-05 0.0 0.0 0.0 0.0
155000000.0 0.027156636118888855 -0.004273745231330395 -2.9365532100200653e-05 -5.325302481651306e-06 0.0 0.0 0.0 0.0
156000000.0 0.02688632160425186 -0.003928708843886852 -9.336508810520172e-06 3.351643681526184e-05 0.0 0.0 0.0 0.0
157000000.0 0.02705957181751728 -0.003670061007142067 -1.206807792186737e-05 2.8653070330619812e-05 0.0 0.0 0.0 0.0
158000000.0 0.027063017711043358 -0.0034665344282984734 1.5742145478725433e-05 -3.0434690415859222e-05 0.0 0.0 0.0 0.0
159000000.0 0.02659948728978634 -0.0030331285670399666 -1.319684088230133e-05 -7.943250238895416e-06 0.0 0.0 0.0 0.0
160000000.0 0.026542432606220245 -0.0027106087654829025 2.7116388082504272e-05 6.467103958129883e-06 0.0 0.0 0.0 0.0
161000000.0 0.02651471085846424 -0.002567012794315815 7.472001016139984e-06 2.022087574005127e-05 0.0 0.0 0.0 0.0
162000000.0 0.026641158387064934 -0.002108639106154442 -2.600252628326416e-05 3.213062882423401e-07 0.0 0.0 0.0 0.0
163000000.0 0.026665881276130676 -0.0019176853820681572 7.874332368373871e-06 -4.906207323074341e-06 0.0 0.0 0.0 0.0
164000000.0 0.026455136016011238 -0.0015535550191998482 -1.4808028936386108e-07 -6.448477506637573e-06 0.0 0.0 0.0 0.0
165000000.0 0.026589496061205864 -0.001417015679180622 6.282702088356018e-06 4.144385457038879e-06 0.0 0.0 0.0 0.0
166000000.0 0.02680847980082035 -0.0011832630261778831 -2.135150134563446e-05 1.5545636415481567e-05 0.0 0.0 0.0 0.0
167000000.0 0.02666470967233181 -0.000581652857363224 5.876645445823669e-07 9.641982614994049e-06 0.0 0.0 0.0 0.0
168000000.0 0.026648201048374176 -0.00040708109736442566 -1.1743046343326569e-05 4.866160452365875e-06 0.0 0.0 0.0 0.0
169000000.0 0.026608914136886597 7.284805178642273e-05 9.410083293914795e-06 -7.52229243516922e-06 0.0 0.0 0.0 0.0
170000000.0 0.026727991178631783 0.00038540735840797424 5.046837031841278e-05 -6.700865924358368e-06 0.0 0.0 0.0 0.0
171000000.0 0.02672017179429531 0.0006052348762750626 1.9302591681480408e-05 -3.355368971824646e-05 0.0 0.0 0.0 0.0
172000000.0 0.026810506358742714 0.0009651072323322296 2.8870999813079834e-07 -2.544652670621872e-05 0.0 0.0 0.0 0.0
