!Created with skrf (http://scikit-rf.org).
# Hz S RI R 50.0 
!freq ReS11 ImS11 ReS21 ImS21 ReS12 ImS12 ReS22 ImS22
1000000.0 1.0012036561965942 -0.023919489234685898 -4.5035965740680695e-05 -2.8061680495738983e-05 0.0 0.0 0.0 0.0
2000000.0 0.9990028142929077 -0.04749242961406708 -5.606561899185181e-07 1.2218952178955078e-06 0.0 0.0 0.0 0.0
3000000.0 0.9955669641494751 -0.07145430892705917 -8.787959814071655e-06 5.840323865413666e-06 0.0 0.0 0.0 0.0
4000000.0 0.9941858053207397 -0.09506985545158386 1.2396834790706635e-05 1.846998929977417e-05 0.0 0.0 0.0 0.0
5000000.0 0.9911440014839172 -0.11856411397457123 -1.0181218385696411e-05 2.9264017939567566e-05 0.0 0.0 0.0 0.0
6000000.0 0.9873978495597839 -0.1414191722869873 1.122988760471344e-05 -2.6812776923179626e-06 0.0 0.0 0.0 0.0
7000000.0 0.9824668765068054 -0.16442357003688812 2.2302381694316864e-05 2.2590160369873047e-05 0.0 0.0 0.0 0.0
8000000.0 0.9773496985435486 -0.18820706009864807 3.241468220949173e-05 -1.5562400221824646e-06 0.0 0.0 0.0 0.0
9000000.0 0.9719365239143372 -0.21054553985595703 -3.758817911148071e-05 3.657303750514984e-06 0.0 0.0 0.0 0.0
10000000.0 0.9650402665138245 -0.23259328305721283 -1.6519799828529358e-05 5.346722900867462e-06 0.0 0.0 0.0 0.0
11000000.0 0.9579638838768005 -0.25492551922798157 5.247443914413452e-05 -1.902785152196884e-05 0.0 0.0 0.0 0.0
12000000.0 0.9499527812004089 -0.27678921818733215 5.677342414855957e-06 2.617761492729187e-05 0.0 0.0 0.0 0.0
13000000.0 0.941909909248352 -0.2988033592700958 1.021847128868103e-05 -3.103818744421005e-05 0.0 0.0 0.0 0.0
14000000.0 0.9335612058639526 -0.3203975558280945 -1.642666757106781e-05 -2.2629275918006897e-05 0.0 0.0 0.0 0.0
15000000.0 0.9235967993736267 -0.3418383002281189 7.96932727098465e-06 -2.8860755264759064e-05 0.0 0.0 0.0 0.0
16000000.0 0.9126816391944885 -0.36097487807273865 -2.9299408197402954e-06 -4.6479515731334686e-05 0.0 0.0 0.0 0.0
17000000.0 0.9026093482971191 -0.38185185194015503 -2.8312206268310547e-05 1.8967315554618835e-05 0.0 0.0 0.0 0.0
18000000.0 0.8916935920715332 -0.4018690884113312 -1.0144896805286407e-05 3.105960786342621e-05 0.0 0.0 0.0 0.0
19000000.0 0.8792005181312561 -0.42114531993865967 -1.1611729860305786e-05 -9.404495358467102e-06 0.0 0.0 0.0 0.0
20000000.0 0.8677111268043518 -0.43859776854515076 1.9237399101257324e-05 -1.0201707482337952e-05 0.0 0.0 0.0 0.0
21000000.0 0.8548163175582886 -0.456937313079834 -8.57282429933548e-06 3.341585397720337e-06 0.0 0.0 0.0 0.0
22000000.0 0.841864824295044 -0.4761877954006195 4.853587597608566e-05 -6.606802344322205e-06 0.0 0.0 0.0 0.0
23000000.0 0.8285129070281982 -0.49256432056427 -7.656402885913849e-06 8.29063355922699e-06 0.0 0.0 0.0 0.0
24000000.0 0.814904510974884 -0.5105460286140442 3.194529563188553e-05 -1.7745420336723328e-05 0.0 0.0 0.0 0.0
25000000.0 0.8008902668952942 -0.5273025631904602 -1.8090009689331055e-05 -8.90437513589859e-06 0.0 0.0 0.0 0.0
26000000.0 0.7867259383201599 -0.5433530807495117 -2.543814480304718e-05 2.0838342607021332e-05 0.0 0.0 0.0 0.0
27000000.0 0.7714704871177673 -0.5598043203353882 -1.7412938177585602e-05 7.61914998292923e-06 0.0 0.0 0.0 0.0
28000000.0 0.7562010884284973 -0.5742597579956055 -7.294118404388428e-06 1.10650435090065e-05 0.0 0.0 0.0 0.0
29000000.0 0.7411430478096008 -0.5885299444198608 1.2129545211791992e-05 -6.8265944719314575e-06 0.0 0.0 0.0 0.0
30000000.0 0.7249776721000671 -0.6029149889945984 3.437604755163193e-05 1.5074387192726135e-05 0.0 0.0 0.0 0.0
31000000.0 0.7092946767807007 -0.6164958477020264 1.823529601097107e-05 -1.9184313714504242e-05 0.0 0.0 0.0 0.0
32000000.0 0.6931210160255432 -0.6302765011787415 -2.176966518163681e-05 1.7086975276470184e-05 0.0 0.0 0.0 0.0
33000000.0 0.6773386597633362 -0.6424978971481323 -4.851259291172028e-06 -1.039355993270874e-06 0.0 0.0 0.0 0.0
34000000.0 0.6598130464553833 -0.6547859311103821 7.450580596923828e-09 -2.2543594241142273e-05 0.0 0.0 0.0 0.0
35000000.0 0.6432338953018188 -0.6665936708450317 -1.0211952030658722e-05 1.9908882677555084e-05 0.0 0.0 0.0 0.0
36000000.0 0.6259776949882507 -0.6779326796531677 3.571901470422745e-05 1.1038035154342651e-05 0.0 0.0 0.0 0.0
37000000.0 0.6094098687171936 -0.6878891587257385 4.5282766222953796e-05 -7.59027898311615e-06 0.0 0.0 0.0 0.0
38000000.0 0.5922396183013916 -0.6982665061950684 -1.5071593225002289e-05 -5.298387259244919e-05 0.0 0.0 0.0 0.0
39000000.0 0.5747474431991577 -0.7080518007278442 2.3189932107925415e-07 7.1711838245391846e-06 0.0 0.0 0.0 0.0
40000000.0 0.5574150085449219 -0.7169004678726196 3.2034702599048615e-05 -8.101575076580048e-06 0.0 0.0 0.0 0.0
41000000.0 0.5400846600532532 -0.7258850932121277 -1.5322118997573853e-05 -1.3902783393859863e-05 0.0 0.0 0.0 0.0
42000000.0 0.5215902924537659 -0.7351309061050415 -5.572102963924408e-06 8.041970431804657e-06 0.0 0.0 0.0 0.0
43000000.0 0.5044901967048645 -0.7408665418624878 -1.4215707778930664e-05 -5.336478352546692e-06 0.0 0.0 0.0 0.0
44000000.0 0.4874049425125122 -0.7494821548461914 1.3491138815879822e-05 2.2957101464271545e-06 0.0 0.0 0.0 0.0
45000000.0 0.4700823128223419 -0.7553568482398987 1.080147922039032e-05 2.4860724806785583e-05 0.0 0.0 0.0 0.0
46000000.0 0.45246341824531555 -0.7619694471359253 1.3898126780986786e-05 7.461756467819214e-06 0.0 0.0 0.0 0.0
47000000.0 0.43405911326408386 -0.7683570384979248 -8.60169529914856e-06 2.3354776203632355e-05 0.0 0.0 0.0 0.0
48000000.0 0.4168901741504669 -0.7738978266716003 3.999192267656326e-05 5.519203841686249e-05 0.0 0.0 0.0 0.0
49000000.0 0.3987142741680145 -0.7795248031616211 1.1047348380088806e-05 -2.366490662097931e-05 0.0 0.0 0.0 0.0
50000000.0 0.381460964679718 -0.7841172218322754 -6.017275154590607e-06 3.1177885830402374e-05 0.0 0.0 0.0 0.0
51000000.0 0.36405640840530396 -0.7885947823524475 -7.44406133890152e-06 -2.4866312742233276e-05 0.0 0.0 0.0 0.0
52000000.0 0.3462590277194977 -0.7913445830345154 5.289912223815918e-06 -1.1051073670387268e-05 0.0 0.0 0.0 0.0
53000000.0 0.3287738859653473 -0.7948285341262817 -2.482626587152481e-05 -2.1335668861865997e-05 0.0 0.0 0.0 0.0
54000000.0 0.31196129322052 -0.7979030609130859 8.746050298213959e-06 -1.0778196156024933e-05 0.0 0.0 0.0 0.0
55000000.0 0.29453185200691223 -0.8010468482971191 -1.9432976841926575e-05 -4.435889422893524e-06 0.0 0.0 0.0 0.0
56000000.0 0.2777886688709259 -0.8031838536262512 2.545677125453949e-05 -2.4585984647274017e-05 0.0 0.0 0.0 0.0
57000000.0 0.2604985535144806 -0.8040564060211182 1.1029653251171112e-05 -9.738840162754059e-06 0.0 0.0 0.0 0.0
58000000.0 0.24359655380249023 -0.8067201375961304 -1.0954216122627258e-05 -3.288406878709793e-05 0.0 0.0 0.0 0.0
59000000.0 0.22659233212471008 -0.8079838156700134 3.303214907646179e-05 -1.7440877854824066e-05 0.0 0.0 0.0 0.0
60000000.0 0.20974646508693695 -0.8088663220405579 2.2205524146556854e-05 -3.5669654607772827e-07 0.0 0.0 0.0 0.0
61000000.0 0.19331033527851105 -0.8092672228813171 -2.602115273475647e-06 -1.2530945241451263e-05 0.0 0.0 0.0 0.0
62000000.0 0.1768726408481598 -0.8093237280845642 -2.4456530809402466e-06 1.867767423391342e-05 0.0 0.0 0.0 0.0
63000000.0 0.159973606467247 -0.8105577230453491 -6.0908496379852295e-06 -4.852190613746643e-07 0.0 0.0 0.0 0.0
64000000.0 0.14400777220726013 -0.8094061017036438 -3.8324855268001556e-05 1.323409378528595e-05 0.0 0.0 0.0 0.0
65000000.0 0.12720930576324463 -0.8085772395133972 -7.779337465763092e-06 -1.9171275198459625e-05 0.0 0.0 0.0 0.0
66000000.0 0.1120501309633255 -0.8082005977630615 -3.3918768167495728e-06 2.248864620923996e-05 0.0 0.0 0.0 0.0
67000000.0 0.0952298641204834 -0.8064607381820679 1.7629005014896393e-05 -2.2398307919502258e-05 0.0 0.0 0.0 0.0
68000000.0 0.08015993982553482 -0.8053169846534729 -5.4156407713890076e-06 1.8835067749023438e-05 0.0 0.0 0.0 0.0
69000000.0 0.06449998170137405 -0.8032697439193726 5.494803190231323e-08 8.738599717617035e-06 0.0 0.0 0.0 0.0
70000000.0 0.04907159507274628 -0.8014482259750366 -1.149158924818039e-05 -3.371201455593109e-05 0.0 0.0 0.0 0.0
71000000.0 0.03376993536949158 -0.7986647486686707 -5.0086528062820435e-06 -8.334405720233917e-06 0.0 0.0 0.0 0.0
72000000.0 0.01890265941619873 -0.7971999049186707 3.4623779356479645e-05 3.1789764761924744e-05 0.0 0.0 0.0 0.0
73000000.0 0.0031791049987077713 -0.7941852807998657 1.0496936738491058e-05 -2.1163374185562134e-05 0.0 0.0 0.0 0.0
74000000.0 -0.011190615594387054 -0.7909892797470093 -1.6182661056518555e-05 5.125068128108978e-06 0.0 0.0 0.0 0.0
75000000.0 -0.0259250458329916 -0.7879712581634521 -7.331371307373047e-06 1.2709759175777435e-05 0.0 0.0 0.0 0.0
76000000.0 -0.0412258543074131 -0.784349262714386 -1.523829996585846e-05 -1.5432946383953094e-05 0.0 0.0 0.0 0.0
77000000.0 -0.05494414269924164 -0.780929446220398 -2.3222528398036957e-05 2.04453244805336e-05 0.0 0.0 0.0 0.0
78000000.0 -0.06940574198961258 -0.7771568298339844 -1.2528151273727417e-05 -1.9405968487262726e-05 0.0 0.0 0.0 0.0
79000000.0 -0.08434396982192993 -0.7733739614486694 -1.1285766959190369e-05 -2.799462527036667e-05 0.0 0.0 0.0 0.0
80000000.0 -0.09794965386390686 -0.7691478729248047 2.6953406631946564e-05 5.366280674934387e-06 0.0 0.0 0.0 0.0
81000000.0 -0.11168637871742249 -0.7641940712928772 1.8722377717494965e-05 3.5594217479228973e-05 0.0 0.0 0.0 0.0
82000000.0 -0.12555964291095734 -0.759745717048645 -1.7117708921432495e-06 5.413778126239777e-06 0.0 0.0 0.0 0.0
83000000.0 -0.1383548080921173 -0.7547215819358826 -2.3983418941497803e-05 1.7192214727401733e-05 0.0 0.0 0.0 0.0
84000000.0 -0.152473583817482 -0.7490347623825073 -4.40794974565506e-06 -4.009995609521866e-05 0.0 0.0 0.0 0.0
85000000.0 -0.16631890833377838 -0.744850218296051 2.3573637008666992e-05 6.8498775362968445e-06 0.0 0.0 0.0 0.0
86000000.0 -0.17879030108451843 -0.7392654418945312 -6.102677434682846e-05 -2.8823502361774445e-05 0.0 0.0 0.0 0.0
87000000.0 -0.19210727512836456 -0.7335319519042969 -1.7297454178333282e-05 -4.779733717441559e-05 0.0 0.0 0.0 0.0
88000000.0 -0.20482909679412842 -0.7279191613197327 2.994295209646225e-05 3.0485913157463074e-05 0.0 0.0 0.0 0.0
89000000.0 -0.21773821115493774 -0.7217292189598083 1.5879049897193909e-06 -2.3433007299900055e-05 0.0 0.0 0.0 0.0
90000000.0 -0.23035411536693573 -0.7160208225250244 2.6077963411808014e-05 5.609355866909027e-06 0.0 0.0 0.0 0.0
91000000.0 -0.24239888787269592 -0.7097894549369812 -1.0672025382518768e-05 -2.7723610401153564e-05 0.0 0.0 0.0 0.0
92000000.0 -0.25444209575653076 -0.7030876278877258 1.590978354215622e-05 1.360289752483368e-05 0.0 0.0 0.0 0.0
93000000.0 -0.26607421040534973 -0.6961752772331238 3.816001117229462e-05 1.0642223060131073e-05 0.0 0.0 0.0 0.0
94000000.0 -0.27833619713783264 -0.6893203854560852 1.227203756570816e-05 -1.6812235116958618e-05 0.0 0.0 0.0 0.0
95000000.0 -0.28995463252067566 -0.6827725768089294 3.947503864765167e-05 -1.6557984054088593e-05 0.0 0.0 0.0 0.0
96000000.0 -0.30210426449775696 -0.6758890748023987 -1.1986121535301208e-05 -3.175903111696243e-05 0.0 0.0 0.0 0.0
97000000.0 -0.3126802444458008 -0.6688340306282043 2.54996120929718e-06 2.5091692805290222e-05 0.0 0.0 0.0 0.0
98000000.0 -0.32513028383255005 -0.6621758341789246 -5.359575152397156e-05 -2.8738752007484436e-05 0.0 0.0 0.0 0.0
99000000.0 -0.33542296290397644 -0.6539090275764465 -2.5412067770957947e-05 -1.3375654816627502e-05 0.0 0.0 0.0 0.0
100000000.0 -0.35041818022727966 -0.6496939659118652 3.462471067905426e-05 6.549432873725891e-05 0.0 0.0 0.0 0.0
101000000.0 -0.35851427912712097 -0.6394967436790466 8.242204785346985e-07 -1.8990598618984222e-05 0.0 0.0 0.0 0.0
102000000.0 -0.36870747804641724 -0.6313775181770325 -4.954636096954346e-06 -4.4395215809345245e-05 0.0 0.0 0.0 0.0
103000000.0 -0.37923693656921387 -0.6236802339553833 -8.64081084728241e-06 -3.804825246334076e-05 0.0 0.0 0.0 0.0
104000000.0 -0.3897898197174072 -0.6152938008308411 -1.0481104254722595e-05 -4.865787923336029e-05 0.0 0.0 0.0 0.0
105000000.0 -0.39937490224838257 -0.6071257591247559 9.01147723197937e-06 -5.061458796262741e-05 0.0 0.0 0.0 0.0
106000000.0 -0.4099416136741638 -0.5989972352981567 -1.3463199138641357e-05 1.8613412976264954e-05 0.0 0.0 0.0 0.0
107000000.0 -0.4199931025505066 -0.5910041928291321 3.41879203915596e-05 5.366560071706772e-05 0.0 0.0 0.0 0.0
108000000.0 -0.4311983287334442 -0.582611083984375 1.551397144794464e-05 8.342787623405457e-06 0.0 0.0 0.0 0.0
109000000.0 -0.44020774960517883 -0.5738458633422852 5.299411714076996e-05 -1.7235055565834045e-05 0.0 0.0 0.0 0.0
110000000.0 -0.44930392503738403 -0.565092146396637 1.6529113054275513e-05 3.4897588193416595e-05 0.0 0.0 0.0 0.0
111000000.0 -0.4588950276374817 -0.5562347769737244 1.752469688653946e-05 4.924554377794266e-05 0.0 0.0 0.0 0.0
112000000.0 -0.46910712122917175 -0.5470104813575745 -1.3032928109169006e-05 -1.0496936738491058e-05 0.0 0.0 0.0 0.0
113000000.0 -0.47840163111686707 -0.5381208062171936 1.1788681149482727e-05 2.2748485207557678e-05 0.0 0.0 0.0 0.0
114000000.0 -0.48770421743392944 -0.5289127826690674 3.114435821771622e-05 -2.2496096789836884e-05 0.0 0.0 0.0 0.0
115000000.0 -0.49656328558921814 -0.5195251703262329 -9.559094905853271e-06 -5.681067705154419e-08 0.0 0.0 0.0 0.0
116000000.0 -0.5056838393211365 -0.5100789666175842 3.842078149318695e-05 -1.082196831703186e-06 0.0 0.0 0.0 0.0
117000000.0 -0.5146391987800598 -0.5001389980316162 2.924446016550064e-05 1.3618730008602142e-05 0.0 0.0 0.0 0.0
118000000.0 -0.5227185487747192 -0.49096235632896423 3.1497329473495483e-05 -1.1568889021873474e-05 0.0 0.0 0.0 0.0
119000000.0 -0.5313777923583984 -0.48043495416641235 5.332194268703461e-05 6.860122084617615e-06 0.0 0.0 0.0 0.0
120000000.0 -0.5402060151100159 -0.4711718261241913 7.329508662223816e-06 3.5560689866542816e-05 0.0 0.0 0.0 0.0
121000000.0 -0.548061192035675 -0.46108996868133545 1.8814578652381897e-05 2.9727816581726074e-06 0.0 0.0 0.0 0.0
122000000.0 -0.5567394495010376 -0.45030710101127625 3.868713974952698e-05 -2.8274022042751312e-05 0.0 0.0 0.0 0.0
123000000.0 -0.565049409866333 -0.43951424956321716 -2.7486123144626617e-05 -2.6376917958259583e-05 0.0 0.0 0.0 0.0
124000000.0 -0.5723632574081421 -0.4294167459011078 -1.2123025953769684e-05 1.007039099931717e-05 0.0 0.0 0.0 0.0
125000000.0 -0.5803238749504089 -0.41862109303474426 -4.5643188059329987e-05 1.6004778444766998e-05 0.0 0.0 0.0 0.0
126000000.0 -0.5885095596313477 -0.408626526594162 2.8998591005802155e-05 -3.306381404399872e-05 0.0 0.0 0.0 0.0
127000000.0 -0.5962329506874084 -0.3972901403903961 -7.63963907957077e-06 3.742799162864685e-05 0.0 0.0 0.0 0.0
128000000.0 -0.603367805480957 -0.38655734062194824 6.565824151039124e-07 1.6133300960063934e-05 0.0 0.0 0.0 0.0
129000000.0 -0.6103997826576233 -0.37451499700546265 2.0192936062812805e-05 -3.539957106113434e-06 0.0 0.0 0.0 0.0
130000000.0 -0.619172990322113 -0.36382511258125305 7.852911949157715e-06 1.8753111362457275e-05 0.0 0.0 0.0 0.0
131000000.0 -0.6236352324485779 -0.3520168662071228 -1.3938173651695251e-05 -1.7330050468444824e-05 0.0 0.0 0.0 0.0
132000000.0 -0.631574273109436 -0.34020355343818665 3.676023334264755e-05 -2.3778527975082397e-05 0.0 0.0 0.0 0.0
133000000.0 -0.6383700966835022 -0.32860130071640015 2.8830021619796753e-05 4.730280488729477e-05 0.0 0.0 0.0 0.0
134000000.0 -0.6445723176002502 -0.3167928159236908 4.7097913920879364e-05 1.7599202692508698e-05 0.0 0.0 0.0 0.0
135000000.0 -0.6516051888465881 -0.3049483597278595 3.974884748458862e-05 -3.2520852982997894e-05 0.0 0.0 0.0 0.0
136000000.0 -0.6566034555435181 -0.292599618434906 6.248243153095245e-06 5.4107047617435455e-05 0.0 0.0 0.0 0.0
137000000.0 -0.6633855700492859 -0.2804473638534546 -5.313009023666382e-05 5.241110920906067e-05 0.0 0.0 0.0 0.0
138000000.0 -0.6690141558647156 -0.26720699667930603 3.17571684718132e-05 -1.7836689949035645e-05 0.0 0.0 0.0 0.0
139000000.0 -0.6749919652938843 -0.25609564781188965 -3.1888484954833984e-06 -4.247017204761505e-05 0.0 0.0 0.0 0.0
140000000.0 -0.6804925203323364 -0.2426493912935257 -2.2868625819683075e-05 3.2184645533561707e-05 0.0 0.0 0.0 0.0
141000000.0 -0.6689998507499695 -0.197218656539917 -2.752244472503662e-05 -4.5075081288814545e-05 0.0 0.0 0.0 0.0
142000000.0 -0.6737893223762512 -0.18433232605457306 1.965649425983429e-05 -1.1510215699672699e-05 0.0 0.0 0.0 0.0
143000000.0 -0.6775436401367188 -0.17154675722122192 2.2240914404392242e-05 3.0691735446453094e-05 0.0 0.0 0.0 0.0
144000000.0 -0.6809892654418945 -0.1595006138086319 3.679096698760986e-05 1.0235235095024109e-06 0.0 0.0 0.0 0.0
145000000.0 -0.6852785348892212 -0.14577479660511017 3.419257700443268e-05 -1.857709139585495e-05 0.0 0.0 0.0 0.0
146000000.0 -0.688288152217865 -0.13315539062023163 3.631319850683212e-05 -4.325713962316513e-05 0.0 0.0 0.0 0.0
147000000.0 -0.6905436515808105 -0.12035230547189713 1.3122335076332092e-05 1.6080215573310852e-05 0.0 0.0 0.0 0.0
148000000.0 -0.6946417093276978 -0.10684805363416672 1.0175630450248718e-05 -7.207505404949188e-06 0.0 0.0 0.0 0.0
149000000.0 -0.6974594593048096 -0.09387633204460144 2.8675422072410583e-06 5.41098415851593e-06 0.0 0.0 0.0 0.0
150000000.0 -0.7004135251045227 -0.08079130947589874 -2.2426247596740723e-06 -2.300180494785309e-05 0.0 0.0 0.0 0.0
151000000.0 -0.7020213603973389 -0.0675911232829094 1.3940036296844482e-05 1.276843249797821e-06 0.0 0.0 0.0 0.0
152000000.0 -0.7045227289199829 -0.054245106875896454 -1.1458061635494232e-05 -3.5818666219711304e-05 0.0 0.0 0.0 0.0
153000000.0 -0.7067810893058777 -0.040721628814935684 -2.305116504430771e-05 -1.1529773473739624e-05 0.0 0.0 0.0 0.0
154000000.0 -0.708193838596344 -0.026675326749682426 2.6088207960128784e-05 -1.290440559387207e-05 0.0 0.0 0.0 0.0
155000000.0 -0.7103376984596252 -0.01289797481149435 2.3927539587020874e-05 1.7988495528697968e-05 0.0 0.0 0.0 0.0
156000000.0 -0.711417555809021 0.00043602660298347473 1.5098601579666138e-05 -1.0457821190357208e-05 0.0 0.0 0.0 0.0
157000000.0 -0.7133653163909912 0.014379295520484447 -1.1268071830272675e-05 1.755543053150177e-05 0.0 0.0 0.0 0.0
158000000.0 -0.7141370177268982 0.02823898196220398 -1.1797063052654266e-05 1.6460195183753967e-05 0.0 0.0 0.0 0.0
159000000.0 -0.7148614525794983 0.04207628220319748 -1.6363337635993958e-06 -4.895031452178955e-06 0.0 0.0 0.0 0.0
160000000.0 -0.714984118938446 0.05600070580840111 3.621727228164673e-05 -5.4230913519859314e-05 0.0 0.0 0.0 0.0
161000000.0 -0.7154836654663086 0.07019268721342087 4.717148840427399e-06 -8.26176255941391e-06 0.0 0.0 0.0 0.0
162000000.0 -0.7157230377197266 0.08404534310102463 2.3507513105869293e-05 -1.754891127347946e-05 0.0 0.0 0.0 0.0
163000000.0 -0.7158300280570984 0.09869669377803802 1.4621764421463013e-07 2.096407115459442e-06 0.0 0.0 0.0 0.0
164000000.0 -0.715225875377655 0.11314985156059265 -1.2295320630073547e-05 2.3859553039073944e-05 0.0 0.0 0.0 0.0
165000000.0 -0.7150899767875671 0.1273408681154251 -1.4980323612689972e-05 -2.52649188041687e-05 0.0 0.0 0.0 0.0
166000000.0 -0.7139086127281189 0.14173832535743713 -1.2376345694065094e-05 -1.784786581993103e-05 0.0 0.0 0.0 0.0
167000000.0 -0.7128569483757019 0.15637032687664032 -2.3058615624904633e-05 4.2731873691082e-05 0.0 0.0 0.0 0.0
168000000.0 -0.7114753723144531 0.171024352312088 -1.0346993803977966e-05 1.8470920622348785e-05 0.0 0.0 0.0 0.0
169000000.0 -0.7104212641716003 0.18615663051605225 -9.796582162380219e-06 -1.1217780411243439e-05 0.0 0.0 0.0 0.0
170000000.0 -0.7085511684417725 0.2002486288547516 7.955357432365417e-06 -3.398396074771881e-05 0.0 0.0 0.0 0.0
171000000.0 -0.7066178917884827 0.21541355550289154 -1.6856938600540161e-06 -3.1031668186187744e-06 0.0 0.0 0.0 0.0
172000000.0 -0.7035641670227051 0.23030808568000793 9.218230843544006e-06 -3.876443952322006e-05 0.0 0.0 0.0 0.0
173000000.0 -0.7015649676322937 0.2455020546913147 -4.22261655330658e-06 6.943009793758392e-06 0.0 0.0 0.0 0.0
174000000.0 -0.6993271708488464 0.2601957619190216 4.4247135519981384e-05 -2.7688220143318176e-06 0.0 0.0 0.0 0.0
175000000.0 -0.6950108408927917 0.27465295791625977 2.138689160346985e-05 9.350478649139404e-06 0.0 0.0 0.0 0.0
