!Created with skrf (http://scikit-rf.org).
# Hz S RI R 50.0 
!freq ReS11 ImS11 ReS21 ImS21 ReS12 ImS12 ReS22 ImS22
1000000.0 0.011133772321045399 0.001797928474843502 -0.9521832466125488 0.014484637416899204 0.0 0.0 0.0 0.0
2000000.0 0.01164579764008522 0.0037746774032711983 -0.953369140625 0.028785446658730507 0.0 0.0 0.0 0.0
3000000.0 0.012494712136685848 0.005232739262282848 -0.9553147554397583 0.0437593050301075 0.0 0.0 0.0 0.0
4000000.0 0.013239247724413872 0.006644880399107933 -0.9528788924217224 0.05910563841462135 0.0 0.0 0.0 0.0
5000000.0 0.013883281499147415 0.00787174329161644 -0.9503331780433655 0.07226186990737915 0.0 0.0 0.0 0.0
6000000.0 0.014682991430163383 0.009118398651480675 -0.950432538986206 0.08498530834913254 0.0 0.0 0.0 0.0
7000000.0 0.015401428565382957 0.009953141212463379 -0.9518929123878479 0.10057573020458221 0.0 0.0 0.0 0.0
8000000.0 0.015821198001503944 0.010850979015231133 -0.9506040811538696 0.11530274897813797 0.0 0.0 0.0 0.0
9000000.0 0.016851719468832016 0.01207966823130846 -0.9492433071136475 0.13063770532608032 0.0 0.0 0.0 0.0
10000000.0 0.017925677821040154 0.013311981223523617 -0.9473031163215637 0.145935520529747 0.0 0.0 0.0 0.0
11000000.0 0.018426556140184402 0.013877542689442635 -0.9451102018356323 0.16085565090179443 0.0 0.0 0.0 0.0
12000000.0 0.018808186054229736 0.014628781005740166 -0.9428529143333435 0.17521391808986664 0.0 0.0 0.0 0.0
13000000.0 0.019566917791962624 0.015345590189099312 -0.9407684206962585 0.19108350574970245 0.0 0.0 0.0 0.0
14000000.0 0.020335502922534943 0.016028324142098427 -0.9371783137321472 0.20464780926704407 0.0 0.0 0.0 0.0
15000000.0 0.021334419026970863 0.017513390630483627 -0.9343663454055786 0.2202109545469284 0.0 0.0 0.0 0.0
16000000.0 0.022239701822400093 0.01896676793694496 -0.9313112497329712 0.2344517856836319 0.0 0.0 0.0 0.0
17000000.0 0.023140709847211838 0.019708847627043724 -0.927210807800293 0.2481587827205658 0.0 0.0 0.0 0.0
18000000.0 0.02389046922326088 0.020380958914756775 -0.9235686659812927 0.26232534646987915 0.0 0.0 0.0 0.0
19000000.0 0.024547751992940903 0.02082042209804058 -0.9192551374435425 0.2764362394809723 0.0 0.0 0.0 0.0
20000000.0 0.025786664336919785 0.0210559144616127 -0.9152845144271851 0.2904775142669678 0.0 0.0 0.0 0.0
21000000.0 0.026345428079366684 0.021309997886419296 -0.9108862280845642 0.3046885132789612 0.0 0.0 0.0 0.0
22000000.0 0.027502553537487984 0.021679027006030083 -0.9062699675559998 0.31933313608169556 0.0 0.0 0.0 0.0
23000000.0 0.028216231614351273 0.021633069962263107 -0.901779055595398 0.3338489532470703 0.0 0.0 0.0 0.0
24000000.0 0.02896301820874214 0.02173702046275139 -0.8961077928543091 0.34670788049697876 0.0 0.0 0.0 0.0
25000000.0 0.030137160792946815 0.02204730361700058 -0.8906991481781006 0.3606284260749817 0.0 0.0 0.0 0.0
26000000.0 0.031218232586979866 0.022301040589809418 -0.8857767581939697 0.3750421702861786 0.0 0.0 0.0 0.0
27000000.0 0.031992342323064804 0.022608915343880653 -0.879474937915802 0.38811007142066956 0.0 0.0 0.0 0.0
28000000.0 0.032933127135038376 0.022829104214906693 -0.8737099766731262 0.40217769145965576 0.0 0.0 0.0 0.0
29000000.0 0.03390030562877655 0.02305174246430397 -0.8680107593536377 0.41618385910987854 0.0 0.0 0.0 0.0
30000000.0 0.03487372025847435 0.023344095796346664 -0.8615450859069824 0.42892366647720337 0.0 0.0 0.0 0.0
31000000.0 0.03576883301138878 0.023342162370681763 -0.8546971678733826 0.4418499171733856 0.0 0.0 0.0 0.0
32000000.0 0.03690849617123604 0.02354496344923973 -0.8476943969726562 0.45531830191612244 0.0 0.0 0.0 0.0
33000000.0 0.03797958791255951 0.02359570749104023 -0.8408724069595337 0.46883177757263184 0.0 0.0 0.0 0.0
34000000.0 0.0387885607779026 0.023612001910805702 -0.8340480327606201 0.4818679392337799 0.0 0.0 0.0 0.0
35000000.0 0.039841096848249435 0.02354951575398445 -0.8264666199684143 0.49445679783821106 0.0 0.0 0.0 0.0
36000000.0 0.04083796963095665 0.023366032168269157 -0.8190247416496277 0.5067750215530396 0.0 0.0 0.0 0.0
37000000.0 0.041776396334171295 0.023335928097367287 -0.8109378814697266 0.5196487307548523 0.0 0.0 0.0 0.0
38000000.0 0.04268666356801987 0.023434385657310486 -0.8033288717269897 0.5333192944526672 0.0 0.0 0.0 0.0
39000000.0 0.04359830915927887 0.023162025958299637 -0.7951449751853943 0.5448103547096252 0.0 0.0 0.0 0.0
40000000.0 0.044552356004714966 0.02287408336997032 -0.7871663570404053 0.5571336150169373 0.0 0.0 0.0 0.0
41000000.0 0.045659203082323074 0.022658081725239754 -0.7782917618751526 0.5685948133468628 0.0 0.0 0.0 0.0
42000000.0 0.04655492305755615 0.022473450750112534 -0.769529402256012 0.5806516408920288 0.0 0.0 0.0 0.0
43000000.0 0.04760953411459923 0.022067436948418617 -0.7612154483795166 0.5931762456893921 0.0 0.0 0.0 0.0
44000000.0 0.048419564962387085 0.021636584773659706 -0.7522569298744202 0.6044564247131348 0.0 0.0 0.0 0.0
45000000.0 0.04941330850124359 0.02122480981051922 -0.7429839968681335 0.6161063313484192 0.0 0.0 0.0 0.0
46000000.0 0.05007041245698929 0.020618150010704994 -0.7334092855453491 0.6284410953521729 0.0 0.0 0.0 0.0
47000000.0 0.050874195992946625 0.020398126915097237 -0.7233939170837402 0.6402511596679688 0.0 0.0 0.0 0.0
48000000.0 0.05165937542915344 0.01986965909600258 -0.7142099142074585 0.6510304808616638 0.0 0.0 0.0 0.0
49000000.0 0.05264363810420036 0.019181396812200546 -0.7046039700508118 0.661925733089447 0.0 0.0 0.0 0.0
50000000.0 0.05332343652844429 0.018985304981470108 -0.6937655806541443 0.6730929017066956 0.0 0.0 0.0 0.0
51000000.0 0.05413438752293587 0.018247608095407486 -0.6838837265968323 0.6838428378105164 0.0 0.0 0.0 0.0
52000000.0 0.05474194511771202 0.017579782754182816 -0.6736388206481934 0.6942307949066162 0.0 0.0 0.0 0.0
53000000.0 0.05564071238040924 0.017017627134919167 -0.6632663607597351 0.7047610282897949 0.0 0.0 0.0 0.0
54000000.0 0.05632643774151802 0.016226183623075485 -0.6525235772132874 0.7145870327949524 0.0 0.0 0.0 0.0
55000000.0 0.05673736333847046 0.015481055714190006 -0.6411165595054626 0.725818932056427 0.0 0.0 0.0 0.0
56000000.0 0.05761551856994629 0.014788869768381119 -0.6305034160614014 0.7353426218032837 0.0 0.0 0.0 0.0
57000000.0 0.05815664306282997 0.014021817594766617 -0.6189782619476318 0.7451862096786499 0.0 0.0 0.0 0.0
58000000.0 0.058354608714580536 0.013281169347465038 -0.6080375909805298 0.7549436092376709 0.0 0.0 0.0 0.0
59000000.0 0.059076838195323944 0.012572232633829117 -0.596234142780304 0.7649252414703369 0.0 0.0 0.0 0.0
60000000.0 0.05957982316613197 0.01182705257087946 -0.5849650502204895 0.7739180326461792 0.0 0.0 0.0 0.0
61000000.0 0.06006747856736183 0.010905742645263672 -0.5726165175437927 0.7834559679031372 0.0 0.0 0.0 0.0
62000000.0 0.060648269951343536 0.01029160339385271 -0.561062753200531 0.7924501299858093 0.0 0.0 0.0 0.0
63000000.0 0.06084474176168442 0.00905473530292511 -0.5485497117042542 0.8018719553947449 0.0 0.0 0.0 0.0
64000000.0 0.061262957751750946 0.008411402814090252 -0.5363579392433167 0.8098028302192688 0.0 0.0 0.0 0.0
65000000.0 0.06158491596579552 0.00728219747543335 -0.5241930484771729 0.8190794587135315 0.0 0.0 0.0 0.0
66000000.0 0.06180242821574211 0.00668144878000021 -0.5120434165000916 0.8273472189903259 0.0 0.0 0.0 0.0
67000000.0 0.062357328832149506 0.005944445729255676 -0.49931347370147705 0.8353186249732971 0.0 0.0 0.0 0.0
68000000.0 0.06196664646267891 0.005052616819739342 -0.48654529452323914 0.8431562781333923 0.0 0.0 0.0 0.0
69000000.0 0.06235524266958237 0.003802725113928318 -0.47362539172172546 0.8507499098777771 0.0 0.0 0.0 0.0
70000000.0 0.06245710700750351 0.003643370233476162 -0.4602123498916626 0.8584704995155334 0.0 0.0 0.0 0.0
71000000.0 0.06262149661779404 0.001947728917002678 -0.4473169147968292 0.8661147356033325 0.0 0.0 0.0 0.0
72000000.0 0.06266625225543976 0.0012045390903949738 -0.4343387186527252 0.873006284236908 0.0 0.0 0.0 0.0
73000000.0 0.06235548481345177 0.000536835752427578 -0.4209938943386078 0.8801109790802002 0.0 0.0 0.0 0.0
74000000.0 0.06263548135757446 -0.00010430905967950821 -0.4069159924983978 0.8863450884819031 0.0 0.0 0.0 0.0
75000000.0 0.06246073544025421 -0.0012672599405050278 -0.3940425217151642 0.893428385257721 0.0 0.0 0.0 0.0
76000000.0 0.06228475272655487 -0.0021478021517395973 -0.38033708930015564 0.9001175165176392 0.0 0.0 0.0 0.0
77000000.0 0.06211567297577858 -0.003009888343513012 -0.3663318157196045 0.9064465761184692 0.0 0.0 0.0 0.0
78000000.0 0.061965323984622955 -0.003788643516600132 -0.3522581458091736 0.9122834801673889 0.0 0.0 0.0 0.0
79000000.0 0.06160786747932434 -0.004793783649802208 -0.33883124589920044 0.9185258150100708 0.0 0.0 0.0 0.0
80000000.0 0.061344996094703674 -0.005681730806827545 -0.32456210255622864 0.924610435962677 0.0 0.0 0.0 0.0
81000000.0 0.061274390667676926 -0.006620603613555431 -0.31062668561935425 0.9293986558914185 0.0 0.0 0.0 0.0
82000000.0 0.06091749295592308 -0.007601738907396793 -0.29574283957481384 0.9351141452789307 0.0 0.0 0.0 0.0
83000000.0 0.06056028977036476 -0.008184565231204033 -0.2816530466079712 0.939393937587738 0.0 0.0 0.0 0.0
84000000.0 0.060183532536029816 -0.00911207776516676 -0.2670086622238159 0.9438523650169373 0.0 0.0 0.0 0.0
85000000.0 0.05968993157148361 -0.009884202852845192 -0.2521873116493225 0.9494656920433044 0.0 0.0 0.0 0.0
86000000.0 0.05922238901257515 -0.010633260011672974 -0.2374546080827713 0.9537972211837769 0.0 0.0 0.0 0.0
87000000.0 0.05897015333175659 -0.011237021535634995 -0.22368073463439941 0.9575339555740356 0.0 0.0 0.0 0.0
88000000.0 0.05834801867604256 -0.012003119103610516 -0.20863687992095947 0.9613880515098572 0.0 0.0 0.0 0.0
89000000.0 0.05767001956701279 -0.012584547512233257 -0.19339251518249512 0.9650996327400208 0.0 0.0 0.0 0.0
90000000.0 0.05713040381669998 -0.013171076774597168 -0.17952175438404083 0.9680148959159851 0.0 0.0 0.0 0.0
91000000.0 0.05667438358068466 -0.01381037849932909 -0.16406899690628052 0.9713339805603027 0.0 0.0 0.0 0.0
92000000.0 0.05612659826874733 -0.014596926048398018 -0.14880874752998352 0.9747610092163086 0.0 0.0 0.0 0.0
93000000.0 0.055259671062231064 -0.015035195276141167 -0.13347598910331726 0.9772064685821533 0.0 0.0 0.0 0.0
94000000.0 0.0545533113181591 -0.01560415793210268 -0.11807083338499069 0.9795985817909241 0.0 0.0 0.0 0.0
95000000.0 0.05406282842159271 -0.016235165297985077 -0.102756567299366 0.9823439717292786 0.0 0.0 0.0 0.0
96000000.0 0.053202006965875626 -0.016531851142644882 -0.08871488273143768 0.9842648506164551 0.0 0.0 0.0 0.0
97000000.0 0.05256453901529312 -0.017054827883839607 -0.07249405980110168 0.9866442084312439 0.0 0.0 0.0 0.0
98000000.0 0.05181121453642845 -0.017411813139915466 -0.05739949271082878 0.9874258637428284 0.0 0.0 0.0 0.0
99000000.0 0.05103140324354172 -0.01774326153099537 -0.04176483303308487 0.9891800880432129 0.0 0.0 0.0 0.0
100000000.0 0.050751641392707825 -0.017996447160840034 -0.02509615570306778 0.9962031245231628 0.0 0.0 0.0 0.0
101000000.0 0.049699656665325165 -0.01846630871295929 -0.01103911455720663 0.9908286929130554 0.0 0.0 0.0 0.0
102000000.0 0.04878287389874458 -0.018913161009550095 0.003856220282614231 0.991541862487793 0.0 0.0 0.0 0.0
103000000.0 0.04779926314949989 -0.018965622410178185 0.020298631861805916 0.9922743439674377 0.0 0.0 0.0 0.0
104000000.0 0.047084610909223557 -0.019226716831326485 0.03558077663183212 0.9924104809761047 0.0 0.0 0.0 0.0
105000000.0 0.04631470516324043 -0.019419116899371147 0.0516291968524456 0.9928268194198608 0.0 0.0 0.0 0.0
106000000.0 0.04568306729197502 -0.0196976438164711 0.06698408722877502 0.9918340444564819 0.0 0.0 0.0 0.0
107000000.0 0.04448923468589783 -0.01989647001028061 0.08328626304864883 0.9915274977684021 0.0 0.0 0.0 0.0
108000000.0 0.04389239475131035 -0.01961570233106613 0.09912433475255966 0.9908080697059631 0.0 0.0 0.0 0.0
109000000.0 0.04308280721306801 -0.01992056332528591 0.1139364242553711 0.9895190596580505 0.0 0.0 0.0 0.0
110000000.0 0.04212323948740959 -0.019718816503882408 0.13042260706424713 0.9888172149658203 0.0 0.0 0.0 0.0
111000000.0 0.041178323328495026 -0.01993749290704727 0.14567098021507263 0.9866766333580017 0.0 0.0 0.0 0.0
112000000.0 0.04069456830620766 -0.019725043326616287 0.16064101457595825 0.9841322898864746 0.0 0.0 0.0 0.0
113000000.0 0.03963813930749893 -0.019617320969700813 0.17696912586688995 0.9827316403388977 0.0 0.0 0.0 0.0
114000000.0 0.039088137447834015 -0.019340161234140396 0.19207772612571716 0.9805483222007751 0.0 0.0 0.0 0.0
115000000.0 0.03816346079111099 -0.019619811326265335 0.20825503766536713 0.9781288504600525 0.0 0.0 0.0 0.0
116000000.0 0.03731336072087288 -0.01926562376320362 0.22389008104801178 0.9746460914611816 0.0 0.0 0.0 0.0
117000000.0 0.03635234758257866 -0.018896961584687233 0.23949454724788666 0.9716511368751526 0.0 0.0 0.0 0.0
118000000.0 0.03606284037232399 -0.018589673563838005 0.25395649671554565 0.9680455327033997 0.0 0.0 0.0 0.0
119000000.0 0.03501344099640846 -0.018247636035084724 0.27049508690834045 0.964817464351654 0.0 0.0 0.0 0.0
120000000.0 0.03436368703842163 -0.018122918903827667 0.2855572998523712 0.9612599015235901 0.0 0.0 0.0 0.0
121000000.0 0.03370792418718338 -0.01791343279182911 0.3006837069988251 0.9577012658119202 0.0 0.0 0.0 0.0
122000000.0 0.03287332132458687 -0.017342643812298775 0.3160286247730255 0.9526827335357666 0.0 0.0 0.0 0.0
123000000.0 0.03220490366220474 -0.017133424058556557 0.3312934935092926 0.9484162926673889 0.0 0.0 0.0 0.0
124000000.0 0.031608063727617264 -0.016529349610209465 0.347159206867218 0.9434847831726074 0.0 0.0 0.0 0.0
125000000.0 0.03072555921971798 -0.01618209481239319 0.3624250888824463 0.9388737082481384 0.0 0.0 0.0 0.0
126000000.0 0.03033994697034359 -0.015551491640508175 0.3777724802494049 0.9341788291931152 0.0 0.0 0.0 0.0
127000000.0 0.029848188161849976 -0.015184769406914711 0.3916749656200409 0.928075909614563 0.0 0.0 0.0 0.0
128000000.0 0.029078412801027298 -0.014750175178050995 0.4073004424571991 0.9225910902023315 0.0 0.0 0.0 0.0
129000000.0 0.028667354956269264 -0.013904371298849583 0.42083021998405457 0.9159489274024963 0.0 0.0 0.0 0.0
130000000.0 0.028249237686395645 -0.01347114983946085 0.43699976801872253 0.9120039343833923 0.0 0.0 0.0 0.0
131000000.0 0.02748659811913967 -0.012573687359690666 0.45009201765060425 0.9028567671775818 0.0 0.0 0.0 0.0
132000000.0 0.0268876813352108 -0.011975170113146305 0.4646048843860626 0.8959381580352783 0.0 0.0 0.0 0.0
133000000.0 0.026409395039081573 -0.011463785544037819 0.4798373579978943 0.8902071118354797 0.0 0.0 0.0 0.0
134000000.0 0.026267817243933678 -0.010882096365094185 0.494415819644928 0.8832607865333557 0.0 0.0 0.0 0.0
135000000.0 0.02576489932835102 -0.010062705725431442 0.5089417695999146 0.8752014636993408 0.0 0.0 0.0 0.0
136000000.0 0.025669533759355545 -0.009477409534156322 0.5226379632949829 0.8674225211143494 0.0 0.0 0.0 0.0
137000000.0 0.025131525471806526 -0.0084787392988801 0.5366728901863098 0.8600225448608398 0.0 0.0 0.0 0.0
138000000.0 0.024762293323874474 -0.007744261063635349 0.5503904223442078 0.8516473770141602 0.0 0.0 0.0 0.0
139000000.0 0.024665741249918938 -0.007272089831531048 0.5649539828300476 0.8432818651199341 0.0 0.0 0.0 0.0
140000000.0 0.02449394203722477 -0.006549927406013012 0.576770544052124 0.8352575898170471 0.0 0.0 0.0 0.0
141000000.0 0.023900194093585014 -0.005414491519331932 0.5926390886306763 0.7967190742492676 0.0 0.0 0.0 0.0
142000000.0 0.023854222148656845 -0.004525028169155121 0.6060149669647217 0.7868541479110718 0.0 0.0 0.0 0.0
143000000.0 0.02357408218085766 -0.003459576517343521 0.6191630959510803 0.7775527834892273 0.0 0.0 0.0 0.0
144000000.0 0.02364564687013626 -0.0030730441212654114 0.6305149793624878 0.7680078744888306 0.0 0.0 0.0 0.0
145000000.0 0.02353242039680481 -0.0019483957439661026 0.6431625485420227 0.75837641954422 0.0 0.0 0.0 0.0
146000000.0 0.023554319515824318 -0.0012322543188929558 0.6557372808456421 0.7481182217597961 0.0 0.0 0.0 0.0
147000000.0 0.023429809138178825 -0.0005625467747449875 0.6672307252883911 0.7382747530937195 0.0 0.0 0.0 0.0
148000000.0 0.02371588721871376 0.00029244832694530487 0.6797590255737305 0.7280222773551941 0.0 0.0 0.0 0.0
149000000.0 0.023414012044668198 0.0011404259130358696 0.6916509866714478 0.7172600626945496 0.0 0.0 0.0 0.0
150000000.0 0.02357139252126217 0.001980600878596306 0.702734649181366 0.7068320512771606 0.0 0.0 0.0 0.0
151000000.0 0.023860109969973564 0.0028045745566487312 0.7149888873100281 0.6959070563316345 0.0 0.0 0.0 0.0
152000000.0 0.023872142657637596 0.0034965183585882187 0.7258793711662292 0.6843507885932922 0.0 0.0 0.0 0.0
153000000.0 0.023875407874584198 0.004181946627795696 0.7364639043807983 0.6734263896942139 0.0 0.0 0.0 0.0
154000000.0 0.02424219809472561 0.004995851777493954 0.7476071715354919 0.6614805459976196 0.0 0.0 0.0 0.0
155000000.0 0.024655194953083992 0.0056604864075779915 0.7588614225387573 0.650811493396759 0.0 0.0 0.0 0.0
156000000.0 0.024809634312987328 0.00642033014446497 0.7686623930931091 0.6382743716239929 0.0 0.0 0.0 0.0
157000000.0 0.02514796331524849 0.00718185119330883 0.7797510027885437 0.6262640953063965 0.0 0.0 0.0 0.0
158000000.0 0.025512749329209328 0.007826684974133968 0.7893425226211548 0.6147772073745728 0.0 0.0 0.0 0.0
159000000.0 0.02598908543586731 0.008595609106123447 0.7992162704467773 0.6027134656906128 0.0 0.0 0.0 0.0
160000000.0 0.02646004781126976 0.00927664339542389 0.8097043037414551 0.5897394418716431 0.0 0.0 0.0 0.0
161000000.0 0.026948237791657448 0.009898264892399311 0.8198427557945251 0.5772169828414917 0.0 0.0 0.0 0.0
162000000.0 0.027348296716809273 0.01046961359679699 0.828514814376831 0.5637091398239136 0.0 0.0 0.0 0.0
163000000.0 0.02801574021577835 0.011051791720092297 0.8390357494354248 0.55088871717453 0.0 0.0 0.0 0.0
164000000.0 0.028483008965849876 0.011642574332654476 0.8469284772872925 0.5380505323410034 0.0 0.0 0.0 0.0
165000000.0 0.029123008251190186 0.012093475088477135 0.8556705713272095 0.524631142616272 0.0 0.0 0.0 0.0
166000000.0 0.029637357220053673 0.012904934585094452 0.8643220067024231 0.5117165446281433 0.0 0.0 0.0 0.0
167000000.0 0.030376743525266647 0.013222659938037395 0.8718078136444092 0.4981969892978668 0.0 0.0 0.0 0.0
168000000.0 0.030905846506357193 0.013750545680522919 0.8804927468299866 0.48488742113113403 0.0 0.0 0.0 0.0
169000000.0 0.03171446546912193 0.014361045323312283 0.8897180557250977 0.4699265658855438 0.0 0.0 0.0 0.0
170000000.0 0.03257770091295242 0.014600101858377457 0.8975059390068054 0.4570696949958801 0.0 0.0 0.0 0.0
171000000.0 0.033258434385061264 0.015092507004737854 0.903986930847168 0.44225940108299255 0.0 0.0 0.0 0.0
172000000.0 0.03391435369849205 0.015472439117729664 0.9120993614196777 0.4283983111381531 0.0 0.0 0.0 0.0
173000000.0 0.03453048691153526 0.01560917403548956 0.9199687242507935 0.4138103425502777 0.0 0.0 0.0 0.0
174000000.0 0.03543515503406525 0.016122253611683846 0.9263768196105957 0.39907971024513245 0.0 0.0 0.0 0.0
175000000.0 0.035984303802251816 0.016336478292942047 0.9320808053016663 0.3852435350418091 0.0 0.0 0.0 0.0
176000000.0 0.037026386708021164 0.01647161692380905 0.9388176202774048 0.3706837594509125 0.0 0.0 0.0 0.0
177000000.0 0.03789345547556877 0.016945019364356995 0.9450890421867371 0.35574036836624146 0.0 0.0 0.0 0.0
178000000.0 0.03887009620666504 0.016986846923828125 0.9519720673561096 0.3419128358364105 0.0 0.0 0.0 0.0
179000000.0 0.039598263800144196 0.0170078556984663 0.9579107761383057 0.32513055205345154 0.0 0.0 0.0 0.0
180000000.0 0.04059932753443718 0.017171533778309822 0.9629818201065063 0.31070461869239807 0.0 0.0 0.0 0.0
181000000.0 0.04149605706334114 0.017310673370957375 0.9689269661903381 0.29535791277885437 0.0 0.0 0.0 0.0
182000000.0 0.042306579649448395 0.01721927337348461 0.9748444557189941 0.27969473600387573 0.0 0.0 0.0 0.0
183000000.0 0.042974554002285004 0.017377657815814018 0.9789295792579651 0.264296293258667 0.0 0.0 0.0 0.0
184000000.0 0.044040992856025696 0.01706867851316929 0.9841373562812805 0.2495100200176239 0.0 0.0 0.0 0.0
