!Created with skrf (http://scikit-rf.org).
# Hz S RI R 50.0 
!freq ReS11 ImS11 ReS21 ImS21 ReS12 ImS12 ReS22 ImS22
1000000.0 0.01364461611956358 0.002046314999461174 -0.9499640464782715 0.01720200851559639 0.0 0.0 0.0 0.0
2000000.0 0.014326951466500759 0.0035565169528126717 -0.9508998394012451 0.034271471202373505 0.0 0.0 0.0 0.0
3000000.0 0.015262830071151257 0.004874382168054581 -0.9532188773155212 0.05242353677749634 0.0 0.0 0.0 0.0
4000000.0 0.01628952845931053 0.005961461924016476 -0.9500901103019714 0.06983340531587601 0.0 0.0 0.0 0.0
5000000.0 0.016284771263599396 0.0067141298204660416 -0.9472526907920837 0.0861826241016388 0.0 0.0 0.0 0.0
6000000.0 0.017561383545398712 0.008017493411898613 -0.9463518261909485 0.10062971711158752 0.0 0.0 0.0 0.0
7000000.0 0.018118679523468018 0.0086758341640234 -0.947181224822998 0.119209423661232 0.0 0.0 0.0 0.0
8000000.0 0.018559802323579788 0.009410552680492401 -0.9453604221343994 0.13701923191547394 0.0 0.0 0.0 0.0
9000000.0 0.019862553104758263 0.010338467545807362 -0.9432098269462585 0.15483541786670685 0.0 0.0 0.0 0.0
10000000.0 0.02066093496978283 0.011103520169854164 -0.9399967789649963 0.17199166119098663 0.0 0.0 0.0 0.0
11000000.0 0.0211784727871418 0.011603853665292263 -0.9370527863502502 0.18901456892490387 0.0 0.0 0.0 0.0
12000000.0 0.021496141329407692 0.01210025791078806 -0.9333272576332092 0.20622605085372925 0.0 0.0 0.0 0.0
13000000.0 0.022150708362460136 0.012574778869748116 -0.9296165108680725 0.22379477322101593 0.0 0.0 0.0 0.0
14000000.0 0.023032749071717262 0.01286389771848917 -0.9257887005805969 0.24077042937278748 0.0 0.0 0.0 0.0
15000000.0 0.023976201191544533 0.013887151144444942 -0.9205080270767212 0.2574916481971741 0.0 0.0 0.0 0.0
16000000.0 0.02544334903359413 0.01536139938980341 -0.915803074836731 0.2738441824913025 0.0 0.0 0.0 0.0
17000000.0 0.02598820999264717 0.015945980325341225 -0.9106139540672302 0.2906694710254669 0.0 0.0 0.0 0.0
18000000.0 0.026876412332057953 0.016124943271279335 -0.9055085182189941 0.3078087866306305 0.0 0.0 0.0 0.0
19000000.0 0.027624811977148056 0.016298705711960793 -0.8989889025688171 0.32342609763145447 0.0 0.0 0.0 0.0
20000000.0 0.028243588283658028 0.01670493558049202 -0.893619179725647 0.3407779633998871 0.0 0.0 0.0 0.0
21000000.0 0.029129531234502792 0.016724230721592903 -0.8870845437049866 0.35694801807403564 0.0 0.0 0.0 0.0
22000000.0 0.029434343799948692 0.015695123001933098 -0.8804076313972473 0.3721427321434021 0.0 0.0 0.0 0.0
23000000.0 0.03029746003448963 0.016057955101132393 -0.8736490607261658 0.3885349631309509 0.0 0.0 0.0 0.0
24000000.0 0.03111560456454754 0.0158036258071661 -0.8671779036521912 0.40503501892089844 0.0 0.0 0.0 0.0
25000000.0 0.03186604380607605 0.015842782333493233 -0.8598943948745728 0.420200914144516 0.0 0.0 0.0 0.0
26000000.0 0.03244413062930107 0.015721941366791725 -0.8515986800193787 0.43522700667381287 0.0 0.0 0.0 0.0
27000000.0 0.03332151472568512 0.015675771981477737 -0.8434963822364807 0.450642466545105 0.0 0.0 0.0 0.0
28000000.0 0.03409811481833458 0.01568741723895073 -0.8352214694023132 0.46604594588279724 0.0 0.0 0.0 0.0
29000000.0 0.03497239574790001 0.015474511310458183 -0.8266756534576416 0.4810292720794678 0.0 0.0 0.0 0.0
30000000.0 0.03571668267250061 0.015440095216035843 -0.8177158832550049 0.49602481722831726 0.0 0.0 0.0 0.0
31000000.0 0.03616798669099808 0.015426745638251305 -0.8087145686149597 0.5110223889350891 0.0 0.0 0.0 0.0
32000000.0 0.03707152232527733 0.014875626191496849 -0.799013614654541 0.524635910987854 0.0 0.0 0.0 0.0
33000000.0 0.0375433973968029 0.014844417572021484 -0.7893766760826111 0.540141761302948 0.0 0.0 0.0 0.0
34000000.0 0.038299571722745895 0.014425289817154408 -0.7796357870101929 0.5531855225563049 0.0 0.0 0.0 0.0
35000000.0 0.03887854143977165 0.014163770712912083 -0.7698055505752563 0.567658543586731 0.0 0.0 0.0 0.0
36000000.0 0.039651528000831604 0.013962946832180023 -0.7592745423316956 0.5813562870025635 0.0 0.0 0.0 0.0
37000000.0 0.04024617746472359 0.013540848158299923 -0.7488807439804077 0.5955812931060791 0.0 0.0 0.0 0.0
38000000.0 0.04088841751217842 0.0128543172031641 -0.7380617260932922 0.6089950799942017 0.0 0.0 0.0 0.0
39000000.0 0.04156022518873215 0.012514651753008366 -0.7266808152198792 0.621534526348114 0.0 0.0 0.0 0.0
40000000.0 0.042049046605825424 0.01220038253813982 -0.7155439257621765 0.6342609524726868 0.0 0.0 0.0 0.0
41000000.0 0.04271405562758446 0.01150236465036869 -0.7039122581481934 0.6475325226783752 0.0 0.0 0.0 0.0
42000000.0 0.04300745204091072 0.011125930584967136 -0.6924327611923218 0.659869372844696 0.0 0.0 0.0 0.0
43000000.0 0.043367236852645874 0.010675139725208282 -0.6804675459861755 0.6727316379547119 0.0 0.0 0.0 0.0
44000000.0 0.043744586408138275 0.009978076443076134 -0.6682478189468384 0.6846073865890503 0.0 0.0 0.0 0.0
45000000.0 0.04426627606153488 0.009424461051821709 -0.6560935974121094 0.6970701813697815 0.0 0.0 0.0 0.0
46000000.0 0.044505152851343155 0.008815045468509197 -0.6431702971458435 0.7086014151573181 0.0 0.0 0.0 0.0
47000000.0 0.04478006064891815 0.008291936479508877 -0.6304678916931152 0.7202263474464417 0.0 0.0 0.0 0.0
48000000.0 0.0449715331196785 0.007505686953663826 -0.6175816059112549 0.7316854000091553 0.0 0.0 0.0 0.0
49000000.0 0.04522186890244484 0.0069372691214084625 -0.6037459969520569 0.7423987984657288 0.0 0.0 0.0 0.0
50000000.0 0.04524311050772667 0.006404435262084007 -0.5909018516540527 0.7533829212188721 0.0 0.0 0.0 0.0
51000000.0 0.04550847038626671 0.005629782564938068 -0.5766873955726624 0.7642905712127686 0.0 0.0 0.0 0.0
52000000.0 0.04569545388221741 0.004889938049018383 -0.5634145140647888 0.7738880515098572 0.0 0.0 0.0 0.0
53000000.0 0.04586861655116081 0.0041790977120399475 -0.5494914054870605 0.7844700813293457 0.0 0.0 0.0 0.0
54000000.0 0.0458306223154068 0.003666452132165432 -0.5352721810340881 0.7938582897186279 0.0 0.0 0.0 0.0
55000000.0 0.045945797115564346 0.002927364781498909 -0.5211120843887329 0.8042364716529846 0.0 0.0 0.0 0.0
56000000.0 0.04577149823307991 0.0024754945188760757 -0.5063122510910034 0.8131192326545715 0.0 0.0 0.0 0.0
57000000.0 0.0457746796309948 0.001570083200931549 -0.49218183755874634 0.8227182030677795 0.0 0.0 0.0 0.0
58000000.0 0.04574199020862579 0.0008758567273616791 -0.47735315561294556 0.8314726948738098 0.0 0.0 0.0 0.0
59000000.0 0.0453815720975399 0.00017783883959054947 -0.4625248908996582 0.8396209478378296 0.0 0.0 0.0 0.0
60000000.0 0.04513392597436905 -0.00045882631093263626 -0.44727590680122375 0.8483812212944031 0.0 0.0 0.0 0.0
61000000.0 0.04507923498749733 -0.0010217996314167976 -0.4322357773780823 0.8568291068077087 0.0 0.0 0.0 0.0
62000000.0 0.044579505920410156 -0.0015176553279161453 -0.41691386699676514 0.8640446662902832 0.0 0.0 0.0 0.0
63000000.0 0.044213518500328064 -0.002198287285864353 -0.40128225088119507 0.8716671466827393 0.0 0.0 0.0 0.0
64000000.0 0.04391564428806305 -0.0028385482728481293 -0.38572731614112854 0.8791481852531433 0.0 0.0 0.0 0.0
65000000.0 0.04344842955470085 -0.003322501666843891 -0.37001490592956543 0.885772168636322 0.0 0.0 0.0 0.0
66000000.0 0.042997851967811584 -0.00407528318464756 -0.35349616408348083 0.8926970362663269 0.0 0.0 0.0 0.0
67000000.0 0.042554911226034164 -0.0043271202594041824 -0.3378842771053314 0.8993397951126099 0.0 0.0 0.0 0.0
68000000.0 0.04198580980300903 -0.005019128322601318 -0.32189756631851196 0.9051718711853027 0.0 0.0 0.0 0.0
69000000.0 0.0414094515144825 -0.005432281643152237 -0.3051665425300598 0.9112489223480225 0.0 0.0 0.0 0.0
70000000.0 0.04101225361227989 -0.005859027616679668 -0.2883622944355011 0.9166740775108337 0.0 0.0 0.0 0.0
71000000.0 0.04054846987128258 -0.006358911283314228 -0.2725865840911865 0.9229353070259094 0.0 0.0 0.0 0.0
72000000.0 0.03967762365937233 -0.0065854694694280624 -0.25634077191352844 0.9268948435783386 0.0 0.0 0.0 0.0
73000000.0 0.03915197402238846 -0.007048073224723339 -0.23946794867515564 0.9327478408813477 0.0 0.0 0.0 0.0
74000000.0 0.03847849369049072 -0.007431948557496071 -0.22241882979869843 0.9367362856864929 0.0 0.0 0.0 0.0
75000000.0 0.037689458578825 -0.007481193169951439 -0.20593804121017456 0.9404098391532898 0.0 0.0 0.0 0.0
76000000.0 0.03699636459350586 -0.007832753472030163 -0.18873457610607147 0.9450097680091858 0.0 0.0 0.0 0.0
77000000.0 0.03644973039627075 -0.008148953318595886 -0.1717071235179901 0.9489868879318237 0.0 0.0 0.0 0.0
78000000.0 0.03538976237177849 -0.008228406310081482 -0.1553572118282318 0.9520588517189026 0.0 0.0 0.0 0.0
79000000.0 0.03474273532629013 -0.008450468070805073 -0.1376761794090271 0.954831600189209 0.0 0.0 0.0 0.0
80000000.0 0.0337265245616436 -0.00853752065449953 -0.12029410153627396 0.9579238891601562 0.0 0.0 0.0 0.0
81000000.0 0.03307325392961502 -0.00859896931797266 -0.10386877506971359 0.9603922367095947 0.0 0.0 0.0 0.0
82000000.0 0.03226972371339798 -0.008529744111001492 -0.08668192476034164 0.9624186158180237 0.0 0.0 0.0 0.0
83000000.0 0.031379781663417816 -0.008490167558193207 -0.06924524158239365 0.96433424949646 0.0 0.0 0.0 0.0
84000000.0 0.030480677261948586 -0.008388941176235676 -0.05175021290779114 0.9662700891494751 0.0 0.0 0.0 0.0
85000000.0 0.02959529496729374 -0.008334644138813019 -0.0338817834854126 0.9665007591247559 0.0 0.0 0.0 0.0
86000000.0 0.029049132019281387 -0.00806622114032507 -0.017242640256881714 0.9674237966537476 0.0 0.0 0.0 0.0
87000000.0 0.027885785326361656 -0.007838582620024681 0.0005275597795844078 0.9684398770332336 0.0 0.0 0.0 0.0
88000000.0 0.0273160170763731 -0.007477182894945145 0.017522288486361504 0.9689944982528687 0.0 0.0 0.0 0.0
89000000.0 0.02622438222169876 -0.007233148440718651 0.036028362810611725 0.968416690826416 0.0 0.0 0.0 0.0
90000000.0 0.025691090151667595 -0.007029406726360321 0.052851177752017975 0.968618631362915 0.0 0.0 0.0 0.0
91000000.0 0.024718159809708595 -0.0065521541982889175 0.07027772814035416 0.9673585891723633 0.0 0.0 0.0 0.0
92000000.0 0.023743268102407455 -0.005944129079580307 0.08845721185207367 0.9656628966331482 0.0 0.0 0.0 0.0
93000000.0 0.022931663319468498 -0.005625620484352112 0.10554864257574081 0.9656973481178284 0.0 0.0 0.0 0.0
94000000.0 0.02231067232787609 -0.004847041331231594 0.12328542023897171 0.9624077677726746 0.0 0.0 0.0 0.0
95000000.0 0.021383807063102722 -0.004252312704920769 0.14077453315258026 0.9616503119468689 0.0 0.0 0.0 0.0
96000000.0 0.020575370639562607 -0.0037786317989230156 0.158107191324234 0.9588303565979004 0.0 0.0 0.0 0.0
97000000.0 0.01987920142710209 -0.0029173381626605988 0.1752023845911026 0.9555889368057251 0.0 0.0 0.0 0.0
98000000.0 0.019084984436631203 -0.002203403040766716 0.19310727715492249 0.953300952911377 0.0 0.0 0.0 0.0
99000000.0 0.018520064651966095 -0.0014738887548446655 0.21109971404075623 0.9511547088623047 0.0 0.0 0.0 0.0
100000000.0 0.01789878122508526 -0.0006692707538604736 0.2302042543888092 0.951869547367096 0.0 0.0 0.0 0.0
101000000.0 0.01727025955915451 0.00014852918684482574 0.24523352086544037 0.9434263706207275 0.0 0.0 0.0 0.0
102000000.0 0.016546912491321564 0.0009939828887581825 0.2618206739425659 0.938671350479126 0.0 0.0 0.0 0.0
103000000.0 0.016122989356517792 0.0018288716673851013 0.27999359369277954 0.9344119429588318 0.0 0.0 0.0 0.0
104000000.0 0.015527011826634407 0.0028253095224499702 0.2971421778202057 0.9289818406105042 0.0 0.0 0.0 0.0
105000000.0 0.0148824043571949 0.003915003500878811 0.31458234786987305 0.9245185256004333 0.0 0.0 0.0 0.0
106000000.0 0.014620906673371792 0.004858066327869892 0.3314417004585266 0.9194159507751465 0.0 0.0 0.0 0.0
107000000.0 0.014167250134050846 0.005938555113971233 0.3479936122894287 0.9140636920928955 0.0 0.0 0.0 0.0
108000000.0 0.013786960393190384 0.007140289060771465 0.36483827233314514 0.9071996212005615 0.0 0.0 0.0 0.0
109000000.0 0.01334045547991991 0.008233647793531418 0.38063910603523254 0.9008865356445312 0.0 0.0 0.0 0.0
110000000.0 0.013151990249752998 0.009277377277612686 0.39861416816711426 0.8948280811309814 0.0 0.0 0.0 0.0
111000000.0 0.013037154451012611 0.010621984489262104 0.4149210751056671 0.8874396681785583 0.0 0.0 0.0 0.0
112000000.0 0.01277556736022234 0.011747235432267189 0.43184441328048706 0.8800467848777771 0.0 0.0 0.0 0.0
113000000.0 0.012740962207317352 0.012879465706646442 0.4478820860385895 0.8724587559700012 0.0 0.0 0.0 0.0
114000000.0 0.01267716009169817 0.014249861240386963 0.46432778239250183 0.8648642897605896 0.0 0.0 0.0 0.0
115000000.0 0.012611784040927887 0.015502489171922207 0.4800001084804535 0.8558826446533203 0.0 0.0 0.0 0.0
116000000.0 0.012562822550535202 0.01687692292034626 0.4961366355419159 0.8476885557174683 0.0 0.0 0.0 0.0
117000000.0 0.01261153630912304 0.018250146880745888 0.5120688676834106 0.8388859033584595 0.0 0.0 0.0 0.0
118000000.0 0.012909915298223495 0.019538920372724533 0.5277993679046631 0.83021080493927 0.0 0.0 0.0 0.0
119000000.0 0.013016992248594761 0.020765211433172226 0.5428047776222229 0.8201488256454468 0.0 0.0 0.0 0.0
120000000.0 0.013332461006939411 0.022170837968587875 0.5572512745857239 0.8110059499740601 0.0 0.0 0.0 0.0
121000000.0 0.013470121659338474 0.0235652606934309 0.5734966397285461 0.8012387156486511 0.0 0.0 0.0 0.0
122000000.0 0.013874182477593422 0.02498062513768673 0.5877998471260071 0.7901530861854553 0.0 0.0 0.0 0.0
123000000.0 0.01428429875522852 0.026186306029558182 0.6027854681015015 0.7807368636131287 0.0 0.0 0.0 0.0
124000000.0 0.014790043234825134 0.02779099904000759 0.6168828010559082 0.7692602276802063 0.0 0.0 0.0 0.0
125000000.0 0.015602398663759232 0.028853829950094223 0.6323584318161011 0.7583746910095215 0.0 0.0 0.0 0.0
126000000.0 0.015973739326000214 0.030204173177480698 0.6460248827934265 0.7474579215049744 0.0 0.0 0.0 0.0
127000000.0 0.016739903017878532 0.031806718558073044 0.6600961685180664 0.7352145314216614 0.0 0.0 0.0 0.0
128000000.0 0.017398349940776825 0.03292715549468994 0.6736474633216858 0.7236711978912354 0.0 0.0 0.0 0.0
129000000.0 0.01808577962219715 0.034297335892915726 0.6865772008895874 0.7113822102546692 0.0 0.0 0.0 0.0
130000000.0 0.01912885159254074 0.03580712527036667 0.70244961977005 0.6999913454055786 0.0 0.0 0.0 0.0
131000000.0 0.019859423860907555 0.03714646399021149 0.7138696908950806 0.6858732104301453 0.0 0.0 0.0 0.0
132000000.0 0.020659063011407852 0.03821171447634697 0.7267941832542419 0.6728545427322388 0.0 0.0 0.0 0.0
133000000.0 0.02197922207415104 0.039519328624010086 0.7394906878471375 0.6603381037712097 0.0 0.0 0.0 0.0
134000000.0 0.022768963128328323 0.04064280912280083 0.7518267035484314 0.6461191773414612 0.0 0.0 0.0 0.0
135000000.0 0.02419675514101982 0.041880473494529724 0.7642828226089478 0.6327732801437378 0.0 0.0 0.0 0.0
136000000.0 0.025358568876981735 0.043013688176870346 0.7755150198936462 0.6186150312423706 0.0 0.0 0.0 0.0
137000000.0 0.026705194264650345 0.0441591776907444 0.7875965237617493 0.6042191982269287 0.0 0.0 0.0 0.0
138000000.0 0.02786019630730152 0.045157503336668015 0.799199640750885 0.5903006792068481 0.0 0.0 0.0 0.0
139000000.0 0.02911502495408058 0.04632307589054108 0.810511589050293 0.5756003856658936 0.0 0.0 0.0 0.0
140000000.0 0.030627021566033363 0.04713621735572815 0.8219276070594788 0.5609853267669678 0.0 0.0 0.0 0.0
141000000.0 0.032236598432064056 0.047712720930576324 0.82159423828125 0.5193519592285156 0.0 0.0 0.0 0.0
142000000.0 0.03380606323480606 0.04859217628836632 0.8310788869857788 0.502881646156311 0.0 0.0 0.0 0.0
143000000.0 0.03513151779770851 0.049489665776491165 0.8408869504928589 0.4873505234718323 0.0 0.0 0.0 0.0
144000000.0 0.036805830895900726 0.05024445056915283 0.8506890535354614 0.47309061884880066 0.0 0.0 0.0 0.0
145000000.0 0.038402292877435684 0.050850819796323776 0.8602613806724548 0.4563996493816376 0.0 0.0 0.0 0.0
146000000.0 0.03992198035120964 0.05125218629837036 0.8687957525253296 0.4413743019104004 0.0 0.0 0.0 0.0
147000000.0 0.041708964854478836 0.05210930481553078 0.8773171305656433 0.42520323395729065 0.0 0.0 0.0 0.0
148000000.0 0.0433468334376812 0.052688319236040115 0.8849726915359497 0.4089280664920807 0.0 0.0 0.0 0.0
149000000.0 0.0451802983880043 0.05313677340745926 0.8929457068443298 0.3924005925655365 0.0 0.0 0.0 0.0
150000000.0 0.04692310467362404 0.05351607874035835 0.8996278643608093 0.3769049048423767 0.0 0.0 0.0 0.0
151000000.0 0.0487634651362896 0.054002564400434494 0.9066212773323059 0.36006414890289307 0.0 0.0 0.0 0.0
152000000.0 0.05086531117558479 0.0540921725332737 0.9142987728118896 0.3432464301586151 0.0 0.0 0.0 0.0
153000000.0 0.05229371041059494 0.05479853227734566 0.9200555086135864 0.3259209096431732 0.0 0.0 0.0 0.0
154000000.0 0.05434532091021538 0.055103689432144165 0.9263137578964233 0.3094658851623535 0.0 0.0 0.0 0.0
155000000.0 0.05649353936314583 0.05517709627747536 0.9328467845916748 0.2919948399066925 0.0 0.0 0.0 0.0
156000000.0 0.058072205632925034 0.05489470809698105 0.9381573796272278 0.2748936712741852 0.0 0.0 0.0 0.0
157000000.0 0.06016328185796738 0.05513337627053261 0.9437453150749207 0.257431298494339 0.0 0.0 0.0 0.0
158000000.0 0.06209317222237587 0.054907288402318954 0.9482057690620422 0.2400965839624405 0.0 0.0 0.0 0.0
159000000.0 0.0637131929397583 0.055121827870607376 0.9535834789276123 0.22255520522594452 0.0 0.0 0.0 0.0
160000000.0 0.06606405973434448 0.05475490912795067 0.9570723176002502 0.20466291904449463 0.0 0.0 0.0 0.0
161000000.0 0.06769373267889023 0.0541737861931324 0.9617767930030823 0.18674056231975555 0.0 0.0 0.0 0.0
162000000.0 0.0698421373963356 0.0541120208799839 0.9649967551231384 0.16974908113479614 0.0 0.0 0.0 0.0
163000000.0 0.07211075723171234 0.05377127602696419 0.9680992960929871 0.15065382421016693 0.0 0.0 0.0 0.0
164000000.0 0.07387839257717133 0.05298316478729248 0.9716375470161438 0.1338716596364975 0.0 0.0 0.0 0.0
165000000.0 0.07572038471698761 0.05240057036280632 0.973705530166626 0.11575278639793396 0.0 0.0 0.0 0.0
166000000.0 0.07771283388137817 0.05137542262673378 0.9760388731956482 0.09762390702962875 0.0 0.0 0.0 0.0
167000000.0 0.07949673384428024 0.051311131566762924 0.9782097935676575 0.07886430621147156 0.0 0.0 0.0 0.0
168000000.0 0.08143432438373566 0.050103560090065 0.9800434112548828 0.06135837733745575 0.0 0.0 0.0 0.0
169000000.0 0.08306386321783066 0.04888022691011429 0.9817322492599487 0.04239748418331146 0.0 0.0 0.0 0.0
170000000.0 0.0850435197353363 0.04832077771425247 0.983132541179657 0.024724643677473068 0.0 0.0 0.0 0.0
171000000.0 0.08718584477901459 0.04697490483522415 0.9826269149780273 0.005696432664990425 0.0 0.0 0.0 0.0
172000000.0 0.08871705085039139 0.04616507142782211 0.9830408692359924 -0.011843829415738583 0.0 0.0 0.0 0.0
173000000.0 0.09050582349300385 0.044990893453359604 0.983002781867981 -0.030441220849752426 0.0 0.0 0.0 0.0
174000000.0 0.09230903536081314 0.043746817857027054 0.9827608466148376 -0.048760607838630676 0.0 0.0 0.0 0.0
175000000.0 0.09390586614608765 0.04215816780924797 0.981513261795044 -0.06731172651052475 0.0 0.0 0.0 0.0
176000000.0 0.0957527607679367 0.040361437946558 0.9814153909683228 -0.08535900712013245 0.0 0.0 0.0 0.0
177000000.0 0.09737754613161087 0.039386700838804245 0.979607343673706 -0.10402236133813858 0.0 0.0 0.0 0.0
178000000.0 0.09870154410600662 0.03740804269909859 0.9776515364646912 -0.12195838987827301 0.0 0.0 0.0 0.0
179000000.0 0.10056883096694946 0.03623134642839432 0.9754852652549744 -0.14012619853019714 0.0 0.0 0.0 0.0
180000000.0 0.10180549323558807 0.03406429663300514 0.973625898361206 -0.1589408814907074 0.0 0.0 0.0 0.0
181000000.0 0.10263095051050186 0.03258051350712776 0.9708341956138611 -0.17744037508964539 0.0 0.0 0.0 0.0
182000000.0 0.10457076877355576 0.03119438700377941 0.9675518274307251 -0.19564513862133026 0.0 0.0 0.0 0.0
183000000.0 0.10539937019348145 0.028809547424316406 0.9635492563247681 -0.21353456377983093 0.0 0.0 0.0 0.0
184000000.0 0.10686341673135757 0.026894578710198402 0.9595950245857239 -0.23176106810569763 0.0 0.0 0.0 0.0
