!Created with skrf (http://scikit-rf.org).
# Hz S RI R 50.0 
!freq ReS11 ImS11 ReS21 ImS21 ReS12 ImS12 ReS22 ImS22
1000000.0 0.04563218727707863 0.00027663540095090866 6.178859621286392e-05 -4.78159636259079e-05 0.0 0.0 0.0 0.0
2000000.0 0.04585796967148781 0.00038227811455726624 0.000246620737016201 -0.0002471199259161949 0.0 0.0 0.0 0.0
3000000.0 0.04616251215338707 0.00022467877715826035 0.00030037667602300644 -0.00047380849719047546 0.0 0.0 0.0 0.0
4000000.0 0.04688815027475357 9.239558130502701e-05 0.0003784019500017166 -0.0007412191480398178 0.0 0.0 0.0 0.0
5000000.0 0.046549633145332336 -0.000322180800139904 0.00044664647430181503 -0.000991322100162506 0.0 0.0 0.0 0.0
6000000.0 0.04657623544335365 -0.0006603347137570381 0.000487402081489563 -0.001252453774213791 0.0 0.0 0.0 0.0
7000000.0 0.04774369299411774 -0.001070421189069748 0.0004895851016044617 -0.0015372633934020996 0.0 0.0 0.0 0.0
8000000.0 0.04715549573302269 -0.0014249905943870544 0.000524427741765976 -0.0018396135419607162 0.0 0.0 0.0 0.0
9000000.0 0.04765259101986885 -0.0020423904061317444 0.00044659432023763657 -0.002041822299361229 0.0 0.0 0.0 0.0
10000000.0 0.047528836876153946 -0.0023024287074804306 0.00043624453246593475 -0.0023425528779625893 0.0 0.0 0.0 0.0
11000000.0 0.04727695882320404 -0.002590334974229336 0.0003301352262496948 -0.0026187505573034286 0.0 0.0 0.0 0.0
12000000.0 0.0479201003909111 -0.003240685909986496 0.00036904774606227875 -0.0029236897826194763 0.0 0.0 0.0 0.0
13000000.0 0.04790952056646347 -0.0037025725468993187 0.0003481348976492882 -0.0031727394089102745 0.0 0.0 0.0 0.0
14000000.0 0.04782320559024811 -0.0038810819387435913 0.0002215178683400154 -0.003413015976548195 0.0 0.0 0.0 0.0
15000000.0 0.04743208736181259 -0.004563014023005962 0.00019680894911289215 -0.003680688329041004 0.0 0.0 0.0 0.0
16000000.0 0.047112252563238144 -0.0048721712082624435 6.957165896892548e-05 -0.003961288370192051 0.0 0.0 0.0 0.0
17000000.0 0.047871410846710205 -0.0045686280354857445 -8.285883814096451e-05 -0.004236037842929363 0.0 0.0 0.0 0.0
18000000.0 0.04784479737281799 -0.005206809379160404 -0.0001720581203699112 -0.00445400457829237 0.0 0.0 0.0 0.0
19000000.0 0.04780495539307594 -0.005446220748126507 -0.0002596955746412277 -0.00475555844604969 0.0 0.0 0.0 0.0
20000000.0 0.047983258962631226 -0.005784136243164539 -0.00041899923235177994 -0.004987730644643307 0.0 0.0 0.0 0.0
21000000.0 0.04753527790307999 -0.006295997649431229 -0.0006274580955505371 -0.005284782499074936 0.0 0.0 0.0 0.0
22000000.0 0.04725613445043564 -0.0065361857414245605 -0.0007671285420656204 -0.005513143725693226 0.0 0.0 0.0 0.0
23000000.0 0.04695415869355202 -0.007097426801919937 -0.0009414665400981903 -0.005756939761340618 0.0 0.0 0.0 0.0
24000000.0 0.046695202589035034 -0.007857445627450943 -0.001118105836212635 -0.0059533920139074326 0.0 0.0 0.0 0.0
25000000.0 0.04618433117866516 -0.00847657211124897 -0.0013015223667025566 -0.006228914484381676 0.0 0.0 0.0 0.0
26000000.0 0.045832838863134384 -0.008423291146755219 -0.0015226872637867928 -0.006450223736464977 0.0 0.0 0.0 0.0
27000000.0 0.04513661563396454 -0.009219629690051079 -0.0017501134425401688 -0.0066547030583024025 0.0 0.0 0.0 0.0
28000000.0 0.044947609305381775 -0.009138094261288643 -0.001976482570171356 -0.0068813227117061615 0.0 0.0 0.0 0.0
29000000.0 0.0438716858625412 -0.010524624958634377 -0.0022001713514328003 -0.007086742669343948 0.0 0.0 0.0 0.0
30000000.0 0.04369092732667923 -0.010319109074771404 -0.0024541234597563744 -0.007303297519683838 0.0 0.0 0.0 0.0
31000000.0 0.0430339053273201 -0.011016146279871464 -0.0027150120586156845 -0.007490881718695164 0.0 0.0 0.0 0.0
32000000.0 0.04267524182796478 -0.011071163229644299 -0.0029453271999955177 -0.007668871432542801 0.0 0.0 0.0 0.0
33000000.0 0.04221386834979057 -0.011519509367644787 -0.00326567143201828 -0.007928670383989811 0.0 0.0 0.0 0.0
34000000.0 0.04176636040210724 -0.011871173046529293 -0.0035064294934272766 -0.008050193078815937 0.0 0.0 0.0 0.0
35000000.0 0.04149841144680977 -0.012172692455351353 -0.003797982819378376 -0.008209067396819592 0.0 0.0 0.0 0.0
36000000.0 0.04087333753705025 -0.012462443672120571 -0.004097187891602516 -0.008394298143684864 0.0 0.0 0.0 0.0
37000000.0 0.04054800048470497 -0.012531157582998276 -0.00440230593085289 -0.008506063371896744 0.0 0.0 0.0 0.0
38000000.0 0.03983166813850403 -0.012797168456017971 -0.004775147885084152 -0.008668936789035797 0.0 0.0 0.0 0.0
39000000.0 0.03911929205060005 -0.012912129983305931 -0.005034424364566803 -0.008815465494990349 0.0 0.0 0.0 0.0
40000000.0 0.03885775804519653 -0.012953941710293293 -0.005356287583708763 -0.00890378188341856 0.0 0.0 0.0 0.0
41000000.0 0.038274213671684265 -0.013215298764407635 -0.005734356120228767 -0.00904465839266777 0.0 0.0 0.0 0.0
42000000.0 0.037816718220710754 -0.013485497795045376 -0.006075263023376465 -0.00914644543081522 0.0 0.0 0.0 0.0
43000000.0 0.037393540143966675 -0.01368393748998642 -0.006432084366679192 -0.009196779690682888 0.0 0.0 0.0 0.0
44000000.0 0.03676982596516609 -0.01372485514730215 -0.0067763980478048325 -0.009286238811910152 0.0 0.0 0.0 0.0
45000000.0 0.035985007882118225 -0.01392372976988554 -0.007175318896770477 -0.009351255372166634 0.0 0.0 0.0 0.0
46000000.0 0.035629622638225555 -0.013880745507776737 -0.0075623104348778725 -0.009373690001666546 0.0 0.0 0.0 0.0
47000000.0 0.034945886582136154 -0.013924692757427692 -0.007894931361079216 -0.00945191364735365 0.0 0.0 0.0 0.0
48000000.0 0.03431042283773422 -0.014112387783825397 -0.008248946629464626 -0.00947200320661068 0.0 0.0 0.0 0.0
49000000.0 0.03391529247164726 -0.014043875969946384 -0.008653783239424229 -0.009495001286268234 0.0 0.0 0.0 0.0
50000000.0 0.033410511910915375 -0.013967659324407578 -0.00908676628023386 -0.009498602710664272 0.0 0.0 0.0 0.0
51000000.0 0.032596975564956665 -0.013856778852641582 -0.009418440982699394 -0.00952715240418911 0.0 0.0 0.0 0.0
52000000.0 0.03201797232031822 -0.014026074670255184 -0.010610254481434822 -0.008920778520405293 0.0 0.0 0.0 0.0
53000000.0 0.03162650391459465 -0.013805674389004707 -0.011023120954632759 -0.008847784250974655 0.0 0.0 0.0 0.0
54000000.0 0.030976105481386185 -0.01373709924519062 -0.011392957530915737 -0.00874925684183836 0.0 0.0 0.0 0.0
55000000.0 0.030364984646439552 -0.013769908808171749 -0.011781619861721992 -0.008661803789436817 0.0 0.0 0.0 0.0
56000000.0 0.029691962525248528 -0.013477115891873837 -0.012222854420542717 -0.008632287383079529 0.0 0.0 0.0 0.0
57000000.0 0.029110785573720932 -0.013372792862355709 -0.012663804925978184 -0.008498533628880978 0.0 0.0 0.0 0.0
58000000.0 0.02861347422003746 -0.01308450661599636 -0.01297504361718893 -0.008453144691884518 0.0 0.0 0.0 0.0
59000000.0 0.02803025394678116 -0.012807905673980713 -0.013492351397871971 -0.00832668598741293 0.0 0.0 0.0 0.0
60000000.0 0.027260681614279747 -0.01266687922179699 -0.013889464549720287 -0.008126489818096161 0.0 0.0 0.0 0.0
61000000.0 0.026782667264342308 -0.012497351504862309 -0.01421196386218071 -0.007963534444570541 0.0 0.0 0.0 0.0
62000000.0 0.02602246031165123 -0.012145273387432098 -0.014655163511633873 -0.0078003909438848495 0.0 0.0 0.0 0.0
63000000.0 0.02544563077390194 -0.011774959973990917 -0.015071355737745762 -0.0076735969632864 0.0 0.0 0.0 0.0
64000000.0 0.025045763701200485 -0.011538553982973099 -0.015543609857559204 -0.007395961321890354 0.0 0.0 0.0 0.0
65000000.0 0.024435237050056458 -0.011297625489532948 -0.015952859073877335 -0.007177331484854221 0.0 0.0 0.0 0.0
66000000.0 0.023766139522194862 -0.010881013236939907 -0.016363518312573433 -0.006972525268793106 0.0 0.0 0.0 0.0
67000000.0 0.023311687633395195 -0.010573331266641617 -0.016776110976934433 -0.0067808618769049644 0.0 0.0 0.0 0.0
68000000.0 0.022684801369905472 -0.010068519040942192 -0.017117807641625404 -0.006456067785620689 0.0 0.0 0.0 0.0
69000000.0 0.022295625880360603 -0.009907988831400871 -0.01749313436448574 -0.006168615072965622 0.0 0.0 0.0 0.0
70000000.0 0.02182365395128727 -0.009259001351892948 -0.017912138253450394 -0.006009764038026333 0.0 0.0 0.0 0.0
71000000.0 0.021275300532579422 -0.008842933923006058 -0.018328165635466576 -0.0056634629145264626 0.0 0.0 0.0 0.0
72000000.0 0.020719218999147415 -0.008271804079413414 -0.01868278905749321 -0.005381429567933083 0.0 0.0 0.0 0.0
73000000.0 0.020299511030316353 -0.007887441664934158 -0.019062045961618423 -0.005004150792956352 0.0 0.0 0.0 0.0
74000000.0 0.019763175398111343 -0.007170911878347397 -0.019490141421556473 -0.004755065776407719 0.0 0.0 0.0 0.0
75000000.0 0.01921890489757061 -0.006806285120546818 -0.019765762612223625 -0.004383102059364319 0.0 0.0 0.0 0.0
76000000.0 0.018995489925146103 -0.00629682932049036 -0.020099690183997154 -0.004000161774456501 0.0 0.0 0.0 0.0
77000000.0 0.01859598606824875 -0.005467436276376247 -0.02049505151808262 -0.003636622801423073 0.0 0.0 0.0 0.0
78000000.0 0.018123671412467957 -0.00519194919615984 -0.020834093913435936 -0.003229956142604351 0.0 0.0 0.0 0.0
79000000.0 0.017695654183626175 -0.004464225843548775 -0.021221350878477097 -0.0027830321341753006 0.0 0.0 0.0 0.0
80000000.0 0.017279736697673798 -0.0038905609399080276 -0.021482033655047417 -0.002403201535344124 0.0 0.0 0.0 0.0
81000000.0 0.017030520364642143 -0.0032211411744356155 -0.021906351670622826 -0.002018459141254425 0.0 0.0 0.0 0.0
82000000.0 0.01661883294582367 -0.00266990065574646 -0.022133544087409973 -0.0015587583184242249 0.0 0.0 0.0 0.0
83000000.0 0.016234412789344788 -0.0018388163298368454 -0.022527283057570457 -0.0011168019846081734 0.0 0.0 0.0 0.0
84000000.0 0.01603659801185131 -0.0012277495115995407 -0.02277974970638752 -0.0007207421585917473 0.0 0.0 0.0 0.0
85000000.0 0.015583964996039867 -0.00043176859617233276 -0.023134471848607063 -0.00024265144020318985 0.0 0.0 0.0 0.0
86000000.0 0.015419752337038517 9.377673268318176e-05 -0.02332742139697075 0.00023750215768814087 0.0 0.0 0.0 0.0
87000000.0 0.015277136117219925 0.0009035263210535049 -0.02352137677371502 0.0007632812485098839 0.0 0.0 0.0 0.0
88000000.0 0.014864476397633553 0.0016252733767032623 -0.023873239755630493 0.00126686692237854 0.0 0.0 0.0 0.0
89000000.0 0.01482387538999319 0.0023949621245265007 -0.024166705086827278 0.001788819208741188 0.0 0.0 0.0 0.0
90000000.0 0.014487453736364841 0.0032553430646657944 -0.024438275024294853 0.002320997416973114 0.0 0.0 0.0 0.0
91000000.0 0.014615115709602833 0.003937211818993092 -0.024606000632047653 0.0028119878843426704 0.0 0.0 0.0 0.0
92000000.0 0.01422616932541132 0.004728052765130997 -0.024864349514245987 0.003346940502524376 0.0 0.0 0.0 0.0
93000000.0 0.014135397039353848 0.005654078908264637 -0.025127863511443138 0.003899029456079006 0.0 0.0 0.0 0.0
94000000.0 0.014016175642609596 0.00644463486969471 -0.025224201381206512 0.004489792510867119 0.0 0.0 0.0 0.0
95000000.0 0.013970342464745045 0.0072126127779483795 -0.025477617979049683 0.0050811609253287315 0.0 0.0 0.0 0.0
96000000.0 0.013998009264469147 0.008161881938576698 -0.025572875514626503 0.00558619387447834 0.0 0.0 0.0 0.0
97000000.0 0.014000430703163147 0.008862790651619434 -0.02576763555407524 0.0063138483092188835 0.0 0.0 0.0 0.0
98000000.0 0.013893171213567257 0.009972719475626945 -0.02593083679676056 0.006864635273814201 0.0 0.0 0.0 0.0
99000000.0 0.013825880363583565 0.010747240856289864 -0.026017092168331146 0.007420922629535198 0.0 0.0 0.0 0.0
100000000.0 0.014214231632649899 0.011442333459854126 -0.02626005932688713 0.008212924003601074 0.0 0.0 0.0 0.0
101000000.0 0.014069885946810246 0.012489378452301025 -0.02622821554541588 0.008736362680792809 0.0 0.0 0.0 0.0
102000000.0 0.014350459910929203 0.013151642866432667 -0.026288334280252457 0.009368383325636387 0.0 0.0 0.0 0.0
103000000.0 0.014439020305871964 0.014140984043478966 -0.026430241763591766 0.010011110454797745 0.0 0.0 0.0 0.0
104000000.0 0.01445764023810625 0.014949089847505093 -0.026491103693842888 0.01074734516441822 0.0 0.0 0.0 0.0
105000000.0 0.014635101892054081 0.01562327891588211 -0.026501590386033058 0.011395342648029327 0.0 0.0 0.0 0.0
106000000.0 0.014881948009133339 0.016589507460594177 -0.026485353708267212 0.011959467083215714 0.0 0.0 0.0 0.0
107000000.0 0.015068684704601765 0.017746280878782272 -0.026570163667201996 0.012598073109984398 0.0 0.0 0.0 0.0
108000000.0 0.015490460209548473 0.018583763390779495 -0.026519466191530228 0.013306545093655586 0.0 0.0 0.0 0.0
109000000.0 0.015775607898831367 0.01931370049715042 -0.02659311518073082 0.013991011306643486 0.0 0.0 0.0 0.0
110000000.0 0.015957172960042953 0.020014388486742973 -0.026439443230628967 0.0147392638027668 0.0 0.0 0.0 0.0
111000000.0 0.01631089299917221 0.020833462476730347 -0.026382960379123688 0.01545937079936266 0.0 0.0 0.0 0.0
112000000.0 0.016658049076795578 0.021916639059782028 -0.02638859860599041 0.01615661010146141 0.0 0.0 0.0 0.0
113000000.0 0.017334938049316406 0.02255462110042572 -0.026274723932147026 0.016850683838129044 0.0 0.0 0.0 0.0
114000000.0 0.017608148977160454 0.02340676449239254 -0.026163654401898384 0.01754167675971985 0.0 0.0 0.0 0.0
115000000.0 0.017926881089806557 0.024396827444434166 -0.025953643023967743 0.01820865459740162 0.0 0.0 0.0 0.0
116000000.0 0.0185598973184824 0.025294853374361992 -0.025921715423464775 0.018876969814300537 0.0 0.0 0.0 0.0
117000000.0 0.01919437013566494 0.026148132979869843 -0.025748521089553833 0.019637586548924446 0.0 0.0 0.0 0.0
118000000.0 0.019634423777461052 0.026991097256541252 -0.02550494484603405 0.020324870944023132 0.0 0.0 0.0 0.0
119000000.0 0.020284589380025864 0.02770453877747059 -0.025411929935216904 0.02100873924791813 0.0 0.0 0.0 0.0
120000000.0 0.020969027653336525 0.028559090569615364 -0.025147780776023865 0.021789738908410072 0.0 0.0 0.0 0.0
121000000.0 0.021718891337513924 0.029140520840883255 -0.02483392134308815 0.022556066513061523 0.0 0.0 0.0 0.0
122000000.0 0.021961640566587448 0.030275095254182816 -0.02460002899169922 0.023173844441771507 0.0 0.0 0.0 0.0
123000000.0 0.022857746109366417 0.030953271314501762 -0.024354975670576096 0.023844443261623383 0.0 0.0 0.0 0.0
124000000.0 0.023400040343403816 0.03149934485554695 -0.023985758423805237 0.024587357416749 0.0 0.0 0.0 0.0
125000000.0 0.024337735027074814 0.03237859904766083 -0.023678718134760857 0.025264089927077293 0.0 0.0 0.0 0.0
126000000.0 0.024911222979426384 0.033094488084316254 -0.023326799273490906 0.0259416364133358 0.0 0.0 0.0 0.0
127000000.0 0.026023829355835915 0.03387856110930443 -0.023049283772706985 0.026673434302210808 0.0 0.0 0.0 0.0
128000000.0 0.026500189676880836 0.03426828607916832 -0.022590622305870056 0.027429277077317238 0.0 0.0 0.0 0.0
129000000.0 0.02743951790034771 0.034895747900009155 -0.022219477221369743 0.028167545795440674 0.0 0.0 0.0 0.0
130000000.0 0.028475329279899597 0.03550990670919418 -0.021772079169750214 0.02894854173064232 0.0 0.0 0.0 0.0
131000000.0 0.02913617342710495 0.03647538647055626 -0.021365052089095116 0.029403213411569595 0.0 0.0 0.0 0.0
132000000.0 0.0299605093896389 0.03720296546816826 -0.020941494032740593 0.030058614909648895 0.0 0.0 0.0 0.0
133000000.0 0.031061016023159027 0.03757040202617645 -0.020447390154004097 0.030774910002946854 0.0 0.0 0.0 0.0
134000000.0 0.032018132507801056 0.03815871477127075 -0.01987113058567047 0.031580887734889984 0.0 0.0 0.0 0.0
135000000.0 0.03290276229381561 0.03899989649653435 -0.019451027736067772 0.03203597292304039 0.0 0.0 0.0 0.0
136000000.0 0.034145936369895935 0.03929520770907402 -0.018901357427239418 0.03277874365448952 0.0 0.0 0.0 0.0
137000000.0 0.03510412201285362 0.04002397134900093 -0.018366781994700432 0.03338751569390297 0.0 0.0 0.0 0.0
138000000.0 0.03614849969744682 0.040260199457407 -0.017781205475330353 0.034095946699380875 0.0 0.0 0.0 0.0
139000000.0 0.037299323827028275 0.04098834842443466 -0.017253726720809937 0.03468028083443642 0.0 0.0 0.0 0.0
140000000.0 0.038582250475883484 0.041454531252384186 -0.01667381264269352 0.03523720055818558 0.0 0.0 0.0 0.0
141000000.0 0.03909909725189209 0.04106564447283745 -0.01505256537348032 0.03543463721871376 0.0 0.0 0.0 0.0
142000000.0 0.04016612470149994 0.04136227071285248 -0.014412447810173035 0.03597908094525337 0.0 0.0 0.0 0.0
143000000.0 0.04138245806097984 0.04169636592268944 -0.01372199971228838 0.036579545587301254 0.0 0.0 0.0 0.0
144000000.0 0.04248647391796112 0.04197991266846657 -0.01303357258439064 0.03716328740119934 0.0 0.0 0.0 0.0
145000000.0 0.04359440505504608 0.04220406338572502 -0.012377235107123852 0.037705373018980026 0.0 0.0 0.0 0.0
146000000.0 0.04468439519405365 0.04230477288365364 -0.011692259460687637 0.03821485862135887 0.0 0.0 0.0 0.0
147000000.0 0.045843444764614105 0.04259062185883522 -0.010954171419143677 0.03863459825515747 0.0 0.0 0.0 0.0
148000000.0 0.04713152348995209 0.042798642069101334 -0.010217406786978245 0.039128027856349945 0.0 0.0 0.0 0.0
149000000.0 0.0484217144548893 0.04301464557647705 -0.009489263407886028 0.039628446102142334 0.0 0.0 0.0 0.0
150000000.0 0.0495208203792572 0.04302317649126053 -0.008695757947862148 0.040115997195243835 0.0 0.0 0.0 0.0
151000000.0 0.05048048123717308 0.04308745265007019 -0.007883270271122456 0.04058482497930527 0.0 0.0 0.0 0.0
152000000.0 0.051913660019636154 0.04301130026578903 -0.007101880386471748 0.04105866327881813 0.0 0.0 0.0 0.0
153000000.0 0.05321342870593071 0.04303065687417984 -0.0062846895307302475 0.0414220355451107 0.0 0.0 0.0 0.0
154000000.0 0.054061222821474075 0.043216463178396225 -0.005444702692329884 0.04177708923816681 0.0 0.0 0.0 0.0
155000000.0 0.055528078228235245 0.04294084012508392 -0.004638186655938625 0.042207829654216766 0.0 0.0 0.0 0.0
156000000.0 0.056654203683137894 0.042899228632450104 -0.00372285395860672 0.04254482313990593 0.0 0.0 0.0 0.0
157000000.0 0.05804102495312691 0.04330975562334061 -0.002883557230234146 0.04289617761969566 0.0 0.0 0.0 0.0
158000000.0 0.05938513204455376 0.043154824525117874 -0.0019482467323541641 0.04323139414191246 0.0 0.0 0.0 0.0
159000000.0 0.060590002685785294 0.04304243251681328 -0.0010342327877879143 0.04355526715517044 0.0 0.0 0.0 0.0
160000000.0 0.061828356236219406 0.04306261986494064 -0.00015014875680208206 0.04388842359185219 0.0 0.0 0.0 0.0
161000000.0 0.06310823559761047 0.042876023799180984 0.0007487256079912186 0.044115446507930756 0.0 0.0 0.0 0.0
162000000.0 0.06450170278549194 0.042614202946424484 0.0017089024186134338 0.044339340180158615 0.0 0.0 0.0 0.0
163000000.0 0.06559834629297256 0.042033568024635315 0.0026698773726820946 0.044544532895088196 0.0 0.0 0.0 0.0
164000000.0 0.06705319881439209 0.04166671261191368 0.0036241095513105392 0.044814884662628174 0.0 0.0 0.0 0.0
165000000.0 0.06810517609119415 0.04157762974500656 0.004572357051074505 0.045032650232315063 0.0 0.0 0.0 0.0
166000000.0 0.06950703263282776 0.04105990007519722 0.0055822208523750305 0.04514581710100174 0.0 0.0 0.0 0.0
167000000.0 0.07042399793863297 0.040303684771060944 0.0065043047070503235 0.045292288064956665 0.0 0.0 0.0 0.0
168000000.0 0.0716666579246521 0.04010116681456566 0.007519842125475407 0.04543326795101166 0.0 0.0 0.0 0.0
169000000.0 0.07305886596441269 0.03979424759745598 0.008522036485373974 0.04550465568900108 0.0 0.0 0.0 0.0
170000000.0 0.07420717179775238 0.039030592888593674 0.009605161845684052 0.045593369752168655 0.0 0.0 0.0 0.0
171000000.0 0.07542842626571655 0.03869621455669403 0.010564242489635944 0.04565536603331566 0.0 0.0 0.0 0.0
172000000.0 0.07648709416389465 0.037968337535858154 0.011544867418706417 0.04564238712191582 0.0 0.0 0.0 0.0
173000000.0 0.07792526483535767 0.03721214458346367 0.012576918117702007 0.04566366225481033 0.0 0.0 0.0 0.0
174000000.0 0.0786939337849617 0.03645174577832222 0.013689173385500908 0.04563803970813751 0.0 0.0 0.0 0.0
175000000.0 0.08011391758918762 0.035793520510196686 0.014728669077157974 0.04562457650899887 0.0 0.0 0.0 0.0
176000000.0 0.08158599585294724 0.034830257296562195 0.015697799623012543 0.04551505669951439 0.0 0.0 0.0 0.0
