!Created with skrf (http://scikit-rf.org).
# Hz S RI R 50.0 
!freq ReS11 ImS11 ReS21 ImS21 ReS12 ImS12 ReS22 ImS22
1000000.0 0.053694937378168106 0.00014435593038797379 2.5241635739803314e-05 -0.0013065366074442863 0.0 0.0 0.0 0.0
2000000.0 0.054300788789987564 1.2852251529693604e-06 0.0001450907438993454 -0.002565584145486355 0.0 0.0 0.0 0.0
3000000.0 0.05427664890885353 -0.0004681739956140518 3.36281955242157e-05 -0.0036713555455207825 0.0 0.0 0.0 0.0
4000000.0 0.055058758705854416 -0.0010252920910716057 3.5579316318035126e-05 -0.004815254360437393 0.0 0.0 0.0 0.0
5000000.0 0.05449015274643898 -0.0012478074058890343 -1.4003366231918335e-05 -0.005908208899199963 0.0 0.0 0.0 0.0
6000000.0 0.054545629769563675 -0.0019410811364650726 -0.0001357290893793106 -0.007074635475873947 0.0 0.0 0.0 0.0
7000000.0 0.05558154731988907 -0.002648687921464443 -0.00026183389127254486 -0.008229383267462254 0.0 0.0 0.0 0.0
8000000.0 0.05528189614415169 -0.003126462921500206 -0.00037870462983846664 -0.009357274509966373 0.0 0.0 0.0 0.0
9000000.0 0.055229585617780685 -0.0036815879866480827 -0.0006036804988980293 -0.010486184619367123 0.0 0.0 0.0 0.0
10000000.0 0.05524706840515137 -0.004478570073843002 -0.0009267479181289673 -0.011555666103959084 0.0 0.0 0.0 0.0
11000000.0 0.05527661368250847 -0.005045520141720772 -0.0012623444199562073 -0.012647969648241997 0.0 0.0 0.0 0.0
12000000.0 0.05567828193306923 -0.006003952585160732 -0.0025703702121973038 -0.01384637039154768 0.0 0.0 0.0 0.0
13000000.0 0.05555026978254318 -0.006396543234586716 -0.0029904358088970184 -0.014828503131866455 0.0 0.0 0.0 0.0
14000000.0 0.05505385622382164 -0.007013754919171333 -0.00352446548640728 -0.01592634618282318 0.0 0.0 0.0 0.0
15000000.0 0.055332671850919724 -0.006983146071434021 -0.004020843654870987 -0.01701229251921177 0.0 0.0 0.0 0.0
16000000.0 0.05552788823843002 -0.007271782495081425 -0.004598634317517281 -0.01791955903172493 0.0 0.0 0.0 0.0
17000000.0 0.055172860622406006 -0.00781332142651081 -0.005187024362385273 -0.018955804407596588 0.0 0.0 0.0 0.0
18000000.0 0.05517254024744034 -0.008599435910582542 -0.005916898138821125 -0.019972220063209534 0.0 0.0 0.0 0.0
19000000.0 0.05491708219051361 -0.00915538240224123 -0.0066105034202337265 -0.021001433953642845 0.0 0.0 0.0 0.0
20000000.0 0.05488825961947441 -0.009961537085473537 -0.00732432771474123 -0.021886136382818222 0.0 0.0 0.0 0.0
21000000.0 0.0543849840760231 -0.010562223382294178 -0.008079754188656807 -0.022821994498372078 0.0 0.0 0.0 0.0
22000000.0 0.054015398025512695 -0.011365010403096676 -0.008831054903566837 -0.02369528077542782 0.0 0.0 0.0 0.0
23000000.0 0.053389523178339005 -0.011838906444609165 -0.009684192948043346 -0.02453012205660343 0.0 0.0 0.0 0.0
24000000.0 0.05260226130485535 -0.012224431149661541 -0.010590055957436562 -0.025407982990145683 0.0 0.0 0.0 0.0
25000000.0 0.05240655690431595 -0.012884837575256824 -0.011528839357197285 -0.02622951753437519 0.0 0.0 0.0 0.0
26000000.0 0.05231217294931412 -0.01377967931330204 -0.012445873580873013 -0.02712426148355007 0.0 0.0 0.0 0.0
27000000.0 0.05182178318500519 -0.014295444823801517 -0.013361616060137749 -0.02789701521396637 0.0 0.0 0.0 0.0
28000000.0 0.050492070615291595 -0.01489444449543953 -0.014464671723544598 -0.028634173795580864 0.0 0.0 0.0 0.0
29000000.0 0.05047165974974632 -0.015243155881762505 -0.015401496551930904 -0.02934548258781433 0.0 0.0 0.0 0.0
30000000.0 0.04930344596505165 -0.01621665433049202 -0.016573794186115265 -0.029957851395010948 0.0 0.0 0.0 0.0
31000000.0 0.04882751405239105 -0.01681886985898018 -0.01755046285688877 -0.03068719245493412 0.0 0.0 0.0 0.0
32000000.0 0.04809226468205452 -0.017360875383019447 -0.01870141550898552 -0.031333617866039276 0.0 0.0 0.0 0.0
33000000.0 0.04746988043189049 -0.017752837389707565 -0.019934000447392464 -0.03191491961479187 0.0 0.0 0.0 0.0
34000000.0 0.046882081776857376 -0.017916329205036163 -0.021003523841500282 -0.03246388956904411 0.0 0.0 0.0 0.0
35000000.0 0.04633445665240288 -0.018522871658205986 -0.022315310314297676 -0.03300786018371582 0.0 0.0 0.0 0.0
36000000.0 0.04573751613497734 -0.018949583172798157 -0.023458650335669518 -0.03353770449757576 0.0 0.0 0.0 0.0
37000000.0 0.04496423155069351 -0.019103268161416054 -0.02469336800277233 -0.034050654619932175 0.0 0.0 0.0 0.0
38000000.0 0.04420536383986473 -0.019568560644984245 -0.025975095108151436 -0.0344049409031868 0.0 0.0 0.0 0.0
39000000.0 0.04362070560455322 -0.019937632605433464 -0.027264634147286415 -0.03474748134613037 0.0 0.0 0.0 0.0
40000000.0 0.04291687160730362 -0.020311173051595688 -0.02859976515173912 -0.03511016443371773 0.0 0.0 0.0 0.0
41000000.0 0.04221268370747566 -0.020519258454442024 -0.029947033151984215 -0.03549843281507492 0.0 0.0 0.0 0.0
42000000.0 0.04146800935268402 -0.02063552290201187 -0.03127293661236763 -0.035749975591897964 0.0 0.0 0.0 0.0
43000000.0 0.04079078510403633 -0.02074659802019596 -0.032731495797634125 -0.036033790558576584 0.0 0.0 0.0 0.0
44000000.0 0.04009541869163513 -0.02120508812367916 -0.0340442918241024 -0.03620595484972 0.0 0.0 0.0 0.0
45000000.0 0.03919966146349907 -0.021381912752985954 -0.035478997975587845 -0.03637997433543205 0.0 0.0 0.0 0.0
46000000.0 0.03849313035607338 -0.02150408923625946 -0.03697622939944267 -0.03647523745894432 0.0 0.0 0.0 0.0
47000000.0 0.03775035962462425 -0.02141188271343708 -0.03832950443029404 -0.03653951361775398 0.0 0.0 0.0 0.0
48000000.0 0.036853253841400146 -0.02155136503279209 -0.03975833207368851 -0.03661344200372696 0.0 0.0 0.0 0.0
49000000.0 0.036125149577856064 -0.02164643071591854 -0.0429803691804409 -0.03552385792136192 0.0 0.0 0.0 0.0
50000000.0 0.03531509265303612 -0.021868396550416946 -0.04455194249749184 -0.03562482073903084 0.0 0.0 0.0 0.0
51000000.0 0.03455463796854019 -0.021783126518130302 -0.046035733073949814 -0.035377319902181625 0.0 0.0 0.0 0.0
52000000.0 0.03372839465737343 -0.021826032549142838 -0.047584038227796555 -0.035211462527513504 0.0 0.0 0.0 0.0
53000000.0 0.03271422162652016 -0.02183530665934086 -0.04916027560830116 -0.03492933139204979 0.0 0.0 0.0 0.0
54000000.0 0.03195945918560028 -0.021809473633766174 -0.0506369024515152 -0.03480270877480507 0.0 0.0 0.0 0.0
55000000.0 0.03132978454232216 -0.021438751369714737 -0.05223776772618294 -0.034311652183532715 0.0 0.0 0.0 0.0
56000000.0 0.03053450770676136 -0.02154131606221199 -0.05373266339302063 -0.03414678946137428 0.0 0.0 0.0 0.0
57000000.0 0.029450492933392525 -0.021193522959947586 -0.05525434762239456 -0.03362409025430679 0.0 0.0 0.0 0.0
58000000.0 0.029141588136553764 -0.021059801802039146 -0.05692238733172417 -0.033203281462192535 0.0 0.0 0.0 0.0
59000000.0 0.02834916301071644 -0.020855169743299484 -0.05842762812972069 -0.032737940549850464 0.0 0.0 0.0 0.0
60000000.0 0.02737930230796337 -0.020466303452849388 -0.06012026593089104 -0.03229403495788574 0.0 0.0 0.0 0.0
61000000.0 0.026576269418001175 -0.020319851115345955 -0.06148523837327957 -0.03168020769953728 0.0 0.0 0.0 0.0
62000000.0 0.025877725332975388 -0.02024323306977749 -0.06323637068271637 -0.031076831743121147 0.0 0.0 0.0 0.0
63000000.0 0.024808170273900032 -0.019820494577288628 -0.06467524915933609 -0.03034050203859806 0.0 0.0 0.0 0.0
64000000.0 0.02408336102962494 -0.019448092207312584 -0.06635487079620361 -0.029561080038547516 0.0 0.0 0.0 0.0
65000000.0 0.023403003811836243 -0.01889083907008171 -0.06793233752250671 -0.028985386714339256 0.0 0.0 0.0 0.0
66000000.0 0.022535547614097595 -0.018750883638858795 -0.069492869079113 -0.028034914284944534 0.0 0.0 0.0 0.0
67000000.0 0.02200733684003353 -0.018190663307905197 -0.07091083377599716 -0.027132777497172356 0.0 0.0 0.0 0.0
68000000.0 0.021140042692422867 -0.01788889802992344 -0.07241975516080856 -0.026227187365293503 0.0 0.0 0.0 0.0
69000000.0 0.020253226161003113 -0.01735883764922619 -0.0740070790052414 -0.025334425270557404 0.0 0.0 0.0 0.0
70000000.0 0.019661152735352516 -0.016909636557102203 -0.07556115835905075 -0.024302173405885696 0.0 0.0 0.0 0.0
71000000.0 0.018870413303375244 -0.016230428591370583 -0.07702384144067764 -0.023266488686203957 0.0 0.0 0.0 0.0
72000000.0 0.018226435407996178 -0.015887243673205376 -0.0785350427031517 -0.022242320701479912 0.0 0.0 0.0 0.0
73000000.0 0.017624612897634506 -0.01518787071108818 -0.07991935312747955 -0.02105104736983776 0.0 0.0 0.0 0.0
74000000.0 0.016793712973594666 -0.014714458957314491 -0.08144015073776245 -0.0199890099465847 0.0 0.0 0.0 0.0
75000000.0 0.016346316784620285 -0.013861197046935558 -0.08286215364933014 -0.018896417692303658 0.0 0.0 0.0 0.0
76000000.0 0.015679333359003067 -0.013284634798765182 -0.08423289656639099 -0.01763392612338066 0.0 0.0 0.0 0.0
77000000.0 0.01505994237959385 -0.012743890285491943 -0.0856328159570694 -0.016126327216625214 0.0 0.0 0.0 0.0
78000000.0 0.014466462656855583 -0.011913628317415714 -0.0871456041932106 -0.01483775582164526 0.0 0.0 0.0 0.0
79000000.0 0.013919686898589134 -0.011270708404481411 -0.08854946494102478 -0.013334800489246845 0.0 0.0 0.0 0.0
80000000.0 0.01337848324328661 -0.010510697960853577 -0.0896940603852272 -0.011870005168020725 0.0 0.0 0.0 0.0
81000000.0 0.012739465571939945 -0.010056324303150177 -0.09108980000019073 -0.010412714444100857 0.0 0.0 0.0 0.0
82000000.0 0.012424633838236332 -0.008988478220999241 -0.09245533496141434 -0.008859663270413876 0.0 0.0 0.0 0.0
83000000.0 0.011789857409894466 -0.008372284471988678 -0.0937730148434639 -0.007283343002200127 0.0 0.0 0.0 0.0
84000000.0 0.011459308676421642 -0.007337974384427071 -0.09497068077325821 -0.005755859427154064 0.0 0.0 0.0 0.0
85000000.0 0.010870239697396755 -0.006747146137058735 -0.09627553075551987 -0.003931146115064621 0.0 0.0 0.0 0.0
86000000.0 0.01036057434976101 -0.005708213895559311 -0.09742045402526855 -0.0024109147489070892 0.0 0.0 0.0 0.0
87000000.0 0.009879576973617077 -0.004761046729981899 -0.09871193766593933 -0.0006791045889258385 0.0 0.0 0.0 0.0
88000000.0 0.009562266059219837 -0.0038302382454276085 -0.099648617208004 0.0011948402971029282 0.0 0.0 0.0 0.0
89000000.0 0.00948564987629652 -0.0031701289117336273 -0.1007637158036232 0.0029214685782790184 0.0 0.0 0.0 0.0
90000000.0 0.00912231020629406 -0.0019960422068834305 -0.10176915675401688 0.0048544518649578094 0.0 0.0 0.0 0.0
91000000.0 0.008839374408125877 -0.001230170950293541 -0.10270919650793076 0.006831017322838306 0.0 0.0 0.0 0.0
92000000.0 0.008406233973801136 -0.0004442734643816948 -0.10391456633806229 0.008676384575664997 0.0 0.0 0.0 0.0
93000000.0 0.00811950396746397 0.00048102065920829773 -0.10501303523778915 0.010758074931800365 0.0 0.0 0.0 0.0
94000000.0 0.007786680944263935 0.0017378628253936768 -0.10591523349285126 0.012738075107336044 0.0 0.0 0.0 0.0
95000000.0 0.007825582288205624 0.0025362418964505196 -0.10671665519475937 0.014696257188916206 0.0 0.0 0.0 0.0
96000000.0 0.00748383067548275 0.003594405949115753 -0.10767661035060883 0.017122851684689522 0.0 0.0 0.0 0.0
97000000.0 0.007498091086745262 0.004664991982281208 -0.1083248034119606 0.018985368311405182 0.0 0.0 0.0 0.0
98000000.0 0.0072193872183561325 0.005884815938770771 -0.1091383770108223 0.0213614609092474 0.0 0.0 0.0 0.0
99000000.0 0.007252798415720463 0.006661084480583668 -0.11005064845085144 0.023593658581376076 0.0 0.0 0.0 0.0
100000000.0 0.007486582733690739 0.007648486644029617 -0.11109168082475662 0.025777844712138176 0.0 0.0 0.0 0.0
101000000.0 0.007242620922625065 0.008708351291716099 -0.11124353855848312 0.028133029118180275 0.0 0.0 0.0 0.0
102000000.0 0.007406336255371571 0.009805365465581417 -0.11189691722393036 0.030382052063941956 0.0 0.0 0.0 0.0
103000000.0 0.007227282039821148 0.010924482718110085 -0.1125456690788269 0.03267054259777069 0.0 0.0 0.0 0.0
104000000.0 0.007466575130820274 0.011973283253610134 -0.11278819292783737 0.034978535026311874 0.0 0.0 0.0 0.0
105000000.0 0.007643506862223148 0.01308365911245346 -0.11325601488351822 0.037560515105724335 0.0 0.0 0.0 0.0
106000000.0 0.007677261717617512 0.013957187533378601 -0.11381570249795914 0.04005885496735573 0.0 0.0 0.0 0.0
107000000.0 0.007831157185137272 0.014938779175281525 -0.11402146518230438 0.042201846837997437 0.0 0.0 0.0 0.0
108000000.0 0.007807588204741478 0.01598305255174637 -0.11444699764251709 0.045084353536367416 0.0 0.0 0.0 0.0
109000000.0 0.008192242123186588 0.01697378419339657 -0.11461308598518372 0.04735228791832924 0.0 0.0 0.0 0.0
110000000.0 0.008439785800874233 0.01800062321126461 -0.1149102970957756 0.050079572945833206 0.0 0.0 0.0 0.0
111000000.0 0.00863189809024334 0.0193307064473629 -0.11507049202919006 0.05275322496891022 0.0 0.0 0.0 0.0
112000000.0 0.00928151048719883 0.020245281979441643 -0.11522874981164932 0.05513165518641472 0.0 0.0 0.0 0.0
113000000.0 0.009365490637719631 0.021246641874313354 -0.11507544666528702 0.05783918499946594 0.0 0.0 0.0 0.0
114000000.0 0.009864597581326962 0.02234591357409954 -0.11519522219896317 0.06049276515841484 0.0 0.0 0.0 0.0
115000000.0 0.010466584004461765 0.02342234179377556 -0.11492285132408142 0.06297481805086136 0.0 0.0 0.0 0.0
116000000.0 0.01076879445463419 0.024355923756957054 -0.11495289206504822 0.06592465192079544 0.0 0.0 0.0 0.0
117000000.0 0.011382538825273514 0.02561134099960327 -0.11467014998197556 0.06836029887199402 0.0 0.0 0.0 0.0
118000000.0 0.011933130212128162 0.026587212458252907 -0.11421391367912292 0.07126279920339584 0.0 0.0 0.0 0.0
119000000.0 0.012568942271173 0.027557870373129845 -0.11409390717744827 0.07387886196374893 0.0 0.0 0.0 0.0
120000000.0 0.013273082673549652 0.028612950816750526 -0.11365605890750885 0.07664676010608673 0.0 0.0 0.0 0.0
121000000.0 0.013373290188610554 0.029670292511582375 -0.11318618804216385 0.07938606292009354 0.0 0.0 0.0 0.0
122000000.0 0.014279276132583618 0.030638370662927628 -0.11251773685216904 0.08199907094240189 0.0 0.0 0.0 0.0
123000000.0 0.014999853447079659 0.03134326636791229 -0.11217637360095978 0.08506807684898376 0.0 0.0 0.0 0.0
124000000.0 0.015662869438529015 0.032369326800107956 -0.11148075759410858 0.08764433860778809 0.0 0.0 0.0 0.0
125000000.0 0.01655481941998005 0.03357302397489548 -0.11062124371528625 0.09060113877058029 0.0 0.0 0.0 0.0
126000000.0 0.017261216416954994 0.034501925110816956 -0.11004526913166046 0.09352195262908936 0.0 0.0 0.0 0.0
127000000.0 0.018254045397043228 0.03512003272771835 -0.10916344076395035 0.0961235761642456 0.0 0.0 0.0 0.0
128000000.0 0.01873905584216118 0.03627839311957359 -0.10815682262182236 0.09895002096891403 0.0 0.0 0.0 0.0
129000000.0 0.0196569561958313 0.037048958241939545 -0.10737971216440201 0.10182982683181763 0.0 0.0 0.0 0.0
130000000.0 0.020819637924432755 0.037727877497673035 -0.10650570690631866 0.10495790094137192 0.0 0.0 0.0 0.0
131000000.0 0.022092297673225403 0.038743820041418076 -0.10510266572237015 0.10722264647483826 0.0 0.0 0.0 0.0
132000000.0 0.022767813876271248 0.03959148749709129 -0.10380975902080536 0.11013246327638626 0.0 0.0 0.0 0.0
133000000.0 0.023717060685157776 0.04037468880414963 -0.10260672122240067 0.11303124576807022 0.0 0.0 0.0 0.0
134000000.0 0.024623900651931763 0.040822163224220276 -0.1014932170510292 0.11584838479757309 0.0 0.0 0.0 0.0
135000000.0 0.026066770777106285 0.04152785614132881 -0.09983021020889282 0.1184951663017273 0.0 0.0 0.0 0.0
136000000.0 0.026876967400312424 0.04244880750775337 -0.09863793849945068 0.12144491821527481 0.0 0.0 0.0 0.0
137000000.0 0.027988120913505554 0.043171677738428116 -0.09687381982803345 0.12407288700342178 0.0 0.0 0.0 0.0
138000000.0 0.029037177562713623 0.043719492852687836 -0.09556370973587036 0.1269504725933075 0.0 0.0 0.0 0.0
139000000.0 0.030396049842238426 0.04433564096689224 -0.09357035905122757 0.12961769104003906 0.0 0.0 0.0 0.0
140000000.0 0.03140386939048767 0.04504431039094925 -0.09203166514635086 0.13208982348442078 0.0 0.0 0.0 0.0
141000000.0 0.032641779631376266 0.04515781253576279 -0.08239047229290009 0.138159841299057 0.0 0.0 0.0 0.0
142000000.0 0.033518269658088684 0.04568703472614288 -0.08037478476762772 0.14079603552818298 0.0 0.0 0.0 0.0
143000000.0 0.03506295755505562 0.045882757753133774 -0.07824360579252243 0.14340217411518097 0.0 0.0 0.0 0.0
144000000.0 0.03628838434815407 0.046532612293958664 -0.07638352364301682 0.1456543654203415 0.0 0.0 0.0 0.0
145000000.0 0.037422437220811844 0.04687509313225746 -0.0741841197013855 0.147849902510643 0.0 0.0 0.0 0.0
146000000.0 0.03864000737667084 0.04719831049442291 -0.07188142836093903 0.15043781697750092 0.0 0.0 0.0 0.0
147000000.0 0.03995821252465248 0.047587983310222626 -0.06960971653461456 0.1527143269777298 0.0 0.0 0.0 0.0
148000000.0 0.04114735499024391 0.04797876253724098 -0.06698538362979889 0.1552552729845047 0.0 0.0 0.0 0.0
149000000.0 0.04262574762105942 0.048472050577402115 -0.06475653499364853 0.15777751803398132 0.0 0.0 0.0 0.0
150000000.0 0.04409661889076233 0.04843469709157944 -0.06216949224472046 0.16000473499298096 0.0 0.0 0.0 0.0
151000000.0 0.045307207852602005 0.048744939267635345 -0.05945882573723793 0.16215573251247406 0.0 0.0 0.0 0.0
152000000.0 0.04637870192527771 0.04894155263900757 -0.056895315647125244 0.1644400805234909 0.0 0.0 0.0 0.0
153000000.0 0.04810398072004318 0.04912648722529411 -0.05421750992536545 0.16673879325389862 0.0 0.0 0.0 0.0
154000000.0 0.049229249358177185 0.04925747960805893 -0.051372990012168884 0.1687084287405014 0.0 0.0 0.0 0.0
155000000.0 0.05081111937761307 0.049273330718278885 -0.04879259318113327 0.17079158127307892 0.0 0.0 0.0 0.0
156000000.0 0.05201009288430214 0.04948653280735016 -0.04575686529278755 0.17268812656402588 0.0 0.0 0.0 0.0
157000000.0 0.05338318645954132 0.04972262680530548 -0.042790737003088 0.1746537685394287 0.0 0.0 0.0 0.0
158000000.0 0.05487731471657753 0.04961850121617317 -0.03959927707910538 0.17684398591518402 0.0 0.0 0.0 0.0
159000000.0 0.05634796991944313 0.05009131133556366 -0.036718808114528656 0.17846785485744476 0.0 0.0 0.0 0.0
160000000.0 0.057592492550611496 0.049660369753837585 -0.033583324402570724 0.1805936098098755 0.0 0.0 0.0 0.0
161000000.0 0.05925190448760986 0.0496981255710125 -0.030268704518675804 0.1822643280029297 0.0 0.0 0.0 0.0
162000000.0 0.060447245836257935 0.049352895468473434 -0.027282582595944405 0.18377098441123962 0.0 0.0 0.0 0.0
163000000.0 0.061934757977724075 0.049260977655649185 -0.023611944168806076 0.18578653037548065 0.0 0.0 0.0 0.0
164000000.0 0.06330852955579758 0.04912208020687103 -0.02067321352660656 0.1869768649339676 0.0 0.0 0.0 0.0
165000000.0 0.06468887627124786 0.04876032844185829 -0.017071491107344627 0.1887679547071457 0.0 0.0 0.0 0.0
166000000.0 0.06601172685623169 0.04815433546900749 -0.013505436480045319 0.19011463224887848 0.0 0.0 0.0 0.0
167000000.0 0.06770859658718109 0.047963351011276245 -0.009972293861210346 0.19137802720069885 0.0 0.0 0.0 0.0
168000000.0 0.06900191307067871 0.04731321707367897 -0.006492565385997295 0.19295747578144073 0.0 0.0 0.0 0.0
169000000.0 0.07051559537649155 0.04731402546167374 -0.002951359376311302 0.19410523772239685 0.0 0.0 0.0 0.0
170000000.0 0.07171712815761566 0.046669017523527145 0.0007250597700476646 0.19523027539253235 0.0 0.0 0.0 0.0
171000000.0 0.07349607348442078 0.04614422097802162 0.004257622174918652 0.19640767574310303 0.0 0.0 0.0 0.0
172000000.0 0.07438681274652481 0.04542612284421921 0.007965425960719585 0.19768166542053223 0.0 0.0 0.0 0.0
173000000.0 0.0761888325214386 0.04491029307246208 0.011931735090911388 0.19869188964366913 0.0 0.0 0.0 0.0
174000000.0 0.07721629738807678 0.04471028223633766 0.015894796699285507 0.19925768673419952 0.0 0.0 0.0 0.0
175000000.0 0.07862615585327148 0.0438520610332489 0.01972947083413601 0.20007891952991486 0.0 0.0 0.0 0.0
176000000.0 0.07992716133594513 0.04306284710764885 0.023664066568017006 0.200926274061203 0.0 0.0 0.0 0.0
177000000.0 0.08141732215881348 0.04185453802347183 0.027292640879750252 0.20162834227085114 0.0 0.0 0.0 0.0
178000000.0 0.08278074860572815 0.04086202010512352 0.03170758858323097 0.20216365158557892 0.0 0.0 0.0 0.0
179000000.0 0.08377961814403534 0.04003344848752022 0.0355290062725544 0.20287582278251648 0.0 0.0 0.0 0.0
