!Created with skrf (http://scikit-rf.org).
# Hz S RI R 50.0 
!freq ReS11 ImS11 ReS21 ImS21 ReS12 ImS12 ReS22 ImS22
1000000.0 0.013900630176067352 0.0019789841026067734 -0.9497756361961365 0.017468372359871864 0.0 0.0 0.0 0.0
2000000.0 0.014626741409301758 0.0037138396874070168 -0.951370358467102 0.03475057706236839 0.0 0.0 0.0 0.0
3000000.0 0.01577896624803543 0.005142432637512684 -0.9488537311553955 0.05225188657641411 0.0 0.0 0.0 0.0
4000000.0 0.016770802438259125 0.006364667788147926 -0.9492111206054688 0.0704481452703476 0.0 0.0 0.0 0.0
5000000.0 0.017266778275370598 0.007333666086196899 -0.9461178779602051 0.08609722554683685 0.0 0.0 0.0 0.0
6000000.0 0.018253525719046593 0.008363068103790283 -0.9472159147262573 0.10170545428991318 0.0 0.0 0.0 0.0
7000000.0 0.018796700984239578 0.009077059105038643 -0.9466050267219543 0.11937997490167618 0.0 0.0 0.0 0.0
8000000.0 0.019395187497138977 0.009775158017873764 -0.9448495507240295 0.13767623901367188 0.0 0.0 0.0 0.0
9000000.0 0.02071397751569748 0.010836083441972733 -0.942270815372467 0.15490584075450897 0.0 0.0 0.0 0.0
10000000.0 0.021554626524448395 0.011543501168489456 -0.9393833875656128 0.17316284775733948 0.0 0.0 0.0 0.0
11000000.0 0.02209259383380413 0.011871152557432652 -0.9364610910415649 0.19022607803344727 0.0 0.0 0.0 0.0
12000000.0 0.02245095744729042 0.012336177751421928 -0.9323310852050781 0.20672421157360077 0.0 0.0 0.0 0.0
13000000.0 0.02323880046606064 0.012759248726069927 -0.9283111095428467 0.22378063201904297 0.0 0.0 0.0 0.0
14000000.0 0.024100903421640396 0.0133551936596632 -0.9245681166648865 0.24111515283584595 0.0 0.0 0.0 0.0
15000000.0 0.02518235519528389 0.014872506260871887 -0.9194654822349548 0.25777730345726013 0.0 0.0 0.0 0.0
16000000.0 0.02601686865091324 0.0157344788312912 -0.9155973196029663 0.27539098262786865 0.0 0.0 0.0 0.0
17000000.0 0.027044910937547684 0.016276104375720024 -0.9097148776054382 0.29111090302467346 0.0 0.0 0.0 0.0
18000000.0 0.027889788150787354 0.01653720997273922 -0.905005156993866 0.30840951204299927 0.0 0.0 0.0 0.0
19000000.0 0.029024334624409676 0.016832025721669197 -0.8985533118247986 0.3245483934879303 0.0 0.0 0.0 0.0
20000000.0 0.029596826061606407 0.017039431259036064 -0.8927845358848572 0.34140250086784363 0.0 0.0 0.0 0.0
21000000.0 0.03019975684583187 0.016871316358447075 -0.8862740397453308 0.35680386424064636 0.0 0.0 0.0 0.0
22000000.0 0.030935948714613914 0.01653909683227539 -0.880111575126648 0.3731057047843933 0.0 0.0 0.0 0.0
23000000.0 0.031474366784095764 0.016290852800011635 -0.873125433921814 0.38913413882255554 0.0 0.0 0.0 0.0
24000000.0 0.03235485777258873 0.01595951057970524 -0.8654375076293945 0.4051920771598816 0.0 0.0 0.0 0.0
25000000.0 0.03317895904183388 0.016199931502342224 -0.8585383892059326 0.4212109446525574 0.0 0.0 0.0 0.0
26000000.0 0.03392716124653816 0.016122881323099136 -0.8503376245498657 0.4361463785171509 0.0 0.0 0.0 0.0
27000000.0 0.03478645905852318 0.01592222973704338 -0.8422532677650452 0.4518302381038666 0.0 0.0 0.0 0.0
28000000.0 0.035587914288043976 0.01577620953321457 -0.8340713381767273 0.4668751060962677 0.0 0.0 0.0 0.0
29000000.0 0.036300178617239 0.015689121559262276 -0.8252128958702087 0.48200464248657227 0.0 0.0 0.0 0.0
30000000.0 0.037166621536016464 0.015366481617093086 -0.8162803053855896 0.4971568286418915 0.0 0.0 0.0 0.0
31000000.0 0.03782543167471886 0.01517519447952509 -0.8074419498443604 0.5113297700881958 0.0 0.0 0.0 0.0
32000000.0 0.03858606144785881 0.01500751357525587 -0.7974671125411987 0.5267348885536194 0.0 0.0 0.0 0.0
33000000.0 0.03928426653146744 0.01478553470224142 -0.7885255217552185 0.5404295325279236 0.0 0.0 0.0 0.0
34000000.0 0.03998171165585518 0.014408557675778866 -0.7781822085380554 0.5552632808685303 0.0 0.0 0.0 0.0
35000000.0 0.040717724710702896 0.013932988978922367 -0.767899751663208 0.5690998435020447 0.0 0.0 0.0 0.0
36000000.0 0.04137275740504265 0.013761671259999275 -0.7579598426818848 0.5823514461517334 0.0 0.0 0.0 0.0
37000000.0 0.04208371788263321 0.013256367295980453 -0.747218906879425 0.5962738394737244 0.0 0.0 0.0 0.0
38000000.0 0.04258178547024727 0.012673488818109035 -0.7356857657432556 0.6099007725715637 0.0 0.0 0.0 0.0
39000000.0 0.043319422751665115 0.01231427676975727 -0.7249097228050232 0.6231103539466858 0.0 0.0 0.0 0.0
40000000.0 0.043971095234155655 0.011700470931828022 -0.7139067053794861 0.6364740133285522 0.0 0.0 0.0 0.0
41000000.0 0.044238172471523285 0.01131549384444952 -0.7021327018737793 0.6486471891403198 0.0 0.0 0.0 0.0
42000000.0 0.04482065513730049 0.010767804458737373 -0.6903106570243835 0.6615146994590759 0.0 0.0 0.0 0.0
43000000.0 0.0452493280172348 0.00993418786674738 -0.678695023059845 0.6737588047981262 0.0 0.0 0.0 0.0
44000000.0 0.04551302641630173 0.009442759677767754 -0.6662333607673645 0.685884416103363 0.0 0.0 0.0 0.0
45000000.0 0.04619050398468971 0.008840658701956272 -0.6535634398460388 0.6976231932640076 0.0 0.0 0.0 0.0
46000000.0 0.046518150717020035 0.00808716844767332 -0.6408430337905884 0.7093486189842224 0.0 0.0 0.0 0.0
47000000.0 0.04670676589012146 0.0073804305866360664 -0.6277860403060913 0.7215393781661987 0.0 0.0 0.0 0.0
48000000.0 0.046985357999801636 0.006651402451097965 -0.6148887872695923 0.7322343587875366 0.0 0.0 0.0 0.0
49000000.0 0.04737317934632301 0.005997677333652973 -0.6017919182777405 0.7438474893569946 0.0 0.0 0.0 0.0
50000000.0 0.047335486859083176 0.005493015982210636 -0.58870530128479 0.7544781565666199 0.0 0.0 0.0 0.0
51000000.0 0.04756319522857666 0.004691909067332745 -0.574887752532959 0.7651597261428833 0.0 0.0 0.0 0.0
52000000.0 0.04786120355129242 0.003910064697265625 -0.5607549548149109 0.775858461856842 0.0 0.0 0.0 0.0
53000000.0 0.047551754862070084 0.003246404230594635 -0.5468364357948303 0.7854397892951965 0.0 0.0 0.0 0.0
54000000.0 0.04762016981840134 0.0025915196165442467 -0.5326905250549316 0.7949059009552002 0.0 0.0 0.0 0.0
55000000.0 0.04760773479938507 0.0017238743603229523 -0.5181611180305481 0.8051982522010803 0.0 0.0 0.0 0.0
56000000.0 0.04745721071958542 0.0010883435606956482 -0.5040245652198792 0.8141856789588928 0.0 0.0 0.0 0.0
57000000.0 0.0474797822535038 0.00033711548894643784 -0.48948654532432556 0.8229337334632874 0.0 0.0 0.0 0.0
58000000.0 0.047384969890117645 -0.0005489401519298553 -0.47423386573791504 0.8325008153915405 0.0 0.0 0.0 0.0
59000000.0 0.04712558537721634 -0.0012146933004260063 -0.45943406224250793 0.8409981727600098 0.0 0.0 0.0 0.0
60000000.0 0.04699035361409187 -0.001916801556944847 -0.44383615255355835 0.8494574427604675 0.0 0.0 0.0 0.0
61000000.0 0.046521127223968506 -0.002634657546877861 -0.4287148416042328 0.8562453985214233 0.0 0.0 0.0 0.0
62000000.0 0.04621344432234764 -0.003324003890156746 -0.4133257567882538 0.8647855520248413 0.0 0.0 0.0 0.0
63000000.0 0.04592295363545418 -0.00371574517339468 -0.3978576362133026 0.8717062473297119 0.0 0.0 0.0 0.0
64000000.0 0.04565923660993576 -0.004738990217447281 -0.38178545236587524 0.8796404004096985 0.0 0.0 0.0 0.0
65000000.0 0.04510360211133957 -0.005196830257773399 -0.3662809133529663 0.8867058157920837 0.0 0.0 0.0 0.0
66000000.0 0.04448602348566055 -0.0059356652200222015 -0.35034704208374023 0.8926761150360107 0.0 0.0 0.0 0.0
67000000.0 0.04426109418272972 -0.006256319582462311 -0.3343118727207184 0.8996288180351257 0.0 0.0 0.0 0.0
68000000.0 0.04354676231741905 -0.007034847512841225 -0.31814154982566833 0.9055032730102539 0.0 0.0 0.0 0.0
69000000.0 0.043075207620859146 -0.007496119476854801 -0.30151721835136414 0.9115573167800903 0.0 0.0 0.0 0.0
70000000.0 0.04227863997220993 -0.007908154278993607 -0.2854132056236267 0.9168863892555237 0.0 0.0 0.0 0.0
71000000.0 0.04165437072515488 -0.008442498743534088 -0.26863473653793335 0.9223019480705261 0.0 0.0 0.0 0.0
72000000.0 0.040850088000297546 -0.008825819939374924 -0.2524915337562561 0.9268404841423035 0.0 0.0 0.0 0.0
73000000.0 0.04023749753832817 -0.009166857227683067 -0.23537884652614594 0.9319236278533936 0.0 0.0 0.0 0.0
74000000.0 0.03960440307855606 -0.009522361680865288 -0.21923622488975525 0.9359832406044006 0.0 0.0 0.0 0.0
75000000.0 0.038772087544202805 -0.009853340685367584 -0.20252002775669098 0.9407404065132141 0.0 0.0 0.0 0.0
76000000.0 0.038007594645023346 -0.010061533190310001 -0.18479818105697632 0.9450387954711914 0.0 0.0 0.0 0.0
77000000.0 0.037020497024059296 -0.01038638036698103 -0.16825062036514282 0.9474339485168457 0.0 0.0 0.0 0.0
78000000.0 0.03654342517256737 -0.010597940534353256 -0.15104219317436218 0.9513369202613831 0.0 0.0 0.0 0.0
79000000.0 0.03565583750605583 -0.010662131942808628 -0.13395309448242188 0.9542213082313538 0.0 0.0 0.0 0.0
80000000.0 0.03465171158313751 -0.01107885129749775 -0.11721379309892654 0.9570908546447754 0.0 0.0 0.0 0.0
81000000.0 0.03366948664188385 -0.011007672175765038 -0.09937363862991333 0.9592587947845459 0.0 0.0 0.0 0.0
82000000.0 0.03287743404507637 -0.011026144959032536 -0.08182474225759506 0.9617918133735657 0.0 0.0 0.0 0.0
83000000.0 0.03194678947329521 -0.010877924039959908 -0.06456677615642548 0.962777853012085 0.0 0.0 0.0 0.0
84000000.0 0.030964579433202744 -0.010881648398935795 -0.0475369356572628 0.9649620056152344 0.0 0.0 0.0 0.0
85000000.0 0.030187606811523438 -0.01081098709255457 -0.030049437656998634 0.9656438231468201 0.0 0.0 0.0 0.0
86000000.0 0.029390593990683556 -0.010574134066700935 -0.013080758042633533 0.9662951231002808 0.0 0.0 0.0 0.0
87000000.0 0.02825244329869747 -0.010332468897104263 0.004390283487737179 0.9663656949996948 0.0 0.0 0.0 0.0
88000000.0 0.027449216693639755 -0.010196037590503693 0.022127792239189148 0.9673265814781189 0.0 0.0 0.0 0.0
89000000.0 0.026667281985282898 -0.00986288022249937 0.03970985859632492 0.9666444659233093 0.0 0.0 0.0 0.0
90000000.0 0.025484388694167137 -0.009337129071354866 0.05726005136966705 0.9664197564125061 0.0 0.0 0.0 0.0
91000000.0 0.02465786784887314 -0.009018488228321075 0.07518605142831802 0.9656690955162048 0.0 0.0 0.0 0.0
92000000.0 0.02377733215689659 -0.0086272694170475 0.09228849411010742 0.9640982151031494 0.0 0.0 0.0 0.0
93000000.0 0.022781869396567345 -0.008190478198230267 0.11024811863899231 0.9633229374885559 0.0 0.0 0.0 0.0
94000000.0 0.02206452377140522 -0.00750840175896883 0.1272083818912506 0.9614356160163879 0.0 0.0 0.0 0.0
95000000.0 0.02127511240541935 -0.007100284099578857 0.14555969834327698 0.9594582915306091 0.0 0.0 0.0 0.0
96000000.0 0.02044803276658058 -0.006148000247776508 0.1625380665063858 0.957179069519043 0.0 0.0 0.0 0.0
97000000.0 0.01942899450659752 -0.005570375360548496 0.17972885072231293 0.9537526965141296 0.0 0.0 0.0 0.0
98000000.0 0.018790028989315033 -0.004820672795176506 0.19732069969177246 0.9514381885528564 0.0 0.0 0.0 0.0
99000000.0 0.018026448786258698 -0.004192499443888664 0.21543726325035095 0.9482830166816711 0.0 0.0 0.0 0.0
100000000.0 0.017471663653850555 -0.003397689200937748 0.23487462103366852 0.9493159055709839 0.0 0.0 0.0 0.0
101000000.0 0.016529588028788567 -0.0023222537711262703 0.24931110441684723 0.9394407272338867 0.0 0.0 0.0 0.0
102000000.0 0.01598244346678257 -0.0016043400391936302 0.26681071519851685 0.9357224106788635 0.0 0.0 0.0 0.0
103000000.0 0.0153861865401268 -0.0005427561700344086 0.28438296914100647 0.9317724108695984 0.0 0.0 0.0 0.0
104000000.0 0.014906004071235657 0.0003966577351093292 0.3011481761932373 0.9270746111869812 0.0 0.0 0.0 0.0
105000000.0 0.014316432178020477 0.0012157391756772995 0.3176977038383484 0.9211822748184204 0.0 0.0 0.0 0.0
106000000.0 0.013768874108791351 0.0024580741301178932 0.3352670669555664 0.9163548350334167 0.0 0.0 0.0 0.0
107000000.0 0.01308705285191536 0.0035709599032998085 0.3517042398452759 0.9101435542106628 0.0 0.0 0.0 0.0
108000000.0 0.012628600001335144 0.004776559770107269 0.3688231408596039 0.9037318825721741 0.0 0.0 0.0 0.0
109000000.0 0.01225610077381134 0.005906951613724232 0.3853622078895569 0.8970110416412354 0.0 0.0 0.0 0.0
110000000.0 0.011917127296328545 0.0069916704669594765 0.40284788608551025 0.8910903334617615 0.0 0.0 0.0 0.0
111000000.0 0.011751321144402027 0.00825798511505127 0.4193461239337921 0.883945107460022 0.0 0.0 0.0 0.0
112000000.0 0.011626376770436764 0.009496036916971207 0.4354786276817322 0.8758503198623657 0.0 0.0 0.0 0.0
113000000.0 0.011311651207506657 0.010752320289611816 0.45219650864601135 0.8689133524894714 0.0 0.0 0.0 0.0
114000000.0 0.011133789084851742 0.012141087092459202 0.4681866765022278 0.8603147268295288 0.0 0.0 0.0 0.0
115000000.0 0.011091002263128757 0.013370909728109837 0.4832967221736908 0.8517494797706604 0.0 0.0 0.0 0.0
116000000.0 0.011009082198143005 0.014888548292219639 0.49981796741485596 0.8439452648162842 0.0 0.0 0.0 0.0
117000000.0 0.011222083121538162 0.01599450223147869 0.5151141881942749 0.8348480463027954 0.0 0.0 0.0 0.0
118000000.0 0.01116916723549366 0.01741369254887104 0.5309531092643738 0.8256878852844238 0.0 0.0 0.0 0.0
119000000.0 0.011234750039875507 0.01882438361644745 0.5455772876739502 0.8164360523223877 0.0 0.0 0.0 0.0
120000000.0 0.01135936938226223 0.020275739952921867 0.5616330504417419 0.806688666343689 0.0 0.0 0.0 0.0
121000000.0 0.011741182766854763 0.02154148742556572 0.5772677063941956 0.7964525818824768 0.0 0.0 0.0 0.0
122000000.0 0.012212315574288368 0.023069655522704124 0.5911380052566528 0.7863805294036865 0.0 0.0 0.0 0.0
123000000.0 0.012495349161326885 0.02459236979484558 0.6062955260276794 0.7756023406982422 0.0 0.0 0.0 0.0
124000000.0 0.013019177131354809 0.02559874765574932 0.6207290887832642 0.7644253969192505 0.0 0.0 0.0 0.0
125000000.0 0.013477260246872902 0.027459943667054176 0.6350266337394714 0.7540514469146729 0.0 0.0 0.0 0.0
126000000.0 0.014009794220328331 0.02870143949985504 0.649334192276001 0.7413171529769897 0.0 0.0 0.0 0.0
127000000.0 0.014795715920627117 0.030177222564816475 0.6633176207542419 0.7300538420677185 0.0 0.0 0.0 0.0
128000000.0 0.015175431035459042 0.03162079676985741 0.6769957542419434 0.7184889912605286 0.0 0.0 0.0 0.0
129000000.0 0.015867775306105614 0.03287212550640106 0.6896602511405945 0.7054778933525085 0.0 0.0 0.0 0.0
130000000.0 0.017217915505170822 0.034134265035390854 0.7056136727333069 0.6947393417358398 0.0 0.0 0.0 0.0
131000000.0 0.01781996339559555 0.035746943205595016 0.7161607146263123 0.6802793741226196 0.0 0.0 0.0 0.0
132000000.0 0.018779944628477097 0.03691936656832695 0.7291759252548218 0.6677908301353455 0.0 0.0 0.0 0.0
133000000.0 0.01962975785136223 0.03828181326389313 0.7413858771324158 0.6538242101669312 0.0 0.0 0.0 0.0
134000000.0 0.020794223994016647 0.03933271765708923 0.7543579339981079 0.6405767202377319 0.0 0.0 0.0 0.0
135000000.0 0.021981772035360336 0.0408158116042614 0.766282856464386 0.6268244385719299 0.0 0.0 0.0 0.0
136000000.0 0.023128783330321312 0.04191460460424423 0.7780733108520508 0.6122814416885376 0.0 0.0 0.0 0.0
137000000.0 0.024330666288733482 0.0429544597864151 0.7906773090362549 0.5986857414245605 0.0 0.0 0.0 0.0
138000000.0 0.02584441378712654 0.04418260231614113 0.8019945621490479 0.5842450857162476 0.0 0.0 0.0 0.0
139000000.0 0.02697843126952648 0.04537688568234444 0.8116271495819092 0.5699413418769836 0.0 0.0 0.0 0.0
140000000.0 0.028296170756220818 0.04640606790781021 0.8239850997924805 0.5551085472106934 0.0 0.0 0.0 0.0
141000000.0 0.029898565262556076 0.047032929956912994 0.8229525089263916 0.5125717520713806 0.0 0.0 0.0 0.0
142000000.0 0.03147423639893532 0.047849349677562714 0.8337292671203613 0.49716854095458984 0.0 0.0 0.0 0.0
143000000.0 0.03296137601137161 0.04854875057935715 0.8425396680831909 0.48190996050834656 0.0 0.0 0.0 0.0
144000000.0 0.03428575024008751 0.04944761097431183 0.8525248765945435 0.46668681502342224 0.0 0.0 0.0 0.0
145000000.0 0.0361192561686039 0.050193361937999725 0.8616260290145874 0.4509197473526001 0.0 0.0 0.0 0.0
146000000.0 0.03786268085241318 0.05114947259426117 0.869865357875824 0.434991717338562 0.0 0.0 0.0 0.0
147000000.0 0.039626624435186386 0.051671724766492844 0.8774729371070862 0.41850677132606506 0.0 0.0 0.0 0.0
148000000.0 0.0411851704120636 0.05233064666390419 0.8858604431152344 0.4026014506816864 0.0 0.0 0.0 0.0
149000000.0 0.043045978993177414 0.052804265171289444 0.8926229476928711 0.3865073621273041 0.0 0.0 0.0 0.0
150000000.0 0.04482441768050194 0.05319201573729515 0.9004111886024475 0.3697672486305237 0.0 0.0 0.0 0.0
151000000.0 0.04620582237839699 0.053626421838998795 0.9067245721817017 0.35357776284217834 0.0 0.0 0.0 0.0
152000000.0 0.048336680978536606 0.05450593680143356 0.91424161195755 0.33629855513572693 0.0 0.0 0.0 0.0
153000000.0 0.050015002489089966 0.05495816469192505 0.9207597970962524 0.31921181082725525 0.0 0.0 0.0 0.0
154000000.0 0.05207819864153862 0.055150844156742096 0.9268052577972412 0.3023529648780823 0.0 0.0 0.0 0.0
155000000.0 0.05403146892786026 0.055512022227048874 0.9330710172653198 0.2852550148963928 0.0 0.0 0.0 0.0
156000000.0 0.05599631741642952 0.05549249425530434 0.9376186728477478 0.26801472902297974 0.0 0.0 0.0 0.0
157000000.0 0.058014243841171265 0.05544967204332352 0.9427695274353027 0.2505546808242798 0.0 0.0 0.0 0.0
158000000.0 0.05973675101995468 0.05547422915697098 0.9480686783790588 0.23321081697940826 0.0 0.0 0.0 0.0
159000000.0 0.061895426362752914 0.05536208301782608 0.9526047706604004 0.2153748720884323 0.0 0.0 0.0 0.0
160000000.0 0.06377926468849182 0.055136486887931824 0.9566460847854614 0.19745942950248718 0.0 0.0 0.0 0.0
161000000.0 0.06570855528116226 0.05483516305685043 0.9606518149375916 0.18025217950344086 0.0 0.0 0.0 0.0
162000000.0 0.0675404742360115 0.0543488971889019 0.9641568660736084 0.1629793345928192 0.0 0.0 0.0 0.0
163000000.0 0.06979412585496902 0.0544065460562706 0.9672819972038269 0.14384357631206512 0.0 0.0 0.0 0.0
164000000.0 0.07135462015867233 0.053554486483335495 0.9706490635871887 0.12652885913848877 0.0 0.0 0.0 0.0
165000000.0 0.07349281758069992 0.053171757608652115 0.9725294709205627 0.10861322283744812 0.0 0.0 0.0 0.0
166000000.0 0.07585599273443222 0.052560288459062576 0.9743443727493286 0.08990279585123062 0.0 0.0 0.0 0.0
167000000.0 0.07777734100818634 0.051602791994810104 0.9769822359085083 0.07271839678287506 0.0 0.0 0.0 0.0
168000000.0 0.07972142845392227 0.05083880573511124 0.9777636528015137 0.05395824462175369 0.0 0.0 0.0 0.0
169000000.0 0.08164530247449875 0.049829378724098206 0.9791746139526367 0.03556567057967186 0.0 0.0 0.0 0.0
170000000.0 0.08319868892431259 0.04883330687880516 0.9802289009094238 0.017440415918827057 0.0 0.0 0.0 0.0
171000000.0 0.08499149978160858 0.047789316624403 0.9803237915039062 -0.0003830716013908386 0.0 0.0 0.0 0.0
172000000.0 0.08662409335374832 0.04652287811040878 0.9808806777000427 -0.019144073128700256 0.0 0.0 0.0 0.0
173000000.0 0.08863908052444458 0.045977670699357986 0.9810683131217957 -0.036810871213674545 0.0 0.0 0.0 0.0
174000000.0 0.09049786627292633 0.044607825577259064 0.9801986217498779 -0.05566456541419029 0.0 0.0 0.0 0.0
175000000.0 0.09233254194259644 0.04316302016377449 0.9799490571022034 -0.07415372878313065 0.0 0.0 0.0 0.0
176000000.0 0.09363218396902084 0.04148033633828163 0.9785500764846802 -0.09293635189533234 0.0 0.0 0.0 0.0
177000000.0 0.0951535552740097 0.04038602486252785 0.9764854311943054 -0.11102987825870514 0.0 0.0 0.0 0.0
178000000.0 0.09698494523763657 0.03878442943096161 0.9744301438331604 -0.12903699278831482 0.0 0.0 0.0 0.0
179000000.0 0.09828950464725494 0.037238478660583496 0.9728313684463501 -0.14735108613967896 0.0 0.0 0.0 0.0
180000000.0 0.10003884881734848 0.03546630218625069 0.9692798256874084 -0.1657050997018814 0.0 0.0 0.0 0.0
181000000.0 0.10105083882808685 0.03379915654659271 0.9672476053237915 -0.18375840783119202 0.0 0.0 0.0 0.0
182000000.0 0.10229408740997314 0.03217911720275879 0.9640033841133118 -0.20189808309078217 0.0 0.0 0.0 0.0
183000000.0 0.1042429655790329 0.030707689002156258 0.9601408839225769 -0.22035817801952362 0.0 0.0 0.0 0.0
184000000.0 0.10504796355962753 0.028544606640934944 0.9563419818878174 -0.23851434886455536 0.0 0.0 0.0 0.0
