!Created with skrf (http://scikit-rf.org).
# Hz S RI R 50.0 
!freq ReS11 ImS11 ReS21 ImS21 ReS12 ImS12 ReS22 ImS22
1000000.0 0.053991060703992844 0.00018213316798210144 8.954480290412903e-05 -3.525242209434509e-05 0.0 0.0 0.0 0.0
2000000.0 0.05460667610168457 -0.00024246983230113983 0.00021371524780988693 -0.00023432821035385132 0.0 0.0 0.0 0.0
3000000.0 0.05450628325343132 -0.0003298027440905571 0.000328567810356617 -0.00047796592116355896 0.0 0.0 0.0 0.0
4000000.0 0.05529584363102913 -0.0008600307628512383 0.00040182285010814667 -0.0007576094940304756 0.0 0.0 0.0 0.0
5000000.0 0.054857444018125534 -0.0013933805748820305 0.0004455437883734703 -0.0010163160040974617 0.0 0.0 0.0 0.0
6000000.0 0.05489236116409302 -0.0018082130700349808 0.0004874570295214653 -0.0012774504721164703 0.0 0.0 0.0 0.0
7000000.0 0.055701132863759995 -0.0024764658883213997 0.00047703925520181656 -0.001545758917927742 0.0 0.0 0.0 0.0
8000000.0 0.05550997331738472 -0.0032809320837259293 0.0005102474242448807 -0.001791439950466156 0.0 0.0 0.0 0.0
9000000.0 0.055573251098394394 -0.003725997172296047 0.0004429677501320839 -0.0020006345584988594 0.0 0.0 0.0 0.0
10000000.0 0.055435486137866974 -0.004323585890233517 0.000407220795750618 -0.0023542772978544235 0.0 0.0 0.0 0.0
11000000.0 0.0556337870657444 -0.005277038551867008 0.00038192328065633774 -0.0026273978874087334 0.0 0.0 0.0 0.0
12000000.0 0.055714625865221024 -0.00567863043397665 0.0003666812554001808 -0.0028657959774136543 0.0 0.0 0.0 0.0
13000000.0 0.05581198260188103 -0.006265775300562382 0.00029374659061431885 -0.003149920143187046 0.0 0.0 0.0 0.0
14000000.0 0.055736467242240906 -0.006964146159589291 0.00026070792227983475 -0.0034218458458781242 0.0 0.0 0.0 0.0
15000000.0 0.05519584193825722 -0.007860690355300903 0.00011503603309392929 -0.0036928392946720123 0.0 0.0 0.0 0.0
16000000.0 0.05513439700007439 -0.008006426505744457 3.504939377307892e-05 -0.003980555571615696 0.0 0.0 0.0 0.0
17000000.0 0.05539721995592117 -0.008192354813218117 -6.91395252943039e-05 -0.0042152246460318565 0.0 0.0 0.0 0.0
18000000.0 0.05515913665294647 -0.008326958864927292 -0.00014841090887784958 -0.004472048953175545 0.0 0.0 0.0 0.0
19000000.0 0.05518572777509689 -0.00913839228451252 -0.0002858070656657219 -0.004795650951564312 0.0 0.0 0.0 0.0
20000000.0 0.05486040934920311 -0.009512546472251415 -0.000453900545835495 -0.005054134875535965 0.0 0.0 0.0 0.0
21000000.0 0.05467906594276428 -0.010246251709759235 -0.0005875760689377785 -0.005242286249995232 0.0 0.0 0.0 0.0
22000000.0 0.05449980869889259 -0.011377137154340744 -0.0007198089733719826 -0.005484722554683685 0.0 0.0 0.0 0.0
23000000.0 0.053712647408246994 -0.011711849831044674 -0.0009598191827535629 -0.005736291408538818 0.0 0.0 0.0 0.0
24000000.0 0.053281571716070175 -0.012153898365795612 -0.0011346591636538506 -0.006012272089719772 0.0 0.0 0.0 0.0
25000000.0 0.05274277180433273 -0.012768647633492947 -0.0013007139787077904 -0.0062133632600307465 0.0 0.0 0.0 0.0
26000000.0 0.052644748240709305 -0.013750857673585415 -0.0015386845916509628 -0.006453953683376312 0.0 0.0 0.0 0.0
27000000.0 0.051871538162231445 -0.01387197244912386 -0.0017309635877609253 -0.006657861173152924 0.0 0.0 0.0 0.0
28000000.0 0.05161841958761215 -0.014949477277696133 -0.0019424036145210266 -0.006920536048710346 0.0 0.0 0.0 0.0
29000000.0 0.050515249371528625 -0.015525564551353455 -0.0022083353251218796 -0.007098035886883736 0.0 0.0 0.0 0.0
30000000.0 0.05005013570189476 -0.015998026356101036 -0.002445782534778118 -0.007317191921174526 0.0 0.0 0.0 0.0
31000000.0 0.049483560025691986 -0.01623752899467945 -0.00270960945636034 -0.007521779276430607 0.0 0.0 0.0 0.0
32000000.0 0.049077656120061874 -0.016740111634135246 -0.002941928803920746 -0.007688712328672409 0.0 0.0 0.0 0.0
33000000.0 0.047910455614328384 -0.017636364325881004 -0.003242701292037964 -0.007933078333735466 0.0 0.0 0.0 0.0
34000000.0 0.0473066046833992 -0.01801910251379013 -0.003532364033162594 -0.008130325935781002 0.0 0.0 0.0 0.0
35000000.0 0.046732768416404724 -0.01851433888077736 -0.003827262669801712 -0.008213086053729057 0.0 0.0 0.0 0.0
36000000.0 0.04608988016843796 -0.019009198993444443 -0.004133669659495354 -0.008337381295859814 0.0 0.0 0.0 0.0
37000000.0 0.04551040381193161 -0.019184693694114685 -0.004416432231664658 -0.008538054302334785 0.0 0.0 0.0 0.0
38000000.0 0.04480918496847153 -0.01936875656247139 -0.004784760996699333 -0.008661971427500248 0.0 0.0 0.0 0.0
39000000.0 0.04404477775096893 -0.019583098590373993 -0.005096042528748512 -0.008793499320745468 0.0 0.0 0.0 0.0
40000000.0 0.04341273009777069 -0.020164504647254944 -0.005380063317716122 -0.008926495909690857 0.0 0.0 0.0 0.0
41000000.0 0.04264200106263161 -0.02050044946372509 -0.005721640773117542 -0.008991790004074574 0.0 0.0 0.0 0.0
42000000.0 0.042045217007398605 -0.020696023479104042 -0.0060648564249277115 -0.009132986888289452 0.0 0.0 0.0 0.0
43000000.0 0.04136862978339195 -0.020908653736114502 -0.00646591279655695 -0.009217624552547932 0.0 0.0 0.0 0.0
44000000.0 0.040547143667936325 -0.020968079566955566 -0.006799160502851009 -0.009256938472390175 0.0 0.0 0.0 0.0
45000000.0 0.039899908006191254 -0.02122652716934681 -0.007136581465601921 -0.009352083317935467 0.0 0.0 0.0 0.0
46000000.0 0.03912801668047905 -0.021407954394817352 -0.007521592080593109 -0.009417797438800335 0.0 0.0 0.0 0.0
47000000.0 0.03830351680517197 -0.02151213213801384 -0.007904031313955784 -0.009423533454537392 0.0 0.0 0.0 0.0
48000000.0 0.037717852741479874 -0.02169819548726082 -0.008310243487358093 -0.009470886550843716 0.0 0.0 0.0 0.0
49000000.0 0.036833636462688446 -0.021669233217835426 -0.00865728035569191 -0.009523384273052216 0.0 0.0 0.0 0.0
50000000.0 0.03610537573695183 -0.02180667780339718 -0.009047829546034336 -0.009489519521594048 0.0 0.0 0.0 0.0
51000000.0 0.03534960374236107 -0.02189437858760357 -0.009498799219727516 -0.009483087807893753 0.0 0.0 0.0 0.0
52000000.0 0.03458306938409805 -0.021787745878100395 -0.01065482571721077 -0.008865686133503914 0.0 0.0 0.0 0.0
53000000.0 0.03368359059095383 -0.02180573157966137 -0.01094414945691824 -0.008897192776203156 0.0 0.0 0.0 0.0
54000000.0 0.03289787843823433 -0.021880056709051132 -0.011422934010624886 -0.008772914297878742 0.0 0.0 0.0 0.0
55000000.0 0.03198965638875961 -0.02185722254216671 -0.011760163120925426 -0.008680896833539009 0.0 0.0 0.0 0.0
56000000.0 0.03124329447746277 -0.021585043519735336 -0.012170085683465004 -0.00855290424078703 0.0 0.0 0.0 0.0
57000000.0 0.030488399788737297 -0.021461015567183495 -0.012657011859118938 -0.008514286950230598 0.0 0.0 0.0 0.0
58000000.0 0.029790425673127174 -0.021270839497447014 -0.013016735203564167 -0.008409703150391579 0.0 0.0 0.0 0.0
59000000.0 0.028941230848431587 -0.021147383376955986 -0.013451114296913147 -0.008287986740469933 0.0 0.0 0.0 0.0
60000000.0 0.02813463658094406 -0.020905010402202606 -0.013904230669140816 -0.00807819701731205 0.0 0.0 0.0 0.0
61000000.0 0.02718473970890045 -0.020716659724712372 -0.014224885031580925 -0.007982962764799595 0.0 0.0 0.0 0.0
62000000.0 0.02664167247712612 -0.02040865086019039 -0.014662395231425762 -0.007845642045140266 0.0 0.0 0.0 0.0
63000000.0 0.02571972832083702 -0.020062487572431564 -0.01514649111777544 -0.007550222799181938 0.0 0.0 0.0 0.0
64000000.0 0.0251945611089468 -0.01968986727297306 -0.015482866205275059 -0.007403798401355743 0.0 0.0 0.0 0.0
65000000.0 0.024288032203912735 -0.019603773951530457 -0.015851084142923355 -0.0071939146146178246 0.0 0.0 0.0 0.0
66000000.0 0.0235632061958313 -0.018991239368915558 -0.016279689967632294 -0.007045007310807705 0.0 0.0 0.0 0.0
67000000.0 0.022772768512368202 -0.0186740905046463 -0.01674586348235607 -0.00666816346347332 0.0 0.0 0.0 0.0
68000000.0 0.0220903679728508 -0.018269957974553108 -0.01712307520210743 -0.006484383717179298 0.0 0.0 0.0 0.0
69000000.0 0.021204959601163864 -0.017816763371229172 -0.017535408958792686 -0.00626116618514061 0.0 0.0 0.0 0.0
70000000.0 0.020697172731161118 -0.017417673021554947 -0.017893899232149124 -0.0059017613530159 0.0 0.0 0.0 0.0
71000000.0 0.019729457795619965 -0.016692740842700005 -0.018354736268520355 -0.005618289113044739 0.0 0.0 0.0 0.0
72000000.0 0.019243329763412476 -0.016394201666116714 -0.018749214708805084 -0.00529065914452076 0.0 0.0 0.0 0.0
73000000.0 0.01858528144657612 -0.01578587107360363 -0.019097670912742615 -0.005050624720752239 0.0 0.0 0.0 0.0
74000000.0 0.017743436619639397 -0.015359098091721535 -0.019456643611192703 -0.004662027582526207 0.0 0.0 0.0 0.0
75000000.0 0.017191069200634956 -0.014583935029804707 -0.01981629617512226 -0.004329402931034565 0.0 0.0 0.0 0.0
76000000.0 0.016760502010583878 -0.013869162648916245 -0.02009294554591179 -0.00401888694614172 0.0 0.0 0.0 0.0
77000000.0 0.016086086630821228 -0.013643060810863972 -0.02055404521524906 -0.0035825474187731743 0.0 0.0 0.0 0.0
78000000.0 0.015425524674355984 -0.012579476460814476 -0.020857473835349083 -0.003237064927816391 0.0 0.0 0.0 0.0
79000000.0 0.014786478132009506 -0.012166160158813 -0.021130817010998726 -0.00286283902823925 0.0 0.0 0.0 0.0
80000000.0 0.014203308150172234 -0.011416705325245857 -0.02155599184334278 -0.0023386161774396896 0.0 0.0 0.0 0.0
81000000.0 0.01372477039694786 -0.010763971135020256 -0.021871110424399376 -0.0020528966560959816 0.0 0.0 0.0 0.0
82000000.0 0.013167139142751694 -0.009897095151245594 -0.022226106375455856 -0.0015407102182507515 0.0 0.0 0.0 0.0
83000000.0 0.012826434336602688 -0.009089809842407703 -0.02248774841427803 -0.0010993480682373047 0.0 0.0 0.0 0.0
84000000.0 0.01226028148084879 -0.008446917869150639 -0.02278894931077957 -0.0006044572219252586 0.0 0.0 0.0 0.0
85000000.0 0.01191224530339241 -0.007687358185648918 -0.023090703412890434 -0.00018433388322591782 0.0 0.0 0.0 0.0
86000000.0 0.011493080295622349 -0.0070550404489040375 -0.023263780400156975 0.0003080712631344795 0.0 0.0 0.0 0.0
87000000.0 0.011108968406915665 -0.005970249883830547 -0.023619020357728004 0.0006678374484181404 0.0 0.0 0.0 0.0
88000000.0 0.010737785138189793 -0.00546861719340086 -0.023892389610409737 0.0012623080983757973 0.0 0.0 0.0 0.0
89000000.0 0.01044376939535141 -0.004217236302793026 -0.024206358939409256 0.0017769746482372284 0.0 0.0 0.0 0.0
90000000.0 0.01000174880027771 -0.003487654961645603 -0.024358030408620834 0.002337006852030754 0.0 0.0 0.0 0.0
91000000.0 0.009586927480995655 -0.0024473052471876144 -0.024567291140556335 0.00282870139926672 0.0 0.0 0.0 0.0
92000000.0 0.009434960782527924 -0.0016087964177131653 -0.024892328307032585 0.0034504709765315056 0.0 0.0 0.0 0.0
93000000.0 0.009059089235961437 -0.000568389892578125 -0.025060761719942093 0.004028240218758583 0.0 0.0 0.0 0.0
94000000.0 0.008858799934387207 0.00016150902956724167 -0.025197729468345642 0.0045118872076272964 0.0 0.0 0.0 0.0
95000000.0 0.008705994114279747 0.0012008100748062134 -0.025412987917661667 0.005043031647801399 0.0 0.0 0.0 0.0
96000000.0 0.008433232083916664 0.0020271027460694313 -0.025558535009622574 0.005669057369232178 0.0 0.0 0.0 0.0
97000000.0 0.00834750384092331 0.003171398304402828 -0.025771744549274445 0.006237315014004707 0.0 0.0 0.0 0.0
98000000.0 0.008307195268571377 0.004088643006980419 -0.02591232769191265 0.006923255510628223 0.0 0.0 0.0 0.0
99000000.0 0.008129139430820942 0.004952296614646912 -0.025987934321165085 0.007475400343537331 0.0 0.0 0.0 0.0
100000000.0 0.007982884533703327 0.006113525480031967 -0.026293251663446426 0.008184341713786125 0.0 0.0 0.0 0.0
101000000.0 0.007800407707691193 0.007050112821161747 -0.02620954066514969 0.008766436949372292 0.0 0.0 0.0 0.0
102000000.0 0.007853428833186626 0.007933657616376877 -0.02634250558912754 0.009429693222045898 0.0 0.0 0.0 0.0
103000000.0 0.007951915264129639 0.009120240807533264 -0.02638274058699608 0.01000417210161686 0.0 0.0 0.0 0.0
104000000.0 0.007999829947948456 0.01001046970486641 -0.02649861015379429 0.010664079338312149 0.0 0.0 0.0 0.0
105000000.0 0.0079943323507905 0.010984603315591812 -0.026529045775532722 0.011433552950620651 0.0 0.0 0.0 0.0
106000000.0 0.008113386109471321 0.012220140546560287 -0.02648364007472992 0.011998962610960007 0.0 0.0 0.0 0.0
107000000.0 0.008279707282781601 0.013452092185616493 -0.026486711576581 0.012563773430883884 0.0 0.0 0.0 0.0
108000000.0 0.008563403971493244 0.014361887238919735 -0.026476234197616577 0.01326021458953619 0.0 0.0 0.0 0.0
109000000.0 0.00868417788296938 0.015046138316392899 -0.026474572718143463 0.014040744863450527 0.0 0.0 0.0 0.0
110000000.0 0.008972205221652985 0.01636483520269394 -0.026474222540855408 0.014575372450053692 0.0 0.0 0.0 0.0
111000000.0 0.009080319665372372 0.01762956939637661 -0.02635396644473076 0.015327840112149715 0.0 0.0 0.0 0.0
112000000.0 0.009546800516545773 0.018190067261457443 -0.026377538219094276 0.016087288036942482 0.0 0.0 0.0 0.0
113000000.0 0.00988500565290451 0.019098298624157906 -0.026161346584558487 0.01687236689031124 0.0 0.0 0.0 0.0
114000000.0 0.010001281276345253 0.020499397069215775 -0.026079541072249413 0.017440833151340485 0.0 0.0 0.0 0.0
115000000.0 0.010642139241099358 0.021328283473849297 -0.025999682024121284 0.01825871132314205 0.0 0.0 0.0 0.0
116000000.0 0.010926659218966961 0.022455139085650444 -0.02576928213238716 0.01888996921479702 0.0 0.0 0.0 0.0
117000000.0 0.011446687392890453 0.02317355014383793 -0.025625133886933327 0.019569536671042442 0.0 0.0 0.0 0.0
118000000.0 0.012015747837722301 0.024301985278725624 -0.025482090190052986 0.020264018326997757 0.0 0.0 0.0 0.0
119000000.0 0.012605881318449974 0.02531680092215538 -0.025202611461281776 0.021082118153572083 0.0 0.0 0.0 0.0
120000000.0 0.012931744568049908 0.026308387517929077 -0.025027768686413765 0.021707139909267426 0.0 0.0 0.0 0.0
121000000.0 0.013722676783800125 0.027397241443395615 -0.02483309619128704 0.022471392527222633 0.0 0.0 0.0 0.0
122000000.0 0.014205057173967361 0.02823708951473236 -0.024513201788067818 0.023168792948126793 0.0 0.0 0.0 0.0
123000000.0 0.01479246187955141 0.029267990961670876 -0.024264194071292877 0.023844024166464806 0.0 0.0 0.0 0.0
124000000.0 0.015710609033703804 0.030206039547920227 -0.023977061733603477 0.0246516615152359 0.0 0.0 0.0 0.0
125000000.0 0.01617402955889702 0.031019732356071472 -0.023596029728651047 0.025289161130785942 0.0 0.0 0.0 0.0
126000000.0 0.016965240240097046 0.031909435987472534 -0.023278335109353065 0.026052210479974747 0.0 0.0 0.0 0.0
127000000.0 0.01794329285621643 0.0329035222530365 -0.023016175255179405 0.026669669896364212 0.0 0.0 0.0 0.0
128000000.0 0.018567930907011032 0.033642616122961044 -0.022501548752188683 0.02740824781358242 0.0 0.0 0.0 0.0
129000000.0 0.0192803256213665 0.03445462882518768 -0.022186869755387306 0.028101086616516113 0.0 0.0 0.0 0.0
130000000.0 0.020448345690965652 0.035686466842889786 -0.021878696978092194 0.028805097565054893 0.0 0.0 0.0 0.0
131000000.0 0.021244829520583153 0.036154504865407944 -0.021365713328123093 0.029462577775120735 0.0 0.0 0.0 0.0
132000000.0 0.022228149697184563 0.03701518476009369 -0.021008238196372986 0.030119137838482857 0.0 0.0 0.0 0.0
133000000.0 0.023181114345788956 0.037875279784202576 -0.020460691303014755 0.03072536550462246 0.0 0.0 0.0 0.0
134000000.0 0.023970091715455055 0.03834933787584305 -0.01988864503800869 0.03137916326522827 0.0 0.0 0.0 0.0
135000000.0 0.025048037990927696 0.039310745894908905 -0.019510986283421516 0.032103944569826126 0.0 0.0 0.0 0.0
136000000.0 0.026245571672916412 0.04000074043869972 -0.01897391304373741 0.03281443566083908 0.0 0.0 0.0 0.0
137000000.0 0.027267904952168465 0.04069461300969124 -0.01839183270931244 0.033363234251737595 0.0 0.0 0.0 0.0
138000000.0 0.028106674551963806 0.041175685822963715 -0.017755579203367233 0.034005243331193924 0.0 0.0 0.0 0.0
139000000.0 0.029416142031550407 0.0418727770447731 -0.01732819899916649 0.034651052206754684 0.0 0.0 0.0 0.0
140000000.0 0.030609628185629845 0.04234352707862854 -0.016749735921621323 0.035189881920814514 0.0 0.0 0.0 0.0
141000000.0 0.031398531049489975 0.04284759983420372 -0.015024025924503803 0.035406023263931274 0.0 0.0 0.0 0.0
142000000.0 0.032770656049251556 0.04324008524417877 -0.014385348185896873 0.035968925803899765 0.0 0.0 0.0 0.0
143000000.0 0.03405468538403511 0.04383838176727295 -0.013714354485273361 0.036533161997795105 0.0 0.0 0.0 0.0
144000000.0 0.035095103085041046 0.044189829379320145 -0.013133328408002853 0.03707651421427727 0.0 0.0 0.0 0.0
145000000.0 0.036161407828330994 0.04450874775648117 -0.012373363599181175 0.037635549902915955 0.0 0.0 0.0 0.0
146000000.0 0.037524860352277756 0.044935986399650574 -0.01167206559330225 0.03819477930665016 0.0 0.0 0.0 0.0
147000000.0 0.03857917711138725 0.04521918669342995 -0.010962849482893944 0.03862950578331947 0.0 0.0 0.0 0.0
148000000.0 0.039875321090221405 0.045591287314891815 -0.010224464349448681 0.03913616016507149 0.0 0.0 0.0 0.0
149000000.0 0.04138995334506035 0.046214163303375244 -0.009466077201068401 0.0396307036280632 0.0 0.0 0.0 0.0
150000000.0 0.04262334108352661 0.04632965102791786 -0.008718784898519516 0.04008808359503746 0.0 0.0 0.0 0.0
151000000.0 0.043901070952415466 0.04646256938576698 -0.007915589027106762 0.04053150489926338 0.0 0.0 0.0 0.0
152000000.0 0.04501764848828316 0.04669743403792381 -0.00709774624556303 0.04095831885933876 0.0 0.0 0.0 0.0
153000000.0 0.04629812017083168 0.04683581739664078 -0.006268037483096123 0.041323695331811905 0.0 0.0 0.0 0.0
154000000.0 0.04762439802289009 0.04695972800254822 -0.0054850587621331215 0.0417386069893837 0.0 0.0 0.0 0.0
155000000.0 0.049110617488622665 0.047001905739307404 -0.004657071083784103 0.04212968796491623 0.0 0.0 0.0 0.0
156000000.0 0.050218526273965836 0.047464385628700256 -0.0037715286016464233 0.04249921813607216 0.0 0.0 0.0 0.0
157000000.0 0.05189134180545807 0.04691179469227791 -0.00286280270665884 0.04290027171373367 0.0 0.0 0.0 0.0
158000000.0 0.052978478372097015 0.047423530369997025 -0.0020146770402789116 0.0431380420923233 0.0 0.0 0.0 0.0
159000000.0 0.05454681068658829 0.04741072282195091 -0.001056489534676075 0.04346578195691109 0.0 0.0 0.0 0.0
160000000.0 0.055870477110147476 0.04722852259874344 -0.0001392606645822525 0.043788932263851166 0.0 0.0 0.0 0.0
161000000.0 0.057153280824422836 0.0475882962346077 0.0007547084242105484 0.04407516121864319 0.0 0.0 0.0 0.0
162000000.0 0.05862201377749443 0.04713742062449455 0.0016585476696491241 0.044354215264320374 0.0 0.0 0.0 0.0
163000000.0 0.060025159269571304 0.04695475101470947 0.0025926539674401283 0.04455295950174332 0.0 0.0 0.0 0.0
164000000.0 0.061398569494485855 0.0464671365916729 0.0034890221431851387 0.04474081099033356 0.0 0.0 0.0 0.0
165000000.0 0.06299242377281189 0.046653665602207184 0.004505285061895847 0.04493360593914986 0.0 0.0 0.0 0.0
166000000.0 0.06449991464614868 0.04614994674921036 0.005567068234086037 0.045046575367450714 0.0 0.0 0.0 0.0
167000000.0 0.06584937125444412 0.04596545547246933 0.006461317650973797 0.04522275552153587 0.0 0.0 0.0 0.0
168000000.0 0.06677219271659851 0.04548666998744011 0.007519574835896492 0.045433636754751205 0.0 0.0 0.0 0.0
169000000.0 0.06843334436416626 0.0451473742723465 0.008535018190741539 0.0455479770898819 0.0 0.0 0.0 0.0
170000000.0 0.06985054910182953 0.04457227140665054 0.009466361254453659 0.045590341091156006 0.0 0.0 0.0 0.0
171000000.0 0.07092280685901642 0.044099822640419006 0.01049188431352377 0.0456569641828537 0.0 0.0 0.0 0.0
172000000.0 0.07204991579055786 0.04326552897691727 0.011564088054001331 0.04564637690782547 0.0 0.0 0.0 0.0
173000000.0 0.07335875928401947 0.042654044926166534 0.01249230932444334 0.045606132596731186 0.0 0.0 0.0 0.0
174000000.0 0.07506037503480911 0.04205745458602905 0.013598646968603134 0.04562868922948837 0.0 0.0 0.0 0.0
175000000.0 0.07617612183094025 0.04193894937634468 0.014643082395195961 0.045647986233234406 0.0 0.0 0.0 0.0
176000000.0 0.07745879143476486 0.04089093208312988 0.01574806123971939 0.045561205595731735 0.0 0.0 0.0 0.0
177000000.0 0.07899917662143707 0.03977375105023384 0.016729725524783134 0.0454552099108696 0.0 0.0 0.0 0.0
