!Created with skrf (http://scikit-rf.org).
# Hz S RI R 50.0 
!freq ReS11 ImS11 ReS21 ImS21 ReS12 ImS12 ReS22 ImS22
1000000.0 0.04582794010639191 0.00014209002256393433 -1.8142163753509521e-06 -0.0012984992936253548 0.0 0.0 0.0 0.0
2000000.0 0.04660889878869057 0.0003442438319325447 0.00012893229722976685 -0.0025460608303546906 0.0 0.0 0.0 0.0
3000000.0 0.04683217406272888 0.0001360541209578514 -0.00013056956231594086 -0.0037010731175541878 0.0 0.0 0.0 0.0
4000000.0 0.04756362363696098 2.5345943868160248e-05 4.908442497253418e-05 -0.004803205840289593 0.0 0.0 0.0 0.0
5000000.0 0.046826861798763275 -0.0002359813079237938 2.0330771803855896e-05 -0.005919605493545532 0.0 0.0 0.0 0.0
6000000.0 0.04710039868950844 -0.000600677914917469 -8.362904191017151e-05 -0.007115769200026989 0.0 0.0 0.0 0.0
7000000.0 0.04816297069191933 -0.0011278819292783737 -0.0002506915479898453 -0.008230697363615036 0.0 0.0 0.0 0.0
8000000.0 0.04742231220006943 -0.0014256006106734276 -0.0004065670073032379 -0.009337322786450386 0.0 0.0 0.0 0.0
9000000.0 0.04799097403883934 -0.0019001597538590431 -0.000625920481979847 -0.01045283768326044 0.0 0.0 0.0 0.0
10000000.0 0.04763011634349823 -0.002261771820485592 -0.000923612155020237 -0.011555664241313934 0.0 0.0 0.0 0.0
11000000.0 0.04797109588980675 -0.0026660747826099396 -0.0011920472607016563 -0.0125757846981287 0.0 0.0 0.0 0.0
12000000.0 0.048494189977645874 -0.00316469743847847 -0.0025913752615451813 -0.013804366812109947 0.0 0.0 0.0 0.0
13000000.0 0.0483723059296608 -0.0036738673225045204 -0.0029813889414072037 -0.014856341294944286 0.0 0.0 0.0 0.0
14000000.0 0.047660943120718 -0.00401241984218359 -0.003467811271548271 -0.01591597869992256 0.0 0.0 0.0 0.0
15000000.0 0.047547124326229095 -0.004226271994411945 -0.004043101333081722 -0.017042061313986778 0.0 0.0 0.0 0.0
16000000.0 0.04831303283572197 -0.0045089684426784515 -0.004589946940541267 -0.01798623614013195 0.0 0.0 0.0 0.0
17000000.0 0.048160627484321594 -0.004277932457625866 -0.005184736102819443 -0.018929466605186462 0.0 0.0 0.0 0.0
18000000.0 0.04836316779255867 -0.004869433119893074 -0.0058745574206113815 -0.0199289470911026 0.0 0.0 0.0 0.0
19000000.0 0.048730697482824326 -0.0055821556597948074 -0.006578258238732815 -0.020932748913764954 0.0 0.0 0.0 0.0
20000000.0 0.04820343852043152 -0.005486005917191505 -0.0073132701218128204 -0.02187330648303032 0.0 0.0 0.0 0.0
21000000.0 0.04770473390817642 -0.006086968816816807 -0.008053554221987724 -0.022770237177610397 0.0 0.0 0.0 0.0
22000000.0 0.04781733453273773 -0.00702335499227047 -0.008892593905329704 -0.02368064597249031 0.0 0.0 0.0 0.0
23000000.0 0.047174885869026184 -0.0072608040645718575 -0.00973888486623764 -0.02462383732199669 0.0 0.0 0.0 0.0
24000000.0 0.04682436212897301 -0.007759350351989269 -0.010597223415970802 -0.02541760541498661 0.0 0.0 0.0 0.0
25000000.0 0.04650087282061577 -0.00804334506392479 -0.011444753967225552 -0.026344161480665207 0.0 0.0 0.0 0.0
26000000.0 0.045794785022735596 -0.008918223902583122 -0.012419515289366245 -0.027078596875071526 0.0 0.0 0.0 0.0
27000000.0 0.04524910822510719 -0.009389294311404228 -0.013397835195064545 -0.02786574698984623 0.0 0.0 0.0 0.0
28000000.0 0.04458128288388252 -0.010015160776674747 -0.014371019788086414 -0.028574282303452492 0.0 0.0 0.0 0.0
29000000.0 0.04427693784236908 -0.010419204831123352 -0.015397383831441402 -0.029307108372449875 0.0 0.0 0.0 0.0
30000000.0 0.04377010837197304 -0.010909147560596466 -0.01653824746608734 -0.030002590268850327 0.0 0.0 0.0 0.0
31000000.0 0.043637655675411224 -0.010876801796257496 -0.017538955435156822 -0.03068573772907257 0.0 0.0 0.0 0.0
32000000.0 0.04302277788519859 -0.011440714821219444 -0.018757937476038933 -0.03127318248152733 0.0 0.0 0.0 0.0
33000000.0 0.042690668255090714 -0.01154235377907753 -0.019734736531972885 -0.031923357397317886 0.0 0.0 0.0 0.0
34000000.0 0.04226035997271538 -0.01203906163573265 -0.02098037488758564 -0.03246321156620979 0.0 0.0 0.0 0.0
35000000.0 0.04180073365569115 -0.012208234518766403 -0.02215627394616604 -0.033070750534534454 0.0 0.0 0.0 0.0
36000000.0 0.04136588051915169 -0.012709439732134342 -0.02338118851184845 -0.03356187790632248 0.0 0.0 0.0 0.0
37000000.0 0.040966808795928955 -0.01297118328511715 -0.024653993546962738 -0.03400416299700737 0.0 0.0 0.0 0.0
38000000.0 0.040336813777685165 -0.013027490116655827 -0.025848979130387306 -0.034423552453517914 0.0 0.0 0.0 0.0
39000000.0 0.03985264524817467 -0.013302763924002647 -0.02720250003039837 -0.0348367765545845 0.0 0.0 0.0 0.0
40000000.0 0.03939091041684151 -0.013598831370472908 -0.028582748025655746 -0.035174205899238586 0.0 0.0 0.0 0.0
41000000.0 0.03885083273053169 -0.013732952997088432 -0.02987673319876194 -0.035511963069438934 0.0 0.0 0.0 0.0
42000000.0 0.038278400897979736 -0.013911097310483456 -0.03126273676753044 -0.03578350692987442 0.0 0.0 0.0 0.0
43000000.0 0.037596724927425385 -0.014005640521645546 -0.03271033987402916 -0.03605678305029869 0.0 0.0 0.0 0.0
44000000.0 0.03738315775990486 -0.014150140807032585 -0.034077610820531845 -0.036272499710321426 0.0 0.0 0.0 0.0
45000000.0 0.03662830591201782 -0.014350621029734612 -0.035448215901851654 -0.036422278732061386 0.0 0.0 0.0 0.0
46000000.0 0.036131735891103745 -0.014373118989169598 -0.03684322163462639 -0.03653855621814728 0.0 0.0 0.0 0.0
47000000.0 0.03560353070497513 -0.014392869547009468 -0.038344498723745346 -0.036691829562187195 0.0 0.0 0.0 0.0
48000000.0 0.03493044152855873 -0.014313512481749058 -0.03974909707903862 -0.03667404502630234 0.0 0.0 0.0 0.0
49000000.0 0.03456789627671242 -0.014303544536232948 -0.043004222214221954 -0.035756997764110565 0.0 0.0 0.0 0.0
50000000.0 0.03396552428603172 -0.014546060934662819 -0.0445786714553833 -0.0356559231877327 0.0 0.0 0.0 0.0
51000000.0 0.03318857401609421 -0.01451135240495205 -0.046018488705158234 -0.03541715815663338 0.0 0.0 0.0 0.0
52000000.0 0.032533835619688034 -0.014364397153258324 -0.04763796180486679 -0.03533181548118591 0.0 0.0 0.0 0.0
53000000.0 0.03183775767683983 -0.014230052009224892 -0.049122367054224014 -0.03507823869585991 0.0 0.0 0.0 0.0
54000000.0 0.0313439778983593 -0.01400636788457632 -0.05065314471721649 -0.034765761345624924 0.0 0.0 0.0 0.0
55000000.0 0.030687756836414337 -0.014040319249033928 -0.052097391337156296 -0.03445124998688698 0.0 0.0 0.0 0.0
56000000.0 0.030015159398317337 -0.014160729013383389 -0.05374791845679283 -0.0341397263109684 0.0 0.0 0.0 0.0
57000000.0 0.029720336198806763 -0.013866117224097252 -0.05519842356443405 -0.03376869857311249 0.0 0.0 0.0 0.0
58000000.0 0.029057400301098824 -0.013605332002043724 -0.05685601383447647 -0.03332635387778282 0.0 0.0 0.0 0.0
59000000.0 0.028411339968442917 -0.013359731994569302 -0.05830182880163193 -0.03293848782777786 0.0 0.0 0.0 0.0
60000000.0 0.027844557538628578 -0.013210555538535118 -0.059982698410749435 -0.032215651124715805 0.0 0.0 0.0 0.0
61000000.0 0.02710573747754097 -0.012843898497521877 -0.061597585678100586 -0.03168044611811638 0.0 0.0 0.0 0.0
62000000.0 0.026715178042650223 -0.012924530543386936 -0.06320372223854065 -0.031110519543290138 0.0 0.0 0.0 0.0
63000000.0 0.026170598343014717 -0.012400847859680653 -0.0645790621638298 -0.030545571818947792 0.0 0.0 0.0 0.0
64000000.0 0.025295965373516083 -0.012099501676857471 -0.06631630659103394 -0.02972751297056675 0.0 0.0 0.0 0.0
65000000.0 0.024968760088086128 -0.011910422705113888 -0.06788180768489838 -0.028906280174851418 0.0 0.0 0.0 0.0
66000000.0 0.024293681606650352 -0.011453774757683277 -0.06920450180768967 -0.028297806158661842 0.0 0.0 0.0 0.0
67000000.0 0.0236897561699152 -0.011010715737938881 -0.07094091922044754 -0.027353940531611443 0.0 0.0 0.0 0.0
68000000.0 0.02329084277153015 -0.010812537744641304 -0.07254678755998611 -0.026339832693338394 0.0 0.0 0.0 0.0
69000000.0 0.02269957773387432 -0.010266325436532497 -0.07390401512384415 -0.02557346597313881 0.0 0.0 0.0 0.0
70000000.0 0.02208332158625126 -0.010138503275811672 -0.07561124116182327 -0.024461399763822556 0.0 0.0 0.0 0.0
71000000.0 0.021709196269512177 -0.009451291523873806 -0.07703847438097 -0.02347814291715622 0.0 0.0 0.0 0.0
72000000.0 0.021164605394005775 -0.008896725252270699 -0.07850378751754761 -0.022346334531903267 0.0 0.0 0.0 0.0
73000000.0 0.020615026354789734 -0.008572707884013653 -0.0800534039735794 -0.021105241030454636 0.0 0.0 0.0 0.0
74000000.0 0.020244406536221504 -0.007907777093350887 -0.08145232498645782 -0.0200842022895813 0.0 0.0 0.0 0.0
75000000.0 0.019722063094377518 -0.007755927741527557 -0.08292201906442642 -0.018811902031302452 0.0 0.0 0.0 0.0
76000000.0 0.019146746024489403 -0.007238134741783142 -0.08438669145107269 -0.01751287840306759 0.0 0.0 0.0 0.0
77000000.0 0.018702851608395576 -0.006247886456549168 -0.08586972206830978 -0.016316138207912445 0.0 0.0 0.0 0.0
78000000.0 0.018328391015529633 -0.005995624698698521 -0.0871199443936348 -0.014880223199725151 0.0 0.0 0.0 0.0
79000000.0 0.017992746084928513 -0.005348684266209602 -0.08846244215965271 -0.013386846520006657 0.0 0.0 0.0 0.0
80000000.0 0.017570780590176582 -0.004618721082806587 -0.0900215208530426 -0.011994262225925922 0.0 0.0 0.0 0.0
81000000.0 0.017230546101927757 -0.004053694196045399 -0.09121289849281311 -0.010409832000732422 0.0 0.0 0.0 0.0
82000000.0 0.016850188374519348 -0.0033508017659187317 -0.09246043115854263 -0.00904049351811409 0.0 0.0 0.0 0.0
83000000.0 0.016594497486948967 -0.0026204856112599373 -0.09384691715240479 -0.007356925867497921 0.0 0.0 0.0 0.0
84000000.0 0.01611565612256527 -0.002056501805782318 -0.09507860243320465 -0.005956115201115608 0.0 0.0 0.0 0.0
85000000.0 0.01598106138408184 -0.001535891555249691 -0.09626009315252304 -0.004188362509012222 0.0 0.0 0.0 0.0
86000000.0 0.015670137479901314 -0.0008725672960281372 -0.09749962389469147 -0.002358020283281803 0.0 0.0 0.0 0.0
87000000.0 0.015375953167676926 0.00011870730668306351 -0.09866053611040115 -0.0006540752947330475 0.0 0.0 0.0 0.0
88000000.0 0.01521487720310688 0.0008249683305621147 -0.09977893531322479 0.0010221311822533607 0.0 0.0 0.0 0.0
89000000.0 0.015044890344142914 0.0014959145337343216 -0.10084366053342819 0.0029375068843364716 0.0 0.0 0.0 0.0
90000000.0 0.014644844457507133 0.002342573367059231 -0.10200287401676178 0.004929712042212486 0.0 0.0 0.0 0.0
91000000.0 0.014523528516292572 0.0029519759118556976 -0.10298392176628113 0.006657837890088558 0.0 0.0 0.0 0.0
92000000.0 0.01456311997026205 0.004035497084259987 -0.10390728712081909 0.008646108210086823 0.0 0.0 0.0 0.0
93000000.0 0.014225702732801437 0.004602508619427681 -0.1050480380654335 0.01076052151620388 0.0 0.0 0.0 0.0
94000000.0 0.014188496395945549 0.005420755594968796 -0.10605268180370331 0.012754087336361408 0.0 0.0 0.0 0.0
95000000.0 0.014121191576123238 0.006307574920356274 -0.10683400183916092 0.014932987280189991 0.0 0.0 0.0 0.0
96000000.0 0.01403000671416521 0.007020021788775921 -0.1077418103814125 0.017008593305945396 0.0 0.0 0.0 0.0
97000000.0 0.014041776768863201 0.007739046588540077 -0.10856355726718903 0.019292552024126053 0.0 0.0 0.0 0.0
98000000.0 0.01399682555347681 0.008615676313638687 -0.1093299612402916 0.02118811197578907 0.0 0.0 0.0 0.0
99000000.0 0.013999956659972668 0.009458787739276886 -0.11003906279802322 0.02342386730015278 0.0 0.0 0.0 0.0
100000000.0 0.014319212175905704 0.010342518799006939 -0.11136617511510849 0.02610677480697632 0.0 0.0 0.0 0.0
101000000.0 0.014061977155506611 0.011178546585142612 -0.11139068752527237 0.027936967089772224 0.0 0.0 0.0 0.0
102000000.0 0.014365783892571926 0.01202248316258192 -0.11209988594055176 0.03039025515317917 0.0 0.0 0.0 0.0
103000000.0 0.014376080594956875 0.013080847449600697 -0.11248545348644257 0.03279830142855644 0.0 0.0 0.0 0.0
104000000.0 0.014575228095054626 0.013797909952700138 -0.112992063164711 0.035114873200654984 0.0 0.0 0.0 0.0
105000000.0 0.014548620209097862 0.014605499804019928 -0.11330815404653549 0.037668079137802124 0.0 0.0 0.0 0.0
106000000.0 0.014831063337624073 0.015400974079966545 -0.11398402601480484 0.039849553257226944 0.0 0.0 0.0 0.0
107000000.0 0.015093549154698849 0.016153231263160706 -0.11426424980163574 0.04251374676823616 0.0 0.0 0.0 0.0
108000000.0 0.015189681202173233 0.0171116404235363 -0.11454924196004868 0.04494320601224899 0.0 0.0 0.0 0.0
109000000.0 0.015614580363035202 0.018101170659065247 -0.11474918574094772 0.0476766973733902 0.0 0.0 0.0 0.0
110000000.0 0.015970390290021896 0.01882331445813179 -0.11504977196455002 0.050068482756614685 0.0 0.0 0.0 0.0
111000000.0 0.016155481338500977 0.01972181908786297 -0.11503878980875015 0.05256569758057594 0.0 0.0 0.0 0.0
112000000.0 0.01660415157675743 0.02059835195541382 -0.11527892202138901 0.055430665612220764 0.0 0.0 0.0 0.0
113000000.0 0.017095014452934265 0.021433653309941292 -0.11508484929800034 0.057742197066545486 0.0 0.0 0.0 0.0
114000000.0 0.01743677258491516 0.022228457033634186 -0.11502425372600555 0.06062369793653488 0.0 0.0 0.0 0.0
115000000.0 0.018061405047774315 0.02296716906130314 -0.11495409905910492 0.06309927254915237 0.0 0.0 0.0 0.0
116000000.0 0.018265031278133392 0.02392411418259144 -0.11477454006671906 0.06600712239742279 0.0 0.0 0.0 0.0
117000000.0 0.018765205517411232 0.024779297411441803 -0.11458787322044373 0.06887969374656677 0.0 0.0 0.0 0.0
118000000.0 0.019343461841344833 0.025376733392477036 -0.11441713571548462 0.07138608396053314 0.0 0.0 0.0 0.0
119000000.0 0.019871193915605545 0.026312125846743584 -0.1138676181435585 0.07409439980983734 0.0 0.0 0.0 0.0
120000000.0 0.02054455876350403 0.027030691504478455 -0.11374843865633011 0.07667849957942963 0.0 0.0 0.0 0.0
121000000.0 0.02115950733423233 0.027630526572465897 -0.11329657584428787 0.07968068867921829 0.0 0.0 0.0 0.0
122000000.0 0.021815374493598938 0.028734415769577026 -0.11266235262155533 0.08242296427488327 0.0 0.0 0.0 0.0
123000000.0 0.022193731740117073 0.029566064476966858 -0.11211075633764267 0.08517149835824966 0.0 0.0 0.0 0.0
124000000.0 0.022954324260354042 0.030163632705807686 -0.11149481683969498 0.08801696449518204 0.0 0.0 0.0 0.0
125000000.0 0.023512858897447586 0.030628113076090813 -0.11076003313064575 0.09065830707550049 0.0 0.0 0.0 0.0
126000000.0 0.024365589022636414 0.03143500164151192 -0.10997505486011505 0.09357821196317673 0.0 0.0 0.0 0.0
127000000.0 0.02539648301899433 0.03236299008131027 -0.10913544148206711 0.09626848995685577 0.0 0.0 0.0 0.0
128000000.0 0.026014216244220734 0.03292849287390709 -0.10826137661933899 0.09908195585012436 0.0 0.0 0.0 0.0
129000000.0 0.026962760835886 0.03351583331823349 -0.10736485570669174 0.10188720375299454 0.0 0.0 0.0 0.0
130000000.0 0.027671951800584793 0.03399278223514557 -0.1064472645521164 0.1050935760140419 0.0 0.0 0.0 0.0
131000000.0 0.028483698144555092 0.034994110465049744 -0.10496029257774353 0.10768894106149673 0.0 0.0 0.0 0.0
132000000.0 0.029441876336932182 0.03546542674303055 -0.10372287034988403 0.11045476794242859 0.0 0.0 0.0 0.0
133000000.0 0.030053047463297844 0.03617125004529953 -0.10261846333742142 0.11340110003948212 0.0 0.0 0.0 0.0
134000000.0 0.03126680478453636 0.036468010395765305 -0.1014016792178154 0.11593969166278839 0.0 0.0 0.0 0.0
135000000.0 0.03230566158890724 0.037070807069540024 -0.09978783130645752 0.11870065331459045 0.0 0.0 0.0 0.0
136000000.0 0.03314899280667305 0.03738529235124588 -0.0985027551651001 0.12151969224214554 0.0 0.0 0.0 0.0
137000000.0 0.03418416529893875 0.038017917424440384 -0.09675353765487671 0.12401323020458221 0.0 0.0 0.0 0.0
138000000.0 0.035111211240291595 0.03849100321531296 -0.0951523408293724 0.1271734982728958 0.0 0.0 0.0 0.0
139000000.0 0.03619670867919922 0.038909245282411575 -0.09375347942113876 0.1296800971031189 0.0 0.0 0.0 0.0
140000000.0 0.036982856690883636 0.0396200530230999 -0.09183021634817123 0.13253365457057953 0.0 0.0 0.0 0.0
141000000.0 0.038011159747838974 0.03945399075746536 -0.08237455785274506 0.13839156925678253 0.0 0.0 0.0 0.0
142000000.0 0.03909571096301079 0.039688847959041595 -0.08031001687049866 0.14098602533340454 0.0 0.0 0.0 0.0
143000000.0 0.03999602794647217 0.03983684256672859 -0.0781625434756279 0.14377623796463013 0.0 0.0 0.0 0.0
144000000.0 0.04120813310146332 0.04022682458162308 -0.07622476667165756 0.14609113335609436 0.0 0.0 0.0 0.0
145000000.0 0.04220612347126007 0.040596023201942444 -0.07394896447658539 0.14848043024539948 0.0 0.0 0.0 0.0
146000000.0 0.043390411883592606 0.040850259363651276 -0.07175721228122711 0.15059630572795868 0.0 0.0 0.0 0.0
147000000.0 0.044438887387514114 0.040916807949543 -0.06929270178079605 0.1534154862165451 0.0 0.0 0.0 0.0
148000000.0 0.045583583414554596 0.04099949076771736 -0.06687667220830917 0.15575435757637024 0.0 0.0 0.0 0.0
149000000.0 0.04670671001076698 0.04143618419766426 -0.06422161310911179 0.15790188312530518 0.0 0.0 0.0 0.0
150000000.0 0.047860946506261826 0.041401248425245285 -0.061905816197395325 0.16006915271282196 0.0 0.0 0.0 0.0
151000000.0 0.04894646629691124 0.04148056358098984 -0.05928536131978035 0.16222870349884033 0.0 0.0 0.0 0.0
152000000.0 0.050043828785419464 0.04138937592506409 -0.056683216243982315 0.164575457572937 0.0 0.0 0.0 0.0
153000000.0 0.05123868212103844 0.04152367636561394 -0.054074935615062714 0.16659381985664368 0.0 0.0 0.0 0.0
154000000.0 0.052526380866765976 0.041503578424453735 -0.05135733634233475 0.16890789568424225 0.0 0.0 0.0 0.0
155000000.0 0.053490862250328064 0.04150199145078659 -0.04830578342080116 0.17093364894390106 0.0 0.0 0.0 0.0
156000000.0 0.0545133501291275 0.041424550116062164 -0.04557686299085617 0.1729438155889511 0.0 0.0 0.0 0.0
157000000.0 0.05589628964662552 0.04096617177128792 -0.04252780228853226 0.17494933307170868 0.0 0.0 0.0 0.0
158000000.0 0.057196203619241714 0.04164629802107811 -0.0396059975028038 0.1767626255750656 0.0 0.0 0.0 0.0
159000000.0 0.05818403139710426 0.04174813628196716 -0.03642134368419647 0.1786973774433136 0.0 0.0 0.0 0.0
160000000.0 0.059266168624162674 0.041146330535411835 -0.03322798013687134 0.18043310940265656 0.0 0.0 0.0 0.0
161000000.0 0.060837522149086 0.04093652218580246 -0.030117932707071304 0.18222379684448242 0.0 0.0 0.0 0.0
162000000.0 0.06194792687892914 0.04071292281150818 -0.02698221616446972 0.1839727759361267 0.0 0.0 0.0 0.0
163000000.0 0.06309380382299423 0.040876828134059906 -0.02344578132033348 0.18553569912910461 0.0 0.0 0.0 0.0
164000000.0 0.06424632668495178 0.040187716484069824 -0.020275775343179703 0.18716301023960114 0.0 0.0 0.0 0.0
165000000.0 0.06525827944278717 0.0401776060461998 -0.017081383615732193 0.18882785737514496 0.0 0.0 0.0 0.0
166000000.0 0.06647060811519623 0.03970940411090851 -0.013655949383974075 0.19033774733543396 0.0 0.0 0.0 0.0
167000000.0 0.06774529069662094 0.03904265537858009 -0.009970669634640217 0.19144192337989807 0.0 0.0 0.0 0.0
168000000.0 0.06918497383594513 0.03881560638546944 -0.006446109153330326 0.19267545640468597 0.0 0.0 0.0 0.0
169000000.0 0.07003911584615707 0.03848421573638916 -0.0027973661199212074 0.19425833225250244 0.0 0.0 0.0 0.0
170000000.0 0.07132376730442047 0.03783313184976578 0.0006745839491486549 0.19551117718219757 0.0 0.0 0.0 0.0
171000000.0 0.07243358343839645 0.03728621080517769 0.004566963762044907 0.19641521573066711 0.0 0.0 0.0 0.0
172000000.0 0.07370281964540482 0.036621395498514175 0.008281286805868149 0.19773447513580322 0.0 0.0 0.0 0.0
173000000.0 0.07465865463018417 0.035920873284339905 0.012291396968066692 0.19846254587173462 0.0 0.0 0.0 0.0
174000000.0 0.07607775926589966 0.035540055483579636 0.01597602851688862 0.19939596951007843 0.0 0.0 0.0 0.0
175000000.0 0.0772285982966423 0.034519560635089874 0.020098190754652023 0.2002236247062683 0.0 0.0 0.0 0.0
176000000.0 0.07796883583068848 0.03409338369965553 0.02405976690351963 0.20089341700077057 0.0 0.0 0.0 0.0
177000000.0 0.0790010616183281 0.032978594303131104 0.02756776660680771 0.2017633318901062 0.0 0.0 0.0 0.0
178000000.0 0.0797312781214714 0.032245200127363205 0.03174958750605583 0.2023032307624817 0.0 0.0 0.0 0.0
