!Created with skrf (http://scikit-rf.org).
# Hz S RI R 50.0 
!freq ReS11 ImS11 ReS21 ImS21 ReS12 ImS12 ReS22 ImS22
1000000.0 0.05440956726670265 4.795286804437637e-05 0.00011319946497678757 -7.201917469501495e-05 0.0 0.0 0.0 0.0
2000000.0 0.054372865706682205 -5.313567817211151e-05 0.00023946259170770645 -0.00024603214114904404 0.0 0.0 0.0 0.0
3000000.0 0.054889604449272156 -0.00044954847544431686 0.0003687450662255287 -0.0004840027540922165 0.0 0.0 0.0 0.0
4000000.0 0.05521171912550926 -0.0009117638692259789 0.00038510002195835114 -0.0007230434566736221 0.0 0.0 0.0 0.0
5000000.0 0.05488603189587593 -0.0013498477637767792 0.00045634619891643524 -0.001007387414574623 0.0 0.0 0.0 0.0
6000000.0 0.05569486320018768 -0.0020345263183116913 0.0004690224304795265 -0.0012658052146434784 0.0 0.0 0.0 0.0
7000000.0 0.05589380860328674 -0.0026492252945899963 0.00043781939893960953 -0.0015948815271258354 0.0 0.0 0.0 0.0
8000000.0 0.055529799312353134 -0.003156989812850952 0.0004411088302731514 -0.0017778575420379639 0.0 0.0 0.0 0.0
9000000.0 0.05572782829403877 -0.003791995346546173 0.00047272536903619766 -0.0020702946931123734 0.0 0.0 0.0 0.0
10000000.0 0.05558231845498085 -0.00444226898252964 0.0004686722531914711 -0.002355429343879223 0.0 0.0 0.0 0.0
11000000.0 0.055838532745838165 -0.005173501558601856 0.0004187216982245445 -0.0026051923632621765 0.0 0.0 0.0 0.0
12000000.0 0.056184664368629456 -0.005793822929263115 0.00037691276520490646 -0.0029319263994693756 0.0 0.0 0.0 0.0
13000000.0 0.05583815649151802 -0.006173097528517246 0.00032141245901584625 -0.0031634345650672913 0.0 0.0 0.0 0.0
14000000.0 0.0555412583053112 -0.006976976990699768 0.0002363370731472969 -0.0034156683832406998 0.0 0.0 0.0 0.0
15000000.0 0.05545501038432121 -0.0071419607847929 0.0001833094283938408 -0.0036956211552023888 0.0 0.0 0.0 0.0
16000000.0 0.05567970871925354 -0.0076307980343699455 5.316827446222305e-05 -0.00397325586527586 0.0 0.0 0.0 0.0
17000000.0 0.055425114929676056 -0.008050207048654556 -8.896924555301666e-06 -0.004227077588438988 0.0 0.0 0.0 0.0
18000000.0 0.05549335852265358 -0.008474298752844334 -0.00012328382581472397 -0.004489880986511707 0.0 0.0 0.0 0.0
19000000.0 0.05530693009495735 -0.009388009086251259 -0.0002807639539241791 -0.004768309183418751 0.0 0.0 0.0 0.0
20000000.0 0.055206507444381714 -0.009861034341156483 -0.0003798268735408783 -0.005011861212551594 0.0 0.0 0.0 0.0
21000000.0 0.05472440645098686 -0.010820046067237854 -0.000546695664525032 -0.0052848998457193375 0.0 0.0 0.0 0.0
22000000.0 0.054505426436662674 -0.011405310593545437 -0.0006947629153728485 -0.005527758039534092 0.0 0.0 0.0 0.0
23000000.0 0.05371027812361717 -0.011800638400018215 -0.0008605262264609337 -0.005748014897108078 0.0 0.0 0.0 0.0
24000000.0 0.05354157090187073 -0.012646783143281937 -0.0011006230488419533 -0.006004359573125839 0.0 0.0 0.0 0.0
25000000.0 0.05312177911400795 -0.013187511824071407 -0.0012585828080773354 -0.006255084648728371 0.0 0.0 0.0 0.0
26000000.0 0.05236056447029114 -0.013745390810072422 -0.0014736363664269447 -0.0065302131697535515 0.0 0.0 0.0 0.0
27000000.0 0.051573704928159714 -0.014582360163331032 -0.0016515878960490227 -0.006688188761472702 0.0 0.0 0.0 0.0
28000000.0 0.05150812864303589 -0.014726136811077595 -0.001865818165242672 -0.006931298412382603 0.0 0.0 0.0 0.0
29000000.0 0.05050110071897507 -0.01567244902253151 -0.00211462564766407 -0.007137318141758442 0.0 0.0 0.0 0.0
30000000.0 0.05054386332631111 -0.01594020240008831 -0.002316255122423172 -0.0073812250047922134 0.0 0.0 0.0 0.0
31000000.0 0.049003057181835175 -0.017044493928551674 -0.0025957487523555756 -0.007568086497485638 0.0 0.0 0.0 0.0
32000000.0 0.04872731864452362 -0.017293091863393784 -0.0028931554406881332 -0.007786818780004978 0.0 0.0 0.0 0.0
33000000.0 0.047991253435611725 -0.017744241282343864 -0.003152593970298767 -0.00796283595263958 0.0 0.0 0.0 0.0
34000000.0 0.04760880768299103 -0.018111664801836014 -0.0033998368307948112 -0.008142922073602676 0.0 0.0 0.0 0.0
35000000.0 0.046963684260845184 -0.018696341663599014 -0.0037421463057398796 -0.008306811563670635 0.0 0.0 0.0 0.0
36000000.0 0.04613708704710007 -0.01904517225921154 -0.003989711403846741 -0.00848869327455759 0.0 0.0 0.0 0.0
37000000.0 0.04553958401083946 -0.019563795998692513 -0.004322127439081669 -0.00860008504241705 0.0 0.0 0.0 0.0
38000000.0 0.045061178505420685 -0.020038438960909843 -0.004664544016122818 -0.008805097080767155 0.0 0.0 0.0 0.0
39000000.0 0.04425569623708725 -0.02014639787375927 -0.00492818932980299 -0.008890075609087944 0.0 0.0 0.0 0.0
40000000.0 0.04370344430208206 -0.02049507200717926 -0.005239483900368214 -0.009028335101902485 0.0 0.0 0.0 0.0
41000000.0 0.04285183548927307 -0.020560549572110176 -0.005608897656202316 -0.009128771722316742 0.0 0.0 0.0 0.0
42000000.0 0.042188610881567 -0.021021077409386635 -0.005976376123726368 -0.009208708070218563 0.0 0.0 0.0 0.0
43000000.0 0.04156280681490898 -0.021526223048567772 -0.0062659429386258125 -0.009333590976893902 0.0 0.0 0.0 0.0
44000000.0 0.040594298392534256 -0.02141384594142437 -0.006638458929955959 -0.009433479979634285 0.0 0.0 0.0 0.0
45000000.0 0.039874475449323654 -0.021585607901215553 -0.007012117654085159 -0.009476164355874062 0.0 0.0 0.0 0.0
46000000.0 0.03924456238746643 -0.021622274070978165 -0.0073683736845850945 -0.009552866220474243 0.0 0.0 0.0 0.0
47000000.0 0.038443367928266525 -0.021967565640807152 -0.007727312855422497 -0.009587635286152363 0.0 0.0 0.0 0.0
48000000.0 0.037664543837308884 -0.02205408737063408 -0.008141756989061832 -0.009646931663155556 0.0 0.0 0.0 0.0
49000000.0 0.03669007867574692 -0.022185852751135826 -0.008533835411071777 -0.009661859832704067 0.0 0.0 0.0 0.0
50000000.0 0.036192044615745544 -0.022133631631731987 -0.008966841734945774 -0.009652222506701946 0.0 0.0 0.0 0.0
51000000.0 0.03524539992213249 -0.022056691348552704 -0.009200234897434711 -0.009676727466285229 0.0 0.0 0.0 0.0
52000000.0 0.03462831303477287 -0.022280484437942505 -0.010386994108557701 -0.009174929931759834 0.0 0.0 0.0 0.0
53000000.0 0.03399735316634178 -0.022409677505493164 -0.010903757996857166 -0.009065032936632633 0.0 0.0 0.0 0.0
54000000.0 0.03293212503194809 -0.022137872874736786 -0.011127146892249584 -0.009076688438653946 0.0 0.0 0.0 0.0
55000000.0 0.03209555521607399 -0.022252919152379036 -0.011611202731728554 -0.009019817225635052 0.0 0.0 0.0 0.0
56000000.0 0.031260959804058075 -0.02211054041981697 -0.012064690701663494 -0.008856281638145447 0.0 0.0 0.0 0.0
57000000.0 0.030388763174414635 -0.022257570177316666 -0.012491109780967236 -0.008726653642952442 0.0 0.0 0.0 0.0
58000000.0 0.02975766360759735 -0.021711336448788643 -0.012861189432442188 -0.0087307533249259 0.0 0.0 0.0 0.0
59000000.0 0.029044240713119507 -0.02167626842856407 -0.013221893459558487 -0.008619803935289383 0.0 0.0 0.0 0.0
60000000.0 0.028295189142227173 -0.02138001099228859 -0.013702012598514557 -0.008469616062939167 0.0 0.0 0.0 0.0
61000000.0 0.027428023517131805 -0.021203067153692245 -0.014069853350520134 -0.008356745354831219 0.0 0.0 0.0 0.0
62000000.0 0.026431044563651085 -0.02107463777065277 -0.014528559520840645 -0.008108238689601421 0.0 0.0 0.0 0.0
63000000.0 0.025665240362286568 -0.02074388414621353 -0.014978654682636261 -0.007961885072290897 0.0 0.0 0.0 0.0
64000000.0 0.0248123612254858 -0.020424628630280495 -0.015391401015222073 -0.007804292254149914 0.0 0.0 0.0 0.0
65000000.0 0.024254709482192993 -0.02006755955517292 -0.01571047678589821 -0.007718152366578579 0.0 0.0 0.0 0.0
66000000.0 0.023404795676469803 -0.020133696496486664 -0.01616198755800724 -0.007421224378049374 0.0 0.0 0.0 0.0
67000000.0 0.02267276868224144 -0.0193674024194479 -0.01655588485300541 -0.007221627980470657 0.0 0.0 0.0 0.0
68000000.0 0.02186429873108864 -0.01907859928905964 -0.01694028079509735 -0.0069666579365730286 0.0 0.0 0.0 0.0
69000000.0 0.021176237612962723 -0.018814602866768837 -0.017332643270492554 -0.006723853759467602 0.0 0.0 0.0 0.0
70000000.0 0.020415838807821274 -0.018068373203277588 -0.01770883984863758 -0.006443635560572147 0.0 0.0 0.0 0.0
71000000.0 0.01985611766576767 -0.017603719606995583 -0.01813906989991665 -0.0062136463820934296 0.0 0.0 0.0 0.0
72000000.0 0.01916622556746006 -0.017128681764006615 -0.018578549847006798 -0.005868381820619106 0.0 0.0 0.0 0.0
73000000.0 0.018359065055847168 -0.01656685210764408 -0.01891328953206539 -0.005590852349996567 0.0 0.0 0.0 0.0
74000000.0 0.01783164218068123 -0.01601703278720379 -0.019300734624266624 -0.005280547775328159 0.0 0.0 0.0 0.0
75000000.0 0.017036687582731247 -0.015432387590408325 -0.019710486754775047 -0.004983249120414257 0.0 0.0 0.0 0.0
76000000.0 0.016225898638367653 -0.014915269799530506 -0.02002538926899433 -0.004679543897509575 0.0 0.0 0.0 0.0
77000000.0 0.015658356249332428 -0.014422941021621227 -0.020467910915613174 -0.004233852960169315 0.0 0.0 0.0 0.0
78000000.0 0.014969461597502232 -0.013609549961984158 -0.02069314941763878 -0.003916896879673004 0.0 0.0 0.0 0.0
79000000.0 0.014380339533090591 -0.012933471240103245 -0.021091755479574203 -0.0035615703091025352 0.0 0.0 0.0 0.0
80000000.0 0.013960793614387512 -0.012590442784130573 -0.021482015028595924 -0.003131289966404438 0.0 0.0 0.0 0.0
81000000.0 0.013389241881668568 -0.01155219879001379 -0.02186344377696514 -0.0027310680598020554 0.0 0.0 0.0 0.0
82000000.0 0.012824173085391521 -0.010964727029204369 -0.022146686911582947 -0.0023283427581191063 0.0 0.0 0.0 0.0
83000000.0 0.012303145602345467 -0.01029425673186779 -0.022502819076180458 -0.0018853740766644478 0.0 0.0 0.0 0.0
84000000.0 0.011708094738423824 -0.009434199891984463 -0.022759638726711273 -0.0015147048979997635 0.0 0.0 0.0 0.0
85000000.0 0.01134886872023344 -0.008483568206429482 -0.023039905354380608 -0.001002490520477295 0.0 0.0 0.0 0.0
86000000.0 0.010749991983175278 -0.007695759646594524 -0.023346709087491035 -0.0006013941019773483 0.0 0.0 0.0 0.0
87000000.0 0.01031277235597372 -0.007099101319909096 -0.02371213585138321 -5.33033162355423e-05 0.0 0.0 0.0 0.0
88000000.0 0.010018749162554741 -0.006130390800535679 -0.0239353459328413 0.00042308587580919266 0.0 0.0 0.0 0.0
89000000.0 0.009642270393669605 -0.00528265256434679 -0.02422485686838627 0.0008927611634135246 0.0 0.0 0.0 0.0
90000000.0 0.00942242331802845 -0.004556239582598209 -0.02447887510061264 0.0013664700090885162 0.0 0.0 0.0 0.0
91000000.0 0.00882455613464117 -0.0035964809358119965 -0.024794988334178925 0.001910586841404438 0.0 0.0 0.0 0.0
92000000.0 0.008464202284812927 -0.0024792226031422615 -0.02495676279067993 0.0024343542754650116 0.0 0.0 0.0 0.0
93000000.0 0.008209996856749058 -0.0015784688293933868 -0.025187045335769653 0.0030350834131240845 0.0 0.0 0.0 0.0
94000000.0 0.008118088357150555 -0.0009329319000244141 -0.02537391148507595 0.0035206740722060204 0.0 0.0 0.0 0.0
95000000.0 0.007654741406440735 0.00026212725788354874 -0.02561843767762184 0.00412689708173275 0.0 0.0 0.0 0.0
96000000.0 0.007452858611941338 0.0009367503225803375 -0.02585015445947647 0.004681184887886047 0.0 0.0 0.0 0.0
97000000.0 0.007250471971929073 0.002182767726480961 -0.026009945198893547 0.005164681002497673 0.0 0.0 0.0 0.0
98000000.0 0.007084343582391739 0.0032291729003190994 -0.02618975192308426 0.005817791447043419 0.0 0.0 0.0 0.0
99000000.0 0.006813147105276585 0.004194427281618118 -0.026342401280999184 0.006496543064713478 0.0 0.0 0.0 0.0
100000000.0 0.007080177776515484 0.005370885133743286 -0.026583844795823097 0.007103521376848221 0.0 0.0 0.0 0.0
101000000.0 0.006950138136744499 0.006169958971440792 -0.026594817638397217 0.007601856254041195 0.0 0.0 0.0 0.0
102000000.0 0.006629026494920254 0.007319515570998192 -0.026731587946414948 0.00830238126218319 0.0 0.0 0.0 0.0
103000000.0 0.006712251342833042 0.008183988742530346 -0.026843370869755745 0.008926999755203724 0.0 0.0 0.0 0.0
104000000.0 0.006763266399502754 0.00933848600834608 -0.026916857808828354 0.009561417624354362 0.0 0.0 0.0 0.0
105000000.0 0.0066718365997076035 0.010411866009235382 -0.027011191472411156 0.010160299949347973 0.0 0.0 0.0 0.0
106000000.0 0.006671509705483913 0.011282728984951973 -0.026997243985533714 0.010835840366780758 0.0 0.0 0.0 0.0
107000000.0 0.006962232291698456 0.012424920685589314 -0.02707929164171219 0.011509425938129425 0.0 0.0 0.0 0.0
108000000.0 0.00719611719250679 0.013455288484692574 -0.027081668376922607 0.012138141319155693 0.0 0.0 0.0 0.0
109000000.0 0.007176773622632027 0.014552542008459568 -0.027039416134357452 0.01293244119733572 0.0 0.0 0.0 0.0
110000000.0 0.0074797943234443665 0.01538180373609066 -0.027111772447824478 0.013438631780445576 0.0 0.0 0.0 0.0
111000000.0 0.007488450966775417 0.016454452648758888 -0.027069522067904472 0.014071344397962093 0.0 0.0 0.0 0.0
112000000.0 0.007680988870561123 0.01777871511876583 -0.027053289115428925 0.014879969879984856 0.0 0.0 0.0 0.0
113000000.0 0.00805972795933485 0.018514124676585197 -0.026948262006044388 0.015532510355114937 0.0 0.0 0.0 0.0
114000000.0 0.008451336063444614 0.019590312615036964 -0.02692684531211853 0.016306787729263306 0.0 0.0 0.0 0.0
115000000.0 0.0089197289198637 0.020607445389032364 -0.02687404491007328 0.016964109614491463 0.0 0.0 0.0 0.0
116000000.0 0.009270425885915756 0.02169438637793064 -0.02671770192682743 0.01765233278274536 0.0 0.0 0.0 0.0
117000000.0 0.009318549185991287 0.02281762659549713 -0.02658754400908947 0.018343916162848473 0.0 0.0 0.0 0.0
118000000.0 0.010018916800618172 0.023738445714116096 -0.026436662301421165 0.019067665562033653 0.0 0.0 0.0 0.0
119000000.0 0.010638228617608547 0.024584205821156502 -0.026357529684901237 0.01977699249982834 0.0 0.0 0.0 0.0
120000000.0 0.011029446497559547 0.025836871936917305 -0.02609971910715103 0.020535463467240334 0.0 0.0 0.0 0.0
121000000.0 0.01138574630022049 0.02692507952451706 -0.02589878998696804 0.021182537078857422 0.0 0.0 0.0 0.0
122000000.0 0.012292977422475815 0.027800079435110092 -0.025771144777536392 0.02186407521367073 0.0 0.0 0.0 0.0
123000000.0 0.01286214217543602 0.028768621385097504 -0.025456858798861504 0.022623352706432343 0.0 0.0 0.0 0.0
124000000.0 0.013412979431450367 0.029785068705677986 -0.0252534132450819 0.023394420742988586 0.0 0.0 0.0 0.0
125000000.0 0.014043946750462055 0.0308309905230999 -0.024936608970165253 0.023976365104317665 0.0 0.0 0.0 0.0
126000000.0 0.014700377359986305 0.031796179711818695 -0.024578697979450226 0.02478853054344654 0.0 0.0 0.0 0.0
127000000.0 0.015617156401276588 0.03252674266695976 -0.0244149137288332 0.02542358823120594 0.0 0.0 0.0 0.0
128000000.0 0.01632751151919365 0.033612120896577835 -0.024011442437767982 0.026230588555336 0.0 0.0 0.0 0.0
129000000.0 0.01713337004184723 0.03451566770672798 -0.023680077865719795 0.02686595916748047 0.0 0.0 0.0 0.0
130000000.0 0.018007008358836174 0.035357922315597534 -0.023289887234568596 0.027629077434539795 0.0 0.0 0.0 0.0
131000000.0 0.018901705741882324 0.03599023073911667 -0.022945065051317215 0.028216958045959473 0.0 0.0 0.0 0.0
132000000.0 0.019792472943663597 0.03691058233380318 -0.02256172150373459 0.028944488614797592 0.0 0.0 0.0 0.0
133000000.0 0.02070472575724125 0.03793162479996681 -0.02208881266415119 0.029631037265062332 0.0 0.0 0.0 0.0
134000000.0 0.02159484475851059 0.038637734949588776 -0.021536070853471756 0.030310792848467827 0.0 0.0 0.0 0.0
135000000.0 0.02245810627937317 0.0392882339656353 -0.02125672437250614 0.030954618006944656 0.0 0.0 0.0 0.0
136000000.0 0.02355855517089367 0.04012526199221611 -0.020729314535856247 0.03162090480327606 0.0 0.0 0.0 0.0
137000000.0 0.024595532566308975 0.04099138081073761 -0.020226778462529182 0.03231796249747276 0.0 0.0 0.0 0.0
138000000.0 0.02550094574689865 0.04178529977798462 -0.019724788144230843 0.033023420721292496 0.0 0.0 0.0 0.0
139000000.0 0.026828180998563766 0.04224616661667824 -0.019238624721765518 0.033590223640203476 0.0 0.0 0.0 0.0
140000000.0 0.02799062803387642 0.04301883280277252 -0.018696902319788933 0.034292735159397125 0.0 0.0 0.0 0.0
141000000.0 0.028819812461733818 0.04351283982396126 -0.017048601061105728 0.03447423130273819 0.0 0.0 0.0 0.0
142000000.0 0.030046716332435608 0.044100649654865265 -0.016431819647550583 0.035093072801828384 0.0 0.0 0.0 0.0
143000000.0 0.031199021264910698 0.044605791568756104 -0.01584969274699688 0.035693105310201645 0.0 0.0 0.0 0.0
144000000.0 0.03231699764728546 0.045152150094509125 -0.01518268696963787 0.036272212862968445 0.0 0.0 0.0 0.0
145000000.0 0.033599987626075745 0.04570572078227997 -0.014587780460715294 0.036810219287872314 0.0 0.0 0.0 0.0
146000000.0 0.03487341105937958 0.046078089624643326 -0.01393257174640894 0.037377454340457916 0.0 0.0 0.0 0.0
147000000.0 0.03604469075798988 0.04657794162631035 -0.013270818628370762 0.037930820137262344 0.0 0.0 0.0 0.0
148000000.0 0.03716821223497391 0.04695791006088257 -0.012646391987800598 0.038452714681625366 0.0 0.0 0.0 0.0
149000000.0 0.038355521857738495 0.047431979328393936 -0.011906611733138561 0.03896382451057434 0.0 0.0 0.0 0.0
150000000.0 0.03975115343928337 0.04777659848332405 -0.011162062175571918 0.039512500166893005 0.0 0.0 0.0 0.0
151000000.0 0.040854521095752716 0.04799097031354904 -0.010397437028586864 0.03993665426969528 0.0 0.0 0.0 0.0
152000000.0 0.04240718111395836 0.048164002597332 -0.009615305811166763 0.04042503610253334 0.0 0.0 0.0 0.0
153000000.0 0.04360191896557808 0.04842762276530266 -0.008899199776351452 0.04090702161192894 0.0 0.0 0.0 0.0
154000000.0 0.04479540139436722 0.04857741296291351 -0.008080828934907913 0.041315339505672455 0.0 0.0 0.0 0.0
155000000.0 0.04615367576479912 0.048752278089523315 -0.007306949235498905 0.04181231930851936 0.0 0.0 0.0 0.0
156000000.0 0.04754749685525894 0.048924461007118225 -0.006469907239079475 0.042161740362644196 0.0 0.0 0.0 0.0
157000000.0 0.04898237809538841 0.049337513744831085 -0.005687384866178036 0.042527999728918076 0.0 0.0 0.0 0.0
158000000.0 0.050328709185123444 0.049278583377599716 -0.004828788340091705 0.042985640466213226 0.0 0.0 0.0 0.0
159000000.0 0.05155332759022713 0.049946870654821396 -0.003973939456045628 0.04333332180976868 0.0 0.0 0.0 0.0
160000000.0 0.05309172719717026 0.049599383026361465 -0.0030242977663874626 0.04368220269680023 0.0 0.0 0.0 0.0
161000000.0 0.054201640188694 0.04947994649410248 -0.0021551894024014473 0.044042397290468216 0.0 0.0 0.0 0.0
162000000.0 0.05581549555063248 0.0498860701918602 -0.0013031251728534698 0.04431398585438728 0.0 0.0 0.0 0.0
163000000.0 0.0574115626513958 0.04927651956677437 -0.0003386121243238449 0.04466141387820244 0.0 0.0 0.0 0.0
164000000.0 0.05855977535247803 0.04909062013030052 0.0005267588421702385 0.04488452523946762 0.0 0.0 0.0 0.0
165000000.0 0.060073547065258026 0.048955030739307404 0.0014463746920228004 0.045142367482185364 0.0 0.0 0.0 0.0
166000000.0 0.06138226017355919 0.04898720607161522 0.002412993460893631 0.04538458213210106 0.0 0.0 0.0 0.0
167000000.0 0.06292692571878433 0.04864465445280075 0.003406079486012459 0.0456494502723217 0.0 0.0 0.0 0.0
168000000.0 0.06443116068840027 0.048392150551080704 0.004314596764743328 0.045761723071336746 0.0 0.0 0.0 0.0
169000000.0 0.0659143254160881 0.04816092178225517 0.005316846072673798 0.04602348431944847 0.0 0.0 0.0 0.0
170000000.0 0.06729169934988022 0.04759205877780914 0.006330646574497223 0.04611405357718468 0.0 0.0 0.0 0.0
171000000.0 0.06880863755941391 0.0472293384373188 0.007285295985639095 0.046205777674913406 0.0 0.0 0.0 0.0
172000000.0 0.0699690580368042 0.04687131941318512 0.008316943421959877 0.04632698744535446 0.0 0.0 0.0 0.0
173000000.0 0.071275994181633 0.04665634408593178 0.009348060935735703 0.04639534652233124 0.0 0.0 0.0 0.0
174000000.0 0.07304464280605316 0.04594000428915024 0.01033574528992176 0.04648108780384064 0.0 0.0 0.0 0.0
175000000.0 0.07409827411174774 0.04542555660009384 0.011362802237272263 0.0465523935854435 0.0 0.0 0.0 0.0
176000000.0 0.07546716183423996 0.04477830231189728 0.01233279425650835 0.046606771647930145 0.0 0.0 0.0 0.0
177000000.0 0.07639547437429428 0.043919093906879425 0.013389289379119873 0.04657967761158943 0.0 0.0 0.0 0.0
