!Created with skrf (http://scikit-rf.org).
# Hz S RI R 50.0 
!freq ReS11 ImS11 ReS21 ImS21 ReS12 ImS12 ReS22 ImS22
1000000.0 0.04587879031896591 0.00040612462908029556 1.499708741903305e-05 -0.0013020429760217667 0.0 0.0 0.0 0.0
2000000.0 0.04631322994828224 0.00023647956550121307 7.686670869588852e-05 -0.0025742221623659134 0.0 0.0 0.0 0.0
3000000.0 0.04662873595952988 0.00012554507702589035 0.00023825187236070633 -0.0036782966926693916 0.0 0.0 0.0 0.0
4000000.0 0.047023214399814606 -0.00013315677642822266 2.3223459720611572e-05 -0.004791092127561569 0.0 0.0 0.0 0.0
5000000.0 0.04680638760328293 -0.0004945062100887299 -3.57162207365036e-05 -0.005915806628763676 0.0 0.0 0.0 0.0
6000000.0 0.04685213789343834 -0.000671076588332653 -7.031112909317017e-05 -0.00703978817909956 0.0 0.0 0.0 0.0
7000000.0 0.04800402745604515 -0.001040952280163765 -0.00023058615624904633 -0.008185585029423237 0.0 0.0 0.0 0.0
8000000.0 0.047503504902124405 -0.001470385119318962 -0.0003722812980413437 -0.009340137243270874 0.0 0.0 0.0 0.0
9000000.0 0.0476476289331913 -0.002088434062898159 -0.000590992160141468 -0.010425313375890255 0.0 0.0 0.0 0.0
10000000.0 0.0476435124874115 -0.0024248315021395683 -0.0008755940943956375 -0.011517747305333614 0.0 0.0 0.0 0.0
11000000.0 0.047784652560949326 -0.00265673641115427 -0.0012445999309420586 -0.01263484638184309 0.0 0.0 0.0 0.0
12000000.0 0.04831672087311745 -0.003651692532002926 -0.0025730878114700317 -0.013793784193694592 0.0 0.0 0.0 0.0
13000000.0 0.04812420532107353 -0.003847322426736355 -0.002978685311973095 -0.014859865419566631 0.0 0.0 0.0 0.0
14000000.0 0.04784925654530525 -0.003965622745454311 -0.0035096844658255577 -0.015889430418610573 0.0 0.0 0.0 0.0
15000000.0 0.047565385699272156 -0.004448459483683109 -0.0040100375190377235 -0.017002422362565994 0.0 0.0 0.0 0.0
16000000.0 0.04817354306578636 -0.0041816625744104385 -0.004665589891374111 -0.0179059486836195 0.0 0.0 0.0 0.0
17000000.0 0.048115864396095276 -0.004806922748684883 -0.005187935195863247 -0.01895366981625557 0.0 0.0 0.0 0.0
18000000.0 0.0483417846262455 -0.005050606094300747 -0.005934973247349262 -0.020005198195576668 0.0 0.0 0.0 0.0
19000000.0 0.04851837456226349 -0.0056159524247050285 -0.006543419323861599 -0.02091313898563385 0.0 0.0 0.0 0.0
20000000.0 0.048100847750902176 -0.005898290313780308 -0.007297747768461704 -0.021855028346180916 0.0 0.0 0.0 0.0
21000000.0 0.048060446977615356 -0.0064817871898412704 -0.008168861269950867 -0.022785315290093422 0.0 0.0 0.0 0.0
22000000.0 0.04744675010442734 -0.006755569018423557 -0.008872740902006626 -0.023738587275147438 0.0 0.0 0.0 0.0
23000000.0 0.047210611402988434 -0.007294804789125919 -0.0097142169252038 -0.024522855877876282 0.0 0.0 0.0 0.0
24000000.0 0.04665064066648483 -0.008007042109966278 -0.01052009779959917 -0.02540299855172634 0.0 0.0 0.0 0.0
25000000.0 0.046076949685811996 -0.00858031865209341 -0.011511350981891155 -0.026246150955557823 0.0 0.0 0.0 0.0
26000000.0 0.04571867734193802 -0.008785303682088852 -0.012453862465918064 -0.027112368494272232 0.0 0.0 0.0 0.0
27000000.0 0.045569051057100296 -0.009171667508780956 -0.013367829844355583 -0.027830466628074646 0.0 0.0 0.0 0.0
28000000.0 0.04436357691884041 -0.010116251185536385 -0.014345390722155571 -0.028536155819892883 0.0 0.0 0.0 0.0
29000000.0 0.0443994477391243 -0.010449171997606754 -0.015485123731195927 -0.029332363978028297 0.0 0.0 0.0 0.0
30000000.0 0.04372989013791084 -0.01078873872756958 -0.016478929668664932 -0.029943760484457016 0.0 0.0 0.0 0.0
31000000.0 0.04326365515589714 -0.011040116660296917 -0.017492027953267097 -0.030606580898165703 0.0 0.0 0.0 0.0
32000000.0 0.042911041527986526 -0.01153872162103653 -0.01870310865342617 -0.03129953145980835 0.0 0.0 0.0 0.0
33000000.0 0.042471516877412796 -0.011613830924034119 -0.01979522407054901 -0.03186434134840965 0.0 0.0 0.0 0.0
34000000.0 0.04200214892625809 -0.012035462073981762 -0.021007990464568138 -0.03247540444135666 0.0 0.0 0.0 0.0
35000000.0 0.04161471873521805 -0.0122379120439291 -0.022187775000929832 -0.03301894664764404 0.0 0.0 0.0 0.0
36000000.0 0.041158080101013184 -0.01263394858688116 -0.023369789123535156 -0.03355811536312103 0.0 0.0 0.0 0.0
37000000.0 0.04073033481836319 -0.012671184726059437 -0.024693213403224945 -0.03397473692893982 0.0 0.0 0.0 0.0
38000000.0 0.0401889830827713 -0.012973878532648087 -0.02599320560693741 -0.03439443185925484 0.0 0.0 0.0 0.0
39000000.0 0.039681386202573776 -0.013267956674098969 -0.0271845031529665 -0.034793607890605927 0.0 0.0 0.0 0.0
40000000.0 0.03919914364814758 -0.013374482281506062 -0.028528481721878052 -0.03516248241066933 0.0 0.0 0.0 0.0
41000000.0 0.03845803812146187 -0.013662661425769329 -0.02985503524541855 -0.035427629947662354 0.0 0.0 0.0 0.0
42000000.0 0.03803689405322075 -0.013823658227920532 -0.0312652513384819 -0.03569681942462921 0.0 0.0 0.0 0.0
43000000.0 0.03762048855423927 -0.013872290961444378 -0.03266119211912155 -0.03603825345635414 0.0 0.0 0.0 0.0
44000000.0 0.0368284247815609 -0.013983826152980328 -0.03401033207774162 -0.036168765276670456 0.0 0.0 0.0 0.0
45000000.0 0.03638521581888199 -0.014254518784582615 -0.0354369692504406 -0.036348607391119 0.0 0.0 0.0 0.0
46000000.0 0.03579901531338692 -0.014330592937767506 -0.0368545837700367 -0.03653854876756668 0.0 0.0 0.0 0.0
47000000.0 0.03546113893389702 -0.014437242411077023 -0.03832855075597763 -0.03661438450217247 0.0 0.0 0.0 0.0
48000000.0 0.034678127616643906 -0.014392713084816933 -0.04143223166465759 -0.03565920889377594 0.0 0.0 0.0 0.0
49000000.0 0.03419116139411926 -0.014415428973734379 -0.04300737380981445 -0.03578215464949608 0.0 0.0 0.0 0.0
50000000.0 0.03336005657911301 -0.014379138126969337 -0.04457122087478638 -0.03549939766526222 0.0 0.0 0.0 0.0
51000000.0 0.03284471109509468 -0.014529096893966198 -0.04610506445169449 -0.035367559641599655 0.0 0.0 0.0 0.0
52000000.0 0.032221537083387375 -0.014455883763730526 -0.047635555267333984 -0.03525148704648018 0.0 0.0 0.0 0.0
53000000.0 0.03174414113163948 -0.01416250504553318 -0.049049247056245804 -0.0349217988550663 0.0 0.0 0.0 0.0
54000000.0 0.03106069378554821 -0.014236128889024258 -0.05062652379274368 -0.03476674109697342 0.0 0.0 0.0 0.0
55000000.0 0.030388593673706055 -0.014298020862042904 -0.052223894745111465 -0.03445383906364441 0.0 0.0 0.0 0.0
56000000.0 0.029975879937410355 -0.014051482081413269 -0.05369223281741142 -0.034079764038324356 0.0 0.0 0.0 0.0
57000000.0 0.029242344200611115 -0.013800133019685745 -0.05525125935673714 -0.03360074386000633 0.0 0.0 0.0 0.0
58000000.0 0.028675174340605736 -0.013722885400056839 -0.056763242930173874 -0.03334743157029152 0.0 0.0 0.0 0.0
59000000.0 0.02805759757757187 -0.013306899927556515 -0.05829933285713196 -0.03288174793124199 0.0 0.0 0.0 0.0
60000000.0 0.02760225534439087 -0.013194920495152473 -0.059936828911304474 -0.0323115810751915 0.0 0.0 0.0 0.0
61000000.0 0.026792878285050392 -0.013225333765149117 -0.06163227558135986 -0.031681641936302185 0.0 0.0 0.0 0.0
62000000.0 0.02619699388742447 -0.012671241536736488 -0.06301034241914749 -0.03108655847609043 0.0 0.0 0.0 0.0
63000000.0 0.02558748982846737 -0.012352029792964458 -0.06461522728204727 -0.03026338294148445 0.0 0.0 0.0 0.0
64000000.0 0.024987487122416496 -0.01223603542894125 -0.06626339256763458 -0.029602903872728348 0.0 0.0 0.0 0.0
65000000.0 0.024509042501449585 -0.01183516439050436 -0.06784842163324356 -0.028744766488671303 0.0 0.0 0.0 0.0
66000000.0 0.02392585575580597 -0.011577632278203964 -0.0694720596075058 -0.028071701526641846 0.0 0.0 0.0 0.0
67000000.0 0.02340059168636799 -0.011249537579715252 -0.07089106738567352 -0.027185218408703804 0.0 0.0 0.0 0.0
68000000.0 0.022971607744693756 -0.010879253968596458 -0.07247850298881531 -0.026316411793231964 0.0 0.0 0.0 0.0
69000000.0 0.022291891276836395 -0.010396480560302734 -0.0740288570523262 -0.025491515174508095 0.0 0.0 0.0 0.0
70000000.0 0.02180388942360878 -0.009887995198369026 -0.0754903107881546 -0.024339839816093445 0.0 0.0 0.0 0.0
71000000.0 0.021280918270349503 -0.009460280649363995 -0.07714463025331497 -0.023455550894141197 0.0 0.0 0.0 0.0
72000000.0 0.020697450265288353 -0.009268213994801044 -0.07857009768486023 -0.02219812385737896 0.0 0.0 0.0 0.0
73000000.0 0.020088570192456245 -0.008483951911330223 -0.07995164394378662 -0.021064424887299538 0.0 0.0 0.0 0.0
74000000.0 0.019650980830192566 -0.008102058432996273 -0.08163022994995117 -0.019944490864872932 0.0 0.0 0.0 0.0
75000000.0 0.019242610782384872 -0.007396725006401539 -0.08285718411207199 -0.018612662330269814 0.0 0.0 0.0 0.0
76000000.0 0.018644515424966812 -0.006949751637876034 -0.08422921597957611 -0.017557190731167793 0.0 0.0 0.0 0.0
77000000.0 0.018365273252129555 -0.006415629759430885 -0.08592262864112854 -0.01607813686132431 0.0 0.0 0.0 0.0
78000000.0 0.017806334421038628 -0.005757688544690609 -0.08719834685325623 -0.01463223434984684 0.0 0.0 0.0 0.0
79000000.0 0.017368629574775696 -0.00514734722673893 -0.08840174227952957 -0.013411675579845905 0.0 0.0 0.0 0.0
80000000.0 0.01715673692524433 -0.0046476637944579124 -0.08996743708848953 -0.011932197958230972 0.0 0.0 0.0 0.0
81000000.0 0.01676947809755802 -0.003937668167054653 -0.09108898043632507 -0.010486628860235214 0.0 0.0 0.0 0.0
82000000.0 0.01628974638879299 -0.0033625932410359383 -0.09239821135997772 -0.008838677778840065 0.0 0.0 0.0 0.0
83000000.0 0.016068987548351288 -0.0024404386058449745 -0.09370525926351547 -0.007288369350135326 0.0 0.0 0.0 0.0
84000000.0 0.015557641163468361 -0.0020911265164613724 -0.09511315822601318 -0.005774188786745071 0.0 0.0 0.0 0.0
85000000.0 0.015326970256865025 -0.0013994639739394188 -0.09641418606042862 -0.003975880332291126 0.0 0.0 0.0 0.0
86000000.0 0.014873545616865158 -0.0005139391869306564 -0.09751377999782562 -0.002168966457247734 0.0 0.0 0.0 0.0
87000000.0 0.014820776879787445 0.0003407783806324005 -0.09866764396429062 -0.00048238039016723633 0.0 0.0 0.0 0.0
88000000.0 0.014402436092495918 0.001041758805513382 -0.09967885911464691 0.0014227889478206635 0.0 0.0 0.0 0.0
89000000.0 0.01419970951974392 0.0019302498549222946 -0.10070458054542542 0.003006276674568653 0.0 0.0 0.0 0.0
90000000.0 0.013984211720526218 0.0024972455576062202 -0.10188757628202438 0.0050935810431838036 0.0 0.0 0.0 0.0
91000000.0 0.013716078363358974 0.0033059073612093925 -0.10289328545331955 0.007025429978966713 0.0 0.0 0.0 0.0
92000000.0 0.013928757049143314 0.004065384157001972 -0.1040545105934143 0.008915403857827187 0.0 0.0 0.0 0.0
93000000.0 0.013602404855191708 0.004809395410120487 -0.1050100103020668 0.010893276892602444 0.0 0.0 0.0 0.0
94000000.0 0.01330550480633974 0.005657016299664974 -0.10567669570446014 0.012877082452178001 0.0 0.0 0.0 0.0
95000000.0 0.013472887687385082 0.006584227085113525 -0.1068192720413208 0.015176295302808285 0.0 0.0 0.0 0.0
96000000.0 0.013428117148578167 0.007284101098775864 -0.10769912600517273 0.01711348444223404 0.0 0.0 0.0 0.0
97000000.0 0.013121258467435837 0.008098448626697063 -0.10818042606115341 0.019173676148056984 0.0 0.0 0.0 0.0
98000000.0 0.013355964794754982 0.009022627957165241 -0.10914719849824905 0.021308375522494316 0.0 0.0 0.0 0.0
99000000.0 0.013273247517645359 0.009811113588511944 -0.10988671332597733 0.023785976693034172 0.0 0.0 0.0 0.0
100000000.0 0.013411659747362137 0.01095004752278328 -0.11113141477108002 0.026226762682199478 0.0 0.0 0.0 0.0
101000000.0 0.013230402953922749 0.011704223230481148 -0.11107168346643448 0.028107408434152603 0.0 0.0 0.0 0.0
102000000.0 0.01327920239418745 0.012482755817472935 -0.11174134165048599 0.030799200758337975 0.0 0.0 0.0 0.0
103000000.0 0.013506154529750347 0.013421659357845783 -0.11230870336294174 0.03290127217769623 0.0 0.0 0.0 0.0
104000000.0 0.013534372672438622 0.014237506315112114 -0.1128670945763588 0.03537839278578758 0.0 0.0 0.0 0.0
105000000.0 0.013713525608181953 0.01505795493721962 -0.11328621953725815 0.037988848984241486 0.0 0.0 0.0 0.0
106000000.0 0.013879654929041862 0.016063585877418518 -0.11361511051654816 0.04023602977395058 0.0 0.0 0.0 0.0
107000000.0 0.014317679218947887 0.016798067837953568 -0.11399844288825989 0.04276074469089508 0.0 0.0 0.0 0.0
108000000.0 0.014481945894658566 0.017598196864128113 -0.11429231613874435 0.045093901455402374 0.0 0.0 0.0 0.0
109000000.0 0.01451875176280737 0.018658913671970367 -0.1144656091928482 0.047859836369752884 0.0 0.0 0.0 0.0
110000000.0 0.014966960996389389 0.019402334466576576 -0.11492910981178284 0.0502249039709568 0.0 0.0 0.0 0.0
111000000.0 0.015415091998875141 0.02027975022792816 -0.11500317603349686 0.0527159757912159 0.0 0.0 0.0 0.0
112000000.0 0.015585964545607567 0.021334519609808922 -0.11478287726640701 0.055525265634059906 0.0 0.0 0.0 0.0
113000000.0 0.016013985499739647 0.02220953442156315 -0.11491519957780838 0.0579853430390358 0.0 0.0 0.0 0.0
114000000.0 0.016429506242275238 0.02301691100001335 -0.11481598019599915 0.06071023270487785 0.0 0.0 0.0 0.0
115000000.0 0.01683659292757511 0.023869941011071205 -0.11483943462371826 0.06352172791957855 0.0 0.0 0.0 0.0
116000000.0 0.0173103678971529 0.02474081516265869 -0.11436925828456879 0.06602445989847183 0.0 0.0 0.0 0.0
117000000.0 0.017851417884230614 0.025414954870939255 -0.1142207458615303 0.06870123744010925 0.0 0.0 0.0 0.0
118000000.0 0.01847177743911743 0.026259953156113625 -0.11406555026769638 0.07142378389835358 0.0 0.0 0.0 0.0
119000000.0 0.01862184889614582 0.027290232479572296 -0.11384264379739761 0.07432932406663895 0.0 0.0 0.0 0.0
120000000.0 0.01948697678744793 0.027874281629920006 -0.11351250857114792 0.07701035588979721 0.0 0.0 0.0 0.0
121000000.0 0.02017499879002571 0.028893187642097473 -0.11285436153411865 0.07971496134996414 0.0 0.0 0.0 0.0
122000000.0 0.02051558531820774 0.02971111610531807 -0.11251770704984665 0.08238662779331207 0.0 0.0 0.0 0.0
123000000.0 0.021338921040296555 0.030559776350855827 -0.11192444711923599 0.085364930331707 0.0 0.0 0.0 0.0
124000000.0 0.022150371223688126 0.031243981793522835 -0.11117294430732727 0.08808691054582596 0.0 0.0 0.0 0.0
125000000.0 0.022869594395160675 0.03180431202054024 -0.11056479066610336 0.09079620242118835 0.0 0.0 0.0 0.0
126000000.0 0.02351006679236889 0.03256621211767197 -0.10979203879833221 0.09379883110523224 0.0 0.0 0.0 0.0
127000000.0 0.024321844801306725 0.03365582227706909 -0.1088188886642456 0.09634684771299362 0.0 0.0 0.0 0.0
128000000.0 0.024804482236504555 0.03421330824494362 -0.10792717337608337 0.09941546618938446 0.0 0.0 0.0 0.0
129000000.0 0.025716280564665794 0.03495815396308899 -0.10713247954845428 0.10209916532039642 0.0 0.0 0.0 0.0
130000000.0 0.026856975629925728 0.035576652735471725 -0.10593809932470322 0.10526767373085022 0.0 0.0 0.0 0.0
131000000.0 0.027642201632261276 0.036297231912612915 -0.10465390235185623 0.1076197400689125 0.0 0.0 0.0 0.0
132000000.0 0.028375700116157532 0.03686000779271126 -0.10349027067422867 0.11046967655420303 0.0 0.0 0.0 0.0
133000000.0 0.029242713004350662 0.03760172426700592 -0.10212674736976624 0.11317421495914459 0.0 0.0 0.0 0.0
134000000.0 0.03031938523054123 0.038113173097372055 -0.10093589127063751 0.11620672047138214 0.0 0.0 0.0 0.0
135000000.0 0.03140084445476532 0.0386970229446888 -0.09946601837873459 0.11860746890306473 0.0 0.0 0.0 0.0
136000000.0 0.03226263448596001 0.039341092109680176 -0.09801433980464935 0.12153930962085724 0.0 0.0 0.0 0.0
137000000.0 0.03315052017569542 0.039837077260017395 -0.09638378769159317 0.12433374673128128 0.0 0.0 0.0 0.0
138000000.0 0.03416391834616661 0.04037023335695267 -0.09499609470367432 0.12722806632518768 0.0 0.0 0.0 0.0
139000000.0 0.03529898822307587 0.04062715172767639 -0.093205027282238 0.12995591759681702 0.0 0.0 0.0 0.0
140000000.0 0.03620379790663719 0.04116614907979965 -0.09152013063430786 0.1325032114982605 0.0 0.0 0.0 0.0
141000000.0 0.03721465915441513 0.04131830111145973 -0.08190476894378662 0.1384134441614151 0.0 0.0 0.0 0.0
142000000.0 0.03822068125009537 0.04160156100988388 -0.07998255640268326 0.14086605608463287 0.0 0.0 0.0 0.0
143000000.0 0.03931066766381264 0.0418972410261631 -0.07785364240407944 0.14366380870342255 0.0 0.0 0.0 0.0
144000000.0 0.0404428169131279 0.042238909751176834 -0.07569419592618942 0.1459670513868332 0.0 0.0 0.0 0.0
145000000.0 0.04143451526761055 0.04257228225469589 -0.0733686164021492 0.14837656915187836 0.0 0.0 0.0 0.0
146000000.0 0.042722318321466446 0.04301023110747337 -0.07114149630069733 0.15071767568588257 0.0 0.0 0.0 0.0
147000000.0 0.043902646750211716 0.04322909563779831 -0.068943090736866 0.15307700634002686 0.0 0.0 0.0 0.0
148000000.0 0.04486292600631714 0.04340318962931633 -0.06645204871892929 0.15570510923862457 0.0 0.0 0.0 0.0
149000000.0 0.04594378173351288 0.04354654997587204 -0.06398910284042358 0.15799637138843536 0.0 0.0 0.0 0.0
150000000.0 0.04735647141933441 0.043751366436481476 -0.06144808232784271 0.16004228591918945 0.0 0.0 0.0 0.0
151000000.0 0.04840846359729767 0.04387792572379112 -0.05893277749419212 0.16229622066020966 0.0 0.0 0.0 0.0
152000000.0 0.04949178919196129 0.04386019706726074 -0.05623748525977135 0.16432885825634003 0.0 0.0 0.0 0.0
153000000.0 0.05094693973660469 0.04384357109665871 -0.05349244549870491 0.16675512492656708 0.0 0.0 0.0 0.0
154000000.0 0.05213572457432747 0.04401451721787453 -0.050760626792907715 0.16867364943027496 0.0 0.0 0.0 0.0
155000000.0 0.05306660011410713 0.04426570236682892 -0.04793374985456467 0.1706894487142563 0.0 0.0 0.0 0.0
156000000.0 0.054354146122932434 0.04457121342420578 -0.045038968324661255 0.1727146953344345 0.0 0.0 0.0 0.0
157000000.0 0.05570235475897789 0.04430963844060898 -0.04200349375605583 0.17458030581474304 0.0 0.0 0.0 0.0
158000000.0 0.057004790753126144 0.044479116797447205 -0.03922272473573685 0.1767187863588333 0.0 0.0 0.0 0.0
159000000.0 0.05808810517191887 0.044444531202316284 -0.0359656997025013 0.17835859954357147 0.0 0.0 0.0 0.0
160000000.0 0.059523191303014755 0.04451131075620651 -0.03278861567378044 0.18040041625499725 0.0 0.0 0.0 0.0
161000000.0 0.06055038794875145 0.04424992948770523 -0.029657568782567978 0.18195809423923492 0.0 0.0 0.0 0.0
162000000.0 0.061838384717702866 0.044139161705970764 -0.02628074586391449 0.18398694694042206 0.0 0.0 0.0 0.0
163000000.0 0.06322848796844482 0.04385914281010628 -0.02302434667944908 0.18541733920574188 0.0 0.0 0.0 0.0
164000000.0 0.06453043222427368 0.04306020960211754 -0.019749799743294716 0.18691235780715942 0.0 0.0 0.0 0.0
165000000.0 0.06576206535100937 0.04330003261566162 -0.016328897327184677 0.18840672075748444 0.0 0.0 0.0 0.0
166000000.0 0.06718073785305023 0.043113041669130325 -0.012796744704246521 0.18994654715061188 0.0 0.0 0.0 0.0
167000000.0 0.06799554079771042 0.04237384349107742 -0.00946864578872919 0.19147945940494537 0.0 0.0 0.0 0.0
168000000.0 0.06951051950454712 0.042511846870183945 -0.005932091735303402 0.19264470040798187 0.0 0.0 0.0 0.0
169000000.0 0.0707472562789917 0.041560396552085876 -0.0022487491369247437 0.19379740953445435 0.0 0.0 0.0 0.0
170000000.0 0.07182160764932632 0.04100068658590317 0.0013696616515517235 0.19518055021762848 0.0 0.0 0.0 0.0
171000000.0 0.07288622111082077 0.04051974043250084 0.005256715230643749 0.19606299698352814 0.0 0.0 0.0 0.0
172000000.0 0.0743209570646286 0.04034009575843811 0.008713783696293831 0.19719472527503967 0.0 0.0 0.0 0.0
173000000.0 0.07540249824523926 0.03954235091805458 0.012553056702017784 0.1981552541255951 0.0 0.0 0.0 0.0
174000000.0 0.07665503770112991 0.03923027589917183 0.0166819728910923 0.1989581435918808 0.0 0.0 0.0 0.0
175000000.0 0.07790359854698181 0.03810477629303932 0.02045278064906597 0.1998261958360672 0.0 0.0 0.0 0.0
176000000.0 0.07907985895872116 0.03745509311556816 0.024483542889356613 0.2003374695777893 0.0 0.0 0.0 0.0
177000000.0 0.08013837784528732 0.0366680771112442 0.02828463353216648 0.2011924386024475 0.0 0.0 0.0 0.0
178000000.0 0.08141699433326721 0.035743340849876404 0.03234926983714104 0.20197124779224396 0.0 0.0 0.0 0.0
179000000.0 0.08247441798448563 0.03524315729737282 0.03606904298067093 0.20226339995861053 0.0 0.0 0.0 0.0
