!Created with skrf (http://scikit-rf.org).
# Hz S RI R 50.0 
!freq ReS11 ImS11 ReS21 ImS21 ReS12 ImS12 ReS22 ImS22
1000000.0 0.01424986869096756 0.0020603565499186516 -0.9497381448745728 0.01708166114985943 0.0 0.0 0.0 0.0
2000000.0 0.014849778264760971 0.003520214930176735 -0.9508427381515503 0.03476108983159065 0.0 0.0 0.0 0.0
3000000.0 0.015758009627461433 0.004843018017709255 -0.9520834684371948 0.05254492163658142 0.0 0.0 0.0 0.0
4000000.0 0.016999101266264915 0.006184745579957962 -0.9493480920791626 0.06972961127758026 0.0 0.0 0.0 0.0
5000000.0 0.01694728247821331 0.007022923789918423 -0.9465135335922241 0.08598203212022781 0.0 0.0 0.0 0.0
6000000.0 0.018244482576847076 0.007983964867889881 -0.9470030665397644 0.10177422314882278 0.0 0.0 0.0 0.0
7000000.0 0.018586942926049232 0.008668698370456696 -0.9461126327514648 0.11921338737010956 0.0 0.0 0.0 0.0
8000000.0 0.019128696992993355 0.009572621434926987 -0.9451820850372314 0.13676057755947113 0.0 0.0 0.0 0.0
9000000.0 0.020438820123672485 0.010468810796737671 -0.9426584839820862 0.15431348979473114 0.0 0.0 0.0 0.0
10000000.0 0.021394064649939537 0.011234069243073463 -0.9397112131118774 0.17249315977096558 0.0 0.0 0.0 0.0
11000000.0 0.02149728499352932 0.01157359778881073 -0.9367116093635559 0.18939794600009918 0.0 0.0 0.0 0.0
12000000.0 0.022124730050563812 0.012139583006501198 -0.9329952001571655 0.20669396221637726 0.0 0.0 0.0 0.0
13000000.0 0.022646615281701088 0.012542898766696453 -0.9292333126068115 0.22398047149181366 0.0 0.0 0.0 0.0
14000000.0 0.023793678730726242 0.013212569057941437 -0.9246782064437866 0.24086213111877441 0.0 0.0 0.0 0.0
15000000.0 0.024662001058459282 0.013861317187547684 -0.9200999736785889 0.25763362646102905 0.0 0.0 0.0 0.0
16000000.0 0.025992196053266525 0.015611767768859863 -0.9155429601669312 0.274513840675354 0.0 0.0 0.0 0.0
17000000.0 0.0263278316706419 0.016147555783391 -0.9106999635696411 0.29081204533576965 0.0 0.0 0.0 0.0
18000000.0 0.027268342673778534 0.016368966549634933 -0.9051223397254944 0.3071689009666443 0.0 0.0 0.0 0.0
19000000.0 0.028142059221863747 0.01647350937128067 -0.8991637825965881 0.32502350211143494 0.0 0.0 0.0 0.0
20000000.0 0.029069559648633003 0.01645764894783497 -0.8933469653129578 0.34066617488861084 0.0 0.0 0.0 0.0
21000000.0 0.029706062749028206 0.01662355661392212 -0.8877203464508057 0.357485294342041 0.0 0.0 0.0 0.0
22000000.0 0.029955249279737473 0.015805598348379135 -0.8802082538604736 0.372652143239975 0.0 0.0 0.0 0.0
23000000.0 0.030849449336528778 0.015892773866653442 -0.8735564351081848 0.38876426219940186 0.0 0.0 0.0 0.0
24000000.0 0.031431663781404495 0.015736756846308708 -0.8662030696868896 0.4047359824180603 0.0 0.0 0.0 0.0
25000000.0 0.0324268713593483 0.0157089214771986 -0.85858553647995 0.4201137125492096 0.0 0.0 0.0 0.0
26000000.0 0.033290307968854904 0.01565615087747574 -0.8508462309837341 0.43613481521606445 0.0 0.0 0.0 0.0
27000000.0 0.03409573435783386 0.015887031331658363 -0.8427673578262329 0.4514087736606598 0.0 0.0 0.0 0.0
28000000.0 0.03463917225599289 0.01589120551943779 -0.8344475030899048 0.46639809012413025 0.0 0.0 0.0 0.0
29000000.0 0.03555846959352493 0.015608401969075203 -0.8264151811599731 0.4823251962661743 0.0 0.0 0.0 0.0
30000000.0 0.03638440743088722 0.01569962501525879 -0.8172302842140198 0.49648964405059814 0.0 0.0 0.0 0.0
31000000.0 0.037118829786777496 0.015262297354638577 -0.8082141280174255 0.511300265789032 0.0 0.0 0.0 0.0
32000000.0 0.03761014714837074 0.015050001442432404 -0.7986516952514648 0.525983452796936 0.0 0.0 0.0 0.0
33000000.0 0.03844460844993591 0.014905228279531002 -0.7889595031738281 0.540025532245636 0.0 0.0 0.0 0.0
34000000.0 0.039176903665065765 0.014488358981907368 -0.7792302370071411 0.5549694895744324 0.0 0.0 0.0 0.0
35000000.0 0.039784397929906845 0.014304781332612038 -0.7689492702484131 0.568574845790863 0.0 0.0 0.0 0.0
36000000.0 0.040656913071870804 0.013962914235889912 -0.75911945104599 0.5829895734786987 0.0 0.0 0.0 0.0
37000000.0 0.04113783314824104 0.013680779375135899 -0.748140811920166 0.5962800979614258 0.0 0.0 0.0 0.0
38000000.0 0.041818808764219284 0.013140064664185047 -0.7373858690261841 0.6091088652610779 0.0 0.0 0.0 0.0
39000000.0 0.04229152947664261 0.012372606433928013 -0.7258463501930237 0.62276291847229 0.0 0.0 0.0 0.0
40000000.0 0.042930930852890015 0.011956844478845596 -0.7148826122283936 0.6359939575195312 0.0 0.0 0.0 0.0
41000000.0 0.04343864694237709 0.011662662029266357 -0.7027043104171753 0.6485265493392944 0.0 0.0 0.0 0.0
42000000.0 0.04399329796433449 0.010951569303870201 -0.691155195236206 0.6612943410873413 0.0 0.0 0.0 0.0
43000000.0 0.044100530445575714 0.01055185403674841 -0.679523766040802 0.6734288334846497 0.0 0.0 0.0 0.0
44000000.0 0.04463917016983032 0.009730277583003044 -0.667090892791748 0.6852338910102844 0.0 0.0 0.0 0.0
45000000.0 0.0453132763504982 0.009291717782616615 -0.6550253629684448 0.6974037885665894 0.0 0.0 0.0 0.0
46000000.0 0.045355312526226044 0.008699825964868069 -0.6421777606010437 0.7092806100845337 0.0 0.0 0.0 0.0
47000000.0 0.045648712664842606 0.007953663356602192 -0.6294592618942261 0.7208248972892761 0.0 0.0 0.0 0.0
48000000.0 0.04624864086508751 0.007421235553920269 -0.6164218783378601 0.7321592569351196 0.0 0.0 0.0 0.0
49000000.0 0.04634498059749603 0.0067353202030062675 -0.6023588180541992 0.7432588338851929 0.0 0.0 0.0 0.0
50000000.0 0.04637085273861885 0.00605899840593338 -0.5895522832870483 0.7536928057670593 0.0 0.0 0.0 0.0
51000000.0 0.046521615236997604 0.0053904689848423 -0.5762575268745422 0.7640859484672546 0.0 0.0 0.0 0.0
52000000.0 0.04674137011170387 0.004464340396225452 -0.5624226927757263 0.775398313999176 0.0 0.0 0.0 0.0
53000000.0 0.04678190499544144 0.004018204286694527 -0.5481875538825989 0.7852580547332764 0.0 0.0 0.0 0.0
54000000.0 0.046861566603183746 0.003360186703503132 -0.5343145132064819 0.7946337461471558 0.0 0.0 0.0 0.0
55000000.0 0.046998169273138046 0.0024293111637234688 -0.5199952125549316 0.804533839225769 0.0 0.0 0.0 0.0
56000000.0 0.046769868582487106 0.001947467215359211 -0.505236804485321 0.813597559928894 0.0 0.0 0.0 0.0
57000000.0 0.04658633843064308 0.0012038946151733398 -0.4905734062194824 0.8226079344749451 0.0 0.0 0.0 0.0
58000000.0 0.04661634564399719 0.0004207352176308632 -0.47584688663482666 0.8319283723831177 0.0 0.0 0.0 0.0
59000000.0 0.0464952252805233 -0.00027524586766958237 -0.46081507205963135 0.8408490419387817 0.0 0.0 0.0 0.0
60000000.0 0.04615147039294243 -0.0008501894772052765 -0.4452402591705322 0.8487495183944702 0.0 0.0 0.0 0.0
61000000.0 0.045955125242471695 -0.001423555426299572 -0.4307481348514557 0.8570543527603149 0.0 0.0 0.0 0.0
62000000.0 0.04555307701230049 -0.0023725414648652077 -0.4150354564189911 0.864813506603241 0.0 0.0 0.0 0.0
63000000.0 0.04507897421717644 -0.003032858483493328 -0.3993746042251587 0.8719651699066162 0.0 0.0 0.0 0.0
64000000.0 0.04507949948310852 -0.003475467674434185 -0.383868932723999 0.8796752095222473 0.0 0.0 0.0 0.0
65000000.0 0.04441085830330849 -0.00408694613724947 -0.3677487075328827 0.8864330053329468 0.0 0.0 0.0 0.0
66000000.0 0.044270046055316925 -0.004598965868353844 -0.35204076766967773 0.8936071991920471 0.0 0.0 0.0 0.0
67000000.0 0.043631698936223984 -0.005223688669502735 -0.33612367510795593 0.8999119997024536 0.0 0.0 0.0 0.0
68000000.0 0.04318200424313545 -0.005590694956481457 -0.31984150409698486 0.905536413192749 0.0 0.0 0.0 0.0
69000000.0 0.04248236492276192 -0.006014480255544186 -0.30394425988197327 0.9111273884773254 0.0 0.0 0.0 0.0
70000000.0 0.04200553148984909 -0.006497561000287533 -0.2871444821357727 0.9169155955314636 0.0 0.0 0.0 0.0
71000000.0 0.04121879115700722 -0.007123015820980072 -0.270192950963974 0.922508955001831 0.0 0.0 0.0 0.0
72000000.0 0.04069819301366806 -0.007544581778347492 -0.2536573112010956 0.9284477233886719 0.0 0.0 0.0 0.0
73000000.0 0.04007268324494362 -0.007843817584216595 -0.2372058779001236 0.9333392977714539 0.0 0.0 0.0 0.0
74000000.0 0.039206795394420624 -0.008342856541275978 -0.21981048583984375 0.9369698166847229 0.0 0.0 0.0 0.0
75000000.0 0.03865666687488556 -0.008805823512375355 -0.20315757393836975 0.9412758350372314 0.0 0.0 0.0 0.0
76000000.0 0.03796659782528877 -0.008711392059922218 -0.18682949244976044 0.9454118013381958 0.0 0.0 0.0 0.0
77000000.0 0.037049997597932816 -0.009226398542523384 -0.16973285377025604 0.9490172863006592 0.0 0.0 0.0 0.0
78000000.0 0.036475710570812225 -0.009231915697455406 -0.15172891318798065 0.9518314599990845 0.0 0.0 0.0 0.0
79000000.0 0.035664547234773636 -0.009228787384927273 -0.13606306910514832 0.9551518559455872 0.0 0.0 0.0 0.0
80000000.0 0.03469578176736832 -0.009328938089311123 -0.11910811811685562 0.9572345018386841 0.0 0.0 0.0 0.0
81000000.0 0.034001439809799194 -0.009733003564178944 -0.10066887736320496 0.9603625535964966 0.0 0.0 0.0 0.0
82000000.0 0.03309880197048187 -0.00954046007245779 -0.08357960730791092 0.9621742367744446 0.0 0.0 0.0 0.0
83000000.0 0.03234301507472992 -0.009569110348820686 -0.06619980931282043 0.963860809803009 0.0 0.0 0.0 0.0
84000000.0 0.03144146129488945 -0.009466208517551422 -0.049756161868572235 0.9653267860412598 0.0 0.0 0.0 0.0
85000000.0 0.030674230307340622 -0.009531088173389435 -0.03147461637854576 0.9664754867553711 0.0 0.0 0.0 0.0
86000000.0 0.029575634747743607 -0.00910006184130907 -0.014622447080910206 0.9672664403915405 0.0 0.0 0.0 0.0
87000000.0 0.028834683820605278 -0.008794725872576237 0.0023164842277765274 0.9673215746879578 0.0 0.0 0.0 0.0
88000000.0 0.0278162881731987 -0.008602039888501167 0.019985824823379517 0.9675650596618652 0.0 0.0 0.0 0.0
89000000.0 0.027251338586211205 -0.008305255323648453 0.038382284343242645 0.9678478240966797 0.0 0.0 0.0 0.0
90000000.0 0.026129554957151413 -0.007952098734676838 0.05535491183400154 0.9672090411186218 0.0 0.0 0.0 0.0
91000000.0 0.02554480731487274 -0.007626395672559738 0.07299056649208069 0.9667216539382935 0.0 0.0 0.0 0.0
92000000.0 0.0244787335395813 -0.007532876916229725 0.09125760197639465 0.9660536050796509 0.0 0.0 0.0 0.0
93000000.0 0.02388489991426468 -0.006888074800372124 0.1082095354795456 0.9640862345695496 0.0 0.0 0.0 0.0
94000000.0 0.022947432473301888 -0.006110871210694313 0.1258089244365692 0.9635012745857239 0.0 0.0 0.0 0.0
95000000.0 0.02226545475423336 -0.005803440697491169 0.14304231107234955 0.9608687162399292 0.0 0.0 0.0 0.0
96000000.0 0.021452808752655983 -0.0050191329792141914 0.1611008197069168 0.9586180448532104 0.0 0.0 0.0 0.0
97000000.0 0.020600946620106697 -0.004532640799880028 0.17915406823158264 0.9564880728721619 0.0 0.0 0.0 0.0
98000000.0 0.020007342100143433 -0.003569202497601509 0.19475820660591125 0.9531992673873901 0.0 0.0 0.0 0.0
99000000.0 0.01919812150299549 -0.0029341671615839005 0.21361173689365387 0.949917733669281 0.0 0.0 0.0 0.0
100000000.0 0.01872069202363491 -0.0023199114948511124 0.23353298008441925 0.9504997134208679 0.0 0.0 0.0 0.0
101000000.0 0.01804271526634693 -0.0012423265725374222 0.2481042742729187 0.9422348737716675 0.0 0.0 0.0 0.0
102000000.0 0.017343617975711823 -0.000245031900703907 0.26504987478256226 0.9370765089988708 0.0 0.0 0.0 0.0
103000000.0 0.016923943534493446 0.00031380169093608856 0.28263330459594727 0.9333295226097107 0.0 0.0 0.0 0.0
104000000.0 0.016178395599126816 0.0013825604692101479 0.30001387000083923 0.9277648329734802 0.0 0.0 0.0 0.0
105000000.0 0.015659324824810028 0.0025411956012248993 0.3172054886817932 0.9231150150299072 0.0 0.0 0.0 0.0
106000000.0 0.01531333290040493 0.00353362038731575 0.3344878852367401 0.9187647104263306 0.0 0.0 0.0 0.0
107000000.0 0.014774787239730358 0.004280193708837032 0.3508870601654053 0.912217915058136 0.0 0.0 0.0 0.0
108000000.0 0.014439037069678307 0.005535978823900223 0.3675496578216553 0.9058156609535217 0.0 0.0 0.0 0.0
109000000.0 0.014045820571482182 0.006874159909784794 0.38372305035591125 0.8986546993255615 0.0 0.0 0.0 0.0
110000000.0 0.013744504190981388 0.007800276391208172 0.40114206075668335 0.892909824848175 0.0 0.0 0.0 0.0
111000000.0 0.013423729687929153 0.008945970796048641 0.4178939759731293 0.885999321937561 0.0 0.0 0.0 0.0
112000000.0 0.013114823959767818 0.010157435201108456 0.4338284134864807 0.8778508305549622 0.0 0.0 0.0 0.0
113000000.0 0.012986897490918636 0.011429054662585258 0.45083853602409363 0.8710194230079651 0.0 0.0 0.0 0.0
114000000.0 0.012774773873388767 0.012771941721439362 0.4664764106273651 0.8625279664993286 0.0 0.0 0.0 0.0
115000000.0 0.013032329268753529 0.013717648573219776 0.48266783356666565 0.8545502424240112 0.0 0.0 0.0 0.0
116000000.0 0.012883516028523445 0.015347789973020554 0.498445987701416 0.8458206653594971 0.0 0.0 0.0 0.0
117000000.0 0.012911147437989712 0.016398252919316292 0.5145053863525391 0.8369704484939575 0.0 0.0 0.0 0.0
118000000.0 0.013218328356742859 0.017749473452568054 0.5292544960975647 0.8281754851341248 0.0 0.0 0.0 0.0
119000000.0 0.013339738361537457 0.01899007149040699 0.544034481048584 0.8190070986747742 0.0 0.0 0.0 0.0
120000000.0 0.013589262962341309 0.020488997921347618 0.5607864856719971 0.8085877299308777 0.0 0.0 0.0 0.0
121000000.0 0.013799210079014301 0.02190990187227726 0.5747919678688049 0.7990633845329285 0.0 0.0 0.0 0.0
122000000.0 0.01430558506399393 0.022978559136390686 0.590478777885437 0.7887508273124695 0.0 0.0 0.0 0.0
123000000.0 0.014477739110589027 0.02449771761894226 0.6057441830635071 0.7781520485877991 0.0 0.0 0.0 0.0
124000000.0 0.014777936972677708 0.026070227846503258 0.619464635848999 0.7663466930389404 0.0 0.0 0.0 0.0
125000000.0 0.015548788011074066 0.027257466688752174 0.6342800259590149 0.7559878826141357 0.0 0.0 0.0 0.0
126000000.0 0.016145804896950722 0.028532959520816803 0.648455023765564 0.744391143321991 0.0 0.0 0.0 0.0
127000000.0 0.01681278645992279 0.029669221490621567 0.6630243062973022 0.7325751781463623 0.0 0.0 0.0 0.0
128000000.0 0.017183301970362663 0.031133335083723068 0.6754055023193359 0.7210089564323425 0.0 0.0 0.0 0.0
129000000.0 0.018172457814216614 0.03257785364985466 0.6895491480827332 0.7086740136146545 0.0 0.0 0.0 0.0
130000000.0 0.01897887885570526 0.03394568711519241 0.7046312689781189 0.6960999965667725 0.0 0.0 0.0 0.0
131000000.0 0.01998223550617695 0.03477770835161209 0.7155888676643372 0.6825264096260071 0.0 0.0 0.0 0.0
132000000.0 0.020937494933605194 0.03615394979715347 0.7288240194320679 0.6698506474494934 0.0 0.0 0.0 0.0
133000000.0 0.021748969331383705 0.03752673789858818 0.7420239448547363 0.6565007567405701 0.0 0.0 0.0 0.0
134000000.0 0.022666171193122864 0.038722533732652664 0.7545482516288757 0.6427696943283081 0.0 0.0 0.0 0.0
135000000.0 0.02412448823451996 0.039782047271728516 0.767193615436554 0.629898726940155 0.0 0.0 0.0 0.0
136000000.0 0.02528449520468712 0.041014403104782104 0.7791999578475952 0.6159765720367432 0.0 0.0 0.0 0.0
137000000.0 0.026525074616074562 0.04198426380753517 0.7910367250442505 0.6012451648712158 0.0 0.0 0.0 0.0
138000000.0 0.027381082996726036 0.04306436702609062 0.8018744587898254 0.5872132778167725 0.0 0.0 0.0 0.0
139000000.0 0.02897302806377411 0.04424154758453369 0.8131043910980225 0.5721891522407532 0.0 0.0 0.0 0.0
140000000.0 0.030429676175117493 0.04534066841006279 0.8235030770301819 0.5563042163848877 0.0 0.0 0.0 0.0
141000000.0 0.03190581500530243 0.04580361396074295 0.8227084279060364 0.5151909589767456 0.0 0.0 0.0 0.0
142000000.0 0.03331068158149719 0.046420615166425705 0.833506166934967 0.4998531639575958 0.0 0.0 0.0 0.0
143000000.0 0.03467724472284317 0.047356829047203064 0.8435606956481934 0.48390963673591614 0.0 0.0 0.0 0.0
144000000.0 0.03627859055995941 0.04806303605437279 0.8524354696273804 0.4685644209384918 0.0 0.0 0.0 0.0
145000000.0 0.037843007594347 0.04879562929272652 0.8611177802085876 0.45327770709991455 0.0 0.0 0.0 0.0
146000000.0 0.03950128331780434 0.04920266196131706 0.8698558211326599 0.43738996982574463 0.0 0.0 0.0 0.0
147000000.0 0.04122654348611832 0.04994978755712509 0.8786906003952026 0.4214470386505127 0.0 0.0 0.0 0.0
148000000.0 0.04293545335531235 0.05055440962314606 0.8856179118156433 0.40528592467308044 0.0 0.0 0.0 0.0
149000000.0 0.04462936520576477 0.05106498301029205 0.8938772082328796 0.3890454173088074 0.0 0.0 0.0 0.0
150000000.0 0.046350277960300446 0.05154026299715042 0.9009765386581421 0.37241330742836 0.0 0.0 0.0 0.0
151000000.0 0.048003435134887695 0.051838867366313934 0.9076008200645447 0.356044739484787 0.0 0.0 0.0 0.0
152000000.0 0.04986940324306488 0.05195765942335129 0.9150661826133728 0.33935225009918213 0.0 0.0 0.0 0.0
153000000.0 0.05158999562263489 0.05279866233468056 0.9211101531982422 0.3226965069770813 0.0 0.0 0.0 0.0
154000000.0 0.05332355201244354 0.05276589095592499 0.9271581172943115 0.30529895424842834 0.0 0.0 0.0 0.0
155000000.0 0.05515830218791962 0.05272545665502548 0.93274986743927 0.2876283526420593 0.0 0.0 0.0 0.0
156000000.0 0.05726635083556175 0.05311184749007225 0.9389583468437195 0.27047914266586304 0.0 0.0 0.0 0.0
157000000.0 0.05900305509567261 0.05281123146414757 0.9447072744369507 0.2528682053089142 0.0 0.0 0.0 0.0
158000000.0 0.06107605621218681 0.05333947017788887 0.9482131004333496 0.23596327006816864 0.0 0.0 0.0 0.0
159000000.0 0.06299783289432526 0.05317867174744606 0.9528502225875854 0.21797265112400055 0.0 0.0 0.0 0.0
160000000.0 0.06481193751096725 0.05261200666427612 0.9574748277664185 0.200043722987175 0.0 0.0 0.0 0.0
161000000.0 0.06675182282924652 0.05224715173244476 0.9618759155273438 0.18234315514564514 0.0 0.0 0.0 0.0
162000000.0 0.06868073344230652 0.05190863832831383 0.9650177359580994 0.16434364020824432 0.0 0.0 0.0 0.0
163000000.0 0.07052678614854813 0.051438938826322556 0.9683021903038025 0.14663638174533844 0.0 0.0 0.0 0.0
164000000.0 0.07237060368061066 0.050966277718544006 0.9708431959152222 0.12912002205848694 0.0 0.0 0.0 0.0
165000000.0 0.07413264364004135 0.05016481876373291 0.9742783308029175 0.11092717200517654 0.0 0.0 0.0 0.0
166000000.0 0.07649917155504227 0.04966238886117935 0.9758424758911133 0.0919947624206543 0.0 0.0 0.0 0.0
167000000.0 0.0783935934305191 0.048573486506938934 0.9780269265174866 0.07475168257951736 0.0 0.0 0.0 0.0
168000000.0 0.0799676924943924 0.048371780663728714 0.9797989130020142 0.05635067820549011 0.0 0.0 0.0 0.0
169000000.0 0.08185143023729324 0.046898745000362396 0.9806289672851562 0.03748081624507904 0.0 0.0 0.0 0.0
170000000.0 0.08363042771816254 0.04604145884513855 0.9816458225250244 0.01954423449933529 0.0 0.0 0.0 0.0
171000000.0 0.08522839099168777 0.045262664556503296 0.9821756482124329 0.0009817155078053474 0.0 0.0 0.0 0.0
172000000.0 0.08695116639137268 0.04426208510994911 0.9822579026222229 -0.017018701881170273 0.0 0.0 0.0 0.0
173000000.0 0.08880597352981567 0.04261574149131775 0.9824758172035217 -0.03545956686139107 0.0 0.0 0.0 0.0
174000000.0 0.09041380137205124 0.04165351390838623 0.9814698696136475 -0.053117115050554276 0.0 0.0 0.0 0.0
175000000.0 0.09202602505683899 0.040146492421627045 0.9811540246009827 -0.07188897579908371 0.0 0.0 0.0 0.0
176000000.0 0.09369441121816635 0.03832255303859711 0.9794789552688599 -0.09029912203550339 0.0 0.0 0.0 0.0
177000000.0 0.09530701488256454 0.03742415830492973 0.978861927986145 -0.10877209901809692 0.0 0.0 0.0 0.0
178000000.0 0.09669119864702225 0.036052118986845016 0.9766144752502441 -0.12654781341552734 0.0 0.0 0.0 0.0
179000000.0 0.09830860048532486 0.03419254720211029 0.9745160341262817 -0.14455360174179077 0.0 0.0 0.0 0.0
180000000.0 0.09968617558479309 0.032240379601716995 0.9712117314338684 -0.16293078660964966 0.0 0.0 0.0 0.0
181000000.0 0.10109881311655045 0.030760575085878372 0.9693426489830017 -0.1812731772661209 0.0 0.0 0.0 0.0
182000000.0 0.10191962867975235 0.028851646929979324 0.9655188918113708 -0.19992031157016754 0.0 0.0 0.0 0.0
183000000.0 0.10325292497873306 0.026950998231768608 0.9623768925666809 -0.2177131325006485 0.0 0.0 0.0 0.0
184000000.0 0.10438935458660126 0.025239406153559685 0.9582445025444031 -0.23586112260818481 0.0 0.0 0.0 0.0
