!Created with skrf (http://scikit-rf.org).
# Hz S RI R 50.0 
!freq ReS11 ImS11 ReS21 ImS21 ReS12 ImS12 ReS22 ImS22
1000000.0 0.046166788786649704 0.00041044410318136215 9.275134652853012e-05 -5.631428211927414e-05 0.0 0.0 0.0 0.0
2000000.0 0.04613882303237915 0.0002766624093055725 0.00019121263176202774 -0.00022403430193662643 0.0 0.0 0.0 0.0
3000000.0 0.04639256000518799 0.00016567669808864594 0.00038374122232198715 -0.0004903478547930717 0.0 0.0 0.0 0.0
4000000.0 0.04699135199189186 -1.9261613488197327e-05 0.0004112403839826584 -0.0006889477372169495 0.0 0.0 0.0 0.0
5000000.0 0.04682527855038643 -0.00032067857682704926 0.0004312647506594658 -0.001027839258313179 0.0 0.0 0.0 0.0
6000000.0 0.047476477921009064 -0.000687907449901104 0.0004363441839814186 -0.0012157987803220749 0.0 0.0 0.0 0.0
7000000.0 0.04767707735300064 -0.0007894914597272873 0.0004298947751522064 -0.001551283523440361 0.0 0.0 0.0 0.0
8000000.0 0.047690942883491516 -0.0015524327754974365 0.0004997542127966881 -0.0018025953322649002 0.0 0.0 0.0 0.0
9000000.0 0.047663331031799316 -0.0017549488693475723 0.0004640324041247368 -0.002071898430585861 0.0 0.0 0.0 0.0
10000000.0 0.047447700053453445 -0.0021974556148052216 0.0004343884065747261 -0.0023368950933218002 0.0 0.0 0.0 0.0
11000000.0 0.047980181872844696 -0.0027679260820150375 0.0003974875435233116 -0.0026469072327017784 0.0 0.0 0.0 0.0
12000000.0 0.04825974255800247 -0.00317543838173151 0.000362577848136425 -0.002875084988772869 0.0 0.0 0.0 0.0
13000000.0 0.04814945161342621 -0.0035516023635864258 0.0003226250410079956 -0.0031569581478834152 0.0 0.0 0.0 0.0
14000000.0 0.04776739701628685 -0.0042088832706213 0.0002790316939353943 -0.0034562991932034492 0.0 0.0 0.0 0.0
15000000.0 0.04749291390180588 -0.004354680888354778 0.00018842332065105438 -0.0037222551181912422 0.0 0.0 0.0 0.0
16000000.0 0.04774431139230728 -0.004551303572952747 0.00013608206063508987 -0.004002616740763187 0.0 0.0 0.0 0.0
17000000.0 0.04815561696887016 -0.004703865386545658 -4.717521369457245e-05 -0.0042381901293993 0.0 0.0 0.0 0.0
18000000.0 0.048441603779792786 -0.005032259039580822 -0.00014558341354131699 -0.004461850970983505 0.0 0.0 0.0 0.0
19000000.0 0.0481448657810688 -0.005143488757312298 -0.0002359151840209961 -0.004784735850989819 0.0 0.0 0.0 0.0
20000000.0 0.048197757452726364 -0.005407928489148617 -0.0003797179087996483 -0.005017374642193317 0.0 0.0 0.0 0.0
21000000.0 0.047383781522512436 -0.006078401580452919 -0.0005483375862240791 -0.005304877646267414 0.0 0.0 0.0 0.0
22000000.0 0.04738159850239754 -0.006354052573442459 -0.0006190398707985878 -0.0055359164252877235 0.0 0.0 0.0 0.0
23000000.0 0.04737086594104767 -0.00729778129607439 -0.0008290251716971397 -0.005776578560471535 0.0 0.0 0.0 0.0
24000000.0 0.04666260629892349 -0.007637511007487774 -0.0010435571894049644 -0.006029769778251648 0.0 0.0 0.0 0.0
25000000.0 0.04622102901339531 -0.008405372500419617 -0.0012138700112700462 -0.006263655610382557 0.0 0.0 0.0 0.0
26000000.0 0.04594867676496506 -0.008469603955745697 -0.0013944311067461967 -0.006503879092633724 0.0 0.0 0.0 0.0
27000000.0 0.04576545208692551 -0.009016293101012707 -0.0016306228935718536 -0.006705473177134991 0.0 0.0 0.0 0.0
28000000.0 0.04439401254057884 -0.009970753453671932 -0.00186071265488863 -0.006935418583452702 0.0 0.0 0.0 0.0
29000000.0 0.044586870819330215 -0.010021848604083061 -0.002110256813466549 -0.007153749465942383 0.0 0.0 0.0 0.0
30000000.0 0.043679378926754 -0.010614902712404728 -0.002326163463294506 -0.007323179394006729 0.0 0.0 0.0 0.0
31000000.0 0.043368589133024216 -0.010908669792115688 -0.0025592204183340073 -0.0075293043628335 0.0 0.0 0.0 0.0
32000000.0 0.0430288091301918 -0.011372477747499943 -0.0028415629640221596 -0.00777079351246357 0.0 0.0 0.0 0.0
33000000.0 0.04257628694176674 -0.011592033319175243 -0.0031369710341095924 -0.007934141904115677 0.0 0.0 0.0 0.0
34000000.0 0.04226318746805191 -0.011833533644676208 -0.003390992060303688 -0.00814070925116539 0.0 0.0 0.0 0.0
35000000.0 0.04168372601270676 -0.012175179086625576 -0.0037169968709349632 -0.008273612707853317 0.0 0.0 0.0 0.0
36000000.0 0.041275087743997574 -0.012313783168792725 -0.004012119956314564 -0.008483782410621643 0.0 0.0 0.0 0.0
37000000.0 0.04065733030438423 -0.01267420407384634 -0.004285423085093498 -0.008604777045547962 0.0 0.0 0.0 0.0
38000000.0 0.04019879177212715 -0.012959707528352737 -0.004603557288646698 -0.008793911896646023 0.0 0.0 0.0 0.0
39000000.0 0.039922233670949936 -0.013047552667558193 -0.004954938776791096 -0.008848775178194046 0.0 0.0 0.0 0.0
40000000.0 0.03927629813551903 -0.013244092464447021 -0.0052561527118086815 -0.008991031907498837 0.0 0.0 0.0 0.0
41000000.0 0.038706306368112564 -0.013391360640525818 -0.005586657673120499 -0.009129769168794155 0.0 0.0 0.0 0.0
42000000.0 0.038216691464185715 -0.013773560523986816 -0.005960231646895409 -0.009246007539331913 0.0 0.0 0.0 0.0
43000000.0 0.037756338715553284 -0.013718592934310436 -0.006278050132095814 -0.009322481229901314 0.0 0.0 0.0 0.0
44000000.0 0.037067145109176636 -0.014157204888761044 -0.006666902452707291 -0.009419922716915607 0.0 0.0 0.0 0.0
45000000.0 0.036455877125263214 -0.014059546403586864 -0.007022099569439888 -0.009457997046411037 0.0 0.0 0.0 0.0
46000000.0 0.03606211394071579 -0.014033298939466476 -0.007392354309558868 -0.009566702879965305 0.0 0.0 0.0 0.0
47000000.0 0.03556540980935097 -0.0141736576333642 -0.007725771516561508 -0.009627217426896095 0.0 0.0 0.0 0.0
48000000.0 0.034833669662475586 -0.014130943454802036 -0.008153819479048252 -0.009610218927264214 0.0 0.0 0.0 0.0
49000000.0 0.034367792308330536 -0.014335863292217255 -0.008481821976602077 -0.009675064124166965 0.0 0.0 0.0 0.0
50000000.0 0.033635590225458145 -0.014217362739145756 -0.008877272717654705 -0.009651338681578636 0.0 0.0 0.0 0.0
51000000.0 0.0330798514187336 -0.014332812279462814 -0.009304446168243885 -0.009681116789579391 0.0 0.0 0.0 0.0
52000000.0 0.03262016922235489 -0.014448117464780807 -0.010445390827953815 -0.009127355180680752 0.0 0.0 0.0 0.0
53000000.0 0.03204754367470741 -0.014041779562830925 -0.0107958959415555 -0.009103733114898205 0.0 0.0 0.0 0.0
54000000.0 0.03146110847592354 -0.014052811078727245 -0.011258766055107117 -0.009047091007232666 0.0 0.0 0.0 0.0
55000000.0 0.030890123918652534 -0.01401953212916851 -0.01159790251404047 -0.009008058346807957 0.0 0.0 0.0 0.0
56000000.0 0.030281225219368935 -0.013774754479527473 -0.01207106001675129 -0.008908049203455448 0.0 0.0 0.0 0.0
57000000.0 0.029567023739218712 -0.013794831931591034 -0.012488539330661297 -0.008814491331577301 0.0 0.0 0.0 0.0
58000000.0 0.02900850400328636 -0.01348197367042303 -0.012876678258180618 -0.008685240522027016 0.0 0.0 0.0 0.0
59000000.0 0.02853245660662651 -0.013301954604685307 -0.013285255990922451 -0.008601466193795204 0.0 0.0 0.0 0.0
60000000.0 0.027792977169156075 -0.013041283935308456 -0.013685253448784351 -0.008463983424007893 0.0 0.0 0.0 0.0
61000000.0 0.027294540777802467 -0.012838154099881649 -0.014134478755295277 -0.008318815380334854 0.0 0.0 0.0 0.0
62000000.0 0.02680090442299843 -0.012695398181676865 -0.014504739083349705 -0.008204172365367413 0.0 0.0 0.0 0.0
63000000.0 0.025986261665821075 -0.01247611828148365 -0.014968887902796268 -0.008040879853069782 0.0 0.0 0.0 0.0
64000000.0 0.025378702208399773 -0.01197848655283451 -0.0153938764706254 -0.007808385416865349 0.0 0.0 0.0 0.0
65000000.0 0.024941664189100266 -0.011694747023284435 -0.015786737203598022 -0.00761240441352129 0.0 0.0 0.0 0.0
66000000.0 0.024308277294039726 -0.01144435629248619 -0.016224827617406845 -0.007419167086482048 0.0 0.0 0.0 0.0
67000000.0 0.023682206869125366 -0.01109262090176344 -0.016600564122200012 -0.007195476442575455 0.0 0.0 0.0 0.0
68000000.0 0.02324170619249344 -0.010816761292517185 -0.01700103096663952 -0.006980489008128643 0.0 0.0 0.0 0.0
69000000.0 0.022833839058876038 -0.010139206424355507 -0.017401771619915962 -0.006714071147143841 0.0 0.0 0.0 0.0
70000000.0 0.022191964089870453 -0.009765995666384697 -0.017763977870345116 -0.006493745371699333 0.0 0.0 0.0 0.0
71000000.0 0.021681778132915497 -0.009319228120148182 -0.01817796193063259 -0.006169067695736885 0.0 0.0 0.0 0.0
72000000.0 0.021090395748615265 -0.008953701704740524 -0.0186179056763649 -0.005909509025514126 0.0 0.0 0.0 0.0
73000000.0 0.02083888091146946 -0.008506234735250473 -0.018904490396380424 -0.005611502565443516 0.0 0.0 0.0 0.0
74000000.0 0.02017991989850998 -0.00811830721795559 -0.01933286339044571 -0.00528644397854805 0.0 0.0 0.0 0.0
75000000.0 0.019936125725507736 -0.007423532195389271 -0.019719576463103294 -0.0049827732145786285 0.0 0.0 0.0 0.0
76000000.0 0.019478552043437958 -0.006901410408318043 -0.020032960921525955 -0.004650968126952648 0.0 0.0 0.0 0.0
77000000.0 0.018711412325501442 -0.006410405971109867 -0.020521318539977074 -0.00421497505158186 0.0 0.0 0.0 0.0
78000000.0 0.018541110679507256 -0.005716199986636639 -0.020739689469337463 -0.003927913494408131 0.0 0.0 0.0 0.0
79000000.0 0.01793472282588482 -0.00519542396068573 -0.021130375564098358 -0.0035397373139858246 0.0 0.0 0.0 0.0
80000000.0 0.01769225299358368 -0.004615576006472111 -0.02145330235362053 -0.00312697421759367 0.0 0.0 0.0 0.0
81000000.0 0.017246486619114876 -0.004100346937775612 -0.02186605893075466 -0.0026943404227495193 0.0 0.0 0.0 0.0
82000000.0 0.016785798594355583 -0.0033727213740348816 -0.022145355120301247 -0.0022828560322523117 0.0 0.0 0.0 0.0
83000000.0 0.016639037057757378 -0.00274003017693758 -0.022515280172228813 -0.001860927790403366 0.0 0.0 0.0 0.0
84000000.0 0.01604430004954338 -0.0019310787320137024 -0.022797344252467155 -0.0014208294451236725 0.0 0.0 0.0 0.0
85000000.0 0.015878917649388313 -0.001180809922516346 -0.023068932816386223 -0.0009740628302097321 0.0 0.0 0.0 0.0
86000000.0 0.0156389269977808 -0.0006698304787278175 -0.02343384549021721 -0.00056502316147089 0.0 0.0 0.0 0.0
87000000.0 0.015126155689358711 0.00023257266730070114 -0.023758888244628906 -8.424278348684311e-05 0.0 0.0 0.0 0.0
88000000.0 0.01521330140531063 0.0009086290374398232 -0.02399660088121891 0.00047660060226917267 0.0 0.0 0.0 0.0
89000000.0 0.014804591424763203 0.0015310421586036682 -0.024235209450125694 0.0008858144283294678 0.0 0.0 0.0 0.0
90000000.0 0.014733594842255116 0.0022181496024131775 -0.024521106854081154 0.0014214804396033287 0.0 0.0 0.0 0.0
91000000.0 0.014515849761664867 0.003063015639781952 -0.0247780904173851 0.0019129421561956406 0.0 0.0 0.0 0.0
92000000.0 0.014083812944591045 0.0038304096087813377 -0.024949759244918823 0.0024506673216819763 0.0 0.0 0.0 0.0
93000000.0 0.014189215376973152 0.004707633517682552 -0.025280557572841644 0.0030345022678375244 0.0 0.0 0.0 0.0
94000000.0 0.01419018767774105 0.005442501045763493 -0.025523388758301735 0.0035482430830597878 0.0 0.0 0.0 0.0
95000000.0 0.013770850375294685 0.006305527873337269 -0.02561328560113907 0.004107378423213959 0.0 0.0 0.0 0.0
96000000.0 0.013855908066034317 0.007148007862269878 -0.025830237194895744 0.004676954820752144 0.0 0.0 0.0 0.0
97000000.0 0.013681446202099323 0.007980309426784515 -0.026048319414258003 0.005301178433001041 0.0 0.0 0.0 0.0
98000000.0 0.01376599632203579 0.008781473152339458 -0.02621898613870144 0.00587853416800499 0.0 0.0 0.0 0.0
99000000.0 0.013678635470569134 0.009728329256176949 -0.026301702484488487 0.006439058110117912 0.0 0.0 0.0 0.0
100000000.0 0.013871238566935062 0.010274592787027359 -0.026640692725777626 0.007185228168964386 0.0 0.0 0.0 0.0
101000000.0 0.013822736218571663 0.011388278566300869 -0.026644157245755196 0.007636135444045067 0.0 0.0 0.0 0.0
102000000.0 0.01389362569898367 0.012174593284726143 -0.02674565091729164 0.00835296232253313 0.0 0.0 0.0 0.0
103000000.0 0.014019777067005634 0.012980028055608273 -0.026816798374056816 0.008937010541558266 0.0 0.0 0.0 0.0
104000000.0 0.014038938097655773 0.013643624261021614 -0.02697969228029251 0.00957651250064373 0.0 0.0 0.0 0.0
105000000.0 0.014314581640064716 0.01460577268153429 -0.02703358605504036 0.010203401558101177 0.0 0.0 0.0 0.0
106000000.0 0.014248404651880264 0.015720309689641 -0.02701421082019806 0.010873310267925262 0.0 0.0 0.0 0.0
107000000.0 0.014684396795928478 0.01650085672736168 -0.027081668376922607 0.011549563147127628 0.0 0.0 0.0 0.0
108000000.0 0.014807210303843021 0.0173485167324543 -0.02705632895231247 0.012204926460981369 0.0 0.0 0.0 0.0
109000000.0 0.015119710005819798 0.017966879531741142 -0.02714548446238041 0.012895513325929642 0.0 0.0 0.0 0.0
110000000.0 0.01543992105871439 0.01903938688337803 -0.027082014828920364 0.01359908189624548 0.0 0.0 0.0 0.0
111000000.0 0.0156872496008873 0.019998513162136078 -0.027158161625266075 0.014333819039165974 0.0 0.0 0.0 0.0
112000000.0 0.01595922000706196 0.020884882658720016 -0.0270401481539011 0.01498385425657034 0.0 0.0 0.0 0.0
113000000.0 0.01655920408666134 0.021447138860821724 -0.027036380022764206 0.015672095119953156 0.0 0.0 0.0 0.0
114000000.0 0.017077144235372543 0.022397560998797417 -0.026946742087602615 0.01630469039082527 0.0 0.0 0.0 0.0
115000000.0 0.01726711541414261 0.023309197276830673 -0.02681940235197544 0.01705928146839142 0.0 0.0 0.0 0.0
116000000.0 0.017986992374062538 0.0240743700414896 -0.026786858215928078 0.017766233533620834 0.0 0.0 0.0 0.0
117000000.0 0.018050482496619225 0.02499181218445301 -0.026582056656479836 0.01844162680208683 0.0 0.0 0.0 0.0
118000000.0 0.018930336460471153 0.025986792519688606 -0.0264911912381649 0.01908136159181595 0.0 0.0 0.0 0.0
119000000.0 0.01910075731575489 0.026678377762436867 -0.026279419660568237 0.019879421219229698 0.0 0.0 0.0 0.0
120000000.0 0.019758544862270355 0.027615880593657494 -0.026109065860509872 0.020583294332027435 0.0 0.0 0.0 0.0
121000000.0 0.020793871954083443 0.028164153918623924 -0.02588898129761219 0.021214883774518967 0.0 0.0 0.0 0.0
122000000.0 0.02102794498205185 0.02895008772611618 -0.02571105770766735 0.022056682035326958 0.0 0.0 0.0 0.0
123000000.0 0.021842051297426224 0.029768871143460274 -0.02550942823290825 0.0226809773594141 0.0 0.0 0.0 0.0
124000000.0 0.022440848872065544 0.03081042878329754 -0.02517641894519329 0.02342875674366951 0.0 0.0 0.0 0.0
125000000.0 0.023053565993905067 0.03137926384806633 -0.02488408051431179 0.024062205106019974 0.0 0.0 0.0 0.0
126000000.0 0.023805296048521996 0.03233655169606209 -0.024591706693172455 0.024858737364411354 0.0 0.0 0.0 0.0
127000000.0 0.024437084794044495 0.032717231661081314 -0.024334052577614784 0.02561630681157112 0.0 0.0 0.0 0.0
128000000.0 0.025249993428587914 0.03374848514795303 -0.023949190974235535 0.026331977918744087 0.0 0.0 0.0 0.0
129000000.0 0.026080260053277016 0.03454536199569702 -0.023684769868850708 0.027005067095160484 0.0 0.0 0.0 0.0
130000000.0 0.027281126007437706 0.03517359495162964 -0.023305604234337807 0.027776343747973442 0.0 0.0 0.0 0.0
131000000.0 0.02793791890144348 0.035649947822093964 -0.02287915162742138 0.028384201228618622 0.0 0.0 0.0 0.0
132000000.0 0.02874068357050419 0.03639658913016319 -0.02238050475716591 0.028942327946424484 0.0 0.0 0.0 0.0
133000000.0 0.029740571975708008 0.037002645432949066 -0.022067926824092865 0.029760034754872322 0.0 0.0 0.0 0.0
134000000.0 0.030531208962202072 0.03745027258992195 -0.021650779992341995 0.030370257794857025 0.0 0.0 0.0 0.0
135000000.0 0.03152117878198624 0.03825646638870239 -0.021098600700497627 0.031110472977161407 0.0 0.0 0.0 0.0
136000000.0 0.03245595097541809 0.03856435418128967 -0.02059212699532509 0.0317387655377388 0.0 0.0 0.0 0.0
137000000.0 0.03361276909708977 0.038991376757621765 -0.020201250910758972 0.03240761533379555 0.0 0.0 0.0 0.0
138000000.0 0.03459910303354263 0.0397229939699173 -0.01963367685675621 0.03308906406164169 0.0 0.0 0.0 0.0
139000000.0 0.03558165952563286 0.04026815667748451 -0.019069842994213104 0.03375406190752983 0.0 0.0 0.0 0.0
140000000.0 0.03650987520813942 0.0408150739967823 -0.018448101356625557 0.03438977524638176 0.0 0.0 0.0 0.0
141000000.0 0.037515364587306976 0.04065067693591118 -0.01696215383708477 0.034575168043375015 0.0 0.0 0.0 0.0
142000000.0 0.03866839408874512 0.0411071814596653 -0.016375135630369186 0.035164520144462585 0.0 0.0 0.0 0.0
143000000.0 0.039662521332502365 0.041400447487831116 -0.01571442186832428 0.03579958155751228 0.0 0.0 0.0 0.0
144000000.0 0.04071240499615669 0.04183164983987808 -0.015148652717471123 0.03628028556704521 0.0 0.0 0.0 0.0
145000000.0 0.04187307506799698 0.04202697426080704 -0.014474366791546345 0.03693217411637306 0.0 0.0 0.0 0.0
146000000.0 0.04284653067588806 0.04211144894361496 -0.01381207350641489 0.03745942562818527 0.0 0.0 0.0 0.0
147000000.0 0.04414134472608566 0.042644716799259186 -0.013167318888008595 0.038027726113796234 0.0 0.0 0.0 0.0
148000000.0 0.04507887363433838 0.04260382801294327 -0.012465211562812328 0.03855695202946663 0.0 0.0 0.0 0.0
149000000.0 0.04669109359383583 0.04299554228782654 -0.011715658940374851 0.039037320762872696 0.0 0.0 0.0 0.0
150000000.0 0.04761645570397377 0.04322824999690056 -0.010974596254527569 0.03951100632548332 0.0 0.0 0.0 0.0
151000000.0 0.04875132814049721 0.04330720379948616 -0.010307756252586842 0.03993896767497063 0.0 0.0 0.0 0.0
152000000.0 0.04991593956947327 0.04343385621905327 -0.009507476352155209 0.040482643991708755 0.0 0.0 0.0 0.0
153000000.0 0.05115733668208122 0.04345614090561867 -0.008739941753447056 0.04089772328734398 0.0 0.0 0.0 0.0
154000000.0 0.05253767594695091 0.043325357139110565 -0.007940080016851425 0.041445232927799225 0.0 0.0 0.0 0.0
155000000.0 0.05368928238749504 0.043219055980443954 -0.007093020714819431 0.04183647781610489 0.0 0.0 0.0 0.0
156000000.0 0.05482824519276619 0.04346896708011627 -0.00632251612842083 0.04225901886820793 0.0 0.0 0.0 0.0
157000000.0 0.05601030960679054 0.04320995509624481 -0.005482387728989124 0.04262690618634224 0.0 0.0 0.0 0.0
158000000.0 0.057425130158662796 0.04379304498434067 -0.0046419017016887665 0.042983632534742355 0.0 0.0 0.0 0.0
159000000.0 0.058671291917562485 0.044093046337366104 -0.0038115521892905235 0.04332651570439339 0.0 0.0 0.0 0.0
160000000.0 0.05986848473548889 0.04355282336473465 -0.002909628674387932 0.04374244809150696 0.0 0.0 0.0 0.0
161000000.0 0.06103358417749405 0.04313918203115463 -0.0020252587273716927 0.04397757351398468 0.0 0.0 0.0 0.0
162000000.0 0.06226414814591408 0.04349818825721741 -0.0011081760749220848 0.044367436319589615 0.0 0.0 0.0 0.0
163000000.0 0.06381300091743469 0.04287489131093025 -0.00022096652537584305 0.04460771009325981 0.0 0.0 0.0 0.0
164000000.0 0.06477333605289459 0.04261171445250511 0.0007285894826054573 0.044911496341228485 0.0 0.0 0.0 0.0
165000000.0 0.0660877376794815 0.04236462339758873 0.0016201091930270195 0.045172326266765594 0.0 0.0 0.0 0.0
166000000.0 0.06718843430280685 0.04204564541578293 0.0025970274582505226 0.045360758900642395 0.0 0.0 0.0 0.0
167000000.0 0.0685248002409935 0.04166707769036293 0.0035413680598139763 0.04556270316243172 0.0 0.0 0.0 0.0
168000000.0 0.06954507529735565 0.041041962802410126 0.00452785287052393 0.04572942107915878 0.0 0.0 0.0 0.0
169000000.0 0.07141049206256866 0.0408143475651741 0.005490795709192753 0.045951247215270996 0.0 0.0 0.0 0.0
170000000.0 0.07254749536514282 0.0403159074485302 0.006472153589129448 0.04608088731765747 0.0 0.0 0.0 0.0
171000000.0 0.07335454970598221 0.03969993442296982 0.007395337335765362 0.04620128124952316 0.0 0.0 0.0 0.0
172000000.0 0.07505873590707779 0.03917127102613449 0.008487696759402752 0.04631352424621582 0.0 0.0 0.0 0.0
173000000.0 0.07610771059989929 0.03858046233654022 0.009525848552584648 0.046399008482694626 0.0 0.0 0.0 0.0
174000000.0 0.07723795622587204 0.037961773574352264 0.010463325306773186 0.04646402224898338 0.0 0.0 0.0 0.0
175000000.0 0.07844508439302444 0.03702438622713089 0.011480276472866535 0.04644983634352684 0.0 0.0 0.0 0.0
176000000.0 0.0797979086637497 0.03647215664386749 0.012502131052315235 0.04651312157511711 0.0 0.0 0.0 0.0
177000000.0 0.08039254695177078 0.03573428839445114 0.013515155762434006 0.04652233421802521 0.0 0.0 0.0 0.0
