!Created with skrf (http://scikit-rf.org).
# Hz S RI R 50.0 
!freq ReS11 ImS11 ReS21 ImS21 ReS12 ImS12 ReS22 ImS22
1000000.0 0.013956944458186626 0.0021606069058179855 -0.9501873850822449 0.017497051507234573 0.0 0.0 0.0 0.0
2000000.0 0.01451258547604084 0.003628118894994259 -0.9513895511627197 0.03458898514509201 0.0 0.0 0.0 0.0
3000000.0 0.0154339037835598 0.004980624653398991 -0.9497672319412231 0.052261870354413986 0.0 0.0 0.0 0.0
4000000.0 0.016422385349869728 0.0063682012259960175 -0.9496558308601379 0.07017800956964493 0.0 0.0 0.0 0.0
5000000.0 0.0169040746986866 0.007139638066291809 -0.9463878273963928 0.08669022470712662 0.0 0.0 0.0 0.0
6000000.0 0.01794229820370674 0.008101044222712517 -0.9468281865119934 0.1011217013001442 0.0 0.0 0.0 0.0
7000000.0 0.018541689962148666 0.008863162249326706 -0.9468086957931519 0.11929547786712646 0.0 0.0 0.0 0.0
8000000.0 0.0191500186920166 0.009497876279056072 -0.9450228810310364 0.13746578991413116 0.0 0.0 0.0 0.0
9000000.0 0.02038341946899891 0.01052931323647499 -0.9430156350135803 0.15483394265174866 0.0 0.0 0.0 0.0
10000000.0 0.02135559730231762 0.011367599479854107 -0.9398864507675171 0.17210082709789276 0.0 0.0 0.0 0.0
11000000.0 0.021627118811011314 0.011575699783861637 -0.9371741414070129 0.18984629213809967 0.0 0.0 0.0 0.0
12000000.0 0.022030530497431755 0.012198296375572681 -0.9334926605224609 0.20703832805156708 0.0 0.0 0.0 0.0
13000000.0 0.02292911894619465 0.012538022361695766 -0.9290919303894043 0.2239355742931366 0.0 0.0 0.0 0.0
14000000.0 0.023693352937698364 0.012998256832361221 -0.9249614477157593 0.2405795305967331 0.0 0.0 0.0 0.0
15000000.0 0.024977751076221466 0.014192997477948666 -0.9206823110580444 0.25834009051322937 0.0 0.0 0.0 0.0
16000000.0 0.02591930888593197 0.01517113670706749 -0.9156934022903442 0.27375108003616333 0.0 0.0 0.0 0.0
17000000.0 0.026330525055527687 0.015719261020421982 -0.910567045211792 0.2907079756259918 0.0 0.0 0.0 0.0
18000000.0 0.027348266914486885 0.01605423353612423 -0.9048230051994324 0.307688444852829 0.0 0.0 0.0 0.0
19000000.0 0.028396325185894966 0.016382655128836632 -0.8997049927711487 0.3243316411972046 0.0 0.0 0.0 0.0
20000000.0 0.028950940817594528 0.016375716775655746 -0.8933151364326477 0.34059274196624756 0.0 0.0 0.0 0.0
21000000.0 0.02936517633497715 0.016222530975937843 -0.8869125247001648 0.35683807730674744 0.0 0.0 0.0 0.0
22000000.0 0.03029848448932171 0.015764078125357628 -0.880281925201416 0.3726762533187866 0.0 0.0 0.0 0.0
23000000.0 0.030783163383603096 0.015567073598504066 -0.8735887408256531 0.388837993144989 0.0 0.0 0.0 0.0
24000000.0 0.03188440203666687 0.015826178714632988 -0.8661102056503296 0.40477144718170166 0.0 0.0 0.0 0.0
25000000.0 0.032411009073257446 0.015392743051052094 -0.8588651418685913 0.4201376736164093 0.0 0.0 0.0 0.0
26000000.0 0.033382680267095566 0.01569453813135624 -0.8511184453964233 0.435150146484375 0.0 0.0 0.0 0.0
27000000.0 0.03407948464155197 0.0153353251516819 -0.842882513999939 0.4508901834487915 0.0 0.0 0.0 0.0
28000000.0 0.03478914499282837 0.015322834253311157 -0.8352454900741577 0.4668515622615814 0.0 0.0 0.0 0.0
29000000.0 0.03563370183110237 0.015150388702750206 -0.8259782195091248 0.48171135783195496 0.0 0.0 0.0 0.0
30000000.0 0.036336500197649 0.0152470413595438 -0.8180345296859741 0.4972839057445526 0.0 0.0 0.0 0.0
31000000.0 0.03731711208820343 0.0150234280154109 -0.8080113530158997 0.5110512971878052 0.0 0.0 0.0 0.0
32000000.0 0.03793290629982948 0.014521662145853043 -0.7986379265785217 0.5247076153755188 0.0 0.0 0.0 0.0
33000000.0 0.0386631116271019 0.014227265492081642 -0.7887154817581177 0.540083110332489 0.0 0.0 0.0 0.0
34000000.0 0.03925108164548874 0.013887331821024418 -0.7789903283119202 0.5537396669387817 0.0 0.0 0.0 0.0
35000000.0 0.039973217993974686 0.013692041859030724 -0.7693980932235718 0.5687108039855957 0.0 0.0 0.0 0.0
36000000.0 0.04050634056329727 0.013231243006885052 -0.758708119392395 0.5812740325927734 0.0 0.0 0.0 0.0
37000000.0 0.041185710579156876 0.012678815983235836 -0.7484662532806396 0.5955098271369934 0.0 0.0 0.0 0.0
38000000.0 0.04151966795325279 0.012340334244072437 -0.7371937036514282 0.6096376776695251 0.0 0.0 0.0 0.0
39000000.0 0.042322177439928055 0.011824208311736584 -0.726235568523407 0.6224625110626221 0.0 0.0 0.0 0.0
40000000.0 0.04274953156709671 0.011288695968687534 -0.7149602770805359 0.6345916986465454 0.0 0.0 0.0 0.0
41000000.0 0.043292075395584106 0.010960622690618038 -0.703008770942688 0.6481234431266785 0.0 0.0 0.0 0.0
42000000.0 0.04376467689871788 0.010297238826751709 -0.6914640069007874 0.6608949899673462 0.0 0.0 0.0 0.0
43000000.0 0.044194646179676056 0.009722692891955376 -0.6796618700027466 0.6728983521461487 0.0 0.0 0.0 0.0
44000000.0 0.04449756443500519 0.009141108021140099 -0.6678812503814697 0.6851755380630493 0.0 0.0 0.0 0.0
45000000.0 0.04489174485206604 0.00850061234086752 -0.6550121903419495 0.6972588300704956 0.0 0.0 0.0 0.0
46000000.0 0.045048750936985016 0.007614269852638245 -0.6419581174850464 0.7088478207588196 0.0 0.0 0.0 0.0
47000000.0 0.04549397900700569 0.007198692299425602 -0.6298482418060303 0.7199105620384216 0.0 0.0 0.0 0.0
48000000.0 0.04572588950395584 0.006577932275831699 -0.6166914105415344 0.7313079833984375 0.0 0.0 0.0 0.0
49000000.0 0.045972343534231186 0.005783881992101669 -0.6033806800842285 0.7426738739013672 0.0 0.0 0.0 0.0
50000000.0 0.04604456201195717 0.00490175187587738 -0.5892996788024902 0.7534065246582031 0.0 0.0 0.0 0.0
51000000.0 0.04620667174458504 0.004266984760761261 -0.5762932300567627 0.7638177275657654 0.0 0.0 0.0 0.0
52000000.0 0.04629908874630928 0.0037327734753489494 -0.5624544620513916 0.7745227217674255 0.0 0.0 0.0 0.0
53000000.0 0.04613424465060234 0.0029933899641036987 -0.5486323237419128 0.7840781807899475 0.0 0.0 0.0 0.0
54000000.0 0.046306826174259186 0.002092731185257435 -0.5341278314590454 0.7939261198043823 0.0 0.0 0.0 0.0
55000000.0 0.046220824122428894 0.0014085033908486366 -0.5201108455657959 0.8037870526313782 0.0 0.0 0.0 0.0
56000000.0 0.0461641401052475 0.0008543320000171661 -0.5056495666503906 0.8131452202796936 0.0 0.0 0.0 0.0
57000000.0 0.045995160937309265 0.0002980707213282585 -0.4913000762462616 0.8225615620613098 0.0 0.0 0.0 0.0
58000000.0 0.04599549621343613 -0.0006715254858136177 -0.4764486849308014 0.8316927552223206 0.0 0.0 0.0 0.0
59000000.0 0.045671697705984116 -0.001299506053328514 -0.46126556396484375 0.8396193385124207 0.0 0.0 0.0 0.0
60000000.0 0.04548444226384163 -0.0019020000472664833 -0.44642916321754456 0.848064124584198 0.0 0.0 0.0 0.0
61000000.0 0.045105744153261185 -0.0025260774418711662 -0.43081435561180115 0.8559965491294861 0.0 0.0 0.0 0.0
62000000.0 0.04468334838747978 -0.0033982200548052788 -0.41585201025009155 0.8645503520965576 0.0 0.0 0.0 0.0
63000000.0 0.044235993176698685 -0.003894370049238205 -0.40046951174736023 0.8710716366767883 0.0 0.0 0.0 0.0
64000000.0 0.04374154284596443 -0.004672376438975334 -0.38398510217666626 0.8788734674453735 0.0 0.0 0.0 0.0
65000000.0 0.043646570295095444 -0.005021275021135807 -0.36841797828674316 0.8862054347991943 0.0 0.0 0.0 0.0
66000000.0 0.042944639921188354 -0.005840546451508999 -0.35268306732177734 0.8926316499710083 0.0 0.0 0.0 0.0
67000000.0 0.04244258999824524 -0.006273474544286728 -0.3361700773239136 0.8994289636611938 0.0 0.0 0.0 0.0
68000000.0 0.041875917464494705 -0.006654087454080582 -0.3207447826862335 0.905178427696228 0.0 0.0 0.0 0.0
69000000.0 0.041404105722904205 -0.0072111934423446655 -0.30448785424232483 0.9110172390937805 0.0 0.0 0.0 0.0
70000000.0 0.04062933102250099 -0.007683294825255871 -0.2879067063331604 0.9162570834159851 0.0 0.0 0.0 0.0
71000000.0 0.04003624618053436 -0.008062989450991154 -0.2716524302959442 0.9215434789657593 0.0 0.0 0.0 0.0
72000000.0 0.0394209623336792 -0.00865180417895317 -0.2548764646053314 0.9279819130897522 0.0 0.0 0.0 0.0
73000000.0 0.038800932466983795 -0.008987659588456154 -0.2382344752550125 0.9326857328414917 0.0 0.0 0.0 0.0
74000000.0 0.037871185690164566 -0.009211278520524502 -0.22161956131458282 0.9369710087776184 0.0 0.0 0.0 0.0
75000000.0 0.03712719306349754 -0.009412812069058418 -0.2043713927268982 0.9407070279121399 0.0 0.0 0.0 0.0
76000000.0 0.03623571619391441 -0.009925413876771927 -0.18822146952152252 0.9436691999435425 0.0 0.0 0.0 0.0
77000000.0 0.035597480833530426 -0.009992271661758423 -0.17069901525974274 0.9486095905303955 0.0 0.0 0.0 0.0
78000000.0 0.03458479419350624 -0.010130896233022213 -0.15422731637954712 0.951317310333252 0.0 0.0 0.0 0.0
79000000.0 0.033949244767427444 -0.010502532124519348 -0.13663753867149353 0.9540950059890747 0.0 0.0 0.0 0.0
80000000.0 0.03327271714806557 -0.010517001152038574 -0.11912602931261063 0.9570252895355225 0.0 0.0 0.0 0.0
81000000.0 0.03217001259326935 -0.01033632643520832 -0.10178029537200928 0.9598739743232727 0.0 0.0 0.0 0.0
82000000.0 0.03133900836110115 -0.01032591424882412 -0.08559373021125793 0.9613229036331177 0.0 0.0 0.0 0.0
83000000.0 0.03034168854355812 -0.010219044052064419 -0.06795895844697952 0.9632427096366882 0.0 0.0 0.0 0.0
84000000.0 0.029467632994055748 -0.010402858257293701 -0.050074368715286255 0.9643896818161011 0.0 0.0 0.0 0.0
85000000.0 0.02834957093000412 -0.010021460242569447 -0.033259134739637375 0.9658288955688477 0.0 0.0 0.0 0.0
86000000.0 0.02736922726035118 -0.010050752200186253 -0.015470551326870918 0.966862142086029 0.0 0.0 0.0 0.0
87000000.0 0.026734331622719765 -0.009463740512728691 0.0019620023667812347 0.9668213725090027 0.0 0.0 0.0 0.0
88000000.0 0.026063131168484688 -0.009246274828910828 0.019521363079547882 0.967654287815094 0.0 0.0 0.0 0.0
89000000.0 0.025126295164227486 -0.008941272273659706 0.03707284480333328 0.9670588374137878 0.0 0.0 0.0 0.0
90000000.0 0.02429278939962387 -0.008471429347991943 0.054207511246204376 0.9674076437950134 0.0 0.0 0.0 0.0
91000000.0 0.023431876674294472 -0.008007247000932693 0.07194682955741882 0.965035617351532 0.0 0.0 0.0 0.0
92000000.0 0.022243021056056023 -0.007501216605305672 0.08934690058231354 0.9650380611419678 0.0 0.0 0.0 0.0
93000000.0 0.021376531571149826 -0.0070630647242069244 0.10653156787157059 0.9638630151748657 0.0 0.0 0.0 0.0
94000000.0 0.02078966610133648 -0.00646614283323288 0.12430328875780106 0.9614099860191345 0.0 0.0 0.0 0.0
95000000.0 0.01978129707276821 -0.0058799078688025475 0.14146986603736877 0.9602503776550293 0.0 0.0 0.0 0.0
96000000.0 0.018801093101501465 -0.005398604087531567 0.15916325151920319 0.9583011865615845 0.0 0.0 0.0 0.0
97000000.0 0.018261896446347237 -0.004391463473439217 0.17683511972427368 0.9551676511764526 0.0 0.0 0.0 0.0
98000000.0 0.017288535833358765 -0.0037957867607474327 0.19357317686080933 0.9521847367286682 0.0 0.0 0.0 0.0
99000000.0 0.016618888825178146 -0.003061959519982338 0.21128115057945251 0.9485406875610352 0.0 0.0 0.0 0.0
100000000.0 0.01600608602166176 -0.002265477553009987 0.23080086708068848 0.9505965113639832 0.0 0.0 0.0 0.0
101000000.0 0.014937011525034904 -0.0010991310700774193 0.24642953276634216 0.9409297704696655 0.0 0.0 0.0 0.0
102000000.0 0.014235840179026127 -0.00042596831917762756 0.2636719048023224 0.9373154044151306 0.0 0.0 0.0 0.0
103000000.0 0.013722996227443218 0.0007889149710536003 0.28075698018074036 0.932597815990448 0.0 0.0 0.0 0.0
104000000.0 0.013215863145887852 0.0015163570642471313 0.29782381653785706 0.9270386695861816 0.0 0.0 0.0 0.0
105000000.0 0.012638935819268227 0.002812555991113186 0.31534266471862793 0.9230013489723206 0.0 0.0 0.0 0.0
106000000.0 0.012164758518338203 0.0037843668833374977 0.3317011892795563 0.9172502160072327 0.0 0.0 0.0 0.0
107000000.0 0.011734194122254848 0.004914397373795509 0.3481394350528717 0.9112731218338013 0.0 0.0 0.0 0.0
108000000.0 0.01132639404386282 0.006326156668365002 0.3661138713359833 0.9062429070472717 0.0 0.0 0.0 0.0
109000000.0 0.010989458300173283 0.007140792906284332 0.382533997297287 0.8994542956352234 0.0 0.0 0.0 0.0
110000000.0 0.01062875334173441 0.008591421879827976 0.3992761969566345 0.8930522203445435 0.0 0.0 0.0 0.0
111000000.0 0.010492740198969841 0.009974769316613674 0.4156670868396759 0.8860158920288086 0.0 0.0 0.0 0.0
112000000.0 0.010258723981678486 0.011142268776893616 0.4309402406215668 0.8783243298530579 0.0 0.0 0.0 0.0
113000000.0 0.010056693106889725 0.012601731345057487 0.44770547747612 0.8704992532730103 0.0 0.0 0.0 0.0
114000000.0 0.009906154125928879 0.014014583081007004 0.46370822191238403 0.8630553483963013 0.0 0.0 0.0 0.0
115000000.0 0.009816622361540794 0.015066027641296387 0.4799140691757202 0.8544586896896362 0.0 0.0 0.0 0.0
116000000.0 0.009983984753489494 0.01667681150138378 0.4967784881591797 0.8464165925979614 0.0 0.0 0.0 0.0
117000000.0 0.009882072918117046 0.018002904951572418 0.5113307237625122 0.8377040028572083 0.0 0.0 0.0 0.0
118000000.0 0.010139614343643188 0.019158631563186646 0.5271618366241455 0.8285293579101562 0.0 0.0 0.0 0.0
119000000.0 0.010065460577607155 0.02083735354244709 0.5422492027282715 0.8193707466125488 0.0 0.0 0.0 0.0
120000000.0 0.010237159207463264 0.02206975594162941 0.5578452348709106 0.8090353012084961 0.0 0.0 0.0 0.0
121000000.0 0.010723976418375969 0.023487452417612076 0.5726038217544556 0.7990300059318542 0.0 0.0 0.0 0.0
122000000.0 0.010925956070423126 0.025182107463479042 0.5881712436676025 0.7891266345977783 0.0 0.0 0.0 0.0
123000000.0 0.011357271112501621 0.02661238983273506 0.6026214361190796 0.778971254825592 0.0 0.0 0.0 0.0
124000000.0 0.012086817063391209 0.027779817581176758 0.617808997631073 0.7670547366142273 0.0 0.0 0.0 0.0
125000000.0 0.012269501574337482 0.02928641065955162 0.6311804056167603 0.7570779919624329 0.0 0.0 0.0 0.0
126000000.0 0.013192540965974331 0.030608713626861572 0.6453829407691956 0.745164692401886 0.0 0.0 0.0 0.0
127000000.0 0.01387268677353859 0.03244498744606972 0.6606232523918152 0.7336341738700867 0.0 0.0 0.0 0.0
128000000.0 0.014577966183423996 0.0336490124464035 0.6738980412483215 0.7215831279754639 0.0 0.0 0.0 0.0
129000000.0 0.0154043547809124 0.03514662757515907 0.6876846551895142 0.7097890973091125 0.0 0.0 0.0 0.0
130000000.0 0.016346657648682594 0.03637194633483887 0.7022036910057068 0.6983609795570374 0.0 0.0 0.0 0.0
131000000.0 0.017005590721964836 0.037845224142074585 0.7138148546218872 0.6840425133705139 0.0 0.0 0.0 0.0
132000000.0 0.01807331293821335 0.03913014009594917 0.7271830439567566 0.6713724136352539 0.0 0.0 0.0 0.0
133000000.0 0.018860861659049988 0.04062890261411667 0.7386685013771057 0.6584309339523315 0.0 0.0 0.0 0.0
134000000.0 0.020263519138097763 0.04157007113099098 0.7513124346733093 0.6455599069595337 0.0 0.0 0.0 0.0
135000000.0 0.021293656900525093 0.043062254786491394 0.7649454474449158 0.6311290264129639 0.0 0.0 0.0 0.0
136000000.0 0.022448545321822166 0.04454871639609337 0.7759822607040405 0.617347240447998 0.0 0.0 0.0 0.0
137000000.0 0.023732053115963936 0.045264001935720444 0.7876866459846497 0.6038184762001038 0.0 0.0 0.0 0.0
138000000.0 0.025093644857406616 0.046604596078395844 0.7992467880249023 0.5886067152023315 0.0 0.0 0.0 0.0
139000000.0 0.0263066329061985 0.04777495563030243 0.8110815286636353 0.5742200016975403 0.0 0.0 0.0 0.0
140000000.0 0.02787845768034458 0.048833217471838 0.8216275572776794 0.5597653388977051 0.0 0.0 0.0 0.0
141000000.0 0.029641488566994667 0.04928740859031677 0.8208667039871216 0.517373263835907 0.0 0.0 0.0 0.0
142000000.0 0.030946331098675728 0.05051827058196068 0.8311208486557007 0.5014299750328064 0.0 0.0 0.0 0.0
143000000.0 0.03239242732524872 0.05123984068632126 0.8412109613418579 0.4864695072174072 0.0 0.0 0.0 0.0
144000000.0 0.03419297933578491 0.05217498540878296 0.8497053384780884 0.4717892110347748 0.0 0.0 0.0 0.0
145000000.0 0.03586720675230026 0.05287764593958855 0.8590120673179626 0.45551368594169617 0.0 0.0 0.0 0.0
146000000.0 0.03747916966676712 0.05341789126396179 0.8676440715789795 0.43921783566474915 0.0 0.0 0.0 0.0
147000000.0 0.038959331810474396 0.054091375321149826 0.8764170408248901 0.4237557351589203 0.0 0.0 0.0 0.0
148000000.0 0.040862902998924255 0.05476417392492294 0.884809672832489 0.40721970796585083 0.0 0.0 0.0 0.0
149000000.0 0.042837753891944885 0.055396392941474915 0.8915850520133972 0.3911837339401245 0.0 0.0 0.0 0.0
150000000.0 0.04480485990643501 0.05618352070450783 0.8991415500640869 0.3750706911087036 0.0 0.0 0.0 0.0
151000000.0 0.046532195061445236 0.0561634860932827 0.906164824962616 0.35907840728759766 0.0 0.0 0.0 0.0
152000000.0 0.048344437032938004 0.056512150913476944 0.9129092693328857 0.3417070508003235 0.0 0.0 0.0 0.0
153000000.0 0.050245922058820724 0.05755215138196945 0.9187874794006348 0.32503294944763184 0.0 0.0 0.0 0.0
154000000.0 0.052102141082286835 0.05762844905257225 0.9255338907241821 0.3074449300765991 0.0 0.0 0.0 0.0
155000000.0 0.05434568598866463 0.057652413845062256 0.9325201511383057 0.2909890115261078 0.0 0.0 0.0 0.0
156000000.0 0.05629422515630722 0.05817230045795441 0.9376053810119629 0.2733338177204132 0.0 0.0 0.0 0.0
157000000.0 0.0581783652305603 0.05849497392773628 0.9421516060829163 0.25563645362854004 0.0 0.0 0.0 0.0
158000000.0 0.060205135494470596 0.05817921459674835 0.9479190111160278 0.23823601007461548 0.0 0.0 0.0 0.0
159000000.0 0.06221739947795868 0.058040738105773926 0.9526832103729248 0.22141572833061218 0.0 0.0 0.0 0.0
160000000.0 0.06426147371530533 0.05823948234319687 0.9565068483352661 0.20280472934246063 0.0 0.0 0.0 0.0
161000000.0 0.06631452590227127 0.057458341121673584 0.9607536196708679 0.18576936423778534 0.0 0.0 0.0 0.0
162000000.0 0.06839703768491745 0.05715155974030495 0.9638969898223877 0.16816446185112 0.0 0.0 0.0 0.0
163000000.0 0.07026509940624237 0.057076193392276764 0.9671657681465149 0.14969870448112488 0.0 0.0 0.0 0.0
164000000.0 0.07247913628816605 0.056502874940633774 0.9699596762657166 0.13238929212093353 0.0 0.0 0.0 0.0
165000000.0 0.07464736700057983 0.05584836006164551 0.9719887375831604 0.11389055103063583 0.0 0.0 0.0 0.0
166000000.0 0.07640183717012405 0.05515672266483307 0.9754958152770996 0.09631585329771042 0.0 0.0 0.0 0.0
167000000.0 0.07849084585905075 0.05423033609986305 0.9771440029144287 0.07738587260246277 0.0 0.0 0.0 0.0
168000000.0 0.0803278312087059 0.053646840155124664 0.9783980250358582 0.05940195173025131 0.0 0.0 0.0 0.0
169000000.0 0.0821748822927475 0.052262984216213226 0.9800392389297485 0.04059753566980362 0.0 0.0 0.0 0.0
170000000.0 0.08442367613315582 0.05142676457762718 0.9805066585540771 0.023559587076306343 0.0 0.0 0.0 0.0
171000000.0 0.08622264117002487 0.050480056554079056 0.9813112020492554 0.004986140877008438 0.0 0.0 0.0 0.0
172000000.0 0.08800730854272842 0.0496477410197258 0.9818006753921509 -0.014211002737283707 0.0 0.0 0.0 0.0
173000000.0 0.09007435292005539 0.048214156180620193 0.9820493459701538 -0.031807854771614075 0.0 0.0 0.0 0.0
174000000.0 0.09197641909122467 0.046980246901512146 0.9813689589500427 -0.049685653299093246 0.0 0.0 0.0 0.0
175000000.0 0.09352954477071762 0.04592452943325043 0.9804539680480957 -0.06841602921485901 0.0 0.0 0.0 0.0
176000000.0 0.09496258199214935 0.044509999454021454 0.9794909954071045 -0.08671852201223373 0.0 0.0 0.0 0.0
177000000.0 0.09720396250486374 0.042670220136642456 0.9782717823982239 -0.10550196468830109 0.0 0.0 0.0 0.0
178000000.0 0.0983954593539238 0.04113081470131874 0.9769558906555176 -0.1225367859005928 0.0 0.0 0.0 0.0
179000000.0 0.10042944550514221 0.03954851254820824 0.9738835096359253 -0.14251573383808136 0.0 0.0 0.0 0.0
180000000.0 0.10163220763206482 0.03797159343957901 0.9722843766212463 -0.16039617359638214 0.0 0.0 0.0 0.0
181000000.0 0.10308003425598145 0.036075521260499954 0.9694429636001587 -0.17863252758979797 0.0 0.0 0.0 0.0
182000000.0 0.10422791540622711 0.03439907357096672 0.9664962887763977 -0.1962113231420517 0.0 0.0 0.0 0.0
183000000.0 0.10575385391712189 0.03263196721673012 0.9630063772201538 -0.2144029438495636 0.0 0.0 0.0 0.0
184000000.0 0.10716143250465393 0.031398288905620575 0.9585034847259521 -0.23240798711776733 0.0 0.0 0.0 0.0
