!Created with skrf (http://scikit-rf.org).
# Hz S RI R 50.0 
!freq ReS11 ImS11 ReS21 ImS21 ReS12 ImS12 ReS22 ImS22
1000000.0 0.05402209237217903 6.371643394231796e-05 -1.1288560926914215e-05 -0.0013140980154275894 0.0 0.0 0.0 0.0
2000000.0 0.054510001093149185 -7.302779704332352e-05 9.834114462137222e-05 -0.002518340013921261 0.0 0.0 0.0 0.0
3000000.0 0.05482775717973709 -0.0005510849878191948 0.00016735121607780457 -0.0036649322137236595 0.0 0.0 0.0 0.0
4000000.0 0.055348366498947144 -0.0009666187688708305 4.9593858420848846e-05 -0.004804715514183044 0.0 0.0 0.0 0.0
5000000.0 0.05481666699051857 -0.0013242978602647781 8.166767656803131e-06 -0.005934740416705608 0.0 0.0 0.0 0.0
6000000.0 0.054948966950178146 -0.001960897818207741 -0.00017246510833501816 -0.007062632590532303 0.0 0.0 0.0 0.0
7000000.0 0.05589909479022026 -0.0027120597660541534 -0.00024440139532089233 -0.008212610147893429 0.0 0.0 0.0 0.0
8000000.0 0.05585087463259697 -0.0033213207498192787 -0.0003964230418205261 -0.009394852444529533 0.0 0.0 0.0 0.0
9000000.0 0.05560101568698883 -0.003743709996342659 -0.0006889309734106064 -0.01046459935605526 0.0 0.0 0.0 0.0
10000000.0 0.05532941222190857 -0.00440540537238121 -0.0009552640840411186 -0.011569290421903133 0.0 0.0 0.0 0.0
11000000.0 0.05558672174811363 -0.005203072912991047 -0.0012102536857128143 -0.012705882079899311 0.0 0.0 0.0 0.0
12000000.0 0.0560176707804203 -0.005987221375107765 -0.0025540385395288467 -0.013833759352564812 0.0 0.0 0.0 0.0
13000000.0 0.05576044321060181 -0.006711018271744251 -0.0030293501913547516 -0.014838485047221184 0.0 0.0 0.0 0.0
14000000.0 0.05530340597033501 -0.007014581002295017 -0.003494059666991234 -0.01589141972362995 0.0 0.0 0.0 0.0
15000000.0 0.055202361196279526 -0.007382087409496307 -0.004009954631328583 -0.01697336882352829 0.0 0.0 0.0 0.0
16000000.0 0.05550089478492737 -0.007646010257303715 -0.004615207202732563 -0.01795107312500477 0.0 0.0 0.0 0.0
17000000.0 0.05524139851331711 -0.007954185828566551 -0.0052011506631970406 -0.018949972465634346 0.0 0.0 0.0 0.0
18000000.0 0.05555851384997368 -0.0092313839122653 -0.005962434224784374 -0.019973086193203926 0.0 0.0 0.0 0.0
19000000.0 0.05501744523644447 -0.0094782505184412 -0.006639731116592884 -0.020988166332244873 0.0 0.0 0.0 0.0
20000000.0 0.05518310144543648 -0.010379384271800518 -0.0073276665061712265 -0.021859830245375633 0.0 0.0 0.0 0.0
21000000.0 0.05455572158098221 -0.010640214197337627 -0.008102012798190117 -0.02279796451330185 0.0 0.0 0.0 0.0
22000000.0 0.054443806409835815 -0.011428412050008774 -0.008876834064722061 -0.023677408695220947 0.0 0.0 0.0 0.0
23000000.0 0.053646400570869446 -0.011958770453929901 -0.009769829921424389 -0.02451767399907112 0.0 0.0 0.0 0.0
24000000.0 0.05338387191295624 -0.012752397917211056 -0.010611609555780888 -0.025437213480472565 0.0 0.0 0.0 0.0
25000000.0 0.05317264050245285 -0.013133112341165543 -0.011503093875944614 -0.02625083178281784 0.0 0.0 0.0 0.0
26000000.0 0.0523814857006073 -0.013787313364446163 -0.012395435012876987 -0.027070701122283936 0.0 0.0 0.0 0.0
27000000.0 0.051789335906505585 -0.014219081960618496 -0.013359845615923405 -0.027827568352222443 0.0 0.0 0.0 0.0
28000000.0 0.05101652815937996 -0.015164528973400593 -0.014340391382575035 -0.028600644320249557 0.0 0.0 0.0 0.0
29000000.0 0.05079649016261101 -0.015790460631251335 -0.01543088536709547 -0.029307294636964798 0.0 0.0 0.0 0.0
30000000.0 0.0493609756231308 -0.016621144488453865 -0.01643112674355507 -0.02999461442232132 0.0 0.0 0.0 0.0
31000000.0 0.049485839903354645 -0.016791680827736855 -0.01761188544332981 -0.030743233859539032 0.0 0.0 0.0 0.0
32000000.0 0.0488978810608387 -0.01729358360171318 -0.01872931234538555 -0.03139227256178856 0.0 0.0 0.0 0.0
33000000.0 0.04789692535996437 -0.017754822969436646 -0.01981087401509285 -0.03195717930793762 0.0 0.0 0.0 0.0
34000000.0 0.04730495810508728 -0.018477817997336388 -0.021070901304483414 -0.03250684216618538 0.0 0.0 0.0 0.0
35000000.0 0.04654614254832268 -0.018738601356744766 -0.022224998101592064 -0.032991886138916016 0.0 0.0 0.0 0.0
36000000.0 0.04608255252242088 -0.019270198419690132 -0.023457419127225876 -0.03353964909911156 0.0 0.0 0.0 0.0
37000000.0 0.045328252017498016 -0.019443823024630547 -0.024649709463119507 -0.03399888053536415 0.0 0.0 0.0 0.0
38000000.0 0.044479817152023315 -0.019956190139055252 -0.025901423767209053 -0.03438103571534157 0.0 0.0 0.0 0.0
39000000.0 0.04404851421713829 -0.020339103415608406 -0.027289563789963722 -0.03481238707900047 0.0 0.0 0.0 0.0
40000000.0 0.043268755078315735 -0.02081133797764778 -0.02863476611673832 -0.03511451184749603 0.0 0.0 0.0 0.0
41000000.0 0.042646218091249466 -0.021181313320994377 -0.030024081468582153 -0.03546295687556267 0.0 0.0 0.0 0.0
42000000.0 0.04184969514608383 -0.021570241078734398 -0.03132904693484306 -0.03576848283410072 0.0 0.0 0.0 0.0
43000000.0 0.04104458540678024 -0.021623577922582626 -0.032626084983348846 -0.035978954285383224 0.0 0.0 0.0 0.0
44000000.0 0.04016181826591492 -0.02173537015914917 -0.034117769449949265 -0.03615344315767288 0.0 0.0 0.0 0.0
45000000.0 0.039559438824653625 -0.022133400663733482 -0.03543472662568092 -0.036350399255752563 0.0 0.0 0.0 0.0
46000000.0 0.038892246782779694 -0.022070201113820076 -0.03691873326897621 -0.03652145713567734 0.0 0.0 0.0 0.0
47000000.0 0.038256946951150894 -0.02209612913429737 -0.038384050130844116 -0.036607541143894196 0.0 0.0 0.0 0.0
48000000.0 0.03724570944905281 -0.022075604647397995 -0.039872050285339355 -0.03658566623926163 0.0 0.0 0.0 0.0
49000000.0 0.03662790730595589 -0.02243982069194317 -0.042978156358003616 -0.03557611629366875 0.0 0.0 0.0 0.0
50000000.0 0.0357719324529171 -0.02227202244102955 -0.044474389404058456 -0.03550955280661583 0.0 0.0 0.0 0.0
51000000.0 0.03481856733560562 -0.022500324994325638 -0.0460393913090229 -0.035284027457237244 0.0 0.0 0.0 0.0
52000000.0 0.03415200114250183 -0.02263409085571766 -0.0476827546954155 -0.03519991785287857 0.0 0.0 0.0 0.0
53000000.0 0.03341764956712723 -0.022411396726965904 -0.049118783324956894 -0.03501880541443825 0.0 0.0 0.0 0.0
54000000.0 0.03248831257224083 -0.022476939484477043 -0.050587184727191925 -0.03468721732497215 0.0 0.0 0.0 0.0
55000000.0 0.03179377317428589 -0.022533833980560303 -0.05220799893140793 -0.034475177526474 0.0 0.0 0.0 0.0
56000000.0 0.03092692606151104 -0.022154314443469048 -0.05379888042807579 -0.034216221421957016 0.0 0.0 0.0 0.0
57000000.0 0.030170811340212822 -0.022253528237342834 -0.05534764379262924 -0.033682920038700104 0.0 0.0 0.0 0.0
58000000.0 0.02919984981417656 -0.021990250796079636 -0.056808751076459885 -0.033292707055807114 0.0 0.0 0.0 0.0
59000000.0 0.028403127565979958 -0.02169191837310791 -0.058429330587387085 -0.03283827751874924 0.0 0.0 0.0 0.0
60000000.0 0.027489272877573967 -0.021570902317762375 -0.06000146642327309 -0.03215663507580757 0.0 0.0 0.0 0.0
61000000.0 0.026868946850299835 -0.021416308358311653 -0.06172766163945198 -0.031614433974027634 0.0 0.0 0.0 0.0
62000000.0 0.025975169613957405 -0.02116995118558407 -0.06320159137248993 -0.03104292042553425 0.0 0.0 0.0 0.0
63000000.0 0.025289317592978477 -0.02079707570374012 -0.06468956917524338 -0.030382560566067696 0.0 0.0 0.0 0.0
64000000.0 0.024451564997434616 -0.020704010501503944 -0.06630899012088776 -0.02974175661802292 0.0 0.0 0.0 0.0
65000000.0 0.023597436025738716 -0.020015692338347435 -0.06777315586805344 -0.02890237420797348 0.0 0.0 0.0 0.0
66000000.0 0.02286800555884838 -0.019858550280332565 -0.06940262019634247 -0.028080863878130913 0.0 0.0 0.0 0.0
67000000.0 0.02190721593797207 -0.01932971365749836 -0.07096514850854874 -0.02718467265367508 0.0 0.0 0.0 0.0
68000000.0 0.02136949449777603 -0.018933402374386787 -0.07254815101623535 -0.026303283870220184 0.0 0.0 0.0 0.0
69000000.0 0.020596543326973915 -0.018605174496769905 -0.07399565726518631 -0.025390325114130974 0.0 0.0 0.0 0.0
70000000.0 0.019625725224614143 -0.018299339339137077 -0.07548225671052933 -0.024285845458507538 0.0 0.0 0.0 0.0
71000000.0 0.018976936116814613 -0.017640236765146255 -0.07701899111270905 -0.023277802392840385 0.0 0.0 0.0 0.0
72000000.0 0.018395058810710907 -0.016978072002530098 -0.07856255769729614 -0.022267265245318413 0.0 0.0 0.0 0.0
73000000.0 0.017674680799245834 -0.016774266958236694 -0.07993695884943008 -0.0211663618683815 0.0 0.0 0.0 0.0
74000000.0 0.016804633662104607 -0.015954511240124702 -0.08142213523387909 -0.020060794427990913 0.0 0.0 0.0 0.0
75000000.0 0.016395512968301773 -0.01530336681753397 -0.08282159268856049 -0.01879218965768814 0.0 0.0 0.0 0.0
76000000.0 0.015731193125247955 -0.014677586033940315 -0.08439835906028748 -0.017543131485581398 0.0 0.0 0.0 0.0
77000000.0 0.015152093023061752 -0.01429255586117506 -0.0856778621673584 -0.016153309494256973 0.0 0.0 0.0 0.0
78000000.0 0.014378153719007969 -0.01349322497844696 -0.08704783022403717 -0.014907823875546455 0.0 0.0 0.0 0.0
79000000.0 0.013686840422451496 -0.012717340141534805 -0.08834730088710785 -0.01348834577947855 0.0 0.0 0.0 0.0
80000000.0 0.013010558672249317 -0.012085845693945885 -0.08977973461151123 -0.012018593959510326 0.0 0.0 0.0 0.0
81000000.0 0.012749899178743362 -0.011368161998689175 -0.09099172055721283 -0.01046766061335802 0.0 0.0 0.0 0.0
82000000.0 0.012136812321841717 -0.010754426941275597 -0.09233442693948746 -0.008963312022387981 0.0 0.0 0.0 0.0
83000000.0 0.01151703018695116 -0.009869780391454697 -0.09375792741775513 -0.007379816845059395 0.0 0.0 0.0 0.0
84000000.0 0.011091536842286587 -0.009070996195077896 -0.09506601840257645 -0.005722752772271633 0.0 0.0 0.0 0.0
85000000.0 0.010598503984510899 -0.008306366391479969 -0.09620756655931473 -0.004110783338546753 0.0 0.0 0.0 0.0
86000000.0 0.010087531059980392 -0.007833006791770458 -0.09749378263950348 -0.0023010047152638435 0.0 0.0 0.0 0.0
87000000.0 0.00964505597949028 -0.007029767148196697 -0.09861680120229721 -0.0004828423261642456 0.0 0.0 0.0 0.0
88000000.0 0.009324777871370316 -0.005778721533715725 -0.09968389570713043 0.001100282184779644 0.0 0.0 0.0 0.0
89000000.0 0.008970893919467926 -0.00521294679492712 -0.10086152702569962 0.00306084007024765 0.0 0.0 0.0 0.0
90000000.0 0.008717232383787632 -0.004224314354360104 -0.10183411091566086 0.004838054068386555 0.0 0.0 0.0 0.0
91000000.0 0.008303770795464516 -0.0035140300169587135 -0.10302723199129105 0.006739853881299496 0.0 0.0 0.0 0.0
92000000.0 0.008005177602171898 -0.0022677481174468994 -0.10404081642627716 0.008743098936975002 0.0 0.0 0.0 0.0
93000000.0 0.007705997675657272 -0.0010624155402183533 -0.10473088175058365 0.010633409023284912 0.0 0.0 0.0 0.0
94000000.0 0.007169380784034729 -0.0004609581083059311 -0.10590823739767075 0.012824737466871738 0.0 0.0 0.0 0.0
95000000.0 0.0072984518483281136 0.0006805649027228355 -0.10673797875642776 0.01480281725525856 0.0 0.0 0.0 0.0
96000000.0 0.006879985332489014 0.0018539922311902046 -0.10750474780797958 0.017005380243062973 0.0 0.0 0.0 0.0
97000000.0 0.006539980880916119 0.0024943798780441284 -0.10838086158037186 0.01912887953221798 0.0 0.0 0.0 0.0
98000000.0 0.00649014487862587 0.003654373809695244 -0.10906753689050674 0.021141041070222855 0.0 0.0 0.0 0.0
99000000.0 0.0063444385305047035 0.004775521345436573 -0.1098390519618988 0.023623744025826454 0.0 0.0 0.0 0.0
100000000.0 0.006568812765181065 0.005637200549244881 -0.1112203598022461 0.025873446837067604 0.0 0.0 0.0 0.0
101000000.0 0.006423696875572205 0.0064347172155976295 -0.11117000132799149 0.028058236464858055 0.0 0.0 0.0 0.0
102000000.0 0.006271268241107464 0.007442038506269455 -0.11175791919231415 0.030177323147654533 0.0 0.0 0.0 0.0
103000000.0 0.0061224065721035 0.0088926637545228 -0.11221098154783249 0.032618049532175064 0.0 0.0 0.0 0.0
104000000.0 0.006158788688480854 0.009739572182297707 -0.11285664141178131 0.03496065363287926 0.0 0.0 0.0 0.0
105000000.0 0.006190421991050243 0.01095917634665966 -0.11325565725564957 0.03724084794521332 0.0 0.0 0.0 0.0
106000000.0 0.006456922739744186 0.011710172519087791 -0.11384093016386032 0.03984428942203522 0.0 0.0 0.0 0.0
107000000.0 0.006343291141092777 0.01276289764791727 -0.11413837969303131 0.04241553694009781 0.0 0.0 0.0 0.0
108000000.0 0.006734532304108143 0.01388648059219122 -0.11442622542381287 0.045065417885780334 0.0 0.0 0.0 0.0
109000000.0 0.006414417177438736 0.015154949389398098 -0.11458743363618851 0.047467511147260666 0.0 0.0 0.0 0.0
110000000.0 0.00699178222566843 0.016021113842725754 -0.11484383791685104 0.049873385578393936 0.0 0.0 0.0 0.0
111000000.0 0.007203947752714157 0.017122015357017517 -0.11511559784412384 0.05248301103711128 0.0 0.0 0.0 0.0
112000000.0 0.007286177948117256 0.018269261345267296 -0.11488287895917892 0.05505955219268799 0.0 0.0 0.0 0.0
113000000.0 0.007843999192118645 0.019266635179519653 -0.11502508074045181 0.057738885283470154 0.0 0.0 0.0 0.0
114000000.0 0.008068684488534927 0.020349891856312752 -0.11499276012182236 0.060131751000881195 0.0 0.0 0.0 0.0
115000000.0 0.00814557634294033 0.021488208323717117 -0.11487691849470139 0.06309724599123001 0.0 0.0 0.0 0.0
116000000.0 0.008756671100854874 0.02242003008723259 -0.1147269532084465 0.06556857377290726 0.0 0.0 0.0 0.0
117000000.0 0.009349274449050426 0.02357400581240654 -0.11473900824785233 0.06826446950435638 0.0 0.0 0.0 0.0
118000000.0 0.009613553062081337 0.02456778846681118 -0.1142958551645279 0.07118909060955048 0.0 0.0 0.0 0.0
119000000.0 0.010236543603241444 0.025280063971877098 -0.11415789276361465 0.07390054315328598 0.0 0.0 0.0 0.0
120000000.0 0.01085223350673914 0.02640192024409771 -0.1136912927031517 0.07672972232103348 0.0 0.0 0.0 0.0
121000000.0 0.0109803956001997 0.02763441950082779 -0.11324350535869598 0.07928799092769623 0.0 0.0 0.0 0.0
122000000.0 0.01201317086815834 0.028578881174325943 -0.11269882321357727 0.08217567205429077 0.0 0.0 0.0 0.0
123000000.0 0.012587416917085648 0.029455970972776413 -0.11215497553348541 0.084786057472229 0.0 0.0 0.0 0.0
124000000.0 0.013116910122334957 0.030610347166657448 -0.11135457456111908 0.08771532773971558 0.0 0.0 0.0 0.0
125000000.0 0.014137581922113895 0.0313245952129364 -0.11086378991603851 0.09045378863811493 0.0 0.0 0.0 0.0
126000000.0 0.014704504050314426 0.03219844773411751 -0.11007210612297058 0.09326020628213882 0.0 0.0 0.0 0.0
127000000.0 0.015028425492346287 0.03362327814102173 -0.10903716087341309 0.09619254618883133 0.0 0.0 0.0 0.0
128000000.0 0.01624430902302265 0.034291379153728485 -0.10829845070838928 0.09881076216697693 0.0 0.0 0.0 0.0
129000000.0 0.016946805641055107 0.03532341122627258 -0.1071966141462326 0.10166208446025848 0.0 0.0 0.0 0.0
130000000.0 0.017986273393034935 0.03618675097823143 -0.10626433789730072 0.10472555458545685 0.0 0.0 0.0 0.0
131000000.0 0.01879105716943741 0.036652613431215286 -0.10522409528493881 0.10716649144887924 0.0 0.0 0.0 0.0
132000000.0 0.019501861184835434 0.037455495446920395 -0.1039658635854721 0.11009005457162857 0.0 0.0 0.0 0.0
133000000.0 0.020454850047826767 0.038651060312986374 -0.1026889830827713 0.11288980394601822 0.0 0.0 0.0 0.0
134000000.0 0.021116016432642937 0.03943902626633644 -0.10136784613132477 0.11576271057128906 0.0 0.0 0.0 0.0
135000000.0 0.02247244492173195 0.04022108018398285 -0.10009856522083282 0.11837602406740189 0.0 0.0 0.0 0.0
136000000.0 0.023236427456140518 0.04070770740509033 -0.09867522865533829 0.12120528519153595 0.0 0.0 0.0 0.0
137000000.0 0.02461921237409115 0.04160573333501816 -0.09708095341920853 0.12395255267620087 0.0 0.0 0.0 0.0
138000000.0 0.025606591254472733 0.042542438954114914 -0.09545443207025528 0.12677165865898132 0.0 0.0 0.0 0.0
139000000.0 0.026402397081255913 0.043086469173431396 -0.09384655207395554 0.1295607089996338 0.0 0.0 0.0 0.0
140000000.0 0.027310088276863098 0.0436897836625576 -0.09223880618810654 0.13227249681949615 0.0 0.0 0.0 0.0
141000000.0 0.028889518231153488 0.044230956584215164 -0.08234065771102905 0.13799676299095154 0.0 0.0 0.0 0.0
142000000.0 0.03000376746058464 0.04460921138525009 -0.08048515021800995 0.14075252413749695 0.0 0.0 0.0 0.0
143000000.0 0.030967215076088905 0.04538298025727272 -0.07847858965396881 0.14326533675193787 0.0 0.0 0.0 0.0
144000000.0 0.03238905221223831 0.0458621047437191 -0.07628500461578369 0.14579445123672485 0.0 0.0 0.0 0.0
145000000.0 0.03361709788441658 0.04608551785349846 -0.07430804520845413 0.14824585616588593 0.0 0.0 0.0 0.0
146000000.0 0.03467600792646408 0.04692094773054123 -0.07198740541934967 0.1506900042295456 0.0 0.0 0.0 0.0
147000000.0 0.035958532243967056 0.0469699427485466 -0.06958159804344177 0.15304601192474365 0.0 0.0 0.0 0.0
148000000.0 0.037196021527051926 0.04748058691620827 -0.06721247732639313 0.15553544461727142 0.0 0.0 0.0 0.0
149000000.0 0.03836686164140701 0.04791354387998581 -0.06471675634384155 0.157404825091362 0.0 0.0 0.0 0.0
150000000.0 0.03943457081913948 0.04821710288524628 -0.0622774139046669 0.15988564491271973 0.0 0.0 0.0 0.0
151000000.0 0.04070401191711426 0.04858716204762459 -0.05963822826743126 0.1621278077363968 0.0 0.0 0.0 0.0
152000000.0 0.04223138839006424 0.04870874062180519 -0.05695433169603348 0.16432061791419983 0.0 0.0 0.0 0.0
153000000.0 0.04349185898900032 0.04900633543729782 -0.05440894886851311 0.16653677821159363 0.0 0.0 0.0 0.0
154000000.0 0.044908661395311356 0.04909897223114967 -0.051482439041137695 0.16877354681491852 0.0 0.0 0.0 0.0
155000000.0 0.046129290014505386 0.04961418733000755 -0.04887291043996811 0.17039339244365692 0.0 0.0 0.0 0.0
156000000.0 0.0476502999663353 0.0500970296561718 -0.04597662016749382 0.17257535457611084 0.0 0.0 0.0 0.0
157000000.0 0.048891372978687286 0.04947754740715027 -0.04277972877025604 0.17465226352214813 0.0 0.0 0.0 0.0
158000000.0 0.05033881217241287 0.05016474053263664 -0.03994244337081909 0.17648981511592865 0.0 0.0 0.0 0.0
159000000.0 0.051527176052331924 0.05013745650649071 -0.037001971155405045 0.17853666841983795 0.0 0.0 0.0 0.0
160000000.0 0.052978161722421646 0.05030583590269089 -0.03358638659119606 0.18015006184577942 0.0 0.0 0.0 0.0
161000000.0 0.054234590381383896 0.05022529512643814 -0.03047420084476471 0.18202392756938934 0.0 0.0 0.0 0.0
162000000.0 0.0556192472577095 0.05034853145480156 -0.027340464293956757 0.18371346592903137 0.0 0.0 0.0 0.0
163000000.0 0.05716097354888916 0.0504007488489151 -0.023976415395736694 0.18539538979530334 0.0 0.0 0.0 0.0
164000000.0 0.05845475196838379 0.05018937215209007 -0.020580435171723366 0.18722447752952576 0.0 0.0 0.0 0.0
165000000.0 0.05991465970873833 0.049910347908735275 -0.017274897545576096 0.18855905532836914 0.0 0.0 0.0 0.0
166000000.0 0.06142871826887131 0.04987546429038048 -0.013807044364511967 0.1899905949831009 0.0 0.0 0.0 0.0
167000000.0 0.06268208473920822 0.049238529056310654 -0.010082007385790348 0.19144894182682037 0.0 0.0 0.0 0.0
168000000.0 0.06433219462633133 0.04930861294269562 -0.006550640799105167 0.1928160935640335 0.0 0.0 0.0 0.0
169000000.0 0.0654887929558754 0.04883132502436638 -0.0031898347660899162 0.1941431760787964 0.0 0.0 0.0 0.0
170000000.0 0.06679940223693848 0.04826606437563896 0.00034708157181739807 0.1951679289340973 0.0 0.0 0.0 0.0
171000000.0 0.06846030056476593 0.048350486904382706 0.004253095015883446 0.19641968607902527 0.0 0.0 0.0 0.0
172000000.0 0.06972668319940567 0.04784765467047691 0.007904568687081337 0.19748812913894653 0.0 0.0 0.0 0.0
173000000.0 0.07101462781429291 0.046761639416217804 0.011568560265004635 0.19874195754528046 0.0 0.0 0.0 0.0
174000000.0 0.07239294797182083 0.046770766377449036 0.015598517842590809 0.19910936057567596 0.0 0.0 0.0 0.0
175000000.0 0.07385066151618958 0.04596106708049774 0.019384270533919334 0.2002161592245102 0.0 0.0 0.0 0.0
176000000.0 0.07514464855194092 0.04519599303603172 0.023212606087327003 0.20123565196990967 0.0 0.0 0.0 0.0
177000000.0 0.07663284242153168 0.044701457023620605 0.027244294062256813 0.20172299444675446 0.0 0.0 0.0 0.0
178000000.0 0.0775437206029892 0.04353044927120209 0.031219979748129845 0.20235829055309296 0.0 0.0 0.0 0.0
