!Mini Circuits Lab.;
!S-parameters;
!Model:ZX10Q-2-19-S+;   Unit 1;
!Run:H60440; Lot: N/A;  Date Code: N/A;
!Fixture: N/R;  S/N: N/A;  Due: N/A;
!Connection: Port1 to INPUT PORT (Conn.1); Port2 to PORT 1 (+90°) (Conn.2); Port3 to PORT 2 (0°) (Conn.3); Port4 to 50 OHM TERM EXTERNAL (Conn.4)                    
!Tested with PNA-X Network Analyzer N5242A, S/N:71765, Due:09/22/11 
# MHZ S DB R 50
!Frequency        S11 dB  S11 DEG   S12 dB  S12 DEG   S13 dB  S13 DEG   S14 dB  S14 DEG
!                 S21 dB  S21 DEG   S22 dB  S22 DEG   S23 dB  S23 DEG   S24 dB  S24 DEG
!                 S31 dB  S31 DEG   S32 dB  S32 DEG   S33 dB  S33 DEG   S34 dB  S34 DEG
!                 S41 dB  S41 DEG   S42 dB  S42 DEG   S43 dB  S43 DEG   S44 dB  S44 DEG
  10.0000     -4.398500E+001  1.648027E+001 -3.873595E+001  8.399296E+001 -5.217932E-002 -1.858262E+000 -5.464170E+001  1.119882E+002
              -3.869601E+001  8.543041E+001 -4.553321E+001  1.673344E+001 -5.567401E+001  1.106705E+002 -3.410000E-002 -1.560434E+000
              -4.954064E-002 -1.792085E+000 -5.448187E+001  1.252962E+002 -4.529593E+001  2.192788E+001 -3.894504E+001  8.385120E+001
              -5.528346E+001  1.217547E+002 -5.898600E-002 -1.973682E+000 -3.871203E+001  8.391768E+001 -4.267188E+001  4.720663E+001
  11.0000     -4.599171E+001 -4.576862E+000 -3.792691E+001  8.477798E+001 -4.715535E-002 -1.959854E+000 -5.421634E+001  1.125692E+002
              -3.791252E+001  8.505145E+001 -4.432028E+001  1.488068E+001 -5.448101E+001  1.102220E+002 -3.852205E-002 -1.830822E+000
              -5.012430E-002 -1.932718E+000 -5.471193E+001  1.075442E+002 -4.389832E+001  1.878758E+001 -3.791162E+001  8.518402E+001
              -5.442925E+001  1.087957E+002 -5.703142E-002 -2.056967E+000 -3.794673E+001  8.520299E+001 -4.178371E+001  3.368200E+001
  12.0000     -4.564064E+001 -1.507693E+001 -3.720104E+001  8.480251E+001 -4.855737E-002 -2.103549E+000 -5.361708E+001  1.078666E+002
              -3.719688E+001  8.483485E+001 -4.371978E+001  7.604864E+000 -5.366888E+001  1.072132E+002 -3.949032E-002 -2.034966E+000
              -5.157962E-002 -2.077921E+000 -5.376680E+001  1.077081E+002 -4.294892E+001  9.174806E+000 -3.714569E+001  8.514414E+001
              -5.351955E+001  1.061434E+002 -5.617396E-002 -2.180383E+000 -3.719217E+001  8.491582E+001 -4.147564E+001  2.037967E+001
  13.0000     -4.473208E+001 -1.858791E+001 -3.653212E+001  8.482682E+001 -4.990249E-002 -2.249804E+000 -5.295053E+001  1.062213E+002
              -3.650077E+001  8.488400E+001 -4.332118E+001 -2.323766E+000 -5.305503E+001  1.058965E+002 -4.209020E-002 -2.209631E+000
              -5.293814E-002 -2.229723E+000 -5.274511E+001  1.057358E+002 -4.250815E+001  7.485517E-001 -3.650552E+001  8.512698E+001
              -5.293473E+001  1.050072E+002 -5.491174E-002 -2.312064E+000 -3.649464E+001  8.502197E+001 -4.111676E+001  9.102008E+000
  14.0000     -4.422113E+001 -2.230306E+001 -3.587347E+001  8.472906E+001 -5.043537E-002 -2.402105E+000 -5.228315E+001  1.041283E+002
              -3.587604E+001  8.486923E+001 -4.308403E+001 -1.005153E+001 -5.219431E+001  1.040940E+002 -4.269706E-002 -2.368622E+000
              -5.320507E-002 -2.385543E+000 -5.223663E+001  1.032636E+002 -4.214467E+001 -7.565734E+000 -3.587403E+001  8.493883E+001
              -5.217936E+001  1.026546E+002 -5.438982E-002 -2.448026E+000 -3.588425E+001  8.480511E+001 -4.079178E+001 -1.831168E+000
  15.0000     -4.378388E+001 -2.653495E+001 -3.530428E+001  8.474838E+001 -5.082146E-002 -2.561573E+000 -5.147826E+001  1.035188E+002
              -3.527432E+001  8.483771E+001 -4.257786E+001 -1.823294E+001 -5.160166E+001  1.027833E+002 -4.469922E-002 -2.527226E+000
              -5.357975E-002 -2.538360E+000 -5.167306E+001  1.023010E+002 -4.174137E+001 -1.475078E+001 -3.530048E+001  8.497928E+001
              -5.151713E+001  1.016540E+002 -5.438293E-002 -2.588286E+000 -3.529362E+001  8.477504E+001 -4.049691E+001 -1.114102E+001
  16.0000     -4.343233E+001 -2.940219E+001 -3.476565E+001  8.471252E+001 -5.136650E-002 -2.718383E+000 -5.086697E+001  1.023956E+002
              -3.473676E+001  8.461889E+001 -4.222699E+001 -2.504902E+001 -5.096736E+001  1.013344E+002 -4.717182E-002 -2.688779E+000
              -5.451372E-002 -2.698217E+000 -5.104062E+001  1.005752E+002 -4.131713E+001 -2.048096E+001 -3.476098E+001  8.494948E+001
              -5.105503E+001  1.009988E+002 -5.376648E-002 -2.731788E+000 -3.475165E+001  8.464927E+001 -4.027688E+001 -1.784429E+001
  17.0000     -4.313837E+001 -3.120838E+001 -3.423443E+001  8.468462E+001 -5.185754E-002 -2.871567E+000 -5.034394E+001  1.000250E+002
              -3.422463E+001  8.453854E+001 -4.204139E+001 -2.978135E+001 -5.043984E+001  9.949416E+001 -4.854490E-002 -2.856078E+000
              -5.474227E-002 -2.855956E+000 -5.047365E+001  1.002527E+002 -4.113949E+001 -2.522751E+001 -3.424387E+001  8.476072E+001
              -5.046754E+001  9.926457E+001 -5.406174E-002 -2.880311E+000 -3.422613E+001  8.452934E+001 -4.002268E+001 -2.362255E+001
  18.0000     -4.277018E+001 -3.358170E+001 -3.374977E+001  8.456286E+001 -5.320101E-002 -3.027160E+000 -4.984839E+001  9.937633E+001
              -3.374836E+001  8.445454E+001 -4.183161E+001 -3.404068E+001 -4.990385E+001  9.933260E+001 -4.956380E-002 -3.017536E+000
              -5.533924E-002 -3.015838E+000 -4.985136E+001  9.885842E+001 -4.105210E+001 -2.940479E+001 -3.373998E+001  8.464048E+001
              -4.990788E+001  9.899339E+001 -5.490553E-002 -3.035194E+000 -3.374855E+001  8.442813E+001 -3.997486E+001 -2.932985E+001
  19.0000     -4.247370E+001 -3.502712E+001 -3.328436E+001  8.441880E+001 -5.408648E-002 -3.183254E+000 -4.932988E+001  9.860963E+001
              -3.328704E+001  8.433033E+001 -4.167174E+001 -3.746964E+001 -4.952225E+001  9.858852E+001 -5.211927E-002 -3.184786E+000
              -5.636491E-002 -3.173691E+000 -4.949199E+001  9.797588E+001 -4.086329E+001 -3.412451E+001 -3.329346E+001  8.448412E+001
              -4.939880E+001  9.790353E+001 -5.450160E-002 -3.193104E+000 -3.328942E+001  8.433719E+001 -3.998273E+001 -3.369302E+001
  20.0000     -4.230314E+001 -3.661879E+001 -3.284650E+001  8.434838E+001 -5.467295E-002 -3.343598E+000 -4.897615E+001  9.717556E+001
              -3.285352E+001  8.423849E+001 -4.150805E+001 -4.048991E+001 -4.897939E+001  9.792355E+001 -5.320100E-002 -3.343228E+000
              -5.802822E-002 -3.331314E+000 -4.887212E+001  9.683638E+001 -4.075974E+001 -3.809104E+001 -3.284380E+001  8.447996E+001
              -4.896258E+001  9.709415E+001 -5.481995E-002 -3.353325E+000 -3.286249E+001  8.425879E+001 -3.998449E+001 -3.852901E+001
  21.0000     -4.189678E+001 -3.832978E+001 -3.245145E+001  8.418500E+001 -5.600791E-002 -3.502774E+000 -4.849895E+001  9.703490E+001
              -3.244098E+001  8.414473E+001 -4.145837E+001 -4.335561E+001 -4.851953E+001  9.692238E+001 -5.441686E-002 -3.507665E+000
              -5.939296E-002 -3.486587E+000 -4.856704E+001  9.705731E+001 -4.068992E+001 -4.117143E+001 -3.244681E+001  8.429461E+001
              -4.853324E+001  9.653325E+001 -5.602493E-002 -3.518122E+000 -3.243971E+001  8.405676E+001 -3.995433E+001 -4.200095E+001
  22.0000     -4.168970E+001 -3.948240E+001 -3.204468E+001  8.402219E+001 -5.735294E-002 -3.660097E+000 -4.811079E+001  9.616090E+001
              -3.204697E+001  8.396219E+001 -4.138403E+001 -4.567022E+001 -4.814365E+001  9.662439E+001 -5.552953E-002 -3.665803E+000
              -5.940132E-002 -3.644929E+000 -4.818633E+001  9.647423E+001 -4.065317E+001 -4.487914E+001 -3.204313E+001  8.413391E+001
              -4.805436E+001  9.580461E+001 -5.658340E-002 -3.681180E+000 -3.204997E+001  8.399352E+001 -4.001425E+001 -4.609585E+001
  23.0000     -4.145282E+001 -4.091973E+001 -3.166832E+001  8.398988E+001 -5.814992E-002 -3.817681E+000 -4.774046E+001  9.546870E+001
              -3.168018E+001  8.384270E+001 -4.130375E+001 -4.754694E+001 -4.772794E+001  9.579965E+001 -5.631576E-002 -3.827101E+000
              -6.105725E-002 -3.805011E+000 -4.773175E+001  9.566976E+001 -4.056589E+001 -4.739867E+001 -3.166515E+001  8.395267E+001
              -4.774976E+001  9.536049E+001 -5.733283E-002 -3.843426E+000 -3.166742E+001  8.383831E+001 -4.014374E+001 -4.912122E+001
  24.0000     -4.123101E+001 -4.217077E+001 -3.131040E+001  8.385575E+001 -5.879805E-002 -3.982044E+000 -4.733155E+001  9.545618E+001
              -3.131623E+001  8.375330E+001 -4.135867E+001 -4.907415E+001 -4.738854E+001  9.541909E+001 -5.635574E-002 -3.984764E+000
              -6.146755E-002 -3.969875E+000 -4.737346E+001  9.547895E+001 -4.057870E+001 -5.012384E+001 -3.131293E+001  8.389509E+001
              -4.735400E+001  9.508361E+001 -5.807155E-002 -4.002759E+000 -3.131233E+001  8.368465E+001 -4.017904E+001 -5.281612E+001
  25.0000     -4.102493E+001 -4.411425E+001 -3.096526E+001  8.372817E+001 -6.002034E-002 -4.145420E+000 -4.701270E+001  9.456556E+001
              -3.096649E+001  8.356797E+001 -4.138677E+001 -5.102580E+001 -4.696684E+001  9.490033E+001 -5.764675E-002 -4.154059E+000
              -6.184068E-002 -4.133824E+000 -4.700456E+001  9.505956E+001 -4.043786E+001 -5.254150E+001 -3.095697E+001  8.376003E+001
              -4.702408E+001  9.459570E+001 -5.893954E-002 -4.168848E+000 -3.096482E+001  8.353955E+001 -4.025610E+001 -5.520399E+001
  26.0000     -4.094358E+001 -4.536306E+001 -3.062448E+001  8.358373E+001 -6.049113E-002 -4.304791E+000 -4.664793E+001  9.415254E+001
              -3.063254E+001  8.348502E+001 -4.134706E+001 -5.258950E+001 -4.665804E+001  9.439135E+001 -5.738227E-002 -4.310488E+000
              -6.181910E-002 -4.295210E+000 -4.663719E+001  9.443330E+001 -4.039777E+001 -5.454144E+001 -3.063050E+001  8.362421E+001
              -4.666700E+001  9.401094E+001 -5.936123E-002 -4.325918E+000 -3.063732E+001  8.344357E+001 -4.041122E+001 -5.804493E+001
  27.0000     -4.077559E+001 -4.649731E+001 -3.030578E+001  8.346683E+001 -6.094270E-002 -4.466706E+000 -4.631115E+001  9.412863E+001
              -3.031565E+001  8.338657E+001 -4.131227E+001 -5.391925E+001 -4.632627E+001  9.408258E+001 -5.782650E-002 -4.472703E+000
              -6.230099E-002 -4.461971E+000 -4.632142E+001  9.411134E+001 -4.041200E+001 -5.661843E+001 -3.031364E+001  8.345677E+001
              -4.633539E+001  9.357547E+001 -6.009978E-002 -4.488683E+000 -3.030802E+001  8.329689E+001 -4.050592E+001 -6.047234E+001
  28.0000     -4.068416E+001 -4.774999E+001 -3.000215E+001  8.333624E+001 -6.173198E-002 -4.630847E+000 -4.600180E+001  9.355569E+001
              -3.000520E+001  8.320634E+001 -4.130679E+001 -5.511909E+001 -4.601552E+001  9.373592E+001 -5.871508E-002 -4.637874E+000
              -6.294802E-002 -4.626439E+000 -4.598602E+001  9.382676E+001 -4.036405E+001 -5.786165E+001 -3.000465E+001  8.334892E+001
              -4.598558E+001  9.344678E+001 -6.032592E-002 -4.651971E+000 -3.000084E+001  8.315681E+001 -4.063490E+001 -6.211683E+001
  29.0000     -4.057391E+001 -4.942772E+001 -2.970402E+001  8.316020E+001 -6.211479E-002 -4.791626E+000 -4.567120E+001  9.332603E+001
              -2.970818E+001  8.309711E+001 -4.135511E+001 -5.643611E+001 -4.570771E+001  9.345553E+001 -5.907195E-002 -4.799693E+000
              -6.338055E-002 -4.786732E+000 -4.567642E+001  9.364501E+001 -4.037410E+001 -5.924877E+001 -2.970806E+001  8.321367E+001
              -4.568490E+001  9.296641E+001 -6.157934E-002 -4.815790E+000 -2.970475E+001  8.305373E+001 -4.073796E+001 -6.340468E+001
  30.0000     -4.042923E+001 -5.070313E+001 -2.941775E+001  8.301370E+001 -6.297694E-002 -4.952840E+000 -4.539568E+001  9.281616E+001
              -2.942041E+001  8.295448E+001 -4.133015E+001 -5.755761E+001 -4.536861E+001  9.332598E+001 -6.002600E-002 -4.962888E+000
              -6.394961E-002 -4.951082E+000 -4.537873E+001  9.338786E+001 -4.037368E+001 -6.040174E+001 -2.941477E+001  8.307238E+001
              -4.537458E+001  9.276618E+001 -6.191337E-002 -4.975179E+000 -2.941853E+001  8.293360E+001 -4.092975E+001 -6.490868E+001
  31.0000     -4.026635E+001 -5.246468E+001 -2.913333E+001  8.291950E+001 -6.355464E-002 -5.113854E+000 -4.508622E+001  9.257629E+001
              -2.914462E+001  8.281886E+001 -4.132616E+001 -5.853586E+001 -4.510294E+001  9.297713E+001 -6.060659E-002 -5.128427E+000
              -6.417743E-002 -5.113916E+000 -4.508443E+001  9.299909E+001 -4.031412E+001 -6.120118E+001 -2.914469E+001  8.294942E+001
              -4.511823E+001  9.226701E+001 -6.279173E-002 -5.138919E+000 -2.914172E+001  8.277439E+001 -4.102646E+001 -6.545773E+001
  32.0000     -4.007837E+001 -5.368409E+001 -2.887037E+001  8.279408E+001 -6.403541E-002 -5.277102E+000 -4.483783E+001  9.219749E+001
              -2.887287E+001  8.265249E+001 -4.122135E+001 -5.941881E+001 -4.478798E+001  9.248453E+001 -6.134352E-002 -5.292980E+000
              -6.509851E-002 -5.279287E+000 -4.479268E+001  9.267273E+001 -4.031587E+001 -6.223823E+001 -2.887312E+001  8.282825E+001
              -4.481953E+001  9.206576E+001 -6.306885E-002 -5.303832E+000 -2.887167E+001  8.261902E+001 -4.116156E+001 -6.606775E+001
  33.0000     -3.992900E+001 -5.499495E+001 -2.860879E+001  8.264819E+001 -6.456663E-002 -5.436850E+000 -4.452333E+001  9.180672E+001
              -2.861445E+001  8.252773E+001 -4.116205E+001 -6.049121E+001 -4.451207E+001  9.241145E+001 -6.207469E-002 -5.456015E+000
              -6.570978E-002 -5.442923E+000 -4.451876E+001  9.250774E+001 -4.029543E+001 -6.319537E+001 -2.861028E+001  8.268726E+001
              -4.454679E+001  9.171504E+001 -6.426904E-002 -5.468603E+000 -2.861198E+001  8.252074E+001 -4.119279E+001 -6.664105E+001
  34.0000     -3.974590E+001 -5.624301E+001 -2.835497E+001  8.253665E+001 -6.539772E-002 -5.596725E+000 -4.423519E+001  9.155455E+001
              -2.835954E+001  8.238799E+001 -4.111287E+001 -6.153235E+001 -4.422363E+001  9.196668E+001 -6.324732E-002 -5.621197E+000
              -6.727227E-002 -5.603458E+000 -4.423467E+001  9.211053E+001 -4.021799E+001 -6.405148E+001 -2.835539E+001  8.254174E+001
              -4.426709E+001  9.157908E+001 -6.567036E-002 -5.636483E+000 -2.835620E+001  8.237911E+001 -4.123756E+001 -6.692131E+001
  35.0000     -3.959919E+001 -5.747314E+001 -2.810994E+001  8.233442E+001 -6.623136E-002 -5.759795E+000 -4.398507E+001  9.117356E+001
              -2.811728E+001  8.224541E+001 -4.108779E+001 -6.173132E+001 -4.396744E+001  9.177319E+001 -6.427138E-002 -5.780617E+000
              -6.850425E-002 -5.768113E+000 -4.398740E+001  9.197941E+001 -4.021531E+001 -6.513388E+001 -2.811392E+001  8.237729E+001
              -4.396825E+001  9.123423E+001 -6.794047E-002 -5.795820E+000 -2.811850E+001  8.220467E+001 -4.129625E+001 -6.741532E+001
  36.0000     -3.950722E+001 -5.884520E+001 -2.787271E+001  8.222778E+001 -6.816781E-002 -5.916341E+000 -4.372252E+001  9.098270E+001
              -2.787928E+001  8.212421E+001 -4.086800E+001 -6.184725E+001 -4.369979E+001  9.145199E+001 -6.572773E-002 -5.942490E+000
              -7.032097E-002 -5.929455E+000 -4.372674E+001  9.157108E+001 -4.022597E+001 -6.543200E+001 -2.787442E+001  8.225121E+001
              -4.372226E+001  9.098078E+001 -6.829239E-002 -5.950289E+000 -2.787259E+001  8.208640E+001 -4.135938E+001 -6.641212E+001
  37.0000     -3.937978E+001 -5.949293E+001 -2.763687E+001  8.209276E+001 -6.779573E-002 -6.072668E+000 -4.343262E+001  9.070148E+001
              -2.764638E+001  8.198696E+001 -4.071943E+001 -6.196201E+001 -4.344576E+001  9.131356E+001 -6.624740E-002 -6.098443E+000
              -7.055600E-002 -6.080063E+000 -4.344291E+001  9.136253E+001 -4.022445E+001 -6.550822E+001 -2.764215E+001  8.211275E+001
              -4.346228E+001  9.059559E+001 -6.865919E-002 -6.112802E+000 -2.764096E+001  8.196722E+001 -4.125416E+001 -6.621706E+001
  38.0000     -3.911439E+001 -6.022396E+001 -2.740976E+001  8.194501E+001 -6.813868E-002 -6.235783E+000 -4.320719E+001  9.018340E+001
              -2.741903E+001  8.183489E+001 -4.052031E+001 -6.260298E+001 -4.319636E+001  9.090041E+001 -6.670469E-002 -6.261903E+000
              -7.075252E-002 -6.240982E+000 -4.320155E+001  9.104504E+001 -4.016677E+001 -6.604738E+001 -2.741622E+001  8.199482E+001
              -4.319099E+001  9.044109E+001 -6.971458E-002 -6.270834E+000 -2.741685E+001  8.181707E+001 -4.116111E+001 -6.574165E+001
  39.0000     -3.897431E+001 -6.152828E+001 -2.719338E+001  8.181128E+001 -6.833934E-002 -6.400452E+000 -4.294121E+001  9.003661E+001
              -2.719706E+001  8.168308E+001 -4.032424E+001 -6.293015E+001 -4.294144E+001  9.060128E+001 -6.786793E-002 -6.424084E+000
              -7.086442E-002 -6.403811E+000 -4.293402E+001  9.087708E+001 -3.997754E+001 -6.618820E+001 -2.719464E+001  8.185699E+001
              -4.293884E+001  9.007862E+001 -7.064646E-002 -6.432761E+000 -2.719159E+001  8.167447E+001 -4.097890E+001 -6.487421E+001
  40.0000     -3.879678E+001 -6.253154E+001 -2.697635E+001  8.167332E+001 -6.872334E-002 -6.563150E+000 -4.268971E+001  8.977191E+001
              -2.698181E+001  8.152917E+001 -4.020829E+001 -6.353686E+001 -4.271676E+001  9.049500E+001 -6.849917E-002 -6.581609E+000
              -7.176244E-002 -6.564123E+000 -4.270539E+001  9.039988E+001 -3.984616E+001 -6.640998E+001 -2.697992E+001  8.167922E+001
              -4.269909E+001  8.954665E+001 -7.173643E-002 -6.592092E+000 -2.697823E+001  8.153758E+001 -4.084533E+001 -6.439803E+001
  41.0000     -3.859465E+001 -6.308479E+001 -2.676739E+001  8.151026E+001 -6.984528E-002 -6.726522E+000 -4.245718E+001  8.941216E+001
              -2.677056E+001  8.138579E+001 -4.001590E+001 -6.385312E+001 -4.246754E+001  9.008117E+001 -6.948014E-002 -6.745711E+000
              -7.292036E-002 -6.724566E+000 -4.246054E+001  9.013518E+001 -3.969476E+001 -6.682823E+001 -2.676920E+001  8.155344E+001
              -4.244122E+001  8.934119E+001 -7.213756E-002 -6.750049E+000 -2.676798E+001  8.139280E+001 -4.065726E+001 -6.413843E+001
  42.0000     -3.844842E+001 -6.425581E+001 -2.656223E+001  8.135952E+001 -7.078805E-002 -6.887141E+000 -4.223870E+001  8.906816E+001
              -2.656450E+001  8.125518E+001 -3.984893E+001 -6.411712E+001 -4.222964E+001  8.984825E+001 -7.003480E-002 -6.903193E+000
              -7.369797E-002 -6.885680E+000 -4.223133E+001  8.999149E+001 -3.951006E+001 -6.715083E+001 -2.656630E+001  8.142841E+001
              -4.222990E+001  8.900558E+001 -7.331009E-002 -6.910957E+000 -2.656466E+001  8.126471E+001 -4.044376E+001 -6.368779E+001
  43.0000     -3.826871E+001 -6.488089E+001 -2.636201E+001  8.123071E+001 -7.125891E-002 -7.047839E+000 -4.199463E+001  8.879848E+001
              -2.636449E+001  8.108525E+001 -3.966879E+001 -6.443001E+001 -4.200148E+001  8.951853E+001 -7.069010E-002 -7.066321E+000
              -7.438607E-002 -7.047289E+000 -4.200676E+001  8.968539E+001 -3.934328E+001 -6.751254E+001 -2.636472E+001  8.128860E+001
              -4.200274E+001  8.864679E+001 -7.414728E-002 -7.069401E+000 -2.636167E+001  8.111385E+001 -4.020473E+001 -6.339946E+001
  44.0000     -3.809570E+001 -6.576134E+001 -2.616816E+001  8.107594E+001 -7.231400E-002 -7.207753E+000 -4.178261E+001  8.831583E+001
              -2.617245E+001  8.093874E+001 -3.950509E+001 -6.486022E+001 -4.177984E+001  8.914473E+001 -7.174265E-002 -7.227508E+000
              -7.519223E-002 -7.208251E+000 -4.178143E+001  8.936365E+001 -3.913948E+001 -6.780230E+001 -2.617176E+001  8.114634E+001
              -4.178239E+001  8.833852E+001 -7.468714E-002 -7.228060E+000 -2.616745E+001  8.096871E+001 -3.995306E+001 -6.296136E+001
  45.0000     -3.794467E+001 -6.641680E+001 -2.597839E+001  8.092877E+001 -7.295167E-002 -7.367692E+000 -4.155827E+001  8.803036E+001
              -2.598197E+001  8.081171E+001 -3.930601E+001 -6.553183E+001 -4.157475E+001  8.879294E+001 -7.251369E-002 -7.388262E+000
              -7.583641E-002 -7.366084E+000 -4.156423E+001  8.893525E+001 -3.892506E+001 -6.801738E+001 -2.598057E+001  8.099885E+001
