!Created with skrf (http://scikit-rf.org).
# GHz S RI R 50.0 
!freq ReS11 ImS11 ReS21 ImS21 ReS12 ImS12 ReS22 ImS22
60.0 0.00280451821163 -0.0345916971564 8.08163076726e-06 -2.96462985716e-06 -0.722005343802 0.115531300024 -0.420587611097 0.723620830923
60.0416666667 -0.00985829997808 -0.0367422513664 7.67863730289e-06 -7.19165473129e-06 -0.284271987005 -0.18343905453 0.211791538079 0.441784011467
60.0833333333 -0.0210753940046 -0.0311541128904 -1.10070404844e-05 4.27460236097e-06 -0.5369905881 -0.00850483517119 0.206535004367 0.414125486347
60.125 -0.0297417342663 -0.0241182148457 -1.83591419045e-05 -3.96879067921e-06 -0.689439783266 -0.760060638757 -0.300936305821 -0.184829478041
60.1666666667 -0.0368886776268 -0.0155796771869 1.45141020766e-05 1.45186049849e-05 -0.587068630189 0.187102571937 -0.552439548702 0.14536779544
60.2083333333 -0.0428647063673 -0.00324746989645 5.81133690503e-07 2.09153495234e-06 0.194161285883 -0.992608560501 0.338665550224 0.929589646416
60.25 -0.0421756841242 0.0134411742911 1.32614104587e-06 2.62136222773e-06 0.415029779134 -0.355234170648 0.064859963267 -0.910777510044
60.2916666667 -0.0352597795427 0.028798578307 6.67014137434e-06 2.09264653677e-05 -0.919343407351 0.2765749457 0.844252174155 -0.934865046172
60.3333333333 -0.0215570963919 0.0436046272516 1.63077501725e-07 1.04260116132e-05 -0.406338963405 0.17902167002 -0.664253328178 0.583328754702
60.375 -0.000395421811845 0.046244893223 -9.2373265943e-06 -4.20950118496e-06 -0.111482003656 -0.807334701756 0.45570214124 -0.482751755052
60.4166666667 0.0175404250622 0.0408901013434 -1.4066611584e-05 1.6627014702e-05 -0.061327186578 0.671572542894 0.591560760962 0.000257736900759
60.4583333333 0.030794242397 0.0301585961133 4.33539725009e-07 -5.65810796616e-06 0.631343407504 0.927172620824 -0.845324312145 0.162815068769
60.5 0.0367747396231 0.0171437896788 1.91421077034e-05 -1.10346668691e-07 0.42433944013 -0.222286133823 -0.266369268088 0.106625343511
60.5416666667 0.0388988517225 0.00393074890599 -3.40629298989e-06 2.75375157344e-07 -0.0870256331299 0.940530860655 0.619904281549 0.311442881548
60.5833333333 0.0381522886455 -0.00742187863216 4.48403170594e-06 3.75993431589e-06 -0.980324984888 0.47278818666 0.443786804768 -0.0849146987801
60.625 0.0315854027867 -0.0210343785584 1.70007369888e-05 -7.14728321327e-06 0.452224145705 -0.515109641739 -0.613314807633 0.105154764024
60.6666666667 0.0197876766324 -0.0282971933484 -1.6379186718e-06 -4.20063361162e-06 0.643934094702 -0.906762188542 0.162546574266 0.0239626755559
60.7083333333 0.010311447084 -0.0294562634081 2.06209697353e-05 9.52691334533e-06 -0.773781313468 -0.036317703857 -0.120155708612 0.546972845214
60.75 0.00178433849942 -0.0301057249308 5.80141932005e-06 4.81114966533e-06 -0.952446469328 -0.414162084517 0.929696370728 0.90353781193
60.7916666667 -0.00724725751206 -0.0261218231171 1.75271281933e-07 -1.39075209518e-05 -0.32397586787 -0.82108347308 -0.238329780248 0.40812030049
60.8333333333 -0.0121780410409 -0.0213759690523 -2.76070295513e-06 1.38733767585e-07 -0.250751143557 0.831128299999 -0.258744404648 -0.322275952704
60.875 -0.0155759798363 -0.0157007351518 -2.10585881177e-06 -3.59734326594e-06 -0.385172649733 0.893425607335 -0.233871794239 -0.979980367605
60.9166666667 -0.0169238932431 -0.0100011667237 1.01807818282e-05 -1.10440623757e-05 -0.86906260284 0.862435459815 0.576752132054 0.0450045907164
60.9583333333 -0.0164170749485 -0.00663525983691 -2.20281690417e-05 1.11669733087e-05 -0.874796158945 0.981693293358 -0.667211309772 -0.538981215986
61.0 -0.0169478412718 -0.00496009364724 4.37745075033e-06 2.53341477219e-06 0.295195837833 0.324920701052 -0.725172001356 -0.353315828738
61.0416666667 -0.0177335254848 -0.00287137599662 -1.05911676656e-05 -4.59397460872e-06 -0.13652514417 0.0960250561513 -0.959304823285 -0.868298312814
61.0833333333 -0.0188054777682 -0.00150903977919 1.28289866552e-05 1.64171269716e-05 -0.85300855776 -0.236344762702 -0.142026065335 -0.753523212612
61.125 -0.0204039216042 0.00111980119254 -7.53421545596e-07 1.22039255075e-05 -0.768360597786 -0.0407130088051 0.719111338599 -0.868336188865
61.1666666667 -0.0216788128018 0.00567795103416 -7.0317846621e-06 -5.47658419237e-06 0.124806439175 0.626560064307 0.164658474826 0.733868130597
61.2083333333 -0.0217869468033 0.0124368509278 -1.46079391925e-05 2.5969438866e-06 0.832191441619 -0.604719656022 -0.600311660589 0.434424846629
61.25 -0.0199244208634 0.0221710689366 -5.42673387827e-06 2.66851975539e-06 -0.512063744656 0.978004675717 0.201892500132 0.671810627315
61.2916666667 -0.0154449073598 0.0311001129448 -1.48330454977e-05 -3.17584022014e-06 -0.436887088676 -0.0650779677201 -0.547731918209 -0.529388914433
61.3333333333 -0.00816929619759 0.0379572436213 2.47855641646e-05 -1.51059384734e-05 0.709988011779 -0.615651562899 0.685134195425 0.620771875226
61.375 0.00236335163936 0.0424663536251 4.41532893092e-06 2.44391026172e-06 -0.358721484244 -0.489814841684 -0.871078932737 -0.670289172162
61.4166666667 0.016596974805 0.0423508808017 -8.0782265286e-06 -4.54064729638e-06 -0.745144948511 -0.0601986622619 0.00320391461483 -0.0913811848927
61.4583333333 0.0323089696467 0.0362164750695 1.57167723955e-05 3.71569672097e-06 0.0157415622317 -0.347575670529 0.467921218135 0.133821016123
61.5 0.043751783669 0.0233772173524 5.02641114508e-06 -6.45244426778e-06 -0.560379782332 -0.125340342497 -0.678294950251 -0.670837434015
61.5416666667 0.0517098717391 0.0072893188335 5.87917975281e-06 -7.41171334084e-06 -0.913154484992 -0.859563669882 0.176170219931 -0.73927863177
61.5833333333 0.0528666339815 -0.0131571441889 -1.08627055795e-07 8.44524038257e-06 -0.278659740611 0.805035077718 -0.930418495816 0.73361634221
61.625 0.0461560375988 -0.0310747046024 -1.1723616808e-05 2.9333718885e-06 -0.657680340669 -0.416651123157 0.573293257122 0.581789389652
61.6666666667 0.0326112806797 -0.0457020699978 -7.72087673795e-07 -1.03508218672e-05 0.321920903741 0.71001431571 -0.742184331902 -0.358351558403
61.7083333333 0.0141607159749 -0.0553610399365 5.01132399222e-06 -4.68583675683e-06 0.331531153556 0.672890551098 0.665525445072 0.172752842441
61.75 -0.00536964181811 -0.0558263100684 9.28674035094e-06 2.47033511869e-07 0.751335957006 0.34530981528 -0.753332507961 -0.444160074301
61.7916666667 -0.024008449167 -0.0491593629122 7.19977106201e-06 1.58426632879e-06 0.55116089558 -0.708384489806 0.678003559461 -0.503559921082
61.8333333333 -0.0403793640435 -0.0398593991995 7.57913767302e-07 -3.96112227463e-06 -0.76844452977 -0.125236807055 -0.0447651142804 -0.0423831956477
61.875 -0.0482489541173 -0.0253118872643 -4.62124353362e-06 1.06775059976e-05 -0.0169085441973 0.465809076697 0.234360635596 0.712656899723
61.9166666667 -0.0505218878388 -0.00867863558233 -1.29322297653e-05 1.7198220803e-07 0.749341367071 -0.507649522556 -0.493313907064 -0.0959119840429
61.9583333333 -0.0473060309887 0.00736194150522 3.90930517824e-06 5.26396206624e-06 -0.0715719074922 -0.953093994407 0.401814721097 -0.0786823262396
62.0 -0.0384584739804 0.0201623346657 -1.90308844594e-06 2.91294281851e-06 -0.554350115807 0.661720003318 0.275638025335 -0.75726969385
62.0416666667 -0.0287154242396 0.0270645916462 -2.20388938033e-06 4.61973104393e-06 -0.373514504413 -0.408486520075 -0.352200791911 0.910994232441
62.0833333333 -0.0189680960029 0.0320710577071 -3.41963027495e-06 4.62027173853e-06 -0.169397129659 0.87257142952 0.527547432725 0.900514492211
62.125 -0.00588996242732 0.036206074059 -2.19820522034e-05 3.097457693e-06 0.322479251138 0.928032748052 -0.0707240408188 0.103702812784
62.1666666667 0.00323610496707 0.0345379412174 7.10269841875e-06 -2.26586939789e-06 0.968982633312 0.0391567406228 -0.668993818723 -0.834937080188
62.2083333333 0.0101092467085 0.0321178473532 -6.52236622045e-06 1.17747440527e-05 -0.287121214441 -0.864051878607 -0.0803028511454 0.349024383957
62.25 0.0166398100555 0.0288456454873 1.54361441673e-05 3.38104700859e-06 -0.0715565620154 0.761629416721 0.510188808821 0.150545862595
62.2916666667 0.0219984985888 0.0245081111789 -6.53674942441e-06 9.11193728825e-06 0.906204609414 -0.0367653706564 -0.507668588195 0.778151953066
62.3333333333 0.0283020474017 0.020164327696 3.40738506566e-06 1.92689367395e-05 -0.695606109591 0.632290168392 -0.54132200708 0.0777581227158
62.375 0.0349804311991 0.0119892032817 -8.66426944413e-07 1.85639646588e-06 0.0351628859138 -0.553679398203 0.577897815658 0.410469414135
62.4166666667 0.038507156074 0.00180202978663 -1.50845380631e-06 -4.61098852611e-06 0.659849809663 -0.777712163814 -0.956135403425 -0.896375299016
62.4583333333 0.0403676107526 -0.00955498963594 -1.95584143512e-05 -9.31337945076e-06 0.0694331815103 0.725724124042 -0.582842700581 0.624148707853
62.5 0.0365239903331 -0.0227859225124 1.15192351586e-05 2.58036129708e-06 -0.88035409086 0.197102886624 -0.949495858978 -0.366027293081
62.5416666667 0.0278853382915 -0.0334614031017 -2.03688978218e-05 1.1856819583e-05 0.971427397109 0.512301293588 0.205173951399 0.882405142251
62.5833333333 0.0167904756963 -0.0417042709887 -6.33002036921e-06 -5.37540427104e-06 -0.43820516721 0.655098203541 0.478838094731 -0.277596094625
62.625 0.00174642156344 -0.0461866110563 3.32061222252e-06 5.12024689669e-06 -0.622114569125 0.56259106338 -0.0154651657931 0.431805229254
62.6666666667 -0.0134585155174 -0.0445784963667 -1.53572891577e-05 -8.48748811677e-07 0.417797212465 -0.30113539444 0.548997879379 -0.985992363708
62.7083333333 -0.0266936402768 -0.0374701246619 1.09492375486e-05 2.41073053076e-06 0.222298703203 0.651633025886 0.596391475091 0.669779063993
62.75 -0.0356572382152 -0.026778018102 -2.64654431703e-06 -3.458072797e-06 -0.865618858126 -0.163132040042 0.300782485306 0.171939228173
62.7916666667 -0.0413195565343 -0.012291544117 -5.75362446398e-06 3.53614268533e-06 -0.2235528695 -0.744385601772 0.848608989249 0.114209859443
62.8333333333 -0.0453580804169 0.00426572980359 1.14011863843e-05 -6.49281309961e-06 0.729833278278 -0.999248599407 -0.770924201286 -0.151914833006
62.875 -0.0404494442046 0.0199183803052 1.0979387298e-05 -2.26499537348e-06 0.142848815197 -0.756776501795 0.306559103613 -0.661793901645
62.9166666667 -0.0315956324339 0.0335043072701 8.1953373865e-07 -1.15396949241e-06 -0.00785640886539 0.349269756241 -0.110043955506 0.859747560162
62.9583333333 -0.0180308558047 0.0408526472747 -5.37932010047e-06 -2.09603285839e-06 -0.398964739283 0.958040984012 -0.0121846828988 -0.701154775851
63.0 -0.0035677854903 0.0429469160736 -6.77545585859e-07 9.0976300271e-06 0.526887632908 0.243558304728 -0.0948889152239 0.961787172244
63.0416666667 0.0109917474911 0.0387637913227 -1.1827050912e-06 2.21294831135e-05 -0.697437083223 0.158977710268 0.414445957258 0.62047753567
63.0833333333 0.0243416521698 0.0309727024287 -3.68140922546e-06 -1.17185754789e-06 0.941072761767 -0.463562595886 -0.736990435624 0.662531584994
63.125 0.0303359571844 0.0203237310052 1.83399754405e-06 7.45897705201e-06 0.747757936533 0.920125361464 -0.637406691826 0.2772825623
63.1666666667 0.0331812389195 0.00903368927538 5.32386593477e-06 -1.78527661774e-05 0.021430124279 -0.00163888925471 -0.0635920036834 0.954340943792
63.2083333333 0.0321126766503 -0.00252577941865 5.65289474252e-06 -2.72045126621e-05 0.424601973642 0.389653537252 0.027337884345 -0.401560995493
63.25 0.0274160914123 -0.0135774109513 2.01090961127e-06 6.28858015261e-06 0.134954243538 0.438665107025 0.50308818817 -0.834006515772
63.2916666667 0.0204197354615 -0.020754320547 -1.91001149119e-07 -1.03371667137e-05 -0.38177594612 0.765574845067 -0.662521685678 -0.604700700152
63.3333333333 0.0119017567486 -0.0247364733368 3.40251426678e-06 -2.26667907555e-06 0.966689378815 0.377546700215 0.325769478064 0.512332362683
63.375 0.00341384578496 -0.0255269687623 -8.33835565572e-06 1.64424618561e-05 -0.218087320223 0.910291626222 -0.801496659283 0.950758950804
63.4166666667 -0.00437215669081 -0.023559762165 9.00612747046e-07 1.26562481455e-05 -0.0711062649469 -0.137868524823 0.308238562695 -0.597580729452
63.4583333333 -0.0109933447093 -0.0195970442146 9.55100040301e-06 -1.27362345665e-05 -0.923606601265 0.0669586523173 0.046665347588 -0.630079255018
63.5 -0.0148901939392 -0.0154963387176 9.97287679638e-06 3.52131519321e-06 0.529111987433 0.617976258871 0.584297015663 0.608162260329
63.5416666667 -0.0175355561078 -0.00999161135405 -4.14188571085e-06 6.13974907537e-06 -0.792387653507 -0.352572102306 0.15685485619 0.720051899389
63.5833333333 -0.0193473808467 -0.0048932521604 2.45197861659e-05 9.1513766165e-06 0.600455284629 -0.65541047817 0.65884754691 -0.521585392464
63.625 -0.0189928319305 0.00077180477092 -1.69130980794e-05 -6.22220704827e-06 -0.028356446338 -0.83019258666 0.904870510057 0.444379170168
63.6666666667 -0.0166253577918 0.00469168834388 4.04282445743e-06 5.76047841605e-06 0.271861539465 0.730021403795 0.729448790205 0.0631294587022
63.7083333333 -0.0144194979221 0.00812577269971 -9.59111957854e-07 2.12480927075e-06 -0.0995185143416 0.660414180863 0.405848870073 0.385475704493
63.75 -0.0117534231395 0.0111684435979 6.37560674477e-07 -1.33598143748e-06 0.335462759769 0.836627154205 -0.109196706948 -0.302367229086
63.7916666667 -0.00845140404999 0.0143305948004 1.3365212908e-05 9.01498151507e-06 0.139481620984 0.162002034894 0.668707185026 -0.546710566171
63.8333333333 -0.00473952433094 0.0156783349812 6.80829117528e-08 -1.34693736982e-05 0.0151534941369 -0.325928766615 -0.181071252235 0.00518901762954
63.875 -0.00110021291766 0.0157544892281 8.7548251031e-06 4.96425082019e-06 -0.382738177921 0.406920960899 -0.466292824449 -0.732671063825
63.9166666667 0.00270708673634 0.0155953802168 -7.46942714613e-06 2.21304762817e-05 -0.370912929119 0.869170533013 -0.670840335834 0.46393792525
63.9583333333 0.00697685638443 0.015362999402 7.51859261072e-06 -5.26447365701e-06 -0.684318024797 -0.718008324129 -0.96818339649 0.408677753338
64.0 0.0100651457906 0.012632785365 -2.71618523584e-06 6.88820409778e-06 0.539629117784 0.963374280667 0.558010646028 -0.135780024073
64.0416666667 0.0129611901939 0.00979492627084 -4.07281549997e-06 -1.73122316482e-06 0.143181188974 0.101306720484 -0.288238704993 0.88134645098
64.0833333333 0.0152135239914 0.00562970014289 8.49491698318e-06 1.90362206922e-05 0.0915611426156 0.226392815478 -0.694195472577 -0.517589487884
64.125 0.0161365997046 0.000427506689448 -1.50317900989e-05 -5.91624893787e-06 -0.394694901999 0.961017557418 -0.605826489709 -0.39715593868
64.1666666667 0.0157236550003 -0.00529399281368 2.60144787489e-07 8.34415732243e-06 0.906652608207 0.0962158444525 -0.800706341686 -0.290982884899
64.2083333333 0.0136976093054 -0.0101134590805 -6.38183519186e-06 -8.77487764228e-06 -0.00150077858757 0.0254008346992 0.779071791219 -0.0209387428
64.25 0.0103368470445 -0.0128673017025 -9.33209662435e-07 7.6444912338e-06 0.781595179078 -0.869924302477 -0.464577227413 -0.681809185925
64.2916666667 0.00617250427604 -0.015524758026 5.85028828937e-07 1.20994891404e-05 0.242408579891 0.0259376052418 0.513331033447 -0.0800161709559
64.3333333333 0.00154399510939 -0.015818066895 2.4494236186e-06 6.51993741485e-06 -0.121421463651 0.679771302033 0.275296095467 0.26644967372
64.375 -0.00387594616041 -0.0155847268179 7.67845165228e-07 3.04415061692e-06 0.579018262327 -0.275821282539 0.890963269314 0.235968322301
64.4166666667 -0.00857668370008 -0.0129045182839 -1.56344378865e-06 -4.73783484267e-06 0.430887117805 -0.979679770477 -0.841257447974 -0.114687217197
64.4583333333 -0.0115196080878 -0.00890547782183 -3.94487915401e-06 -1.09011134555e-05 -0.279003127939 -0.725664064223 0.00210993097616 -0.941308900684
64.5 -0.0137414196506 -0.00414548302069 1.06515581138e-05 -6.19019283477e-06 -0.807991376621 0.747395277461 -0.893789572264 -0.0120358101646
64.5416666667 -0.0115850754082 0.000796876964159 5.13848908668e-06 -7.95262712927e-06 -0.785144099659 -0.782976991111 -0.484976286548 0.903639661284
64.5833333333 -0.0098621416837 0.00387370213866 1.68074552676e-06 6.49112689644e-06 0.944489544411 0.892909794405 -0.437239227084 -0.258770135192
64.625 -0.007946674712 0.00756248040125 -8.76429112395e-06 3.87489535569e-06 -0.300571718659 0.659449542414 0.129457178285 0.226872376761
64.6666666667 -0.00358509039506 0.00918128713965 6.4698474489e-06 -1.95970333152e-05 -0.977045752574 0.0498205491223 -0.42301662227 0.223347047242
64.7083333333 0.000652364862617 0.00779122300446 -4.26776159657e-06 2.43919794229e-06 0.728108669969 0.365810650628 -0.592591139357 0.596504877834
64.75 0.00285665062256 0.00439717015252 -6.55302801533e-06 -6.07850006418e-06 0.778715213938 0.381795354479 -0.516134315526 0.699073624812
64.7916666667 0.00323937064968 0.000826309260447 1.36343060149e-05 -1.43872994158e-05 0.664428309053 0.0171904031267 0.95144406969 0.231242184512
64.8333333333 0.00196543079801 -0.00246502063237 1.37500765049e-05 3.75932427232e-06 -0.899237609731 -0.249523209542 0.0660403711496 -0.595808147562
64.875 -0.00119095039554 -0.00502257747576 2.18272034544e-05 1.1667150801e-07 -0.14485798697 0.976526910474 0.581023094171 -0.470083761694
64.9166666667 -0.00526523170993 -0.00499570043758 -1.99499845621e-05 7.3169649113e-06 -0.597425023325 -0.131725850894 -0.530255855865 -0.293752480591
64.9583333333 -0.00812679994851 -0.00283470842987 -8.62560318637e-06 1.93154562567e-07 -0.468791186165 -0.872780532744 -0.349622449769 -0.135959085452
65.0 -0.0101879062131 0.000614365213551 -8.63273442064e-07 8.80272637005e-06 -0.566225434376 -0.647127487855 0.0805956926195 -0.856496633084
65.0416666667 -0.0112586505711 0.00575562752783 -2.60083334069e-06 3.31551177624e-06 -0.794105737337 0.765885487072 -0.0173970730705 0.590571535298
65.0833333333 -0.0103114377707 0.0119396457449 -4.98727922604e-06 -1.09296865958e-06 0.964127513375 0.384715974724 0.0190869424447 -0.67310209973
65.125 -0.00619651097804 0.0172864943743 -4.83244230054e-06 -1.14712784125e-05 -0.121778388495 -0.700924406365 -0.845117028702 0.291535720662
65.1666666667 0.00152146234177 0.0203265883029 -6.59471879771e-06 3.10620157506e-06 0.301290434035 -0.241747613758 0.0138772381495 -0.0973893795209
65.2083333333 0.00853485427797 0.0196483060718 -9.60364332059e-07 -2.41279872171e-06 0.520034450373 0.789900232134 -0.212488613898 -0.758442828582
65.25 0.0134478555992 0.0171414017677 9.89474028756e-06 1.75675813807e-06 -0.325577077692 -0.0644283770289 0.238666819186 -0.87808131618
65.2916666667 0.0211922153831 0.0119534786791 1.8897027303e-06 9.35707612371e-06 -0.109527388828 0.330302194737 -0.448725311531 -0.988042277675
65.3333333333 0.025761269033 0.00392723223194 4.56921770819e-06 -2.24701511797e-06 -0.770154759812 -0.996793048963 0.297870181522 0.320251311593
65.375 0.0265966299921 -0.00577647611499 -6.22040670351e-06 -2.16276589526e-06 0.422764182369 0.215540228513 0.322662628017 0.296247173408
65.4166666667 0.0234319008887 -0.0148071656004 -4.3688714868e-06 7.60764396546e-06 -0.412753003884 -0.0561868033287 -0.35755602778 -0.851755175865
65.4583333333 0.0175006780773 -0.0228541977704 -2.83571512227e-06 -1.63687982422e-05 -0.676314393073 -0.145389558602 0.62621857601 0.646109599711
65.5 0.00793140567839 -0.0264011360705 -1.25557226056e-05 -8.78697960616e-07 0.0197644258558 0.437728241313 0.843673228215 -0.194848048794
65.5416666667 -0.00281837023795 -0.0264495816082 1.58876064233e-05 1.4355514395e-05 -0.460306504244 -0.334652704817 -0.349930643201 -0.926678168583
65.5833333333 -0.0107841603458 -0.0237123984843 -2.46833405981e-06 7.31915770302e-06 0.265385100373 0.776085937165 -0.988878599886 0.796961526453
65.625 -0.0164778493345 -0.0195814929903 -2.18957538891e-05 -8.91470608622e-06 0.512479269227 -0.0357641211578 -0.0733625357762 -0.18803830387
65.6666666667 -0.0207880046219 -0.0121466154233 9.91634169623e-06 -4.7376324801e-06 -0.969018968016 -0.000650055062523 0.12624911572 -0.136267947337
65.7083333333 -0.020868498832 -0.00436132214963 -3.95215556637e-06 -6.53776578474e-06 -0.374252840327 0.929239766098 -0.951042125558 0.0919462714567
