!Created with mwavepy.
# GHz S RI R 50.0 
!freq	ReS11	ImS11	
75.0	0.01395655	-0.006865025	
! Port Impedance	50.00000000000000	0.00000000000000	
75.175	0.01030207	0.007287979	
! Port Impedance	50.00000000000000	0.00000000000000	
75.3499999999	0.01934338	-0.00645256	
! Port Impedance	50.00000000000000	0.00000000000000	
75.5249999999	0.01280308	-0.01795101	
! Port Impedance	50.00000000000000	0.00000000000000	
75.6999999998	-0.00537014	-0.02976418	
! Port Impedance	50.00000000000000	0.00000000000000	
75.8749999998	-0.03052425	-0.00144863	
! Port Impedance	50.00000000000000	0.00000000000000	
76.0499999998	0.007551193	0.01320791	
! Port Impedance	50.00000000000000	0.00000000000000	
76.2249999997	-0.00601864	-0.02569485	
! Port Impedance	50.00000000000000	0.00000000000000	
76.3999999997	-0.04342079	0.00610352	
! Port Impedance	50.00000000000000	0.00000000000000	
76.5749999996	-0.0078392	0.04933929	
! Port Impedance	50.00000000000000	0.00000000000000	
76.7499999996	0.0402832	0.02337265	
! Port Impedance	50.00000000000000	0.00000000000000	
76.9249999996	0.02279472	-0.02445889	
! Port Impedance	50.00000000000000	0.00000000000000	
77.0999999995	-0.01139879	-0.004931927	
! Port Impedance	50.00000000000000	0.00000000000000	
77.2749999995	0.01813412	0.00766087	
! Port Impedance	50.00000000000000	0.00000000000000	
77.4499999994	0.01041794	-0.03582764	
! Port Impedance	50.00000000000000	0.00000000000000	
77.6249999994	-0.04301834	-0.00921059	
! Port Impedance	50.00000000000000	0.00000000000000	
77.7999999994	0.00043488	0.04380226	
! Port Impedance	50.00000000000000	0.00000000000000	
77.9749999993	0.03949165	-0.01087189	
! Port Impedance	50.00000000000000	0.00000000000000	
78.1499999993	-0.01080322	-0.0354023	
! Port Impedance	50.00000000000000	0.00000000000000	
78.3249999992	-0.03017521	0.00154781	
! Port Impedance	50.00000000000000	0.00000000000000	
78.4999999992	-0.00805283	0.01995564	
! Port Impedance	50.00000000000000	0.00000000000000	
78.6749999992	0.009759426	0.01121187	
! Port Impedance	50.00000000000000	0.00000000000000	
78.8499999991	0.006960392	-0.006493092	
! Port Impedance	50.00000000000000	0.00000000000000	
79.0249999991	-0.01243067	0.003723145	
! Port Impedance	50.00000000000000	0.00000000000000	
79.199999999	0.01196384	0.01885414	
! Port Impedance	50.00000000000000	0.00000000000000	
79.374999999	0.02435875	-0.01860523	
! Port Impedance	50.00000000000000	0.00000000000000	
79.549999999	-0.02992153	-0.02444363	
! Port Impedance	50.00000000000000	0.00000000000000	
79.7249999989	-0.02328873	0.03475189	
! Port Impedance	50.00000000000000	0.00000000000000	
79.8999999989	0.0303793	0.02908707	
! Port Impedance	50.00000000000000	0.00000000000000	
80.0749999988	0.03407478	-0.01992798	
! Port Impedance	50.00000000000000	0.00000000000000	
80.2499999988	-0.00601864	-0.02963066	
! Port Impedance	50.00000000000000	0.00000000000000	
80.4249999988	-0.01996136	-0.00016689	
! Port Impedance	50.00000000000000	0.00000000000000	
80.5999999987	0.005834103	0.009040356	
! Port Impedance	50.00000000000000	0.00000000000000	
80.7749999987	0.00164032	-0.01667595	
! Port Impedance	50.00000000000000	0.00000000000000	
80.9499999986	-0.02393532	0.00108337	
! Port Impedance	50.00000000000000	0.00000000000000	
81.1249999986	0.00310516	0.02821159	
! Port Impedance	50.00000000000000	0.00000000000000	
81.2999999986	0.03125191	-0.00660896	
! Port Impedance	50.00000000000000	0.00000000000000	
81.4749999985	-0.0044632	-0.03296661	
! Port Impedance	50.00000000000000	0.00000000000000	
81.6499999985	-0.03236771	-0.00242615	
! Port Impedance	50.00000000000000	0.00000000000000	
81.8249999984	-0.01285553	0.02502346	
! Port Impedance	50.00000000000000	0.00000000000000	
81.9999999984	0.01248837	0.01774311	
! Port Impedance	50.00000000000000	0.00000000000000	
82.1749999984	0.0169239	-0.00263309	
! Port Impedance	50.00000000000000	0.00000000000000	
82.3499999983	-0.000660896	-0.007679462	
! Port Impedance	50.00000000000000	0.00000000000000	
82.5249999983	0.001108766	0.003163099	
! Port Impedance	50.00000000000000	0.00000000000000	
82.6999999982	0.009308815	-0.007376194	
! Port Impedance	50.00000000000000	0.00000000000000	
82.8749999982	-0.01426411	-0.01283789	
! Port Impedance	50.00000000000000	0.00000000000000	
83.0499999982	-0.01477814	0.01699257	
! Port Impedance	50.00000000000000	0.00000000000000	
83.2249999981	0.01994705	0.02125645	
! Port Impedance	50.00000000000000	0.00000000000000	
83.3999999981	0.02470398	-0.01815414	
! Port Impedance	50.00000000000000	0.00000000000000	
83.574999998	-0.00780869	-0.02653885	
! Port Impedance	50.00000000000000	0.00000000000000	
83.749999998	-0.02309704	-0.00441456	
! Port Impedance	50.00000000000000	0.00000000000000	
83.924999998	-0.00879478	0.01645565	
! Port Impedance	50.00000000000000	0.00000000000000	
84.0999999979	0.007943153	0.004370213	
! Port Impedance	50.00000000000000	0.00000000000000	
84.2749999979	-0.006828308	-0.008652687	
! Port Impedance	50.00000000000000	0.00000000000000	
84.4499999978	-0.01123333	0.01968575	
! Port Impedance	50.00000000000000	0.00000000000000	
84.6249999978	0.02866936	0.01344872	
! Port Impedance	50.00000000000000	0.00000000000000	
84.7999999978	0.01681709	-0.03412628	
! Port Impedance	50.00000000000000	0.00000000000000	
84.9749999977	-0.03460884	-0.02385521	
! Port Impedance	50.00000000000000	0.00000000000000	
85.1499999977	-0.03165436	0.02607536	
! Port Impedance	50.00000000000000	0.00000000000000	
85.3249999976	0.00686836	0.03213692	
! Port Impedance	50.00000000000000	0.00000000000000	
85.4999999976	0.01970387	0.01151371	
! Port Impedance	50.00000000000000	0.00000000000000	
85.6749999976	0.01658916	-0.00072384	
! Port Impedance	50.00000000000000	0.00000000000000	
85.8499999975	0.008444786	-0.004801273	
! Port Impedance	50.00000000000000	0.00000000000000	
86.0249999975	0.008292198	-0.003370285	
! Port Impedance	50.00000000000000	0.00000000000000	
86.1999999974	0.01482916	-0.00823164	
! Port Impedance	50.00000000000000	0.00000000000000	
86.3749999974	0.00072098	-0.0311594	
! Port Impedance	50.00000000000000	0.00000000000000	
86.5499999974	-0.0344696	-0.01590157	
! Port Impedance	50.00000000000000	0.00000000000000	
86.7249999973	-0.02757645	0.03337097	
! Port Impedance	50.00000000000000	0.00000000000000	
86.8999999973	0.02915573	0.03005219	
! Port Impedance	50.00000000000000	0.00000000000000	
87.0749999972	0.03052711	-0.02062702	
! Port Impedance	50.00000000000000	0.00000000000000	
87.2499999972	-0.01183891	-0.03217506	
! Port Impedance	50.00000000000000	0.00000000000000	
87.4249999972	-0.02808189	0.00533295	
! Port Impedance	50.00000000000000	0.00000000000000	
87.5999999971	-0.00054455	0.02153301	
! Port Impedance	50.00000000000000	0.00000000000000	
87.7749999971	0.01852703	-0.00291538	
! Port Impedance	50.00000000000000	0.00000000000000	
87.949999997	-0.01432419	-0.01825428	
! Port Impedance	50.00000000000000	0.00000000000000	
88.124999997	-0.02377129	0.02334976	
! Port Impedance	50.00000000000000	0.00000000000000	
88.299999997	0.03124809	0.03167915	
! Port Impedance	50.00000000000000	0.00000000000000	
88.4749999969	0.03428459	-0.03236771	
! Port Impedance	50.00000000000000	0.00000000000000	
88.6499999969	-0.02912521	-0.03415871	
! Port Impedance	50.00000000000000	0.00000000000000	
88.8249999968	-0.03190422	0.02105713	
! Port Impedance	50.00000000000000	0.00000000000000	
88.9999999968	0.00892925	0.02943707	
! Port Impedance	50.00000000000000	0.00000000000000	
89.1749999968	0.02891541	0.00304699	
! Port Impedance	50.00000000000000	0.00000000000000	
89.3499999967	0.0104866	-0.0235014	
! Port Impedance	50.00000000000000	0.00000000000000	
89.5249999967	-0.01835728	-0.01540852	
! Port Impedance	50.00000000000000	0.00000000000000	
89.6999999966	-0.01377773	0.01825523	
! Port Impedance	50.00000000000000	0.00000000000000	
89.8749999966	0.02080917	0.00896931	
! Port Impedance	50.00000000000000	0.00000000000000	
90.0499999966	0.00763607	-0.02471352	
! Port Impedance	50.00000000000000	0.00000000000000	
90.2249999965	-0.02889633	-0.00998116	
! Port Impedance	50.00000000000000	0.00000000000000	
90.3999999965	-0.01282692	0.03381157	
! Port Impedance	50.00000000000000	0.00000000000000	
90.5749999964	0.03647423	0.01850128	
! Port Impedance	50.00000000000000	0.00000000000000	
90.7499999964	0.02911186	-0.03606033	
! Port Impedance	50.00000000000000	0.00000000000000	
90.9249999964	-0.03069878	-0.04212189	
! Port Impedance	50.00000000000000	0.00000000000000	
91.0999999963	-0.04658508	0.01469994	
! Port Impedance	50.00000000000000	0.00000000000000	
91.2749999963	-0.00672722	0.04349709	
! Port Impedance	50.00000000000000	0.00000000000000	
91.4499999962	0.03277206	0.0163002	
! Port Impedance	50.00000000000000	0.00000000000000	
91.6249999962	0.01227379	-0.0197506	
! Port Impedance	50.00000000000000	0.00000000000000	
91.7999999962	-0.01570415	4.768e-05	
! Port Impedance	50.00000000000000	0.00000000000000	
91.9749999961	0.01069832	0.02070427	
! Port Impedance	50.00000000000000	0.00000000000000	
92.1499999961	0.0291996	-0.0145998	
! Port Impedance	50.00000000000000	0.00000000000000	
92.324999996	-0.01164055	-0.03165245	
! Port Impedance	50.00000000000000	0.00000000000000	
92.499999996	-0.03120327	-0.0004158	
! Port Impedance	50.00000000000000	0.00000000000000	
92.674999996	-0.01191425	0.0300436	
! Port Impedance	50.00000000000000	0.00000000000000	
92.8499999959	0.02354717	0.02720165	
! Port Impedance	50.00000000000000	0.00000000000000	
93.0249999959	0.0394783	-0.01581955	
! Port Impedance	50.00000000000000	0.00000000000000	
93.1999999958	-0.0032444	-0.04532242	
! Port Impedance	50.00000000000000	0.00000000000000	
93.3749999958	-0.04020309	-0.0044117	
! Port Impedance	50.00000000000000	0.00000000000000	
93.5499999958	-0.00543499	0.02788544	
! Port Impedance	50.00000000000000	0.00000000000000	
93.7249999957	0.01579857	-0.00437546	
! Port Impedance	50.00000000000000	0.00000000000000	
93.8999999957	-0.01901913	-0.00922585	
! Port Impedance	50.00000000000000	0.00000000000000	
94.0749999956	-0.00776863	0.03410721	
! Port Impedance	50.00000000000000	0.00000000000000	
94.2499999956	0.03661919	0.00774574	
! Port Impedance	50.00000000000000	0.00000000000000	
94.4249999956	0.01300812	-0.03403473	
! Port Impedance	50.00000000000000	0.00000000000000	
94.5999999955	-0.03036785	-0.01383209	
! Port Impedance	50.00000000000000	0.00000000000000	
94.7749999955	-0.01484966	0.02243042	
! Port Impedance	50.00000000000000	0.00000000000000	
94.9499999954	0.01653576	0.02032566	
! Port Impedance	50.00000000000000	0.00000000000000	
95.1249999954	0.02227592	-0.01078701	
! Port Impedance	50.00000000000000	0.00000000000000	
95.2999999954	-0.00198555	-0.01968956	
! Port Impedance	50.00000000000000	0.00000000000000	
95.4749999953	-0.0127058	-0.002346992	
! Port Impedance	50.00000000000000	0.00000000000000	
95.6499999953	0.000190496	0.003830314	
! Port Impedance	50.00000000000000	0.00000000000000	
95.8249999952	-0.001601219	-0.007427216	
! Port Impedance	50.00000000000000	0.00000000000000	
95.9999999952	-0.01335859	-0.000133991	
! Port Impedance	50.00000000000000	0.00000000000000	
96.1749999952	-0.005587101	0.01435566	
! Port Impedance	50.00000000000000	0.00000000000000	
96.3499999951	0.01107407	0.01034164	
! Port Impedance	50.00000000000000	0.00000000000000	
96.5249999951	0.01278782	-0.00829649	
! Port Impedance	50.00000000000000	0.00000000000000	
96.699999995	-0.003497601	-0.01476192	
! Port Impedance	50.00000000000000	0.00000000000000	
96.874999995	-0.0187788	-0.00486088	
! Port Impedance	50.00000000000000	0.00000000000000	
97.049999995	-0.01531982	0.02196312	
! Port Impedance	50.00000000000000	0.00000000000000	
97.2249999949	0.01813412	0.02295017	
! Port Impedance	50.00000000000000	0.00000000000000	
97.3999999949	0.02456284	-0.01160526	
! Port Impedance	50.00000000000000	0.00000000000000	
97.5749999948	-0.00996542	-0.01538086	
! Port Impedance	50.00000000000000	0.00000000000000	
97.7499999948	-0.000268936	0.01273966	
! Port Impedance	50.00000000000000	0.00000000000000	
97.9249999948	0.01882458	-0.0100193	
! Port Impedance	50.00000000000000	0.00000000000000	
98.0999999947	-0.01400852	-0.0275526	
! Port Impedance	50.00000000000000	0.00000000000000	
98.2749999947	-0.03081512	0.01553726	
! Port Impedance	50.00000000000000	0.00000000000000	
98.4499999946	0.01083183	0.03046608	
! Port Impedance	50.00000000000000	0.00000000000000	
98.6249999946	0.02990818	-0.00640297	
! Port Impedance	50.00000000000000	0.00000000000000	
98.7999999946	0.00216007	-0.02730751	
! Port Impedance	50.00000000000000	0.00000000000000	
98.9749999945	-0.02598381	-0.01029682	
! Port Impedance	50.00000000000000	0.00000000000000	
99.1499999945	-0.01640511	0.01941395	
! Port Impedance	50.00000000000000	0.00000000000000	
99.3249999944	0.01185703	0.01816559	
! Port Impedance	50.00000000000000	0.00000000000000	
99.4999999944	0.01033068	-0.005515099	
! Port Impedance	50.00000000000000	0.00000000000000	
99.6749999944	0.000344872	0.002824306	
! Port Impedance	50.00000000000000	0.00000000000000	
99.8499999943	0.01691151	0.00016594	
! Port Impedance	50.00000000000000	0.00000000000000	
100.024999994	0.00516987	-0.02499676	
! Port Impedance	50.00000000000000	0.00000000000000	
100.199999994	-0.02938175	-0.01417351	
! Port Impedance	50.00000000000000	0.00000000000000	
100.374999994	-0.02109528	0.02581692	
! Port Impedance	50.00000000000000	0.00000000000000	
100.549999994	0.02062035	0.02975559	
! Port Impedance	50.00000000000000	0.00000000000000	
100.724999994	0.03247261	-0.01837158	
! Port Impedance	50.00000000000000	0.00000000000000	
100.899999994	-0.01758766	-0.03244972	
! Port Impedance	50.00000000000000	0.00000000000000	
101.074999994	-0.02939415	0.01888371	
! Port Impedance	50.00000000000000	0.00000000000000	
101.249999994	0.02042484	0.02479839	
! Port Impedance	50.00000000000000	0.00000000000000	
101.424999994	0.01956081	-0.02391529	
! Port Impedance	50.00000000000000	0.00000000000000	
101.599999994	-0.02531433	-0.00928879	
! Port Impedance	50.00000000000000	0.00000000000000	
101.774999994	4.292e-05	0.02451611	
! Port Impedance	50.00000000000000	0.00000000000000	
101.949999994	0.02729988	-0.01129913	
! Port Impedance	50.00000000000000	0.00000000000000	
102.124999994	-0.01992512	-0.02525902	
! Port Impedance	50.00000000000000	0.00000000000000	
102.299999994	-0.02629662	0.02094936	
! Port Impedance	50.00000000000000	0.00000000000000	
102.474999994	0.01726723	0.03036499	
! Port Impedance	50.00000000000000	0.00000000000000	
102.649999994	0.03640747	-0.0103817	
! Port Impedance	50.00000000000000	0.00000000000000	
102.824999994	-0.0026226	-0.03754044	
! Port Impedance	50.00000000000000	0.00000000000000	
102.999999994	-0.03802109	-0.00953484	
! Port Impedance	50.00000000000000	0.00000000000000	
103.174999994	-0.01562309	0.0363121	
! Port Impedance	50.00000000000000	0.00000000000000	
103.349999994	0.03141785	0.0194149	
! Port Impedance	50.00000000000000	0.00000000000000	
103.524999993	0.01784611	-0.02605343	
! Port Impedance	50.00000000000000	0.00000000000000	
103.699999993	-0.02021599	-0.01487541	
! Port Impedance	50.00000000000000	0.00000000000000	
103.874999993	-0.00900555	0.01895523	
! Port Impedance	50.00000000000000	0.00000000000000	
104.049999993	0.01835728	0.00041389	
! Port Impedance	50.00000000000000	0.00000000000000	
104.224999993	-0.00302982	-0.02193356	
! Port Impedance	50.00000000000000	0.00000000000000	
104.399999993	-0.02896214	0.00356197	
! Port Impedance	50.00000000000000	0.00000000000000	
104.574999993	-0.00366211	0.03625679	
! Port Impedance	50.00000000000000	0.00000000000000	
104.749999993	0.04040337	0.01580048	
! Port Impedance	50.00000000000000	0.00000000000000	
104.924999993	0.03170395	-0.03364372	
! Port Impedance	50.00000000000000	0.00000000000000	
105.099999993	-0.0237999	-0.04671288	
! Port Impedance	50.00000000000000	0.00000000000000	
105.274999993	-0.04870796	0.01256561	
! Port Impedance	50.00000000000000	0.00000000000000	
105.449999993	0.00130844	0.04282951	
! Port Impedance	50.00000000000000	0.00000000000000	
105.624999993	0.03269005	0.00444794	
! Port Impedance	50.00000000000000	0.00000000000000	
105.799999993	0.00421333	-0.02127266	
! Port Impedance	50.00000000000000	0.00000000000000	
105.974999993	-0.009697437	0.002855778	
! Port Impedance	50.00000000000000	0.00000000000000	
106.149999993	0.008662224	0.001761436	
! Port Impedance	50.00000000000000	0.00000000000000	
106.324999993	0.005777359	-0.01151705	
! Port Impedance	50.00000000000000	0.00000000000000	
106.499999993	-0.00801659	-0.01611805	
! Port Impedance	50.00000000000000	0.00000000000000	
106.674999993	-0.02156448	-0.00907993	
! Port Impedance	50.00000000000000	0.00000000000000	
106.849999993	-0.03479385	0.0153389	
! Port Impedance	50.00000000000000	0.00000000000000	
107.024999993	5.341e-05	0.05134773	
! Port Impedance	50.00000000000000	0.00000000000000	
107.199999993	0.05055428	0.01933861	
! Port Impedance	50.00000000000000	0.00000000000000	
107.374999993	0.03001213	-0.03687859	
! Port Impedance	50.00000000000000	0.00000000000000	
107.549999993	-0.02082634	-0.02835369	
! Port Impedance	50.00000000000000	0.00000000000000	
107.724999993	-0.02296734	0.01079082	
! Port Impedance	50.00000000000000	0.00000000000000	
107.899999992	0.01282215	0.0171032	
! Port Impedance	50.00000000000000	0.00000000000000	
108.074999992	0.01147032	-0.007669449	
! Port Impedance	50.00000000000000	0.00000000000000	
108.249999992	-0.004029274	-0.009534836	
! Port Impedance	50.00000000000000	0.00000000000000	
108.424999992	-0.005311251	0.006874561	
! Port Impedance	50.00000000000000	0.00000000000000	
108.599999992	0.009736061	0.004408836	
! Port Impedance	50.00000000000000	0.00000000000000	
108.774999992	0.01344967	-0.0106945	
! Port Impedance	50.00000000000000	0.00000000000000	
108.949999992	-0.00095558	-0.02324486	
! Port Impedance	50.00000000000000	0.00000000000000	
109.124999992	-0.02786255	-0.0153265	
! Port Impedance	50.00000000000000	0.00000000000000	
109.299999992	-0.02653313	0.01853085	
! Port Impedance	50.00000000000000	0.00000000000000	
109.474999992	0.0036335	0.02770138	
! Port Impedance	50.00000000000000	0.00000000000000	
109.649999992	0.01912498	0.00221443	
! Port Impedance	50.00000000000000	0.00000000000000	
109.824999992	0.001111984	-0.009609699	
! Port Impedance	50.00000000000000	0.00000000000000	
109.999999992	-0.003297806	0.000996232	
! Port Impedance	50.00000000000000	0.00000000000000	
