# GHz S RI R 50 
!freq	ReS11	ImS11	
1.0	-0.5785522	-0.2546387	
1.19	-0.6875	0.0212402	
1.38	-0.6618042	0.2998047	
1.57	-0.5263062	0.5368042	
1.76	-0.2736206	0.7557983	
1.95	0.0718994	0.8117676	
2.14	0.4026489	0.7480469	
2.33	0.6780396	0.5585938	
2.52	0.8267212	0.2783203	
2.71	0.9164429	-0.07269287	
2.9	0.8259888	-0.4073486	
3.09	0.6038818	-0.7080688	
3.28	0.2993164	-0.8598633	
3.47	-0.01397705	-0.9290161	
3.66	-0.3389893	-0.8469238	
3.85	-0.6612549	-0.6478882	
4.04	-0.8408203	-0.2856445	
4.23	-0.9101563	0.0654297	
4.42	-0.8022461	0.4090576	
4.61	-0.5823975	0.7207031	
4.8	-0.2163086	0.9213257	
4.99	0.2284546	0.9487915	
5.18	0.6248169	0.7843628	
5.37	0.9471436	0.3916626	
5.56	1.045288	-0.03564453	
5.75	0.9450073	-0.3985596	
5.94	0.5814209	-0.7868042	
6.13	0.0457153	-0.9718628	
6.32	-0.4123535	-0.869751	
6.51	-0.7561646	-0.529541	
6.7	-0.9481201	0.0139771	
6.89	0.8445435	-0.5032349	
7.08	-0.8931885	0.1218262	
7.27	-0.4511108	0.7501221	
7.46	0.565918	0.6812134	
7.65	-0.1349487	-0.9147949	
7.84	-0.8236694	0.5446167	
8.03	0.1387329	0.909729	
8.22	0.9381714	0.1613159	
8.41	0.1571655	-0.9935303	
8.6	-0.8876343	0.2437744	
8.79	0.1444092	0.9121094	
8.98	0.8792114	0.373291	
9.17	0.5112915	-0.8140259	
9.36	-0.7744751	-0.5462646	
9.55	-0.8919067	0.2733154	
9.74	-0.2902222	0.9190063	
9.93	0.8180847	0.496521	
10.12	0.5248413	-0.8601685	
10.31	-0.7597656	-0.5818481	
10.5	-0.7723694	0.5289307	
10.69	-0.234314	0.9655762	
10.88	0.4501343	0.8825684	
11.07	0.9561157	0.1956787	
11.26	0.6399536	-0.8057861	
11.45	-0.7796936	-0.2923889	
11.64	0.4615173	0.6137085	
11.83	0.8632202	0.1575928	
12.02	0.8877563	-0.1967773	
12.21	0.7351685	-0.5012207	
12.4	0.1600952	-0.8262939	
12.59	-0.2703247	0.6665649	
12.78	0.6222839	-0.4072876	
12.97	0.2137451	-0.7932129	
13.16	-0.1851807	-0.8577881	
13.35	-0.552124	-0.696106	
13.54	-0.507782	-0.5306396	
13.73	-0.790863	0.4970093	
13.92	-0.3262939	0.7858276	
14.11	-0.1514282	-0.7437439	
14.3	-0.5443726	0.0819702	
14.49	-0.9276428	0.3468018	
14.68	-0.7998657	0.5273438	
14.87	-0.3439941	0.8118896	
15.06	0.2910767	0.7868042	
15.25	0.7938232	0.3023987	
15.44	0.5777893	-0.5873413	
15.63	-0.7006226	-0.357666	
15.82	-0.440155	0.5661621	
16.01	0.4740295	0.8101501	
16.2	-0.3834686	-0.3479919	
16.39	0.8997803	0.1347656	
16.58	0.2245178	0.4053192	
16.77	0.7996826	-0.08016968	
16.96	0.5888367	-0.5809631	
17.15	0.6938477	-0.2856445	
17.34	0.5522766	-0.5523376	
17.53	0.2029419	-0.7830505	
17.72	-0.09701538	-0.7177734	
17.91	-0.2189636	-0.7475586	
18.1	-0.6676941	-0.870697	
18.29	-0.9451294	-0.331665	
18.48	-0.5327148	0.0293884	
18.67	-1.011597	-0.1494141	
18.86	-0.8916626	-0.03198242	
19.05	-0.1868591	0.5404358	
19.24	-0.9176636	0.5029907	
19.43	-0.8079224	0.7624512	
19.62	-0.6643066	0.7409058	
19.81	0.1287537	0.72995	
20.0	-0.0244751	0.8476563	
