# GHz S RI R 50 
!freq	ReS11	ImS11	
1.0	-0.5793457	-0.2530518	
1.19	-0.687561	0.0209961	
1.38	-0.6623535	0.298645	
1.57	-0.5316772	0.5331421	
1.76	-0.2666016	0.7476196	
1.95	0.0809937	0.8157959	
2.14	0.4020996	0.7492676	
2.33	0.6779785	0.5601807	
2.52	0.8268433	0.2792358	
2.71	0.9154663	-0.07391357	
2.9	0.831665	-0.4080811	
3.09	0.5990601	-0.7094116	
3.28	0.2962036	-0.8587036	
3.47	-0.01263428	-0.9324951	
3.66	-0.340332	-0.8493042	
3.85	-0.659729	-0.6484985	
4.04	-0.8424072	-0.2852173	
4.23	-0.9096069	0.0640869	
4.42	-0.8063354	0.4127808	
4.61	-0.5903931	0.7229614	
4.8	-0.2211304	0.9176636	
4.99	0.2127686	0.9432983	
5.18	0.6269836	0.7875366	
5.37	0.9473267	0.3920898	
5.56	1.045532	-0.03491211	
5.75	0.9465942	-0.3936768	
5.94	0.5805664	-0.7855835	
6.13	0.0411987	-0.9714966	
6.32	-0.4125366	-0.8687134	
6.51	-0.7550049	-0.5280151	
6.7	-0.9482422	0.0134277	
6.89	0.8404541	-0.5039673	
7.08	-0.894165	0.1225586	
7.27	-0.4501953	0.7542114	
7.46	0.563324	0.6807251	
7.65	-0.140564	-0.9143066	
7.84	-0.8227539	0.5388794	
8.03	0.1414185	0.9050903	
8.22	0.9384155	0.1610107	
8.41	0.1538696	-0.9887695	
8.6	-0.8874817	0.2440796	
8.79	0.1455688	0.9177246	
8.98	0.8784485	0.3722839	
9.17	0.508728	-0.812561	
9.36	-0.7748718	-0.5535889	
9.55	-0.8885498	0.2736206	
9.74	-0.2798462	0.911499	
9.93	0.8180847	0.4921875	
10.12	0.5252686	-0.8567505	
10.31	-0.7612915	-0.5775146	
10.5	-0.7716675	0.5258179	
10.69	-0.2316284	0.9520874	
10.88	0.4568481	0.8824463	
11.07	0.9556274	0.1953735	
11.26	0.6481323	-0.7991028	
11.45	-0.7782593	-0.29245	
11.64	0.4653931	0.6085205	
11.83	0.8623657	0.1572876	
12.02	0.8873291	-0.1971436	
12.21	0.7284241	-0.5017395	
12.4	0.1574097	-0.8277588	
12.59	-0.2779541	0.6669312	
12.78	0.6205139	-0.4125671	
12.97	0.2131348	-0.7962646	
13.16	-0.1772461	-0.8615112	
13.35	-0.5495605	-0.7068481	
13.54	-0.5036926	-0.5278015	
13.73	-0.7943726	0.4967651	
13.92	-0.3314819	0.7859192	
14.11	-0.1526184	-0.7383728	
14.3	-0.5438232	0.0809631	
14.49	-0.9272156	0.3474426	
14.68	-0.7993469	0.526001	
14.87	-0.3420715	0.8083496	
15.06	0.2917175	0.7857666	
15.25	0.7931824	0.3008728	
15.44	0.5801697	-0.5907593	
15.63	-0.7041626	-0.3561707	
15.82	-0.442749	0.5624084	
16.01	0.4745178	0.8077393	
16.2	-0.3823547	-0.3480072	
16.39	0.9000244	0.1341553	
16.58	0.2275848	0.4021454	
16.77	0.8005676	-0.07958984	
16.96	0.5874634	-0.5753479	
17.15	0.6934509	-0.2871399	
17.34	0.5596924	-0.5526733	
17.53	0.1990356	-0.7805481	
17.72	-0.09780884	-0.7165222	
17.91	-0.2164917	-0.7438354	
18.1	-0.6698303	-0.8682556	
18.29	-0.9438477	-0.3313599	
18.48	-0.5323181	0.0299988	
18.67	-1.011414	-0.1485596	
18.86	-0.8914185	-0.03100586	
19.05	-0.1802673	0.5421448	
19.24	-0.9182739	0.5076904	
19.43	-0.8039551	0.7591553	
19.62	-0.6572266	0.746521	
19.81	0.1298828	0.7220459	
20.0	-0.02429199	0.8501587	
