# GHz S RI R 50 
!freq	ReS11	ImS11	
1.0	-0.5761719	-0.25354	
1.19	-0.6871338	0.0209351	
1.38	-0.6607056	0.2987061	
1.57	-0.5319824	0.5377197	
1.76	-0.270752	0.7527466	
1.95	0.0767822	0.8163452	
2.14	0.4031372	0.7495728	
2.33	0.6755981	0.5560913	
2.52	0.8267822	0.2796631	
2.71	0.9155273	-0.07391357	
2.9	0.828186	-0.4074097	
3.09	0.6048584	-0.7059937	
3.28	0.2946167	-0.8567505	
3.47	-0.007629395	-0.9308472	
3.66	-0.3335571	-0.8504028	
3.85	-0.6572876	-0.6541138	
4.04	-0.8410645	-0.2860718	
4.23	-0.9108887	0.0651245	
4.42	-0.8011475	0.4099731	
4.61	-0.5769043	0.7213135	
4.8	-0.2155151	0.9173584	
4.99	0.2199707	0.940918	
5.18	0.6264954	0.784668	
5.37	0.947998	0.3914795	
5.56	1.045105	-0.0357666	
5.75	0.942749	-0.3974609	
5.94	0.5786133	-0.7841187	
6.13	0.0480957	-0.9752197	
6.32	-0.4141846	-0.8640747	
6.51	-0.7584229	-0.5297241	
6.7	-0.947937	0.0130005	
6.89	0.8441772	-0.503418	
7.08	-0.894165	0.1238403	
7.27	-0.4524536	0.7565918	
7.46	0.5644836	0.6810913	
7.65	-0.1380615	-0.9146118	
7.84	-0.8290405	0.5411377	
8.03	0.1353149	0.9094238	
8.22	0.937561	0.1611328	
8.41	0.1521606	-0.9898071	
8.6	-0.8857727	0.2432861	
8.79	0.1461182	0.9139404	
8.98	0.8786011	0.3681641	
9.17	0.5073547	-0.8123169	
9.36	-0.7780151	-0.5474243	
9.55	-0.8889771	0.2741089	
9.74	-0.2838745	0.9159546	
9.93	0.816925	0.4952698	
10.12	0.5236206	-0.8485107	
10.31	-0.761322	-0.5774841	
10.5	-0.7722168	0.5256958	
10.69	-0.2323608	0.9661865	
10.88	0.4528809	0.8798828	
11.07	0.9556885	0.194458	
11.26	0.6383972	-0.8009644	
11.45	-0.7779541	-0.2896729	
11.64	0.470459	0.6080017	
11.83	0.8615723	0.156189	
12.02	0.8876343	-0.1986694	
12.21	0.7344055	-0.500885	
12.4	0.1626587	-0.8239746	
12.59	-0.2752991	0.6716309	
12.78	0.6220093	-0.414032	
12.97	0.2090454	-0.7935181	
13.16	-0.1844482	-0.8616333	
13.35	-0.5493164	-0.7051392	
13.54	-0.5006104	-0.5285034	
13.73	-0.790741	0.4971008	
13.92	-0.3212585	0.7775269	
14.11	-0.1524963	-0.7377625	
14.3	-0.5444946	0.0814514	
14.49	-0.923645	0.3487244	
14.68	-0.7966309	0.5274048	
14.87	-0.3505249	0.8058167	
15.06	0.2940063	0.7945251	
15.25	0.7924194	0.3037415	
15.44	0.5828247	-0.5889893	
15.63	-0.7021484	-0.3541565	
15.82	-0.4406738	0.5657349	
16.01	0.475769	0.810791	
16.2	-0.3837738	-0.3472595	
16.39	0.8995667	0.1338501	
16.58	0.229538	0.4063416	
16.77	0.7993164	-0.08071899	
16.96	0.5827026	-0.5756531	
17.15	0.691803	-0.2850342	
17.34	0.5535583	-0.5515747	
17.53	0.1982422	-0.7826538	
17.72	-0.0975647	-0.7182007	
17.91	-0.2198181	-0.7434387	
18.1	-0.6721191	-0.8662415	
18.29	-0.9437866	-0.3317261	
18.48	-0.5322266	0.0303345	
18.67	-1.010986	-0.1478882	
18.86	-0.8912964	-0.03118896	
19.05	-0.1811523	0.5456238	
19.24	-0.9173584	0.5096436	
19.43	-0.8051758	0.7642822	
19.62	-0.6663208	0.7458496	
19.81	0.131897	0.7294617	
20.0	-0.02539063	0.850708	
