# GHz S RI R 50 
!freq	ReS11	ImS11	
1.0	-0.5783081	-0.2521362	
1.19	-0.687561	0.020752	
1.38	-0.6608887	0.2993164	
1.57	-0.5286255	0.5351563	
1.76	-0.2666626	0.7525024	
1.95	0.0772095	0.8175659	
2.14	0.401062	0.7481079	
2.33	0.6725464	0.5620117	
2.52	0.8258057	0.2789917	
2.71	0.9152832	-0.07373047	
2.9	0.8336182	-0.4081421	
3.09	0.6053467	-0.7081909	
3.28	0.2977905	-0.8572388	
3.47	-0.01501465	-0.9277344	
3.66	-0.3369751	-0.8414307	
3.85	-0.6610107	-0.6468506	
4.04	-0.8414307	-0.2858276	
4.23	-0.9106445	0.0661621	
4.42	-0.805542	0.4133301	
4.61	-0.5757446	0.7158813	
4.8	-0.2163696	0.913147	
4.99	0.2198486	0.9432373	
5.18	0.6277771	0.7832642	
5.37	0.9473877	0.3933716	
5.56	1.04541	-0.03546143	
5.75	0.9523315	-0.3980713	
5.94	0.5788574	-0.7816162	
6.13	0.0444946	-0.9683838	
6.32	-0.4138794	-0.8728027	
6.51	-0.7559814	-0.5296631	
6.7	-0.947937	0.0136108	
6.89	0.8413086	-0.5048828	
7.08	-0.8944092	0.1230469	
7.27	-0.4475708	0.7526245	
7.46	0.5632935	0.6844482	
7.65	-0.1317749	-0.9095459	
7.84	-0.8271484	0.5390015	
8.03	0.1376953	0.9110718	
8.22	0.9381104	0.1627808	
8.41	0.1550903	-0.9943848	
8.6	-0.8876038	0.243042	
8.79	0.152832	0.9170532	
8.98	0.87854	0.3712158	
9.17	0.5049744	-0.8158875	
9.36	-0.7730713	-0.5455627	
9.55	-0.8897705	0.2711792	
9.74	-0.2824097	0.9147949	
9.93	0.8154297	0.4911194	
10.12	0.5265503	-0.8526611	
10.31	-0.7573242	-0.5770874	
10.5	-0.7703247	0.525238	
10.69	-0.2237549	0.9593506	
10.88	0.447998	0.8876953	
11.07	0.9555664	0.1948242	
11.26	0.6437378	-0.7886658	
11.45	-0.7761841	-0.2901001	
11.64	0.4627075	0.6053162	
11.83	0.8613892	0.1571655	
12.02	0.8864136	-0.1982422	
12.21	0.7310181	-0.5003967	
12.4	0.1696777	-0.8235474	
12.59	-0.2741089	0.6679688	
12.78	0.6237793	-0.4089661	
12.97	0.2102051	-0.7929688	
13.16	-0.1868286	-0.8588867	
13.35	-0.5459595	-0.6995239	
13.54	-0.5037537	-0.5328369	
13.73	-0.7913513	0.4978333	
13.92	-0.328064	0.7784424	
14.11	-0.1515808	-0.7381592	
14.3	-0.5438232	0.0810852	
14.49	-0.9275818	0.349762	
14.68	-0.7984314	0.5255432	
14.87	-0.3407288	0.8044128	
15.06	0.291748	0.7886047	
15.25	0.7948914	0.3025208	
15.44	0.5789185	-0.5900574	
15.63	-0.7032166	-0.3561096	
15.82	-0.4411316	0.5632324	
16.01	0.4734497	0.8078613	
16.2	-0.3838654	-0.347702	
16.39	0.8996887	0.1343384	
16.58	0.2282715	0.4023743	
16.77	0.799469	-0.08102417	
16.96	0.5927429	-0.5766907	
17.15	0.6912537	-0.2866516	
17.34	0.5580139	-0.5525208	
17.53	0.2014465	-0.7822571	
17.72	-0.09622192	-0.7153015	
17.91	-0.2237244	-0.7395935	
18.1	-0.6713257	-0.8679504	
18.29	-0.9448853	-0.3329468	
18.48	-0.5326233	0.0291138	
18.67	-1.010986	-0.1489868	
18.86	-0.8916016	-0.03143311	
19.05	-0.1781311	0.5431213	
19.24	-0.9118652	0.5057373	
19.43	-0.809021	0.7559814	
19.62	-0.6584473	0.7470398	
19.81	0.1282654	0.7266235	
20.0	-0.02850342	0.848877	
