# GHz S RI R 50 
!freq	ReS11	ImS11	
1.0	-0.5759888	-0.2528076	
1.19	-0.6875	0.020874	
1.38	-0.6621094	0.2974243	
1.57	-0.5305786	0.5380859	
1.76	-0.2720947	0.7497559	
1.95	0.0794067	0.8181763	
2.14	0.4036865	0.7501831	
2.33	0.6709595	0.5629883	
2.52	0.8269653	0.2785034	
2.71	0.9144897	-0.07427979	
2.9	0.831543	-0.4090576	
3.09	0.6037598	-0.7088013	
3.28	0.2990723	-0.8546143	
3.47	-0.01257324	-0.930603	
3.66	-0.3415527	-0.8490601	
3.85	-0.6582642	-0.6464844	
4.04	-0.840271	-0.2851563	
4.23	-0.9099731	0.0650024	
4.42	-0.8051147	0.4121704	
4.61	-0.5759888	0.7158813	
4.8	-0.2199097	0.9154053	
4.99	0.211731	0.9501343	
5.18	0.6253967	0.7844238	
5.37	0.9475708	0.390686	
5.56	1.046753	-0.03497314	
5.75	0.9508057	-0.3942261	
5.94	0.576355	-0.786499	
6.13	0.0474243	-0.9691772	
6.32	-0.4100952	-0.8681641	
6.51	-0.7532349	-0.5286255	
6.7	-0.9475708	0.0139771	
6.89	0.84729	-0.5064087	
7.08	-0.8952637	0.1213379	
7.27	-0.4492798	0.7532959	
7.46	0.5627747	0.6811218	
7.65	-0.1335449	-0.9147949	
7.84	-0.8244019	0.5368042	
8.03	0.1375732	0.9047852	
8.22	0.9389038	0.1620483	
8.41	0.1474609	-0.9923096	
8.6	-0.8887329	0.2453308	
8.79	0.1524658	0.9137573	
8.98	0.8777466	0.372345	
9.17	0.5115967	-0.8148499	
9.36	-0.7780457	-0.5515747	
9.55	-0.8877563	0.2719727	
9.74	-0.2860718	0.9159546	
9.93	0.8160706	0.4935608	
10.12	0.5248413	-0.8477783	
10.31	-0.7590332	-0.5769958	
10.5	-0.7700806	0.5272217	
10.69	-0.2271729	0.9556885	
10.88	0.4512329	0.8850098	
11.07	0.9561768	0.1952515	
11.26	0.6373291	-0.800293	
11.45	-0.7775879	-0.2920532	
11.64	0.4615479	0.6006165	
11.83	0.8612671	0.1578369	
12.02	0.8867188	-0.1959839	
12.21	0.7333679	-0.5062866	
12.4	0.1621704	-0.8266602	
12.59	-0.2760925	0.6647949	
12.78	0.6220398	-0.4115906	
12.97	0.2148438	-0.7971191	
13.16	-0.1809692	-0.8605957	
13.35	-0.5480347	-0.7021484	
13.54	-0.5031128	-0.5270996	
13.73	-0.7904968	0.4980469	
13.92	-0.331543	0.782959	
14.11	-0.1509399	-0.7362366	
14.3	-0.5447388	0.0819092	
14.49	-0.9285889	0.3510437	
14.68	-0.8008423	0.5321045	
14.87	-0.3440247	0.8102722	
15.06	0.2914124	0.7857056	
15.25	0.7946777	0.3029175	
15.44	0.5795898	-0.5877991	
15.63	-0.703186	-0.3582153	
15.82	-0.4372864	0.5665894	
16.01	0.4746704	0.8098145	
16.2	-0.3830261	-0.3494568	
16.39	0.9000854	0.1346741	
16.58	0.2279663	0.4031677	
16.77	0.7991333	-0.08078003	
16.96	0.5905457	-0.5761108	
17.15	0.6922913	-0.2860413	
17.34	0.5522461	-0.5497742	
17.53	0.1964722	-0.7894897	
17.72	-0.09759521	-0.7156677	
17.91	-0.2179565	-0.7478943	
18.1	-0.6689758	-0.8659363	
18.29	-0.9441528	-0.3312378	
18.48	-0.5325928	0.0307312	
18.67	-1.011597	-0.149231	
18.86	-0.8916016	-0.03125	
19.05	-0.1784668	0.539917	
19.24	-0.9141846	0.5060425	
19.43	-0.8065796	0.7593384	
19.62	-0.6642456	0.7441406	
19.81	0.1264648	0.7339478	
20.0	-0.02307129	0.8426514	
