# GHz S RI R 50 
!freq	ReS11	ImS11	
1.0	-0.5774536	-0.2556152	
1.19	-0.6872559	0.020813	
1.38	-0.6618042	0.2979126	
1.57	-0.5310669	0.5391235	
1.76	-0.2740479	0.7459106	
1.95	0.0714722	0.8123169	
2.14	0.399292	0.7484741	
2.33	0.6765747	0.5619507	
2.52	0.8264771	0.2802124	
2.71	0.9151611	-0.07409668	
2.9	0.8305054	-0.40802	
3.09	0.6032104	-0.7033081	
3.28	0.2979126	-0.8575439	
3.47	-0.006958008	-0.9237671	
3.66	-0.3297119	-0.8444214	
3.85	-0.6582031	-0.6452026	
4.04	-0.840332	-0.2856445	
4.23	-0.9111938	0.0649414	
4.42	-0.8030396	0.4126587	
4.61	-0.5822754	0.7232666	
4.8	-0.2156372	0.9161377	
4.99	0.2236328	0.9473877	
5.18	0.6277771	0.7867432	
5.37	0.9476929	0.3922119	
5.56	1.045166	-0.03497314	
5.75	0.9454346	-0.3952026	
5.94	0.5771484	-0.7844238	
6.13	0.0535889	-0.972229	
6.32	-0.4135742	-0.8704224	
6.51	-0.757019	-0.5290527	
6.7	-0.9474487	0.0128784	
6.89	0.8474731	-0.5024414	
7.08	-0.8961792	0.121521	
7.27	-0.4472046	0.7564697	
7.46	0.5650024	0.6778564	
7.65	-0.1411743	-0.9101563	
7.84	-0.8217773	0.5397339	
8.03	0.1432495	0.9109497	
8.22	0.9378052	0.1618042	
8.41	0.1567993	-0.9910278	
8.6	-0.8863831	0.2431946	
8.79	0.1520386	0.9119263	
8.98	0.8789368	0.3747864	
9.17	0.5119934	-0.8089905	
9.36	-0.776123	-0.5466003	
9.55	-0.8862915	0.2698975	
9.74	-0.2942505	0.9203491	
9.93	0.8163452	0.492981	
10.12	0.5286255	-0.8508911	
10.31	-0.7568665	-0.5758057	
10.5	-0.7709351	0.5267639	
10.69	-0.2321777	0.9636841	
10.88	0.4526978	0.8858032	
11.07	0.9555664	0.1948242	
11.26	0.63797	-0.8052368	
11.45	-0.7789001	-0.2911377	
11.64	0.4593506	0.6047363	
11.83	0.8612061	0.1577759	
12.02	0.8881226	-0.1973267	
12.21	0.7329102	-0.5011597	
12.4	0.1616211	-0.8257446	
12.59	-0.2740784	0.6672363	
12.78	0.6173706	-0.4127808	
12.97	0.2156372	-0.7922974	
13.16	-0.1885376	-0.857605	
13.35	-0.5501709	-0.7011719	
13.54	-0.5041809	-0.5274658	
13.73	-0.7904358	0.496521	
13.92	-0.3282166	0.7842407	
14.11	-0.1509094	-0.7391357	
14.3	-0.5446167	0.0812988	
14.49	-0.9289856	0.3486938	
14.68	-0.7998047	0.5282898	
14.87	-0.3387451	0.806488	
15.06	0.287262	0.7859192	
15.25	0.7942505	0.3021545	
15.44	0.5845032	-0.5874329	
15.63	-0.7028503	-0.3581238	
15.82	-0.4386292	0.5657043	
16.01	0.4770508	0.8166504	
16.2	-0.3809509	-0.3486023	
16.39	0.900177	0.1341248	
16.58	0.2286377	0.4002838	
16.77	0.7985229	-0.08001709	
16.96	0.592804	-0.5738525	
17.15	0.6922607	-0.2854004	
17.34	0.5560608	-0.5537109	
17.53	0.2062073	-0.7815247	
17.72	-0.1004944	-0.7149963	
17.91	-0.2191467	-0.7444763	
18.1	-0.6720886	-0.8672485	
18.29	-0.9448242	-0.3323975	
18.48	-0.5324097	0.0296631	
18.67	-1.012329	-0.1490479	
18.86	-0.8915405	-0.03167725	
19.05	-0.1832275	0.5426025	
19.24	-0.9179688	0.5054932	
19.43	-0.7981567	0.7633057	
19.62	-0.6584778	0.7492981	
19.81	0.1246948	0.7279663	
20.0	-0.02954102	0.8486938	
