# GHz S RI R 50 
!freq	ReS11	ImS11	
1.0	-0.5775146	-0.2532959	
1.19	-0.6879272	0.0202637	
1.38	-0.6609497	0.2995605	
1.57	-0.5264893	0.5355225	
1.76	-0.2722778	0.7480469	
1.95	0.072876	0.8040771	
2.14	0.4033203	0.7399292	
2.33	0.6766357	0.5615845	
2.52	0.826355	0.2785034	
2.71	0.9173584	-0.07330322	
2.9	0.8297729	-0.4069214	
3.09	0.6069336	-0.7017212	
3.28	0.302002	-0.8520508	
3.47	-0.01348877	-0.9360352	
3.66	-0.3394775	-0.8465576	
3.85	-0.6600952	-0.6486816	
4.04	-0.8409424	-0.2852783	
4.23	-0.9111938	0.065979	
4.42	-0.8060913	0.4134521	
4.61	-0.5776367	0.72229	
4.8	-0.217041	0.9189453	
4.99	0.2133179	0.9541626	
5.18	0.6231384	0.7875671	
5.37	0.946167	0.3908081	
5.56	1.045044	-0.03570557	
5.75	0.9490356	-0.3986816	
5.94	0.5797119	-0.786438	
6.13	0.039917	-0.9752197	
6.32	-0.4091187	-0.8641357	
6.51	-0.7548523	-0.5332031	
6.7	-0.947876	0.0130005	
6.89	0.8413086	-0.5049438	
7.08	-0.8950806	0.1213989	
7.27	-0.4511719	0.7493286	
7.46	0.5620422	0.6806641	
7.65	-0.1372681	-0.9128418	
7.84	-0.8331909	0.541687	
8.03	0.1381836	0.9066772	
8.22	0.9384155	0.1628418	
8.41	0.1538696	-0.993103	
8.6	-0.8844299	0.2443848	
8.79	0.1491699	0.9190063	
8.98	0.8796997	0.3731689	
9.17	0.5021973	-0.80896	
9.36	-0.7794495	-0.548645	
9.55	-0.8903198	0.2719116	
9.74	-0.2920532	0.9194946	
9.93	0.8162537	0.4945068	
10.12	0.5236206	-0.8538208	
10.31	-0.760376	-0.5809631	
10.5	-0.773407	0.5238342	
10.69	-0.2337646	0.9691162	
10.88	0.4552612	0.8894653	
11.07	0.9557495	0.1954346	
11.26	0.6419983	-0.8062439	
11.45	-0.7774048	-0.291626	
11.64	0.4659729	0.6074524	
11.83	0.8615723	0.1569824	
12.02	0.887085	-0.1980591	
12.21	0.7331848	-0.5041809	
12.4	0.1639404	-0.8215332	
12.59	-0.2753906	0.6682129	
12.78	0.6206665	-0.4124451	
12.97	0.2180176	-0.795166	
13.16	-0.1798706	-0.8610229	
13.35	-0.5485229	-0.7051392	
13.54	-0.5046082	-0.5325928	
13.73	-0.7916565	0.4933777	
13.92	-0.3251038	0.7771912	
14.11	-0.1491089	-0.7385254	
14.3	-0.5450745	0.0821533	
14.49	-0.9261475	0.346344	
14.68	-0.8016663	0.5276489	
14.87	-0.3451233	0.811554	
15.06	0.2901611	0.7813721	
15.25	0.7947388	0.3035278	
15.44	0.5861206	-0.5892029	
15.63	-0.7064209	-0.3593445	
15.82	-0.4425354	0.565979	
16.01	0.4747009	0.8103333	
16.2	-0.3816986	-0.348938	
16.39	0.8999939	0.1347656	
16.58	0.2265472	0.4072571	
16.77	0.7991638	-0.07971191	
16.96	0.5899963	-0.5705566	
17.15	0.6905518	-0.2872925	
17.34	0.557251	-0.5510254	
17.53	0.2005005	-0.7877502	
17.72	-0.1010132	-0.7202759	
17.91	-0.219574	-0.7475891	
18.1	-0.6708069	-0.8673096	
18.29	-0.9428711	-0.3320313	
18.48	-0.5322571	0.0296936	
18.67	-1.010315	-0.1491699	
18.86	-0.8914795	-0.03149414	
19.05	-0.1779175	0.5439758	
19.24	-0.9168091	0.5097656	
19.43	-0.7965698	0.7619019	
19.62	-0.6550903	0.744873	
19.81	0.1351013	0.7244873	
20.0	-0.0289917	0.8475952	
