# GHz S RI R 50 
!freq	ReS11	ImS11	
1.0	-0.5791626	-0.2543945	
1.19	-0.6871338	0.0205688	
1.38	-0.6607056	0.2989502	
1.57	-0.5303955	0.5384521	
1.76	-0.2734985	0.7484131	
1.95	0.0764771	0.810791	
2.14	0.4021606	0.7484131	
2.33	0.6720581	0.5612183	
2.52	0.826416	0.2786255	
2.71	0.9165039	-0.07415771	
2.9	0.8317261	-0.4083252	
3.09	0.6062622	-0.7058716	
3.28	0.2958374	-0.8621826	
3.47	-0.006469727	-0.9401245	
3.66	-0.3347778	-0.854126	
3.85	-0.6570435	-0.6497192	
4.04	-0.8411865	-0.2866211	
4.23	-0.9108887	0.0647583	
4.42	-0.7957764	0.4130859	
4.61	-0.5750732	0.7243652	
4.8	-0.2138672	0.9235229	
4.99	0.2254028	0.9432373	
5.18	0.6216736	0.7859497	
5.37	0.9464111	0.3927612	
5.56	1.0448	-0.0357666	
5.75	0.9515991	-0.3942261	
5.94	0.5823364	-0.7849731	
6.13	0.0427246	-0.9683228	
6.32	-0.411438	-0.8658447	
6.51	-0.7530823	-0.5321655	
6.7	-0.947876	0.0137329	
6.89	0.8458862	-0.5036621	
7.08	-0.895813	0.1222534	
7.27	-0.4550781	0.7478638	
7.46	0.5629272	0.6841736	
7.65	-0.1331787	-0.9130859	
7.84	-0.8276978	0.5391235	
8.03	0.1400757	0.9124756	
8.22	0.9387207	0.1622314	
8.41	0.1564331	-0.9926758	
8.6	-0.8870544	0.2441711	
8.79	0.1466675	0.9178467	
8.98	0.8776245	0.3737183	
9.17	0.5057068	-0.8123779	
9.36	-0.7752075	-0.5496521	
9.55	-0.8878784	0.2705688	
9.74	-0.289856	0.9134521	
9.93	0.8170166	0.491394	
10.12	0.52771	-0.8546143	
10.31	-0.7625122	-0.5784302	
10.5	-0.7688599	0.5264282	
10.69	-0.2262573	0.9612427	
10.88	0.4573975	0.8840332	
11.07	0.9567261	0.1950073	
11.26	0.6457825	-0.8061829	
11.45	-0.7772217	-0.2935181	
11.64	0.4669495	0.6077881	
11.83	0.8620605	0.1576538	
12.02	0.8873901	-0.1977539	
12.21	0.730011	-0.502533	
12.4	0.1581421	-0.8231812	
12.59	-0.2702942	0.6664124	
12.78	0.6206055	-0.4107666	
12.97	0.2167969	-0.796814	
13.16	-0.184082	-0.8582153	
13.35	-0.548584	-0.703186	
13.54	-0.5041199	-0.5302734	
13.73	-0.7966614	0.4973755	
13.92	-0.3291016	0.7802124	
14.11	-0.1412048	-0.7409668	
14.3	-0.5444641	0.0805054	
14.49	-0.927002	0.3497009	
14.68	-0.798645	0.5291138	
14.87	-0.3511353	0.8126526	
15.06	0.2903748	0.7897644	
15.25	0.7926941	0.302887	
15.44	0.5810852	-0.5858765	
15.63	-0.7030945	-0.3587036	
15.82	-0.440979	0.5682678	
16.01	0.4752808	0.8120117	
16.2	-0.3825378	-0.3489685	
16.39	0.8994141	0.1349792	
16.58	0.2280884	0.4030151	
16.77	0.8000488	-0.08151245	
16.96	0.5834961	-0.5726318	
17.15	0.6928101	-0.287384	
17.34	0.5553894	-0.5493164	
17.53	0.2047119	-0.7876587	
17.72	-0.1036072	-0.7172852	
17.91	-0.2189941	-0.7473755	
18.1	-0.6643066	-0.8644714	
18.29	-0.942627	-0.3307495	
18.48	-0.5328674	0.0293274	
18.67	-1.011047	-0.1490479	
18.86	-0.8916016	-0.03112793	
19.05	-0.1845093	0.5437317	
19.24	-0.9177856	0.5045166	
19.43	-0.8018799	0.7626343	
19.62	-0.6594238	0.7484131	
19.81	0.1312561	0.7244568	
20.0	-0.02423096	0.850769	
