# GHz S RI R 50 
!freq	ReS11	ImS11	
1.0	-0.5767822	-0.2563477	
1.19	-0.687561	0.020752	
1.38	-0.6606445	0.2973633	
1.57	-0.5301514	0.534668	
1.76	-0.2681274	0.7484131	
1.95	0.0773926	0.8097534	
2.14	0.4025269	0.7466431	
2.33	0.6746826	0.5612793	
2.52	0.826355	0.2799072	
2.71	0.9140625	-0.07391357	
2.9	0.8282471	-0.4104004	
3.09	0.6065063	-0.7040405	
3.28	0.2993774	-0.8532104	
3.47	-0.01391602	-0.9317627	
3.66	-0.3418579	-0.8452148	
3.85	-0.6558228	-0.6465454	
4.04	-0.8404541	-0.2854004	
4.23	-0.9109497	0.0650024	
4.42	-0.8046265	0.4133301	
4.61	-0.5846558	0.729248	
4.8	-0.2172241	0.921936	
4.99	0.2078247	0.9411011	
5.18	0.631958	0.7802124	
5.37	0.9470825	0.3916626	
5.56	1.045959	-0.03607178	
5.75	0.9447632	-0.3959351	
5.94	0.5782471	-0.7937622	
6.13	0.0379639	-0.9725342	
6.32	-0.4103394	-0.869812	
6.51	-0.7578125	-0.5281982	
6.7	-0.947998	0.0131226	
6.89	0.8435059	-0.5066528	
7.08	-0.8942871	0.1226807	
7.27	-0.4504395	0.7514648	
7.46	0.5646362	0.6794739	
7.65	-0.1339111	-0.9100952	
7.84	-0.8237305	0.5426636	
8.03	0.1372681	0.913269	
8.22	0.9390259	0.1618042	
8.41	0.1500244	-0.9905396	
8.6	-0.8859863	0.2417908	
8.79	0.149353	0.9125366	
8.98	0.8781738	0.3731689	
9.17	0.5057678	-0.8119202	
9.36	-0.776825	-0.5479126	
9.55	-0.8893433	0.2689819	
9.74	-0.291748	0.921814	
9.93	0.816925	0.4956055	
10.12	0.5270996	-0.8597412	
10.31	-0.7593689	-0.5821838	
10.5	-0.768158	0.5267944	
10.69	-0.2346191	0.9518433	
10.88	0.4517822	0.8862915	
11.07	0.9550171	0.1950684	
11.26	0.6386414	-0.8062744	
11.45	-0.776825	-0.2944336	
11.64	0.4647827	0.6089478	
11.83	0.8615723	0.1575317	
12.02	0.8878784	-0.197998	
12.21	0.7321167	-0.5022278	
12.4	0.1602173	-0.8319092	
12.59	-0.2756348	0.6663513	
12.78	0.6229553	-0.4091797	
12.97	0.2138062	-0.7943115	
13.16	-0.1862793	-0.8631592	
13.35	-0.5440674	-0.7069702	
13.54	-0.5000916	-0.5306091	
13.73	-0.7904358	0.4958801	
13.92	-0.3299561	0.7810669	
14.11	-0.1520081	-0.7363586	
14.3	-0.5455322	0.0814209	
14.49	-0.9308472	0.3488464	
14.68	-0.7988892	0.5264587	
14.87	-0.3427124	0.8092346	
15.06	0.2909241	0.7877502	
15.25	0.7936707	0.302948	
15.44	0.5840759	-0.5891113	
15.63	-0.7015991	-0.3597412	
15.82	-0.4390869	0.5661316	
16.01	0.4734497	0.8149414	
16.2	-0.3803711	-0.3487549	
16.39	0.8999939	0.1347046	
16.58	0.2275085	0.4029236	
16.77	0.8004456	-0.08029175	
16.96	0.5861206	-0.5751343	
17.15	0.6940002	-0.2854919	
17.34	0.5587769	-0.5492249	
17.53	0.204895	-0.7867126	
17.72	-0.1021423	-0.7220764	
17.91	-0.2178345	-0.7449036	
18.1	-0.6688232	-0.8626709	
18.29	-0.9432983	-0.3319702	
18.48	-0.5327759	0.0305481	
18.67	-1.011353	-0.1494141	
18.86	-0.8919067	-0.03198242	
19.05	-0.1836853	0.5424805	
19.24	-0.9145508	0.5146484	
19.43	-0.8029175	0.7630005	
19.62	-0.6609802	0.7398376	
19.81	0.1368713	0.729126	
20.0	-0.02423096	0.8453979	
