# GHz S RI R 50 
!freq	ReS11	ImS11	
1.0	-0.5766602	-0.2519531	
1.19	-0.6877441	0.0209351	
1.38	-0.6611328	0.2987671	
1.57	-0.5331726	0.5382996	
1.76	-0.2718506	0.7507324	
1.95	0.0813599	0.8170166	
2.14	0.4065552	0.7421875	
2.33	0.6728516	0.5611572	
2.52	0.8261108	0.2791138	
2.71	0.9154663	-0.07446289	
2.9	0.8320313	-0.4094238	
3.09	0.6038208	-0.7075806	
3.28	0.296814	-0.8560181	
3.47	-0.01226807	-0.9273682	
3.66	-0.3390503	-0.8492432	
3.85	-0.6629028	-0.6495972	
4.04	-0.8417358	-0.2858276	
4.23	-0.9108276	0.0648804	
4.42	-0.805481	0.40625	
4.61	-0.5818481	0.7225952	
4.8	-0.2098389	0.9228516	
4.99	0.2136841	0.9400635	
5.18	0.6252136	0.7832031	
5.37	0.9467163	0.3922729	
5.56	1.045349	-0.03424072	
5.75	0.9467163	-0.3983765	
5.94	0.572937	-0.7909546	
6.13	0.0455933	-0.9705811	
6.32	-0.4161377	-0.8703003	
6.51	-0.7553101	-0.5275269	
6.7	-0.9470215	0.0126343	
6.89	0.8453369	-0.5044556	
7.08	-0.8950195	0.121582	
7.27	-0.4530029	0.7550659	
7.46	0.5633545	0.6816711	
7.65	-0.1380615	-0.9086304	
7.84	-0.8305054	0.5407104	
8.03	0.135498	0.9140015	
8.22	0.9385986	0.1622314	
8.41	0.1538086	-0.987854	
8.6	-0.8862305	0.2421875	
8.79	0.1448975	0.9210815	
8.98	0.8770142	0.3710938	
9.17	0.5090332	-0.8080444	
9.36	-0.7766724	-0.5486145	
9.55	-0.8905029	0.2706909	
9.74	-0.2904053	0.9187012	
9.93	0.815918	0.4940796	
10.12	0.5286255	-0.8536987	
10.31	-0.7616272	-0.5791626	
10.5	-0.7724609	0.5245667	
10.69	-0.2313232	0.9587402	
10.88	0.4591064	0.8861084	
11.07	0.9555664	0.194519	
11.26	0.6408997	-0.8017883	
11.45	-0.7786865	-0.2926636	
11.64	0.4614258	0.6070251	
11.83	0.8612671	0.1575928	
12.02	0.8881836	-0.1980591	
12.21	0.7298279	-0.5037231	
12.4	0.1669922	-0.8300171	
12.59	-0.2739868	0.6659546	
12.78	0.6238403	-0.40979	
12.97	0.2139893	-0.7975464	
13.16	-0.1908569	-0.8533325	
13.35	-0.5487061	-0.6999512	
13.54	-0.5031433	-0.5267944	
13.73	-0.7909851	0.4964905	
13.92	-0.3257446	0.7928162	
14.11	-0.1505127	-0.7401123	
14.3	-0.5442505	0.0827942	
14.49	-0.9275208	0.3492737	
14.68	-0.7994995	0.5265198	
14.87	-0.3466797	0.8050842	
15.06	0.297699	0.7867432	
15.25	0.7945557	0.3023071	
15.44	0.5751648	-0.5873718	
15.63	-0.7037964	-0.3605042	
15.82	-0.4424744	0.5663147	
16.01	0.4700928	0.8081665	
16.2	-0.3801117	-0.348526	
16.39	0.8998718	0.1350403	
16.58	0.2267303	0.4038696	
16.77	0.7995911	-0.08114624	
16.96	0.5875244	-0.5751038	
17.15	0.6938171	-0.2864685	
17.34	0.553009	-0.5498352	
17.53	0.2025146	-0.7901001	
17.72	-0.1040649	-0.7163391	
17.91	-0.2173462	-0.7501831	
18.1	-0.6705627	-0.8639832	
18.29	-0.9433594	-0.3305664	
18.48	-0.5327759	0.0298157	
18.67	-1.01178	-0.149292	
18.86	-0.8917236	-0.03167725	
19.05	-0.1783752	0.538208	
19.24	-0.918335	0.5049438	
19.43	-0.8040771	0.7619019	
19.62	-0.6653137	0.7444763	
19.81	0.1312256	0.7266541	
20.0	-0.02435303	0.850769	
