# GHz S RI R 50 
!freq	ReS11	ImS11	
1.0	-0.578064	-0.2536621	
1.19	-0.687439	0.0205688	
1.38	-0.6637573	0.3004761	
1.57	-0.5322876	0.5372314	
1.76	-0.2713623	0.755249	
1.95	0.0819092	0.8101807	
2.14	0.4040527	0.7471924	
2.33	0.6759033	0.5604248	
2.52	0.8260498	0.277832	
2.71	0.9162598	-0.07342529	
2.9	0.8293457	-0.40625	
3.09	0.604126	-0.7032471	
3.28	0.2959595	-0.8487549	
3.47	-0.01495361	-0.9246216	
3.66	-0.3326416	-0.843811	
3.85	-0.6555786	-0.6464233	
4.04	-0.8414917	-0.2852173	
4.23	-0.9099121	0.0645752	
4.42	-0.8046875	0.4133911	
4.61	-0.5843506	0.723938	
4.8	-0.2160034	0.9262085	
4.99	0.2208252	0.94104	
5.18	0.6268921	0.7873535	
5.37	0.9476318	0.3911133	
5.56	1.044922	-0.03601074	
5.75	0.9440918	-0.3955078	
5.94	0.5774536	-0.7849731	
6.13	0.0473022	-0.9680176	
6.32	-0.4110718	-0.8656006	
6.51	-0.7546692	-0.532959	
6.7	-0.9484863	0.0131226	
6.89	0.8459473	-0.5018921	
7.08	-0.8945313	0.1221924	
7.27	-0.4484863	0.7460938	
7.46	0.5628052	0.6835327	
7.65	-0.1377563	-0.9066162	
7.84	-0.8250122	0.5408325	
8.03	0.1332397	0.9163818	
8.22	0.9381714	0.1624146	
8.41	0.1578979	-0.9859009	
8.6	-0.8871155	0.2427673	
8.79	0.1506348	0.9172363	
8.98	0.8789063	0.375946	
9.17	0.5111694	-0.8164673	
9.36	-0.7785339	-0.5531311	
9.55	-0.8887939	0.270813	
9.74	-0.2832031	0.9187622	
9.93	0.8204041	0.4956665	
10.12	0.5247192	-0.8479004	
10.31	-0.7661743	-0.5800171	
10.5	-0.7705078	0.5260925	
10.69	-0.227356	0.9579468	
10.88	0.4502563	0.8824463	
11.07	0.9570923	0.1942749	
11.26	0.6401978	-0.7954407	
11.45	-0.7784119	-0.2928467	
11.64	0.4638062	0.608429	
11.83	0.8618774	0.1574097	
12.02	0.8886108	-0.1960449	
12.21	0.7327576	-0.500885	
12.4	0.1638794	-0.8292236	
12.59	-0.2731018	0.6638489	
12.78	0.6206055	-0.4148254	
12.97	0.211731	-0.7945557	
13.16	-0.1891479	-0.8592529	
13.35	-0.5504761	-0.7104492	
13.54	-0.5007629	-0.5307617	
13.73	-0.7891846	0.4984131	
13.92	-0.3343506	0.7798462	
14.11	-0.1512146	-0.7353821	
14.3	-0.5443115	0.0820618	
14.49	-0.9290161	0.3493347	
14.68	-0.8047791	0.5290222	
14.87	-0.3450928	0.8035583	
15.06	0.2885437	0.7941284	
15.25	0.7937317	0.3016052	
15.44	0.5864868	-0.5859375	
15.63	-0.7019958	-0.3580627	
15.82	-0.4433899	0.5641785	
16.01	0.4718323	0.8149719	
16.2	-0.3817902	-0.3500824	
16.39	0.9004517	0.1352539	
16.58	0.2254486	0.4008789	
16.77	0.7999878	-0.08062744	
16.96	0.5927734	-0.5762024	
17.15	0.6940002	-0.2839966	
17.34	0.5534058	-0.5514221	
17.53	0.206665	-0.7845154	
17.72	-0.09307861	-0.7145996	
17.91	-0.2195129	-0.7435608	
18.1	-0.6673889	-0.8601685	
18.29	-0.9458008	-0.333252	
18.48	-0.5331726	0.0300598	
18.67	-1.010498	-0.1489258	
18.86	-0.8916016	-0.03198242	
19.05	-0.1806335	0.5435486	
19.24	-0.9191895	0.5080566	
19.43	-0.8076172	0.7678833	
19.62	-0.6607056	0.7412109	
19.81	0.1278687	0.7266235	
20.0	-0.02325439	0.8520508	
