# GHz S RI R 50 
!freq	ReS11	ImS11	
1.0	-0.5769043	-0.2536011	
1.19	-0.6870728	0.0210571	
1.38	-0.6596069	0.2990723	
1.57	-0.52948	0.5357666	
1.76	-0.2697754	0.757019	
1.95	0.072998	0.8183594	
2.14	0.40448	0.7441406	
2.33	0.6761475	0.5621338	
2.52	0.8258667	0.2804565	
2.71	0.9158325	-0.07244873	
2.9	0.8319092	-0.4052124	
3.09	0.6095581	-0.7046509	
3.28	0.2963867	-0.8531494	
3.47	-0.01361084	-0.9262695	
3.66	-0.3375854	-0.8478394	
3.85	-0.6576538	-0.6477051	
4.04	-0.8417969	-0.2866821	
4.23	-0.9109497	0.0654907	
4.42	-0.8031006	0.4156494	
4.61	-0.5854492	0.7294312	
4.8	-0.2177734	0.9143677	
4.99	0.2265625	0.9490967	
5.18	0.6233521	0.790802	
5.37	0.9483643	0.3927612	
5.56	1.045654	-0.03533936	
5.75	0.9492188	-0.3967896	
5.94	0.5838318	-0.7858276	
6.13	0.0466309	-0.9608154	
6.32	-0.4075317	-0.8703003	
6.51	-0.7563477	-0.5298462	
6.7	-0.947876	0.0136719	
6.89	0.84552	-0.5062866	
7.08	-0.8948975	0.1220703	
7.27	-0.4508057	0.755127	
7.46	0.5625	0.6852722	
7.65	-0.1309204	-0.9140015	
7.84	-0.8258057	0.5393677	
8.03	0.1447144	0.90979	
8.22	0.9379272	0.1616211	
8.41	0.1534424	-0.9866333	
8.6	-0.8885193	0.2437744	
8.79	0.1445923	0.9142456	
8.98	0.8786011	0.3729248	
9.17	0.5126038	-0.8145447	
9.36	-0.7745972	-0.5510254	
9.55	-0.8916626	0.2713013	
9.74	-0.2874146	0.9160767	
9.93	0.8160706	0.4943542	
10.12	0.5254517	-0.8520508	
10.31	-0.7617493	-0.5783691	
10.5	-0.7731323	0.5271606	
10.69	-0.2299805	0.9529419	
10.88	0.4510498	0.8831787	
11.07	0.9556274	0.1950684	
11.26	0.6470642	-0.7985229	
11.45	-0.7782288	-0.2919617	
11.64	0.4649963	0.6088257	
11.83	0.8616943	0.1573486	
12.02	0.8890991	-0.1978149	
12.21	0.7324524	-0.506134	
12.4	0.1580811	-0.8279419	
12.59	-0.2736206	0.6694336	
12.78	0.6243286	-0.4120483	
12.97	0.2132568	-0.7927246	
13.16	-0.1869507	-0.8606567	
13.35	-0.5481567	-0.7052612	
13.54	-0.5033264	-0.5298767	
13.73	-0.7894287	0.4958496	
13.92	-0.3268127	0.7834778	
14.11	-0.1505127	-0.7367859	
14.3	-0.5446472	0.0808716	
14.49	-0.9270325	0.3463135	
14.68	-0.8031006	0.5276184	
14.87	-0.3421326	0.8116455	
15.06	0.2935791	0.7884827	
15.25	0.7941589	0.3008423	
15.44	0.5818481	-0.5882874	
15.63	-0.7018433	-0.3583069	
15.82	-0.440918	0.5682983	
16.01	0.4816284	0.8132324	
16.2	-0.383194	-0.3501129	
16.39	0.8999939	0.1344604	
16.58	0.227478	0.4005127	
16.77	0.7998962	-0.08081055	
16.96	0.5893555	-0.5811462	
17.15	0.6921997	-0.2848206	
17.34	0.5571289	-0.5494995	
17.53	0.2036438	-0.7887268	
17.72	-0.09875488	-0.7178955	
17.91	-0.2178345	-0.7435303	
18.1	-0.6689453	-0.8661499	
18.29	-0.9443359	-0.3329468	
18.48	-0.5322266	0.0303955	
18.67	-1.01123	-0.1488647	
18.86	-0.8916626	-0.03155518	
19.05	-0.1802979	0.5395813	
19.24	-0.9147339	0.5057983	
19.43	-0.7978516	0.7649536	
19.62	-0.6555176	0.7461548	
19.81	0.1311646	0.7242737	
20.0	-0.02606201	0.8456421	
