# GHz S RI R 50 
!freq	ReS11	ImS11	
1.0	-0.5769043	-0.2536011	
1.19	-0.687561	0.0211182	
1.38	-0.6613159	0.302063	
1.57	-0.5308838	0.5379028	
1.76	-0.2724609	0.7511597	
1.95	0.0783081	0.8181152	
2.14	0.4063721	0.7458496	
2.33	0.6748047	0.5623169	
2.52	0.8261719	0.2799683	
2.71	0.9147339	-0.07495117	
2.9	0.8302002	-0.4107056	
3.09	0.6054077	-0.7009888	
3.28	0.2957153	-0.8560791	
3.47	-0.0144043	-0.9243164	
3.66	-0.3354492	-0.8397827	
3.85	-0.6600342	-0.6494751	
4.04	-0.8406982	-0.2856445	
4.23	-0.9110107	0.0640869	
4.42	-0.8012085	0.4119873	
4.61	-0.5769653	0.7235107	
4.8	-0.2108154	0.9169922	
4.99	0.2158203	0.9360352	
5.18	0.6273499	0.783905	
5.37	0.9467163	0.3913574	
5.56	1.045044	-0.03442383	
5.75	0.9465942	-0.3997192	
5.94	0.5750122	-0.7827148	
6.13	0.0420532	-0.9702759	
6.32	-0.4144287	-0.8708496	
6.51	-0.7567749	-0.5297852	
6.7	-0.947876	0.0131836	
6.89	0.8447876	-0.5037842	
7.08	-0.8956299	0.1224976	
7.27	-0.4503174	0.7477417	
7.46	0.5680237	0.6794739	
7.65	-0.1351929	-0.9109497	
7.84	-0.8269043	0.5428467	
8.03	0.1438599	0.9105225	
8.22	0.9387207	0.1620483	
8.41	0.1508179	-0.9926758	
8.6	-0.8849792	0.245636	
8.79	0.1522827	0.9152222	
8.98	0.8801575	0.3728027	
9.17	0.5015869	-0.8113403	
9.36	-0.7797241	-0.5440063	
9.55	-0.890625	0.272522	
9.74	-0.2838135	0.916626	
9.93	0.8164063	0.4914246	
10.12	0.5233765	-0.8519287	
10.31	-0.7601318	-0.5805359	
10.5	-0.7715759	0.5249023	
10.69	-0.2337646	0.9619751	
10.88	0.4539185	0.8853149	
11.07	0.9556885	0.1953125	
11.26	0.6387329	-0.8024292	
11.45	-0.7778931	-0.2912598	
11.64	0.4685059	0.6087036	
11.83	0.8620605	0.1576538	
12.02	0.8865967	-0.1984863	
12.21	0.7337646	-0.5027771	
12.4	0.1610718	-0.8220215	
12.59	-0.269043	0.6624756	
12.78	0.6252747	-0.4068298	
12.97	0.2182617	-0.7954712	
13.16	-0.1760864	-0.8569336	
13.35	-0.5456543	-0.7068481	
13.54	-0.5081177	-0.5310364	
13.73	-0.7921448	0.4954834	
13.92	-0.333252	0.7801208	
14.11	-0.1505737	-0.7359924	
14.3	-0.5440063	0.0808411	
14.49	-0.9259338	0.3492737	
14.68	-0.8005981	0.5313416	
14.87	-0.3430786	0.8122864	
15.06	0.2934265	0.7911072	
15.25	0.7954712	0.3010254	
15.44	0.5802307	-0.5889282	
15.63	-0.7050171	-0.3580017	
15.82	-0.4380493	0.5648804	
16.01	0.4763794	0.8094482	
16.2	-0.3833618	-0.3488312	
16.39	0.9000244	0.1334229	
16.58	0.2302856	0.4015961	
16.77	0.7992859	-0.08071899	
16.96	0.5844727	-0.5749512	
17.15	0.6926575	-0.2875061	
17.34	0.5553284	-0.5509338	
17.53	0.1999207	-0.7840576	
17.72	-0.09881592	-0.7142334	
17.91	-0.2182922	-0.7466431	
18.1	-0.6719971	-0.8671875	
18.29	-0.9436646	-0.3326416	
18.48	-0.5317383	0.0307922	
18.67	-1.011292	-0.1481323	
18.86	-0.8914185	-0.03094482	
19.05	-0.1795349	0.5380249	
19.24	-0.9158936	0.5072021	
19.43	-0.805481	0.7589111	
19.62	-0.6568604	0.7445068	
19.81	0.1304626	0.7192993	
20.0	-0.02624512	0.8499756	
