# GHz S RI R 50 
!freq	ReS11	ImS11	
1.0	-0.5762939	-0.2537231	
1.19	-0.6878052	0.0209351	
1.38	-0.661499	0.2967529	
1.57	-0.5308228	0.5368652	
1.76	-0.272583	0.7537842	
1.95	0.0780029	0.8172607	
2.14	0.4041748	0.7490845	
2.33	0.6761475	0.5640259	
2.52	0.8270264	0.2809448	
2.71	0.9161377	-0.07342529	
2.9	0.8303223	-0.4083862	
3.09	0.600769	-0.7067871	
3.28	0.3024292	-0.8598633	
3.47	-0.01367188	-0.9291382	
3.66	-0.3439941	-0.8463135	
3.85	-0.6636963	-0.6506958	
4.04	-0.8417969	-0.284729	
4.23	-0.9106445	0.0656738	
4.42	-0.803833	0.4090576	
4.61	-0.5801392	0.7192993	
4.8	-0.2150269	0.921875	
4.99	0.2166138	0.9449463	
5.18	0.6183472	0.7827148	
5.37	0.9471436	0.3911743	
5.56	1.045044	-0.03521729	
5.75	0.9487915	-0.3988037	
5.94	0.5819092	-0.7896118	
6.13	0.0431519	-0.9746094	
6.32	-0.4155273	-0.8735962	
6.51	-0.7556763	-0.5272827	
6.7	-0.9471436	0.0134277	
6.89	0.8442383	-0.5047607	
7.08	-0.8947754	0.12323	
7.27	-0.4497681	0.7496948	
7.46	0.5636292	0.6789246	
7.65	-0.1363525	-0.9172363	
7.84	-0.8258667	0.541626	
8.03	0.1377563	0.90979	
8.22	0.9381104	0.1616821	
8.41	0.1574707	-0.9912109	
8.6	-0.8876953	0.2456055	
8.79	0.1456909	0.9141235	
8.98	0.8806763	0.3733521	
9.17	0.5061035	-0.8126831	
9.36	-0.7772522	-0.5480042	
9.55	-0.890625	0.2697754	
9.74	-0.289856	0.9043579	
9.93	0.8161316	0.4952698	
10.12	0.5321045	-0.8588867	
10.31	-0.759491	-0.5779724	
10.5	-0.7731628	0.5267944	
10.69	-0.229248	0.9567871	
10.88	0.4492188	0.8839111	
11.07	0.956543	0.1955566	
11.26	0.6428833	-0.809967	
11.45	-0.7791443	-0.2928772	
11.64	0.4640808	0.6074524	
11.83	0.8619385	0.1572266	
12.02	0.8883057	-0.1975708	
12.21	0.7311401	-0.5007019	
12.4	0.1610718	-0.824707	
12.59	-0.2750244	0.6684875	
12.78	0.6226196	-0.4107971	
12.97	0.2159424	-0.7999268	
13.16	-0.1878662	-0.8583984	
13.35	-0.5454712	-0.7045288	
13.54	-0.5014954	-0.5276794	
13.73	-0.7901001	0.4935913	
13.92	-0.3265991	0.7791138	
14.11	-0.1541748	-0.7421875	
14.3	-0.5457153	0.0812378	
14.49	-0.9253235	0.3504944	
14.68	-0.7949829	0.5276184	
14.87	-0.3421631	0.8098755	
15.06	0.2916565	0.7902832	
15.25	0.7930908	0.3015442	
15.44	0.5748291	-0.5905151	
15.63	-0.7035828	-0.3562927	
15.82	-0.4413757	0.561615	
16.01	0.4792175	0.8053589	
16.2	-0.3842316	-0.3486176	
16.39	0.9003296	0.1345825	
16.58	0.2298431	0.3994293	
16.77	0.7998352	-0.08071899	
16.96	0.5888672	-0.5802612	
17.15	0.6932983	-0.2860107	
17.34	0.5568237	-0.5514221	
17.53	0.2043457	-0.7806091	
17.72	-0.09967041	-0.7171326	
17.91	-0.2210083	-0.7480774	
18.1	-0.6682434	-0.8682861	
18.29	-0.9435425	-0.3320923	
18.48	-0.5323181	0.0303345	
18.67	-1.011108	-0.1480713	
18.86	-0.8912964	-0.03137207	
19.05	-0.1801453	0.5419312	
19.24	-0.9108887	0.5090942	
19.43	-0.7994995	0.7559204	
19.62	-0.6616821	0.7462769	
19.81	0.1307678	0.7246704	
20.0	-0.02734375	0.8478394	
