# GHz S RI R 50 
!freq	ReS11	ImS11	
1.0	-0.576416	-0.25354	
1.19	-0.687561	0.0206299	
1.38	-0.6627197	0.2985229	
1.57	-0.5303955	0.5355225	
1.76	-0.2758179	0.7553101	
1.95	0.078064	0.8158569	
2.14	0.4024658	0.74646	
2.33	0.6746216	0.5612183	
2.52	0.8267212	0.2791748	
2.71	0.9144897	-0.07269287	
2.9	0.8301392	-0.4064331	
3.09	0.6066284	-0.7026978	
3.28	0.3013306	-0.8537598	
3.47	-0.009155273	-0.9276123	
3.66	-0.3354492	-0.8441772	
3.85	-0.6576538	-0.6500244	
4.04	-0.8416748	-0.284668	
4.23	-0.9105225	0.0647583	
4.42	-0.8050537	0.4127197	
4.61	-0.5820313	0.7241821	
4.8	-0.2162476	0.9206543	
4.99	0.2142334	0.946167	
5.18	0.627533	0.7875977	
5.37	0.946228	0.3922729	
5.56	1.045166	-0.03533936	
5.75	0.9467773	-0.3927612	
5.94	0.576355	-0.7894897	
6.13	0.0435791	-0.9710083	
6.32	-0.4094238	-0.8617554	
6.51	-0.7581787	-0.5263062	
6.7	-0.947876	0.0134888	
6.89	0.8434448	-0.5057983	
7.08	-0.8951416	0.1218872	
7.27	-0.4498291	0.7523804	
7.46	0.5649414	0.6806335	
7.65	-0.1358032	-0.9140015	
7.84	-0.8277588	0.538208	
8.03	0.1348267	0.90802	
8.22	0.9380493	0.1620483	
8.41	0.1536865	-0.9932861	
8.6	-0.8849792	0.243927	
8.79	0.1410522	0.9204712	
8.98	0.8799438	0.3704834	
9.17	0.5063477	-0.8075867	
9.36	-0.7770996	-0.5505066	
9.55	-0.8886108	0.270752	
9.74	-0.2845459	0.9197998	
9.93	0.8172607	0.4938049	
10.12	0.52771	-0.854248	
10.31	-0.7617188	-0.578125	
10.5	-0.7686462	0.5226746	
10.69	-0.2267456	0.9597168	
10.88	0.4482422	0.8830566	
11.07	0.9559937	0.194397	
11.26	0.6427612	-0.7967529	
11.45	-0.7792053	-0.2912292	
11.64	0.4664307	0.6055603	
11.83	0.8623047	0.1569824	
12.02	0.8884277	-0.1984253	
12.21	0.7330017	-0.5013733	
12.4	0.1572876	-0.8301392	
12.59	-0.2713928	0.666687	
12.78	0.6235046	-0.4126892	
12.97	0.2131348	-0.7949219	
13.16	-0.1878662	-0.8557739	
13.35	-0.5496826	-0.7036743	
13.54	-0.4994812	-0.5301819	
13.73	-0.7915955	0.5010986	
13.92	-0.3260803	0.7807617	
14.11	-0.1507874	-0.7395325	
14.3	-0.544342	0.0825195	
14.49	-0.9266968	0.3464966	
14.68	-0.8018494	0.5283508	
14.87	-0.3548584	0.8079834	
15.06	0.2877197	0.7919006	
15.25	0.7948303	0.3025818	
15.44	0.5830078	-0.5877991	
15.63	-0.7018433	-0.3584595	
15.82	-0.4432373	0.5687866	
16.01	0.4722595	0.8117676	
16.2	-0.3810272	-0.3492584	
16.39	0.8999023	0.1344604	
16.58	0.2227173	0.4046326	
16.77	0.7990417	-0.08050537	
16.96	0.5827026	-0.5732727	
17.15	0.68927	-0.2870483	
17.34	0.5561829	-0.5527649	
17.53	0.2069397	-0.7858887	
17.72	-0.09738159	-0.7146912	
17.91	-0.2173462	-0.7477417	
18.1	-0.6686096	-0.8640137	
18.29	-0.9445801	-0.3306885	
18.48	-0.5327454	0.0299377	
18.67	-1.010986	-0.1495361	
18.86	-0.8916626	-0.03198242	
19.05	-0.1794128	0.5405273	
19.24	-0.9212036	0.5103149	
19.43	-0.7975769	0.7686462	
19.62	-0.6591797	0.7467651	
19.81	0.1271667	0.7267761	
20.0	-0.02416992	0.8519287	
