# GHz S RI R 50 
!freq	ReS11	ImS11	
1.0	-0.5778809	-0.2567139	
1.19	-0.6875	0.020874	
1.38	-0.6619873	0.296814	
1.57	-0.5300903	0.536499	
1.76	-0.2720947	0.749939	
1.95	0.0745239	0.8165894	
2.14	0.4074097	0.749939	
2.33	0.6760864	0.559082	
2.52	0.8264771	0.2804565	
2.71	0.9163818	-0.07391357	
2.9	0.8340454	-0.4102783	
3.09	0.6052246	-0.7046509	
3.28	0.2985229	-0.8657837	
3.47	-0.008911133	-0.9309082	
3.66	-0.3322144	-0.8425903	
3.85	-0.6588135	-0.6543579	
4.04	-0.8409424	-0.2862549	
4.23	-0.9116211	0.0640869	
4.42	-0.8021851	0.4147339	
4.61	-0.5812378	0.7230835	
4.8	-0.2181396	0.9175415	
4.99	0.2227173	0.9429321	
5.18	0.6247253	0.7874756	
5.37	0.9459229	0.3915405	
5.56	1.045898	-0.03588867	
5.75	0.9458008	-0.3986206	
5.94	0.5800781	-0.7798767	
6.13	0.0427856	-0.9713745	
6.32	-0.4151001	-0.8685303	
6.51	-0.7533569	-0.5299072	
6.7	-0.9481201	0.0130615	
6.89	0.8414307	-0.5023804	
7.08	-0.8943481	0.1226196	
7.27	-0.4516602	0.7485352	
7.46	0.5639343	0.6793213	
7.65	-0.138855	-0.9193726	
7.84	-0.8212891	0.5397949	
8.03	0.1355591	0.9119873	
8.22	0.9379272	0.1619263	
8.41	0.1552734	-0.993103	
8.6	-0.8875122	0.2454224	
8.79	0.1484375	0.914917	
8.98	0.8800659	0.3704224	
9.17	0.5015869	-0.8109131	
9.36	-0.7744446	-0.5478516	
9.55	-0.8919067	0.2719727	
9.74	-0.2874756	0.9168091	
9.93	0.8165894	0.4917908	
10.12	0.527832	-0.8508911	
10.31	-0.7616272	-0.5777588	
10.5	-0.7677002	0.5256042	
10.69	-0.2282104	0.960022	
10.88	0.4517822	0.885437	
11.07	0.956665	0.1943359	
11.26	0.6457825	-0.7998352	
11.45	-0.777832	-0.2909241	
11.64	0.4610901	0.6060486	
11.83	0.8618164	0.1577148	
12.02	0.8880005	-0.1975708	
12.21	0.7326355	-0.5031433	
12.4	0.1595459	-0.8273926	
12.59	-0.2781067	0.6670227	
12.78	0.6214294	-0.4102783	
12.97	0.2144165	-0.7921143	
13.16	-0.1904297	-0.8565674	
13.35	-0.5477905	-0.6994629	
13.54	-0.5005188	-0.5269165	
13.73	-0.7920532	0.4981689	
13.92	-0.3302612	0.7844238	
14.11	-0.1507568	-0.7369995	
14.3	-0.5441589	0.0811768	
14.49	-0.9268188	0.3500671	
14.68	-0.8016968	0.525177	
14.87	-0.3520813	0.8049316	
15.06	0.2922363	0.7919617	
15.25	0.7922363	0.3009338	
15.44	0.5781555	-0.585907	
15.63	-0.7008362	-0.3537292	
15.82	-0.4354248	0.5680237	
16.01	0.4786377	0.8088379	
16.2	-0.3822632	-0.3479462	
16.39	0.9000244	0.1345215	
16.58	0.2268982	0.4042664	
16.77	0.8005981	-0.08065796	
16.96	0.5857239	-0.5803833	
17.15	0.6916504	-0.2850647	
17.34	0.5542908	-0.5544434	
17.53	0.2081604	-0.7876282	
17.72	-0.1013794	-0.7207336	
17.91	-0.2197571	-0.7423706	
18.1	-0.6698914	-0.8632507	
18.29	-0.942627	-0.3311157	
18.48	-0.5325012	0.0297546	
18.67	-1.010376	-0.1488037	
18.86	-0.8916626	-0.03131104	
19.05	-0.1807251	0.5475159	
19.24	-0.9156494	0.5057373	
19.43	-0.8001709	0.7613525	
19.62	-0.6580811	0.746521	
19.81	0.1331482	0.7258301	
20.0	-0.02282715	0.8413086	
