# GHz S RI R 50 
!freq	ReS11	ImS11	
1.0	-0.5776978	-0.2537842	
1.19	-0.6868286	0.0209961	
1.38	-0.6616211	0.2979736	
1.57	-0.532959	0.5420532	
1.76	-0.2730713	0.7487793	
1.95	0.0728149	0.8149414	
2.14	0.4053345	0.7436523	
2.33	0.6760254	0.5592651	
2.52	0.8266602	0.2791138	
2.71	0.9165039	-0.07366943	
2.9	0.8338623	-0.4052124	
3.09	0.605896	-0.7086182	
3.28	0.2988281	-0.8609619	
3.47	-0.01104736	-0.9333496	
3.66	-0.3475342	-0.8485718	
3.85	-0.6621094	-0.6478271	
4.04	-0.8406372	-0.2854614	
4.23	-0.90979	0.0656738	
4.42	-0.8060913	0.4136963	
4.61	-0.5845947	0.729248	
4.8	-0.2193604	0.9176025	
4.99	0.2250366	0.944397	
5.18	0.6307983	0.7865906	
5.37	0.9483032	0.3919067	
5.56	1.044495	-0.03503418	
5.75	0.9478149	-0.4002075	
5.94	0.5807495	-0.7828369	
6.13	0.0454712	-0.9677734	
6.32	-0.4091797	-0.8633423	
6.51	-0.7547607	-0.5291748	
6.7	-0.9476929	0.0134277	
6.89	0.8462524	-0.5056152	
7.08	-0.8953247	0.123291	
7.27	-0.4519043	0.7537231	
7.46	0.5650635	0.6755066	
7.65	-0.130127	-0.9069214	
7.84	-0.8239746	0.5412598	
8.03	0.1427612	0.913147	
8.22	0.9385986	0.1616211	
8.41	0.1552124	-0.9916992	
8.6	-0.8869629	0.2455139	
8.79	0.1424561	0.921875	
8.98	0.8768311	0.3746948	
9.17	0.5102844	-0.8179016	
9.36	-0.7766418	-0.5491943	
9.55	-0.8900146	0.2723389	
9.74	-0.2900391	0.9179077	
9.93	0.8160095	0.4942322	
10.12	0.5306396	-0.8544922	
10.31	-0.7586975	-0.5806274	
10.5	-0.7722778	0.5275574	
10.69	-0.2312012	0.965271	
10.88	0.4475708	0.8876953	
11.07	0.9564209	0.1955566	
11.26	0.6399841	-0.8025818	
11.45	-0.7784424	-0.2918701	
11.64	0.4656067	0.6056519	
11.83	0.8615723	0.1571655	
12.02	0.8862305	-0.1973877	
12.21	0.7346497	-0.5008545	
12.4	0.1607666	-0.8338623	
12.59	-0.2694397	0.6653442	
12.78	0.6191406	-0.4139099	
12.97	0.2102051	-0.7877808	
13.16	-0.1861572	-0.8556519	
13.35	-0.5443115	-0.7075195	
13.54	-0.5017395	-0.5293274	
13.73	-0.793457	0.4955444	
13.92	-0.3276062	0.7855225	
14.11	-0.1496887	-0.7321472	
14.3	-0.545929	0.0820923	
14.49	-0.927063	0.352417	
14.68	-0.8012085	0.5268555	
14.87	-0.3441162	0.8102417	
15.06	0.2919006	0.7904053	
15.25	0.7948608	0.3026733	
15.44	0.57901	-0.5880127	
15.63	-0.7028503	-0.3557434	
15.82	-0.4377441	0.5693054	
16.01	0.4773865	0.8125	
16.2	-0.381134	-0.3496399	
16.39	0.899353	0.1352539	
16.58	0.2280273	0.4037628	
16.77	0.7999878	-0.07971191	
16.96	0.5879517	-0.578064	
17.15	0.6915894	-0.2862244	
17.34	0.5531616	-0.5519409	
17.53	0.2058716	-0.7912598	
17.72	-0.09970093	-0.7189941	
17.91	-0.2154846	-0.750061	
18.1	-0.6676331	-0.8663025	
18.29	-0.9419556	-0.331665	
18.48	-0.5333252	0.0300903	
18.67	-1.011292	-0.1488037	
18.86	-0.8915405	-0.03192139	
19.05	-0.1818848	0.5400696	
19.24	-0.913208	0.506958	
19.43	-0.8076782	0.7612915	
19.62	-0.6617737	0.7501831	
19.81	0.1322937	0.7251892	
20.0	-0.01947021	0.8521729	
