# GHz S RI R 50 
!freq	ReS11	ImS11	
1.0	-0.5797729	-0.2539063	
1.19	-0.687439	0.0204468	
1.38	-0.6625366	0.2984619	
1.57	-0.5322266	0.5392456	
1.76	-0.2719727	0.7496338	
1.95	0.0762329	0.8095093	
2.14	0.4008179	0.7454834	
2.33	0.6759644	0.5612793	
2.52	0.8255005	0.277771	
2.71	0.9165039	-0.07409668	
2.9	0.8306274	-0.4085083	
3.09	0.6046143	-0.7042847	
3.28	0.2981567	-0.8517456	
3.47	-0.01507568	-0.9324951	
3.66	-0.3421021	-0.8455811	
3.85	-0.6615601	-0.649231	
4.04	-0.8421631	-0.2853394	
4.23	-0.909668	0.0646362	
4.42	-0.8068237	0.4117432	
4.61	-0.5839844	0.7224121	
4.8	-0.2108154	0.9177856	
4.99	0.2241821	0.9310913	
5.18	0.6264038	0.7843628	
5.37	0.9476318	0.3920898	
5.56	1.045593	-0.03631592	
5.75	0.9436646	-0.3977661	
5.94	0.5765381	-0.7896729	
6.13	0.0422974	-0.9780884	
6.32	-0.4129639	-0.8739624	
6.51	-0.7548828	-0.5270386	
6.7	-0.9480591	0.0136719	
6.89	0.8464966	-0.5020142	
7.08	-0.8955078	0.1231689	
7.27	-0.4521484	0.7526855	
7.46	0.5657043	0.6821594	
7.65	-0.1312866	-0.9130249	
7.84	-0.8239746	0.5426636	
8.03	0.1435547	0.9111938	
8.22	0.9380493	0.1620483	
8.41	0.154541	-0.9959106	
8.6	-0.8871765	0.2454834	
8.79	0.1431274	0.9142456	
8.98	0.8775635	0.3759766	
9.17	0.5114441	-0.8135681	
9.36	-0.7746582	-0.5491943	
9.55	-0.8882446	0.2695313	
9.74	-0.2905884	0.9205933	
9.93	0.8151855	0.4938965	
10.12	0.5241089	-0.8577881	
10.31	-0.7595825	-0.5792542	
10.5	-0.7736511	0.5266724	
10.69	-0.2288818	0.9630127	
10.88	0.444397	0.8799438	
11.07	0.9553833	0.1963501	
11.26	0.6422729	-0.7966614	
11.45	-0.7764893	-0.2931519	
11.64	0.4648132	0.6096191	
11.83	0.8619385	0.1569214	
12.02	0.8876953	-0.1981201	
12.21	0.7348938	-0.4986267	
12.4	0.1618652	-0.8268433	
12.59	-0.2698364	0.6651611	
12.78	0.6235962	-0.4101563	
12.97	0.2128906	-0.7940063	
13.16	-0.1879883	-0.855835	
13.35	-0.5419922	-0.704895	
13.54	-0.5054932	-0.5314941	
13.73	-0.79245	0.4923096	
13.92	-0.3287964	0.7755127	
14.11	-0.1478577	-0.7383728	
14.3	-0.5445251	0.0821228	
14.49	-0.9254761	0.350647	
14.68	-0.7974548	0.527832	
14.87	-0.3450623	0.8093567	
15.06	0.2918396	0.7926636	
15.25	0.7944641	0.3020325	
15.44	0.5794983	-0.5905457	
15.63	-0.7038574	-0.3555298	
15.82	-0.4395447	0.56604	
16.01	0.4789124	0.8155823	
16.2	-0.3827515	-0.3473511	
16.39	0.8999634	0.1347046	
16.58	0.2275543	0.4037476	
16.77	0.7996216	-0.0802002	
16.96	0.5895691	-0.5749817	
17.15	0.6943054	-0.2832947	
17.34	0.5570984	-0.5528564	
17.53	0.2001038	-0.7858276	
17.72	-0.1045532	-0.7212524	
17.91	-0.2177734	-0.7502136	
18.1	-0.671936	-0.8691711	
18.29	-0.9418335	-0.3320313	
18.48	-0.532959	0.0296631	
18.67	-1.01178	-0.1485596	
18.86	-0.8918457	-0.03186035	
19.05	-0.1826782	0.5426025	
19.24	-0.9174805	0.5027466	
19.43	-0.8063965	0.7572021	
19.62	-0.6582031	0.7454834	
19.81	0.1289673	0.7240601	
20.0	-0.02545166	0.852417	
