# GHz S RI R 50 
!freq	ReS11	ImS11	
1.0	-0.5767212	-0.2562866	
1.19	-0.6871948	0.020874	
1.38	-0.6627197	0.2980957	
1.57	-0.5291748	0.5361938	
1.76	-0.2715454	0.7510986	
1.95	0.0744019	0.8122559	
2.14	0.4017944	0.7480469	
2.33	0.6724243	0.5601807	
2.52	0.8267212	0.2788696	
2.71	0.9164429	-0.07373047	
2.9	0.828064	-0.4082642	
3.09	0.6036377	-0.7061768	
3.28	0.2963867	-0.8587036	
3.47	-0.01593018	-0.9308472	
3.66	-0.3429565	-0.8475952	
3.85	-0.663269	-0.6496582	
4.04	-0.8414307	-0.2849731	
4.23	-0.9107056	0.0648804	
4.42	-0.8063965	0.4112549	
4.61	-0.579834	0.725647	
4.8	-0.2124023	0.9254761	
4.99	0.2210083	0.9400635	
5.18	0.6296387	0.7877197	
5.37	0.9478149	0.3919067	
5.56	1.045288	-0.03491211	
5.75	0.9478149	-0.3980713	
5.94	0.5819092	-0.7868652	
6.13	0.0457764	-0.9771729	
6.32	-0.4100342	-0.8655396	
6.51	-0.7561035	-0.5291748	
6.7	-0.9474487	0.0127563	
6.89	0.8436279	-0.5057373	
7.08	-0.8948975	0.1229248	
7.27	-0.4480591	0.7536011	
7.46	0.5622864	0.6809082	
7.65	-0.1360474	-0.9060669	
7.84	-0.8290405	0.5474854	
8.03	0.1392212	0.916687	
8.22	0.9384766	0.1625977	
8.41	0.1539307	-0.9898071	
8.6	-0.8886719	0.244873	
8.79	0.1501465	0.921814	
8.98	0.8805542	0.3724365	
9.17	0.5099487	-0.816803	
9.36	-0.7752686	-0.5447388	
9.55	-0.8935547	0.2719727	
9.74	-0.2854004	0.918457	
9.93	0.8141479	0.4924622	
10.12	0.5253906	-0.8485107	
10.31	-0.7590332	-0.578186	
10.5	-0.7695618	0.5249023	
10.69	-0.2338257	0.9573975	
10.88	0.4526367	0.8845215	
11.07	0.9554443	0.1938477	
11.26	0.6463318	-0.8005981	
11.45	-0.7784119	-0.2901001	
11.64	0.4699707	0.6116638	
11.83	0.8621216	0.1571655	
12.02	0.8861694	-0.1985474	
12.21	0.7332764	-0.4990845	
12.4	0.1574097	-0.8258667	
12.59	-0.2746582	0.6663513	
12.78	0.6207886	-0.4086609	
12.97	0.2086792	-0.7915039	
13.16	-0.1792603	-0.8604126	
13.35	-0.5531616	-0.7053833	
13.54	-0.505249	-0.5352478	
13.73	-0.7929382	0.4959717	
13.92	-0.3418884	0.7796936	
14.11	-0.151886	-0.7423401	
14.3	-0.545105	0.0813599	
14.49	-0.9300537	0.3474731	
14.68	-0.8014221	0.5281677	
14.87	-0.3551636	0.8088684	
15.06	0.2922974	0.7914124	
15.25	0.7952271	0.3007507	
15.44	0.5821533	-0.5857544	
15.63	-0.7025757	-0.3549194	
15.82	-0.4390259	0.5631104	
16.01	0.4705505	0.8066101	
16.2	-0.3827209	-0.3488312	
16.39	0.9000549	0.1348877	
16.58	0.2278442	0.4040985	
16.77	0.7991028	-0.08026123	
16.96	0.5904846	-0.5777893	
17.15	0.6931458	-0.2860413	
17.34	0.553772	-0.5513306	
17.53	0.2035522	-0.7807617	
17.72	-0.09918213	-0.7201538	
17.91	-0.2187805	-0.743866	
18.1	-0.6684265	-0.8659973	
18.29	-0.9442749	-0.3326416	
18.48	-0.5325928	0.0302429	
18.67	-1.010742	-0.1489258	
18.86	-0.8917236	-0.03100586	
19.05	-0.1799622	0.5428162	
19.24	-0.9157104	0.5109253	
19.43	-0.8031006	0.760437	
19.62	-0.658844	0.7526855	
19.81	0.1297913	0.7335815	
20.0	-0.0279541	0.8501587	
