# GHz S RI R 50 
!freq	ReS11	ImS11	
1.0	-0.5767822	-0.2567749	
1.19	-0.6876221	0.020813	
1.38	-0.659668	0.2993774	
1.57	-0.5279541	0.538147	
1.76	-0.2736816	0.741394	
1.95	0.0834961	0.8081665	
2.14	0.4020996	0.7452393	
2.33	0.6746216	0.5615234	
2.52	0.828186	0.2797852	
2.71	0.914917	-0.07330322	
2.9	0.8278198	-0.4077148	
3.09	0.5970459	-0.7070923	
3.28	0.2930908	-0.8567505	
3.47	-0.01519775	-0.9326782	
3.66	-0.3432617	-0.8466797	
3.85	-0.6600342	-0.6459961	
4.04	-0.8413696	-0.2840576	
4.23	-0.9102783	0.0657959	
4.42	-0.8033447	0.4138184	
4.61	-0.5749512	0.732605	
4.8	-0.2175903	0.914917	
4.99	0.215332	0.9556274	
5.18	0.6274719	0.7879333	
5.37	0.9476318	0.3936768	
5.56	1.045532	-0.0355835	
5.75	0.9484863	-0.3977051	
5.94	0.5836792	-0.7798462	
6.13	0.0436401	-0.9674072	
6.32	-0.4093018	-0.8650513	
6.51	-0.7559204	-0.5303955	
6.7	-0.9475708	0.0142212	
6.89	0.8452759	-0.5002441	
7.08	-0.894165	0.1218262	
7.27	-0.444519	0.755249	
7.46	0.5660095	0.6815491	
7.65	-0.1393433	-0.9156494	
7.84	-0.8284302	0.5431519	
8.03	0.1401367	0.9054565	
8.22	0.9378662	0.1624146	
8.41	0.157959	-0.9957275	
8.6	-0.8894348	0.243927	
8.79	0.1464844	0.9170532	
8.98	0.8790588	0.3736267	
9.17	0.5108643	-0.8123779	
9.36	-0.7759399	-0.5501099	
9.55	-0.8886108	0.2731934	
9.74	-0.2849121	0.9244385	
9.93	0.8139648	0.491272	
10.12	0.5308228	-0.8647461	
10.31	-0.7569275	-0.5762634	
10.5	-0.7687073	0.524353	
10.69	-0.2299194	0.9625244	
10.88	0.4440308	0.8884888	
11.07	0.9553833	0.1951904	
11.26	0.6409607	-0.8006592	
11.45	-0.7761536	-0.2911987	
11.64	0.4672852	0.6117859	
11.83	0.8624878	0.1570435	
12.02	0.8855591	-0.1967163	
12.21	0.7294617	-0.5020447	
12.4	0.1640015	-0.8275757	
12.59	-0.2740784	0.6667175	
12.78	0.6213989	-0.4112244	
12.97	0.2126465	-0.7955322	
13.16	-0.1916504	-0.8567505	
13.35	-0.5480347	-0.7036743	
13.54	-0.5036316	-0.5328369	
13.73	-0.7931213	0.4975891	
13.92	-0.3328247	0.773407	
14.11	-0.1515503	-0.7383423	
14.3	-0.5447693	0.0823975	
14.49	-0.9259644	0.3496399	
14.68	-0.7953186	0.5266724	
14.87	-0.3398743	0.7999268	
15.06	0.2939453	0.7889404	
15.25	0.7926025	0.3039856	
15.44	0.5823975	-0.5813904	
15.63	-0.7026062	-0.3599854	
15.82	-0.4371643	0.5664368	
16.01	0.4679871	0.807312	
16.2	-0.3806305	-0.3495483	
16.39	0.9002991	0.1347046	
16.58	0.2269135	0.4031677	
16.77	0.799408	-0.0802002	
16.96	0.5873108	-0.572998	
17.15	0.6920166	-0.2863464	
17.34	0.5548706	-0.5501404	
17.53	0.2021484	-0.7865295	
17.72	-0.09658813	-0.721344	
17.91	-0.2161255	-0.7481995	
18.1	-0.6702881	-0.8682556	
18.29	-0.9455566	-0.3326416	
18.48	-0.5328979	0.0296936	
18.67	-1.011414	-0.1495361	
18.86	-0.8916626	-0.03179932	
19.05	-0.1786804	0.5404358	
19.24	-0.9124756	0.5087891	
19.43	-0.8007813	0.7630615	
19.62	-0.655365	0.7414246	
19.81	0.1295776	0.7227783	
20.0	-0.02770996	0.84729	
