# GHz S RI R 50 
!freq	ReS11	ImS11	
1.0	-0.578125	-0.2541504	
1.19	-0.6867676	0.0205688	
1.38	-0.6633911	0.2982788	
1.57	-0.5310669	0.5379639	
1.76	-0.2703857	0.7537842	
1.95	0.0752563	0.8152466	
2.14	0.4036865	0.7457275	
2.33	0.6744995	0.5610962	
2.52	0.8259277	0.2797852	
2.71	0.9159546	-0.07275391	
2.9	0.8303833	-0.4067383	
3.09	0.6098022	-0.7064819	
3.28	0.3046875	-0.8516846	
3.47	-0.009155273	-0.9297485	
3.66	-0.3414307	-0.8439331	
3.85	-0.6599121	-0.6497803	
4.04	-0.8407593	-0.2851563	
4.23	-0.9105225	0.065979	
4.42	-0.8054199	0.4102783	
4.61	-0.5877686	0.7156982	
4.8	-0.2156982	0.9198608	
4.99	0.2188721	0.9387817	
5.18	0.6275635	0.7893677	
5.37	0.9467773	0.3919067	
5.56	1.045471	-0.03527832	
5.75	0.9462891	-0.3970337	
5.94	0.5759888	-0.7786255	
6.13	0.0407104	-0.9769287	
6.32	-0.411499	-0.8685303	
6.51	-0.757019	-0.5283813	
6.7	-0.947937	0.0133667	
6.89	0.84729	-0.5003662	
7.08	-0.8969116	0.1222534	
7.27	-0.4437866	0.7550659	
7.46	0.5644531	0.6793213	
7.65	-0.131958	-0.90625	
7.84	-0.8255615	0.5390015	
8.03	0.1461182	0.9086914	
8.22	0.9383545	0.161499	
8.41	0.1586304	-0.9866333	
8.6	-0.8862305	0.2445984	
8.79	0.149292	0.9130859	
8.98	0.87854	0.3747559	
9.17	0.5078735	-0.8182983	
9.36	-0.7792969	-0.5456238	
9.55	-0.8879395	0.269104	
9.74	-0.2863159	0.9111938	
9.93	0.8165283	0.4947205	
10.12	0.5247803	-0.855896	
10.31	-0.7589722	-0.5753784	
10.5	-0.7703857	0.5275574	
10.69	-0.2191772	0.9645996	
10.88	0.4575195	0.8832397	
11.07	0.9558716	0.1950073	
11.26	0.6374207	-0.7992859	
11.45	-0.7774963	-0.2908936	
11.64	0.4623718	0.6062012	
11.83	0.8627319	0.1572876	
12.02	0.887085	-0.1976318	
12.21	0.7322388	-0.502655	
12.4	0.1607056	-0.8265991	
12.59	-0.2737122	0.6662292	
12.78	0.6233215	-0.4113464	
12.97	0.2108154	-0.796814	
13.16	-0.1828613	-0.8602905	
13.35	-0.5492554	-0.7044067	
13.54	-0.4981384	-0.536377	
13.73	-0.7925415	0.4987183	
13.92	-0.3337402	0.7731934	
14.11	-0.1499329	-0.7354431	
14.3	-0.5445862	0.0809631	
14.49	-0.9259338	0.348175	
14.68	-0.8019409	0.532196	
14.87	-0.3475342	0.8131714	
15.06	0.289917	0.7904358	
15.25	0.7932739	0.3010254	
15.44	0.5829163	-0.5877991	
15.63	-0.703064	-0.3598633	
15.82	-0.4353333	0.5588989	
16.01	0.4798279	0.806488	
16.2	-0.3821259	-0.3486481	
16.39	0.900177	0.1353149	
16.58	0.2257538	0.4019775	
16.77	0.8000488	-0.07971191	
16.96	0.5854797	-0.5768127	
17.15	0.6928711	-0.2845764	
17.34	0.5532837	-0.5508728	
17.53	0.2111511	-0.7925415	
17.72	-0.101532	-0.7174988	
17.91	-0.2179565	-0.7450256	
18.1	-0.6627502	-0.8739929	
18.29	-0.9443359	-0.3323975	
18.48	-0.5328674	0.0308533	
18.67	-1.011536	-0.1494141	
18.86	-0.8914795	-0.03186035	
19.05	-0.1780396	0.5410156	
19.24	-0.9177246	0.508667	
19.43	-0.8062134	0.7648926	
19.62	-0.6597595	0.749115	
19.81	0.1292725	0.728302	
20.0	-0.01678467	0.8461914	
