# GHz S RI R 50 
!freq	ReS11	ImS11	
1.0	-0.5785522	-0.2556763	
1.19	-0.6881714	0.020874	
1.38	-0.6590576	0.2981567	
1.57	-0.5284424	0.536377	
1.76	-0.2747803	0.7506104	
1.95	0.0812378	0.8134766	
2.14	0.3991699	0.7469482	
2.33	0.6738892	0.5622559	
2.52	0.8257446	0.27948	
2.71	0.9165039	-0.07214355	
2.9	0.8292236	-0.4088135	
3.09	0.6061401	-0.7005615	
3.28	0.2965698	-0.8551025	
3.47	-0.01080322	-0.9267578	
3.66	-0.3379517	-0.8468628	
3.85	-0.6643677	-0.6463013	
4.04	-0.8410645	-0.284729	
4.23	-0.9104614	0.0646362	
4.42	-0.803833	0.4099121	
4.61	-0.5797729	0.7174683	
4.8	-0.2128906	0.9221802	
4.99	0.2202148	0.9436646	
5.18	0.6264954	0.7811279	
5.37	0.9468994	0.3907471	
5.56	1.046204	-0.03527832	
5.75	0.9505615	-0.4005127	
5.94	0.5817871	-0.7893066	
6.13	0.0507202	-0.9749756	
6.32	-0.4100952	-0.8676758	
6.51	-0.7548828	-0.5317383	
6.7	-0.9467773	0.0141602	
6.89	0.8468018	-0.5025635	
7.08	-0.8959961	0.1212769	
7.27	-0.4456787	0.7567749	
7.46	0.566803	0.6797791	
7.65	-0.1352539	-0.9198608	
7.84	-0.8242798	0.5372925	
8.03	0.1448364	0.9072876	
8.22	0.9378662	0.1622314	
8.41	0.1564941	-0.9894409	
8.6	-0.8876648	0.2425232	
8.79	0.1428833	0.9151611	
8.98	0.8795166	0.3711548	
9.17	0.5089111	-0.8174438	
9.36	-0.7733765	-0.5458374	
9.55	-0.8901367	0.2730713	
9.74	-0.2914429	0.9187012	
9.93	0.8126831	0.4950867	
10.12	0.5331421	-0.8519287	
10.31	-0.7616577	-0.5778198	
10.5	-0.7724304	0.5254211	
10.69	-0.2288208	0.958252	
10.88	0.4509277	0.8847046	
11.07	0.9554443	0.194458	
11.26	0.6429749	-0.8015747	
11.45	-0.7778931	-0.2912903	
11.64	0.465332	0.6087646	
11.83	0.8615723	0.1575317	
12.02	0.8879395	-0.1973877	
12.21	0.7301025	-0.5013733	
12.4	0.1691284	-0.8284302	
12.59	-0.2763672	0.664978	
12.78	0.6256104	-0.4092407	
12.97	0.2102661	-0.7988281	
13.16	-0.1854858	-0.8640747	
13.35	-0.5420532	-0.7033081	
13.54	-0.506073	-0.5358276	
13.73	-0.7880249	0.493927	
13.92	-0.3279114	0.7822571	
14.11	-0.1486511	-0.7380676	
14.3	-0.5443726	0.0803223	
14.49	-0.9284973	0.3489075	
14.68	-0.7950134	0.5323181	
14.87	-0.3432312	0.8063354	
15.06	0.2914124	0.7897949	
15.25	0.7946777	0.3016968	
15.44	0.5799866	-0.5881042	
15.63	-0.7038574	-0.3558655	
15.82	-0.4360962	0.5640259	
16.01	0.4730835	0.8098755	
16.2	-0.3805389	-0.3471222	
16.39	0.9003296	0.1340332	
16.58	0.2285919	0.4006042	
16.77	0.7987061	-0.08081055	
16.96	0.5889587	-0.5739746	
17.15	0.6925659	-0.2850647	
17.34	0.5598145	-0.5557861	
17.53	0.1989746	-0.7817078	
17.72	-0.1022949	-0.7128906	
17.91	-0.2232056	-0.744812	
18.1	-0.6680908	-0.862915	
18.29	-0.9437866	-0.3308716	
18.48	-0.5321655	0.0292969	
18.67	-1.010559	-0.1483154	
18.86	-0.8912964	-0.03125	
19.05	-0.1789551	0.5445251	
19.24	-0.9155884	0.5059204	
19.43	-0.7988281	0.7612915	
19.62	-0.6596069	0.7507935	
19.81	0.1320801	0.7280579	
20.0	-0.02386475	0.8453369	
