# GHz S RI R 50 
!freq	ReS11	ImS11	
1.0	-0.5795288	-0.2546997	
1.19	-0.687561	0.0205688	
1.38	-0.6606445	0.2960205	
1.57	-0.5287476	0.5357666	
1.76	-0.2730713	0.7533569	
1.95	0.0741577	0.8131714	
2.14	0.3999634	0.7449951	
2.33	0.6734009	0.5609131	
2.52	0.8274536	0.2786865	
2.71	0.9151001	-0.07226563	
2.9	0.8306885	-0.4049683	
3.09	0.6039429	-0.7007446	
3.28	0.2998657	-0.8540039	
3.47	-0.01135254	-0.9285278	
3.66	-0.3397827	-0.8442993	
3.85	-0.6624146	-0.647522	
4.04	-0.8416748	-0.2862549	
4.23	-0.9104004	0.0653687	
4.42	-0.802063	0.4083862	
4.61	-0.5799561	0.7184448	
4.8	-0.2185059	0.9158325	
4.99	0.2208252	0.9432373	
5.18	0.6292114	0.7872925	
5.37	0.9465942	0.3930664	
5.56	1.045349	-0.03594971	
5.75	0.9489746	-0.3961182	
5.94	0.5766602	-0.7888794	
6.13	0.0491943	-0.9732056	
6.32	-0.4129028	-0.8687134	
6.51	-0.7563477	-0.5306396	
6.7	-0.9474487	0.0137329	
6.89	0.8451538	-0.507019	
7.08	-0.8952026	0.123291	
7.27	-0.4528198	0.7568359	
7.46	0.5656433	0.6826782	
7.65	-0.1337891	-0.9096069	
7.84	-0.8239746	0.5380249	
8.03	0.1414795	0.9102783	
8.22	0.9382935	0.1622925	
8.41	0.1512451	-0.9908447	
8.6	-0.8867188	0.246582	
8.79	0.1455688	0.9151001	
8.98	0.8815918	0.3719482	
9.17	0.5024109	-0.8103638	
9.36	-0.7797241	-0.546936	
9.55	-0.8887329	0.270874	
9.74	-0.2901611	0.9094849	
9.93	0.8172607	0.4947815	
10.12	0.5272217	-0.8540649	
10.31	-0.7618713	-0.5801697	
10.5	-0.7684021	0.5260925	
10.69	-0.2351074	0.9557495	
10.88	0.4478149	0.892334	
11.07	0.9561157	0.1948242	
11.26	0.6391602	-0.7948914	
11.45	-0.7783508	-0.2906494	
11.64	0.4658203	0.6112366	
11.83	0.8622437	0.1577148	
12.02	0.8861084	-0.1976929	
12.21	0.7343445	-0.5023499	
12.4	0.1646729	-0.8233032	
12.59	-0.2727051	0.6659241	
12.78	0.6215515	-0.4118652	
12.97	0.2108765	-0.7977905	
13.16	-0.189209	-0.8602905	
13.35	-0.5534668	-0.6964722	
13.54	-0.5059204	-0.536377	
13.73	-0.7922058	0.4981995	
13.92	-0.3237915	0.777832	
14.11	-0.1478882	-0.7401123	
14.3	-0.5441284	0.0808411	
14.49	-0.924408	0.3440857	
14.68	-0.7974243	0.5264893	
14.87	-0.3443909	0.8011169	
15.06	0.2920227	0.7920837	
15.25	0.7941589	0.3026428	
15.44	0.5851135	-0.5892334	
15.63	-0.7024536	-0.3575745	
15.82	-0.4407959	0.566864	
16.01	0.4767456	0.809845	
16.2	-0.3839417	-0.3507996	
16.39	0.8997498	0.1351318	
16.58	0.2267456	0.4047546	
16.77	0.79953	-0.08023071	
16.96	0.5874939	-0.5780334	
17.15	0.6918945	-0.2885132	
17.34	0.5591125	-0.5499878	
17.53	0.2070923	-0.7835693	
17.72	-0.09777832	-0.7165222	
17.91	-0.2177429	-0.7440186	
18.1	-0.670166	-0.8673096	
18.29	-0.9454956	-0.3311157	
18.48	-0.5326538	0.0305786	
18.67	-1.011414	-0.1490479	
18.86	-0.8915405	-0.03125	
19.05	-0.1798706	0.5410767	
19.24	-0.9135742	0.5045776	
19.43	-0.8082275	0.7598267	
19.62	-0.6622314	0.7414856	
19.81	0.1340637	0.729126	
20.0	-0.02185059	0.8475342	
