# GHz S RI R 50 
!freq	ReS11	ImS11	
1.0	-0.5787354	-0.2557983	
1.19	-0.6875	0.0206299	
1.38	-0.659729	0.2998657	
1.57	-0.5319214	0.536377	
1.76	-0.2713623	0.7564087	
1.95	0.0749512	0.8161011	
2.14	0.4039307	0.7444458	
2.33	0.6762085	0.5623169	
2.52	0.826416	0.2798462	
2.71	0.9155273	-0.07373047	
2.9	0.8283081	-0.4090576	
3.09	0.6052856	-0.6992798	
3.28	0.2998047	-0.8528442	
3.47	-0.01104736	-0.932251	
3.66	-0.3418579	-0.8527832	
3.85	-0.6604004	-0.6462402	
4.04	-0.8421021	-0.2850952	
4.23	-0.9099121	0.0653076	
4.42	-0.8042603	0.4102783	
4.61	-0.578125	0.7192383	
4.8	-0.2233887	0.921875	
4.99	0.2272339	0.9500122	
5.18	0.625	0.7940979	
5.37	0.9454956	0.3934326	
5.56	1.044922	-0.03564453	
5.75	0.9491577	-0.3938599	
5.94	0.5790405	-0.7851563	
6.13	0.048645	-0.9680786	
6.32	-0.4089966	-0.8669434	
6.51	-0.7560425	-0.5299072	
6.7	-0.9477539	0.0136108	
6.89	0.8487549	-0.5041504	
7.08	-0.8971558	0.1221924	
7.27	-0.4515991	0.7490845	
7.46	0.5623169	0.6831665	
7.65	-0.1312256	-0.9090576	
7.84	-0.8227539	0.538147	
8.03	0.1425781	0.9107666	
8.22	0.9383545	0.1625366	
8.41	0.1601563	-0.9943237	
8.6	-0.8865662	0.2445984	
8.79	0.1419067	0.9186401	
8.98	0.8777466	0.3744507	
9.17	0.507782	-0.8096619	
9.36	-0.7810974	-0.5465393	
9.55	-0.8875122	0.2715454	
9.74	-0.286377	0.9197388	
9.93	0.815918	0.4919434	
10.12	0.5302124	-0.8535156	
10.31	-0.7575684	-0.5808105	
10.5	-0.7730103	0.5237122	
10.69	-0.2317505	0.9705811	
10.88	0.4567261	0.8822632	
11.07	0.9561157	0.194397	
11.26	0.6382751	-0.7945862	
11.45	-0.7789001	-0.2921448	
11.64	0.4645691	0.6070862	
11.83	0.8627319	0.1576538	
12.02	0.885437	-0.1984253	
12.21	0.7356873	-0.5014648	
12.4	0.1643066	-0.8255615	
12.59	-0.2723083	0.6620483	
12.78	0.6228943	-0.4126892	
12.97	0.211731	-0.7946167	
13.16	-0.1865234	-0.8568726	
13.35	-0.5443115	-0.701416	
13.54	-0.4989624	-0.5287476	
13.73	-0.7912903	0.4936523	
13.92	-0.3277588	0.7809753	
14.11	-0.1498108	-0.7338867	
14.3	-0.5446167	0.0817566	
14.49	-0.9291992	0.3520508	
14.68	-0.7955933	0.5288696	
14.87	-0.3445129	0.8141174	
15.06	0.2880859	0.7890625	
15.25	0.7946472	0.3022156	
15.44	0.5828247	-0.5851135	
15.63	-0.7033081	-0.3596191	
15.82	-0.4430542	0.5680542	
16.01	0.4744568	0.8135681	
16.2	-0.3823547	-0.352005	
16.39	0.9000244	0.1349182	
16.58	0.224884	0.4044189	
16.77	0.7990417	-0.08004761	
16.96	0.5865173	-0.5754089	
17.15	0.6927795	-0.2857361	
17.34	0.5554504	-0.5509338	
17.53	0.2030945	-0.7891541	
17.72	-0.1036682	-0.7227783	
17.91	-0.2201233	-0.744751	
18.1	-0.6732788	-0.8659058	
18.29	-0.9447632	-0.3326416	
18.48	-0.5328979	0.030365	
18.67	-1.012085	-0.149292	
18.86	-0.8920898	-0.03167725	
19.05	-0.1809998	0.5408325	
19.24	-0.9160156	0.5109863	
19.43	-0.8029175	0.762085	
19.62	-0.6558838	0.7474976	
19.81	0.1295471	0.7281494	
20.0	-0.02362061	0.848938	
