# GHz S RI R 50 
!freq	ReS11	ImS11	
1.0	-0.578064	-0.2543945	
1.19	-0.6871338	0.020752	
1.38	-0.6623535	0.2964478	
1.57	-0.52948	0.5342407	
1.76	-0.2774658	0.7526855	
1.95	0.0817871	0.8137207	
2.14	0.4047241	0.7427979	
2.33	0.6728516	0.5614014	
2.52	0.8261108	0.2799683	
2.71	0.9155884	-0.07397461	
2.9	0.8314819	-0.4102783	
3.09	0.5997314	-0.7069092	
3.28	0.3001099	-0.8512573	
3.47	-0.002746582	-0.9368896	
3.66	-0.3372803	-0.8464355	
3.85	-0.6596069	-0.6500244	
4.04	-0.8406982	-0.2849731	
4.23	-0.9107666	0.0656128	
4.42	-0.8008423	0.4117432	
4.61	-0.5750122	0.7290039	
4.8	-0.210083	0.9238892	
4.99	0.2155762	0.9417725	
5.18	0.6280823	0.7794495	
5.37	0.9486084	0.3924561	
5.56	1.045837	-0.03588867	
5.75	0.9473877	-0.3955078	
5.94	0.5808716	-0.7822266	
6.13	0.046814	-0.9633789	
6.32	-0.4120483	-0.8672485	
6.51	-0.7564697	-0.5300903	
6.7	-0.9484863	0.0135498	
6.89	0.8442383	-0.5015259	
7.08	-0.8956299	0.1219482	
7.27	-0.4463501	0.7483521	
7.46	0.5624695	0.6796265	
7.65	-0.133606	-0.9118652	
7.84	-0.8242798	0.5422974	
8.03	0.1428223	0.9138794	
8.22	0.9382935	0.1617432	
8.41	0.1456299	-0.9926758	
8.6	-0.8859558	0.2432861	
8.79	0.1399536	0.916687	
8.98	0.878418	0.3707886	
9.17	0.5055847	-0.8146667	
9.36	-0.777832	-0.5458679	
9.55	-0.8887939	0.2699585	
9.74	-0.2942505	0.9194336	
9.93	0.8149414	0.4927673	
10.12	0.5239258	-0.8504639	
10.31	-0.7601624	-0.5770569	
10.5	-0.7707825	0.5261536	
10.69	-0.2296753	0.9562378	
10.88	0.4537964	0.8811646	
11.07	0.9551392	0.1947021	
11.26	0.6325684	-0.811676	
11.45	-0.7781677	-0.2922058	
11.64	0.4639893	0.6060181	
11.83	0.861084	0.1578369	
12.02	0.8894043	-0.1974487	
12.21	0.7307739	-0.4996643	
12.4	0.1642456	-0.8195801	
12.59	-0.2734985	0.6706543	
12.78	0.6278076	-0.4074707	
12.97	0.2180786	-0.7977295	
13.16	-0.1914673	-0.8623657	
13.35	-0.5429688	-0.7058716	
13.54	-0.4991455	-0.5287781	
13.73	-0.7887573	0.4945679	
13.92	-0.3285217	0.77948	
14.11	-0.1581116	-0.7368164	
14.3	-0.5431213	0.0800476	
14.49	-0.9272766	0.3501892	
14.68	-0.7987671	0.5281982	
14.87	-0.3439636	0.8019104	
15.06	0.2886963	0.7936401	
15.25	0.7943726	0.3001404	
15.44	0.5839233	-0.5881042	
15.63	-0.7002563	-0.3562927	
15.82	-0.4365234	0.5672302	
16.01	0.4682312	0.8099976	
16.2	-0.3822937	-0.3466187	
16.39	0.9003906	0.1343384	
16.58	0.2331696	0.4003448	
16.77	0.800293	-0.08032227	
16.96	0.5877686	-0.5745239	
17.15	0.6939392	-0.2850037	
17.34	0.5587158	-0.5551453	
17.53	0.199646	-0.7850647	
17.72	-0.1018677	-0.7259216	
17.91	-0.2170105	-0.7476501	
18.1	-0.6743164	-0.8694458	
18.29	-0.9446411	-0.3309937	
18.48	-0.5319214	0.0311279	
18.67	-1.011963	-0.1482544	
18.86	-0.8917847	-0.03057861	
19.05	-0.1779175	0.539917	
19.24	-0.9197388	0.5130005	
19.43	-0.7966919	0.7666016	
19.62	-0.6591797	0.7432861	
19.81	0.1305237	0.7288513	
20.0	-0.0246582	0.8485107	
