# GHz S RI R 50 
!freq	ReS11	ImS11	
1.0	-0.5775757	-0.2519531	
1.19	-0.6871948	0.0203857	
1.38	-0.6606445	0.2994995	
1.57	-0.5310669	0.5338135	
1.76	-0.2704468	0.7472534	
1.95	0.0762939	0.8071289	
2.14	0.4067993	0.7459106	
2.33	0.6748657	0.5612793	
2.52	0.8264771	0.2790527	
2.71	0.9161987	-0.074646	
2.9	0.8300781	-0.4094238	
3.09	0.6002808	-0.7081299	
3.28	0.3006592	-0.8565063	
3.47	-0.01422119	-0.932251	
3.66	-0.3409424	-0.8554688	
3.85	-0.6588135	-0.6531372	
4.04	-0.8428345	-0.2876587	
4.23	-0.9109497	0.0648804	
4.42	-0.8084106	0.4105225	
4.61	-0.5821533	0.723938	
4.8	-0.2224731	0.9126587	
4.99	0.2127075	0.9438477	
5.18	0.6262207	0.7895203	
5.37	0.9451904	0.3928223	
5.56	1.045471	-0.03546143	
5.75	0.9452515	-0.397644	
5.94	0.5780029	-0.7750244	
6.13	0.0491333	-0.9690552	
6.32	-0.4086914	-0.8640747	
6.51	-0.7575073	-0.5302124	
6.7	-0.9476929	0.0130005	
6.89	0.8444824	-0.5021362	
7.08	-0.8956299	0.1224365	
7.27	-0.4509277	0.7523193	
7.46	0.5616455	0.6849365	
7.65	-0.1348877	-0.9126587	
7.84	-0.8267212	0.5377808	
8.03	0.1378174	0.9030762	
8.22	0.9381714	0.1620483	
8.41	0.1528931	-0.9890137	
8.6	-0.8878174	0.2426147	
8.79	0.144165	0.9157715	
8.98	0.8796387	0.3756104	
9.17	0.5107727	-0.8135071	
9.36	-0.7796936	-0.5487061	
9.55	-0.8876953	0.270874	
9.74	-0.2907715	0.9171753	
9.93	0.8141479	0.4930115	
10.12	0.5333252	-0.8522949	
10.31	-0.7598267	-0.5761719	
10.5	-0.7729797	0.5291748	
10.69	-0.2281494	0.9545288	
10.88	0.451355	0.8777466	
11.07	0.9564209	0.1942139	
11.26	0.6417847	-0.8017578	
11.45	-0.7785645	-0.2909851	
11.64	0.4651489	0.6066284	
11.83	0.8626099	0.1567383	
12.02	0.887207	-0.196228	
12.21	0.7356873	-0.5019836	
12.4	0.1605835	-0.8269653	
12.59	-0.2785034	0.6644592	
12.78	0.6237793	-0.4118958	
12.97	0.2145996	-0.7949219	
13.16	-0.1846924	-0.8610229	
13.35	-0.5482178	-0.7044678	
13.54	-0.4983521	-0.5301208	
13.73	-0.7957458	0.4942322	
13.92	-0.3320923	0.7766724	
14.11	-0.1486206	-0.7391052	
14.3	-0.5451965	0.0821533	
14.49	-0.9260864	0.3474121	
14.68	-0.8027039	0.5270996	
14.87	-0.3456116	0.8131409	
15.06	0.2922363	0.7859497	
15.25	0.793396	0.3019104	
15.44	0.5788879	-0.5864868	
15.63	-0.7025757	-0.3599243	
15.82	-0.4390869	0.5666199	
16.01	0.4737549	0.8066711	
16.2	-0.3810425	-0.3503113	
16.39	0.8999634	0.1345215	
16.58	0.2283783	0.4030457	
16.77	0.8000183	-0.07977295	
16.96	0.5874329	-0.5760803	
17.15	0.6933899	-0.2855835	
17.34	0.5524292	-0.5509949	
17.53	0.2065735	-0.7826843	
17.72	-0.09753418	-0.7177734	
17.91	-0.2162476	-0.7461853	
18.1	-0.6641846	-0.8627319	
18.29	-0.9439697	-0.3311157	
18.48	-0.5328979	0.0308228	
18.67	-1.011047	-0.1495972	
18.86	-0.8916626	-0.03161621	
19.05	-0.1777344	0.5432434	
19.24	-0.9195557	0.5087891	
19.43	-0.7997437	0.7576294	
19.62	-0.6561279	0.739502	
19.81	0.131897	0.7224426	
20.0	-0.02185059	0.8491211	
