# GHz S RI R 50 
!freq	ReS11	ImS11	
1.0	-0.5773315	-0.2558594	
1.19	-0.687561	0.0204468	
1.38	-0.661377	0.3002319	
1.57	-0.5296631	0.5336914	
1.76	-0.2716675	0.7484131	
1.95	0.0788574	0.8080444	
2.14	0.4009399	0.7421875	
2.33	0.6756592	0.5614014	
2.52	0.8276978	0.2788696	
2.71	0.9178467	-0.07232666	
2.9	0.8295898	-0.406189	
3.09	0.6086426	-0.706543	
3.28	0.3006592	-0.8619995	
3.47	-0.01257324	-0.9386597	
3.66	-0.3369751	-0.852356	
3.85	-0.6582031	-0.6495972	
4.04	-0.84198	-0.2855225	
4.23	-0.9105225	0.0645752	
4.42	-0.8047485	0.4135742	
4.61	-0.5800781	0.7297363	
4.8	-0.2199707	0.921814	
4.99	0.2271729	0.9418945	
5.18	0.6265564	0.7917786	
5.37	0.9472656	0.3919067	
5.56	1.045837	-0.03527832	
5.75	0.9500732	-0.399353	
5.94	0.5840454	-0.7781982	
6.13	0.0484009	-0.9713745	
6.32	-0.4129028	-0.8650513	
6.51	-0.7553101	-0.5259399	
6.7	-0.9471436	0.012207	
6.89	0.8421021	-0.5012207	
7.08	-0.8952026	0.1223755	
7.27	-0.444519	0.7525024	
7.46	0.5630188	0.6818542	
7.65	-0.1345825	-0.9110107	
7.84	-0.8286133	0.5408936	
8.03	0.1403809	0.9049683	
8.22	0.9381714	0.1625366	
8.41	0.1520386	-0.9904785	
8.6	-0.8851318	0.2435303	
8.79	0.1445923	0.9136963	
8.98	0.8791504	0.3724976	
9.17	0.5135803	-0.8162231	
9.36	-0.7756348	-0.5504456	
9.55	-0.8894653	0.2713013	
9.74	-0.2836304	0.9248047	
9.93	0.8191833	0.4920959	
10.12	0.5290527	-0.852478	
10.31	-0.7638855	-0.5814819	
10.5	-0.7719727	0.526947	
10.69	-0.2404785	0.961731	
10.88	0.4558105	0.8850098	
11.07	0.9559937	0.1946411	
11.26	0.6382141	-0.8036194	
11.45	-0.7772217	-0.2929382	
11.64	0.4622192	0.6093445	
11.83	0.862793	0.1576538	
12.02	0.8884888	-0.1983032	
12.21	0.7343445	-0.5021362	
12.4	0.1627808	-0.8256836	
12.59	-0.2771912	0.6653442	
12.78	0.618988	-0.4081421	
12.97	0.2114258	-0.793457	
13.16	-0.1884155	-0.8609619	
13.35	-0.546814	-0.7111206	
13.54	-0.5032043	-0.5303955	
13.73	-0.7928772	0.4928894	
13.92	-0.3275452	0.77948	
14.11	-0.1480408	-0.7399292	
14.3	-0.5443115	0.0822449	
14.49	-0.9288025	0.3478088	
14.68	-0.8034058	0.5281982	
14.87	-0.3469543	0.8077698	
15.06	0.2897644	0.7874451	
15.25	0.7934875	0.3029175	
15.44	0.5864563	-0.59021	
15.63	-0.702301	-0.359314	
15.82	-0.4411011	0.5656433	
16.01	0.4716492	0.8165283	
16.2	-0.3820648	-0.3487244	
16.39	0.9000854	0.1348267	
16.58	0.2249298	0.4033813	
16.77	0.8000793	-0.08065796	
16.96	0.5922546	-0.5788574	
17.15	0.6940002	-0.2865295	
17.34	0.5585327	-0.5536804	
17.53	0.207489	-0.7879028	
17.72	-0.1018066	-0.7218018	
17.91	-0.2183838	-0.7473755	
18.1	-0.6653442	-0.8641663	
18.29	-0.9440308	-0.3317871	
18.48	-0.5329895	0.0302124	
18.67	-1.011169	-0.1491699	
18.86	-0.8919067	-0.03186035	
19.05	-0.1813354	0.542572	
19.24	-0.9147949	0.5098877	
19.43	-0.800415	0.7541504	
19.62	-0.6611633	0.7443237	
19.81	0.1289673	0.7225952	
20.0	-0.02301025	0.8477783	
