# GHz S RI R 50 
!freq	ReS11	ImS11	
1.0	-0.5770264	-0.2557373	
1.19	-0.6868896	0.0211182	
1.38	-0.6607666	0.298645	
1.57	-0.5289917	0.5375366	
1.76	-0.2689819	0.7494507	
1.95	0.0810547	0.814209	
2.14	0.4030151	0.7460327	
2.33	0.6742554	0.5606689	
2.52	0.8266602	0.2799683	
2.71	0.916687	-0.07452393	
2.9	0.8308105	-0.4077759	
3.09	0.6063843	-0.7046509	
3.28	0.2999878	-0.8563843	
3.47	-0.01000977	-0.9334717	
3.66	-0.3392944	-0.855835	
3.85	-0.6574097	-0.6544189	
4.04	-0.8417358	-0.2856445	
4.23	-0.9105835	0.0655518	
4.42	-0.8005371	0.4134521	
4.61	-0.5772095	0.7254028	
4.8	-0.2154541	0.9165649	
4.99	0.208252	0.9499512	
5.18	0.6309204	0.7843933	
5.37	0.9471436	0.390564	
5.56	1.045044	-0.03521729	
5.75	0.9515991	-0.3970337	
5.94	0.5802612	-0.7879639	
6.13	0.0523071	-0.9730835	
6.32	-0.4058838	-0.8687744	
6.51	-0.7545471	-0.5306091	
6.7	-0.947876	0.0126953	
6.89	0.8439331	-0.5030518	
7.08	-0.8950195	0.1221313	
7.27	-0.4456177	0.744751	
7.46	0.5680847	0.6802673	
7.65	-0.1396484	-0.9107666	
7.84	-0.8267212	0.5445557	
8.03	0.1312256	0.9100952	
8.22	0.9381714	0.1618652	
8.41	0.156189	-0.9935303	
8.6	-0.887207	0.2423401	
8.79	0.1425781	0.9205933	
8.98	0.8781128	0.3711548	
9.17	0.5123901	-0.8023376	
9.36	-0.7770386	-0.5491028	
9.55	-0.8899536	0.2703857	
9.74	-0.2910767	0.9185181	
9.93	0.815979	0.4919434	
10.12	0.5263672	-0.8536377	
10.31	-0.762085	-0.5767517	
10.5	-0.7693481	0.526123	
10.69	-0.2317505	0.965271	
10.88	0.454834	0.8872681	
11.07	0.954895	0.1953125	
11.26	0.6465454	-0.8041077	
11.45	-0.7786255	-0.2947083	
11.64	0.4652405	0.611145	
11.83	0.8621826	0.1571655	
12.02	0.8870239	-0.1990356	
12.21	0.7304993	-0.5006104	
12.4	0.1584473	-0.8208618	
12.59	-0.2783508	0.6652527	
12.78	0.6199341	-0.4089355	
12.97	0.2131958	-0.7901001	
13.16	-0.180603	-0.8635864	
13.35	-0.5509033	-0.7044067	
13.54	-0.5024414	-0.5331726	
13.73	-0.7937012	0.4943542	
13.92	-0.3335876	0.7834167	
14.11	-0.149231	-0.7349854	
14.3	-0.5443115	0.0814209	
14.49	-0.9271851	0.3483276	
14.68	-0.800415	0.5305786	
14.87	-0.3442078	0.8078003	
15.06	0.2907715	0.7879028	
15.25	0.7939148	0.300415	
15.44	0.5826721	-0.5872498	
15.63	-0.7012024	-0.3580322	
15.82	-0.4369202	0.5663147	
16.01	0.473053	0.8146973	
16.2	-0.3832703	-0.3463593	
16.39	0.8996582	0.1346436	
16.58	0.2260284	0.4038696	
16.77	0.7999878	-0.08117676	
16.96	0.5849304	-0.5764465	
17.15	0.6906433	-0.283905	
17.34	0.554657	-0.5513916	
17.53	0.1985168	-0.7850037	
17.72	-0.09884644	-0.7185974	
17.91	-0.2181091	-0.7434692	
18.1	-0.6655579	-0.8622131	
18.29	-0.9447632	-0.3331909	
18.48	-0.5326843	0.0308838	
18.67	-1.011292	-0.1488647	
18.86	-0.8911743	-0.03161621	
19.05	-0.1794128	0.5422974	
19.24	-0.9151611	0.5099487	
19.43	-0.8031616	0.7600708	
19.62	-0.6580811	0.741272	
19.81	0.1296692	0.7288513	
20.0	-0.02392578	0.8504639	
