# GHz S RI R 50 
!freq	ReS11	ImS11	
1.0	-0.5786743	-0.2548218	
1.19	-0.6870117	0.0203857	
1.38	-0.6604004	0.2982788	
1.57	-0.5304565	0.5388184	
1.76	-0.2747803	0.7481689	
1.95	0.079895	0.8152466	
2.14	0.40625	0.7475586	
2.33	0.6731567	0.5601196	
2.52	0.8275146	0.2800903	
2.71	0.9145508	-0.07415771	
2.9	0.8300171	-0.4057007	
3.09	0.609375	-0.7091064	
3.28	0.3064575	-0.8632813	
3.47	-0.01055908	-0.9338989	
3.66	-0.3405151	-0.8474731	
3.85	-0.659668	-0.6499634	
4.04	-0.84198	-0.2855225	
4.23	-0.9117432	0.0647583	
4.42	-0.8013306	0.4130249	
4.61	-0.5766602	0.7255249	
4.8	-0.2175903	0.9216309	
4.99	0.2225952	0.9373169	
5.18	0.631073	0.7838745	
5.37	0.946228	0.3898926	
5.56	1.044739	-0.03521729	
5.75	0.9480591	-0.3939819	
5.94	0.5818481	-0.7827148	
6.13	0.0427856	-0.9750977	
6.32	-0.4068604	-0.8724365	
6.51	-0.7573853	-0.5285645	
6.7	-0.9478149	0.0133667	
6.89	0.84375	-0.5031738	
7.08	-0.8956299	0.1205444	
7.27	-0.4473267	0.7496948	
7.46	0.5636292	0.6776733	
7.65	-0.1348877	-0.9061279	
7.84	-0.8228149	0.5455933	
8.03	0.1398315	0.9197388	
8.22	0.9376221	0.161377	
8.41	0.1494141	-0.9918823	
8.6	-0.8870239	0.2452087	
8.79	0.1491089	0.9138184	
8.98	0.8773499	0.3743286	
9.17	0.5067749	-0.8080444	
9.36	-0.7794495	-0.5491638	
9.55	-0.8895874	0.2689819	
9.74	-0.2913818	0.9170532	
9.93	0.815033	0.4943848	
10.12	0.5308228	-0.859314	
10.31	-0.7566528	-0.5763245	
10.5	-0.7703552	0.5205994	
10.69	-0.2329102	0.9581299	
10.88	0.453064	0.8865356	
11.07	0.954834	0.1946411	
11.26	0.6486511	-0.8026428	
11.45	-0.7791443	-0.2935486	
11.64	0.4599609	0.6069641	
11.83	0.8623047	0.1580811	
12.02	0.8873291	-0.1990356	
12.21	0.7312927	-0.5057373	
12.4	0.1622314	-0.8257446	
12.59	-0.2685242	0.6618042	
12.78	0.6213989	-0.4086609	
12.97	0.2173462	-0.7993164	
13.16	-0.1867065	-0.8522949	
13.35	-0.5492554	-0.7047729	
13.54	-0.5035095	-0.5360718	
13.73	-0.7923889	0.499054	
13.92	-0.3304443	0.7769775	
14.11	-0.1495667	-0.7376709	
14.3	-0.544281	0.0815735	
14.49	-0.9261169	0.3489075	
14.68	-0.8020325	0.5301208	
14.87	-0.3476563	0.8085938	
15.06	0.2880554	0.7931824	
15.25	0.7940369	0.3027344	
15.44	0.5805359	-0.5874329	
15.63	-0.7035522	-0.35849	
15.82	-0.4379272	0.5656433	
16.01	0.4735107	0.8126526	
16.2	-0.3813934	-0.3499756	
16.39	0.8997192	0.1345215	
16.58	0.2280273	0.4026031	
16.77	0.7993469	-0.0809021	
16.96	0.5868225	-0.5744629	
17.15	0.6925354	-0.287262	
17.34	0.5553894	-0.5521851	
17.53	0.1969299	-0.7761536	
17.72	-0.09579468	-0.7213745	
17.91	-0.2218628	-0.7453308	
18.1	-0.6691589	-0.8668213	
18.29	-0.9446411	-0.3307495	
18.48	-0.5324707	0.0317993	
18.67	-1.011719	-0.1491699	
18.86	-0.8917847	-0.03131104	
19.05	-0.1762695	0.5406189	
19.24	-0.914856	0.5050659	
19.43	-0.8037109	0.7637329	
19.62	-0.6618347	0.7445679	
19.81	0.1317749	0.7242432	
20.0	-0.02655029	0.8496704	
