# GHz S RI R 50 
!freq	ReS11	ImS11	
1.0	-0.5780029	-0.2558594	
1.19	-0.6873779	0.020813	
1.38	-0.6600952	0.2974854	
1.57	-0.5317383	0.5359497	
1.76	-0.2684937	0.7512817	
1.95	0.0812988	0.807373	
2.14	0.3983154	0.7489624	
2.33	0.6749878	0.5601807	
2.52	0.8272095	0.2792969	
2.71	0.9172363	-0.07385254	
2.9	0.8308105	-0.4098511	
3.09	0.6060791	-0.7088013	
3.28	0.3071899	-0.862793	
3.47	-0.007751465	-0.93396	
3.66	-0.3328857	-0.8441162	
3.85	-0.664856	-0.6546021	
4.04	-0.8415527	-0.2844849	
4.23	-0.9107056	0.0650024	
4.42	-0.8042603	0.4159546	
4.61	-0.5776367	0.7240601	
4.8	-0.2214966	0.9274292	
4.99	0.2287598	0.9464722	
5.18	0.6279297	0.7854004	
5.37	0.9472046	0.3936157	
5.56	1.045349	-0.03564453	
5.75	0.947937	-0.3945313	
5.94	0.5759888	-0.7868652	
6.13	0.0482788	-0.968689	
6.32	-0.4138794	-0.8670044	
6.51	-0.7568359	-0.5281982	
6.7	-0.9470215	0.0129395	
6.89	0.8442383	-0.5037842	
7.08	-0.894165	0.1213379	
7.27	-0.4501343	0.7504272	
7.46	0.5645447	0.6802979	
7.65	-0.1392212	-0.9050293	
7.84	-0.8312988	0.5407715	
8.03	0.1386719	0.9133911	
8.22	0.9379272	0.1619873	
8.41	0.1508789	-0.9862671	
8.6	-0.8856506	0.2442932	
8.79	0.1480103	0.9121704	
8.98	0.8772583	0.3713379	
9.17	0.5098267	-0.8056641	
9.36	-0.7769165	-0.5480652	
9.55	-0.890625	0.2733765	
9.74	-0.2833862	0.9196777	
9.93	0.8166504	0.4953613	
10.12	0.5274658	-0.8543701	
10.31	-0.7626953	-0.5777893	
10.5	-0.7695007	0.5270691	
10.69	-0.2357178	0.9497681	
10.88	0.4507446	0.8823242	
11.07	0.9561157	0.1942139	
11.26	0.6386719	-0.8008728	
11.45	-0.7782288	-0.2929993	
11.64	0.4639282	0.6054382	
11.83	0.8615112	0.1571655	
12.02	0.8875732	-0.1975098	
12.21	0.7341003	-0.5007629	
12.4	0.1587524	-0.8223267	
12.59	-0.2738953	0.6622925	
12.78	0.6221619	-0.4115601	
12.97	0.2137451	-0.7980347	
13.16	-0.1834717	-0.8666992	
13.35	-0.5515137	-0.703186	
13.54	-0.5023499	-0.5331116	
13.73	-0.7908325	0.4978638	
13.92	-0.3295898	0.7806396	
14.11	-0.1505127	-0.737915	
14.3	-0.5446777	0.0809937	
14.49	-0.9260254	0.3467712	
14.68	-0.7976685	0.5300293	
14.87	-0.3457336	0.8093262	
15.06	0.2920837	0.7870483	
15.25	0.7949829	0.3024902	
15.44	0.5777588	-0.5877075	
15.63	-0.70401	-0.3579407	
15.82	-0.4417114	0.5666809	
16.01	0.473938	0.8164063	
16.2	-0.3806	-0.3506622	
16.39	0.8998413	0.1339111	
16.58	0.2258606	0.4025116	
16.77	0.800293	-0.08074951	
16.96	0.5829468	-0.5751648	
17.15	0.6921692	-0.2842712	
17.34	0.5565186	-0.5483398	
17.53	0.1982117	-0.7831116	
17.72	-0.1011963	-0.7135925	
17.91	-0.2192078	-0.7460632	
18.1	-0.6669312	-0.8633423	
18.29	-0.9447632	-0.3304443	
18.48	-0.5323181	0.0293884	
18.67	-1.011475	-0.1489258	
18.86	-0.8912354	-0.03143311	
19.05	-0.1761475	0.5365601	
19.24	-0.9140015	0.5093384	
19.43	-0.7974243	0.7560425	
19.62	-0.6540833	0.7399292	
19.81	0.1280823	0.7216797	
20.0	-0.02191162	0.8514404	
