# GHz S RI R 50 
!freq	ReS11	ImS11	
1.0	-0.5802002	-0.2546997	
1.19	-0.6875	0.0209351	
1.38	-0.6618042	0.2965698	
1.57	-0.527832	0.5342407	
1.76	-0.2734375	0.7506104	
1.95	0.0737305	0.8126221	
2.14	0.4053345	0.7454834	
2.33	0.6750488	0.5603027	
2.52	0.8259277	0.2803345	
2.71	0.9152832	-0.07336426	
2.9	0.8304443	-0.4072266	
3.09	0.6074219	-0.7010498	
3.28	0.3007813	-0.8562012	
3.47	-0.006591797	-0.9279785	
3.66	-0.3374023	-0.8439941	
3.85	-0.6583862	-0.6532593	
4.04	-0.8413696	-0.2854614	
4.23	-0.9108276	0.0646362	
4.42	-0.7993164	0.4077148	
4.61	-0.5801392	0.7149658	
4.8	-0.2241211	0.9135742	
4.99	0.2177734	0.9450073	
5.18	0.6282959	0.7844849	
5.37	0.9472656	0.3921509	
5.56	1.045471	-0.03564453	
5.75	0.9464722	-0.3981323	
5.94	0.5822144	-0.7825928	
6.13	0.0450439	-0.96875	
6.32	-0.4113159	-0.8660889	
6.51	-0.7540283	-0.5296631	
6.7	-0.9476318	0.0120239	
6.89	0.8423462	-0.5026855	
7.08	-0.8950806	0.1229858	
7.27	-0.4388428	0.7541504	
7.46	0.5632019	0.6835022	
7.65	-0.1322021	-0.9120483	
7.84	-0.8295288	0.5368652	
8.03	0.1464233	0.9078979	
8.22	0.9379883	0.1624756	
8.41	0.1555786	-0.9884033	
8.6	-0.8873901	0.2453613	
8.79	0.1375122	0.9174805	
8.98	0.8792114	0.3704834	
9.17	0.5057373	-0.8064575	
9.36	-0.7750549	-0.5509644	
9.55	-0.8899536	0.2686768	
9.74	-0.2927856	0.9259644	
9.93	0.8154907	0.4929504	
10.12	0.5270386	-0.8529053	
10.31	-0.7563782	-0.579834	
10.5	-0.7709656	0.5253906	
10.69	-0.234314	0.9555054	
10.88	0.4561768	0.8813477	
11.07	0.9571533	0.1962891	
11.26	0.6420288	-0.8071899	
11.45	-0.7781067	-0.2904968	
11.64	0.4659729	0.6070862	
11.83	0.8626099	0.1563721	
12.02	0.8862305	-0.1960449	
12.21	0.7297058	-0.5007935	
12.4	0.1607666	-0.8300781	
12.59	-0.2733154	0.6623535	
12.78	0.6221008	-0.4111633	
12.97	0.213623	-0.7944946	
13.16	-0.1865234	-0.8572388	
13.35	-0.5507202	-0.7061157	
13.54	-0.5003357	-0.5314636	
13.73	-0.7887878	0.4971924	
13.92	-0.3329773	0.7868958	
14.11	-0.1496887	-0.7367249	
14.3	-0.5454407	0.0822754	
14.49	-0.9263611	0.3460999	
14.68	-0.7997742	0.5262146	
14.87	-0.3494568	0.8014221	
15.06	0.2868347	0.7947998	
15.25	0.793396	0.3016968	
15.44	0.5820618	-0.5838318	
15.63	-0.7017822	-0.3581848	
15.82	-0.440155	0.5666199	
16.01	0.4775696	0.8062134	
16.2	-0.3822021	-0.351593	
16.39	0.8998108	0.1348877	
16.58	0.2228699	0.4020081	
16.77	0.7991943	-0.08056641	
16.96	0.5885925	-0.5769348	
17.15	0.6938477	-0.2836914	
17.34	0.5567322	-0.5512085	
17.53	0.2124023	-0.7823181	
17.72	-0.09338379	-0.7175903	
17.91	-0.2174988	-0.7438354	
18.1	-0.671936	-0.8674011	
18.29	-0.9428101	-0.3314209	
18.48	-0.5327759	0.0298462	
18.67	-1.011475	-0.1505737	
18.86	-0.8921509	-0.03204346	
19.05	-0.1856384	0.5422363	
19.24	-0.9155884	0.5025635	
19.43	-0.8009644	0.7561646	
19.62	-0.660553	0.7440186	
19.81	0.1252136	0.7284851	
20.0	-0.02575684	0.8451538	
