# GHz S RI R 50 
!freq	ReS11	ImS11	
1.0	-0.5770264	-0.2550659	
1.19	-0.6873169	0.020752	
1.38	-0.6598511	0.2990723	
1.57	-0.5309448	0.5358887	
1.76	-0.2717896	0.748291	
1.95	0.0767822	0.8180542	
2.14	0.4036865	0.7479248	
2.33	0.6759033	0.5635986	
2.52	0.8276978	0.2792358	
2.71	0.9144897	-0.07366943	
2.9	0.8341675	-0.4047852	
3.09	0.6011353	-0.7072144	
3.28	0.2998657	-0.8552856	
3.47	-0.01397705	-0.9332275	
3.66	-0.3410645	-0.8510132	
3.85	-0.6619263	-0.6502686	
4.04	-0.842041	-0.28479	
4.23	-0.9099731	0.0653687	
4.42	-0.8048096	0.4128418	
4.61	-0.581543	0.7282104	
4.8	-0.2113037	0.9195557	
4.99	0.2102661	0.9502563	
5.18	0.6245728	0.7849426	
5.37	0.9476318	0.3933105	
5.56	1.045288	-0.03601074	
5.75	0.9498901	-0.3948975	
5.94	0.5824585	-0.7817383	
6.13	0.0497437	-0.963501	
6.32	-0.4128418	-0.8588257	
6.51	-0.7511597	-0.5302124	
6.7	-0.9477539	0.0135498	
6.89	0.8467407	-0.5053101	
7.08	-0.8953857	0.1230469	
7.27	-0.4574585	0.7510986	
7.46	0.5608521	0.6842957	
7.65	-0.1330566	-0.90802	
7.84	-0.8242188	0.5403442	
8.03	0.1394043	0.9169922	
8.22	0.9378052	0.1616821	
8.41	0.149231	-0.9872437	
8.6	-0.8883057	0.2434692	
8.79	0.1468506	0.9172974	
8.98	0.8800964	0.3736572	
9.17	0.5092468	-0.8107605	
9.36	-0.7783813	-0.54599	
9.55	-0.8867798	0.2705688	
9.74	-0.2943726	0.9195557	
9.93	0.815033	0.4942017	
10.12	0.526062	-0.8530884	
10.31	-0.757782	-0.5787659	
10.5	-0.770752	0.5300293	
10.69	-0.2282715	0.9638062	
10.88	0.453064	0.8787231	
11.07	0.9572144	0.1935425	
11.26	0.6348267	-0.8053589	
11.45	-0.778717	-0.2929688	
11.64	0.4653625	0.6134338	
11.83	0.8625488	0.1576538	
12.02	0.8877563	-0.1976318	
12.21	0.7332764	-0.5022278	
12.4	0.1577759	-0.8292847	
12.59	-0.2720947	0.6666565	
12.78	0.6196289	-0.4127502	
12.97	0.2114868	-0.7938843	
13.16	-0.1849976	-0.8557739	
13.35	-0.5481567	-0.7073975	
13.54	-0.5001526	-0.5327759	
13.73	-0.7923889	0.4965515	
13.92	-0.3253479	0.7782288	
14.11	-0.149353	-0.7374878	
14.3	-0.5445557	0.0814514	
14.49	-0.9271545	0.3481445	
14.68	-0.8012695	0.5253296	
14.87	-0.3445129	0.8040161	
15.06	0.2937927	0.7873535	
15.25	0.7946777	0.2998657	
15.44	0.5863037	-0.59021	
15.63	-0.7006531	-0.357666	
15.82	-0.4409485	0.5665894	
16.01	0.4729004	0.8087769	
16.2	-0.3807983	-0.3466797	
16.39	0.8995361	0.1351929	
16.58	0.2273254	0.4044342	
16.77	0.8002625	-0.07958984	
16.96	0.5848389	-0.5770264	
17.15	0.6942749	-0.2865906	
17.34	0.5517273	-0.5524902	
17.53	0.2007751	-0.7906189	
17.72	-0.1057129	-0.7172852	
17.91	-0.2211914	-0.7505493	
18.1	-0.6678772	-0.8675232	
18.29	-0.9434814	-0.3314819	
18.48	-0.5326843	0.0306091	
18.67	-1.010742	-0.1489868	
18.86	-0.8915405	-0.03149414	
19.05	-0.1826477	0.5449524	
19.24	-0.9213257	0.5059204	
19.43	-0.8022461	0.760498	
19.62	-0.6560669	0.7476807	
19.81	0.1327209	0.7325439	
20.0	-0.03192139	0.8503418	
