# GHz S RI R 50 
!freq	ReS11	ImS11	
1.0	-0.5787964	-0.2542725	
1.19	-0.6870728	0.0211792	
1.38	-0.6611328	0.2987061	
1.57	-0.53125	0.5331421	
1.76	-0.2715454	0.7519531	
1.95	0.0808105	0.8115845	
2.14	0.4000854	0.74646	
2.33	0.6766968	0.5616455	
2.52	0.8261719	0.2798462	
2.71	0.9179688	-0.07342529	
2.9	0.8345337	-0.4071045	
3.09	0.6062012	-0.7042847	
3.28	0.2982178	-0.8568726	
3.47	-0.01275635	-0.9281006	
3.66	-0.3460083	-0.8430786	
3.85	-0.6574707	-0.6472168	
4.04	-0.8416748	-0.2839355	
4.23	-0.9102783	0.06427	
4.42	-0.800415	0.4153442	
4.61	-0.5809937	0.7214966	
4.8	-0.218811	0.9255371	
4.99	0.2271118	0.9435425	
5.18	0.6246643	0.7853699	
5.37	0.9476318	0.3929443	
5.56	1.045776	-0.03546143	
5.75	0.9494629	-0.3977661	
5.94	0.5761108	-0.7796021	
6.13	0.041626	-0.9697266	
6.32	-0.4133911	-0.8667603	
6.51	-0.755127	-0.5278931	
6.7	-0.9477539	0.0126343	
6.89	0.8436279	-0.5027466	
7.08	-0.8939819	0.1224365	
7.27	-0.4481812	0.7492065	
7.46	0.5617676	0.6794434	
7.65	-0.1390381	-0.914978	
7.84	-0.819458	0.5358887	
8.03	0.1426392	0.9146118	
8.22	0.93927	0.1627808	
8.41	0.1571655	-0.994873	
8.6	-0.8872681	0.2432556	
8.79	0.1478271	0.9140015	
8.98	0.8794556	0.3728027	
9.17	0.5062866	-0.8115234	
9.36	-0.7807617	-0.5481262	
9.55	-0.8875122	0.2709961	
9.74	-0.2905273	0.9130249	
9.93	0.8169861	0.4924316	
10.12	0.5275269	-0.8584595	
10.31	-0.7600403	-0.5787048	
10.5	-0.7693481	0.5292969	
10.69	-0.2194214	0.9562988	
10.88	0.4541016	0.8847656	
11.07	0.9556885	0.1949463	
11.26	0.6460266	-0.7980042	
11.45	-0.7781982	-0.2909851	
11.64	0.4691467	0.6072388	
11.83	0.8616943	0.1566772	
12.02	0.8878174	-0.1987305	
12.21	0.7348328	-0.5043945	
12.4	0.1549072	-0.8222656	
12.59	-0.2795105	0.6631165	
12.78	0.6226807	-0.4079895	
12.97	0.2131958	-0.7931519	
13.16	-0.1851807	-0.8646851	
13.35	-0.5473022	-0.7049561	
13.54	-0.5083923	-0.5320129	
13.73	-0.7943726	0.4957886	
13.92	-0.328064	0.7804871	
14.11	-0.1466064	-0.7361145	
14.3	-0.5448608	0.0812988	
14.49	-0.9284058	0.3466797	
14.68	-0.7953491	0.5266724	
14.87	-0.3460999	0.8094482	
15.06	0.2887878	0.7893372	
15.25	0.7948303	0.3007813	
15.44	0.57901	-0.5877075	
15.63	-0.7053223	-0.359314	
15.82	-0.4403381	0.5627136	
16.01	0.477417	0.813446	
16.2	-0.3821106	-0.3516235	
16.39	0.8995667	0.1349792	
16.58	0.2287292	0.401413	
16.77	0.8007507	-0.0802002	
16.96	0.5904846	-0.5755005	
17.15	0.6930847	-0.2824402	
17.34	0.5560608	-0.5523071	
17.53	0.2042542	-0.7765198	
17.72	-0.09194946	-0.7142334	
17.91	-0.2189636	-0.7467957	
18.1	-0.6650391	-0.8647156	
18.29	-0.9439697	-0.3309937	
18.48	-0.5323181	0.0296631	
18.67	-1.011658	-0.1490479	
18.86	-0.8916626	-0.03173828	
19.05	-0.1839905	0.5441589	
19.24	-0.9144287	0.507019	
19.43	-0.802002	0.7668457	
19.62	-0.6555786	0.7444153	
19.81	0.1333923	0.729248	
20.0	-0.02484131	0.8474731	
