# GHz S RI R 50 
!freq	ReS11	ImS11	
1.0	-0.5771484	-0.2539673	
1.19	-0.6878662	0.0211792	
1.38	-0.6593018	0.3004761	
1.57	-0.5305176	0.5376587	
1.76	-0.2695313	0.7487183	
1.95	0.0783081	0.8074951	
2.14	0.4037476	0.744873	
2.33	0.6755371	0.5584106	
2.52	0.8271484	0.2780151	
2.71	0.9159546	-0.07318115	
2.9	0.8294067	-0.4113159	
3.09	0.6056519	-0.7092285	
3.28	0.2925415	-0.8538818	
3.47	-0.01165771	-0.9336548	
3.66	-0.3390503	-0.8526611	
3.85	-0.6569824	-0.6489868	
4.04	-0.8416748	-0.2848511	
4.23	-0.9104004	0.0654907	
4.42	-0.8013306	0.4124146	
4.61	-0.5727539	0.7225952	
4.8	-0.2195435	0.9158936	
4.99	0.2245483	0.954834	
5.18	0.6291199	0.7869873	
5.37	0.9487915	0.3931885	
5.56	1.045471	-0.03570557	
5.75	0.9521484	-0.3981323	
5.94	0.5834351	-0.7915039	
6.13	0.0421753	-0.9741821	
6.32	-0.411377	-0.8660278	
6.51	-0.7512512	-0.5304871	
6.7	-0.9480591	0.012085	
6.89	0.8414917	-0.5046997	
7.08	-0.8943481	0.123291	
7.27	-0.4476929	0.75	
7.46	0.5640869	0.6789551	
7.65	-0.1324463	-0.9119263	
7.84	-0.8240967	0.5425415	
8.03	0.1412354	0.9105225	
8.22	0.9384155	0.1619263	
8.41	0.1514893	-0.9920044	
8.6	-0.8855896	0.2446594	
8.79	0.1439209	0.9172363	
8.98	0.8786621	0.3721619	
9.17	0.5079346	-0.8141785	
9.36	-0.776825	-0.5449219	
9.55	-0.8890381	0.2731323	
9.74	-0.2893677	0.9250488	
9.93	0.8124084	0.493866	
10.12	0.5213013	-0.8532104	
10.31	-0.7608032	-0.5774536	
10.5	-0.7696228	0.5245667	
10.69	-0.2234497	0.9577637	
10.88	0.4506836	0.8851929	
11.07	0.9561768	0.194519	
11.26	0.6445007	-0.8018799	
11.45	-0.7791748	-0.2909546	
11.64	0.4590454	0.6060181	
11.83	0.8615112	0.1571655	
12.02	0.8862305	-0.1956787	
12.21	0.7320557	-0.5036621	
12.4	0.1588745	-0.8215942	
12.59	-0.276001	0.6704712	
12.78	0.6262512	-0.4091797	
12.97	0.2182007	-0.8009033	
13.16	-0.1862183	-0.8596191	
13.35	-0.5422363	-0.7045898	
13.54	-0.5022278	-0.5310974	
13.73	-0.7937317	0.5000916	
13.92	-0.3285828	0.7799377	
14.11	-0.1539917	-0.7388611	
14.3	-0.5438232	0.0802612	
14.49	-0.9274597	0.3508301	
14.68	-0.800415	0.5263367	
14.87	-0.3425293	0.8081665	
15.06	0.2932129	0.7906799	
15.25	0.7938843	0.3016357	
15.44	0.5843201	-0.5927124	
15.63	-0.7043152	-0.3551636	
15.82	-0.438446	0.5651245	
16.01	0.4744263	0.8143616	
16.2	-0.3808136	-0.3465118	
16.39	0.9003296	0.1340332	
16.58	0.2316742	0.4048615	
16.77	0.8004761	-0.08032227	
16.96	0.5875854	-0.5733032	
17.15	0.6917725	-0.2861023	
17.34	0.5576172	-0.5527039	
17.53	0.2070923	-0.7896729	
17.72	-0.09780884	-0.7215576	
17.91	-0.2155151	-0.7470703	
18.1	-0.6690674	-0.8655396	
18.29	-0.9440308	-0.3307495	
18.48	-0.5322876	0.0301514	
18.67	-1.010803	-0.1484985	
18.86	-0.8917236	-0.03082275	
19.05	-0.1806641	0.5450745	
19.24	-0.9173584	0.5144653	
19.43	-0.8109131	0.7624512	
19.62	-0.6576233	0.7469482	
19.81	0.1316528	0.7242432	
20.0	-0.02746582	0.8511963	
