# GHz S RI R 50 
!freq	ReS11	ImS11	
1.0	-0.5776978	-0.2560425	
1.19	-0.6869507	0.0209961	
1.38	-0.6625977	0.2987061	
1.57	-0.53125	0.536377	
1.76	-0.2719116	0.7504272	
1.95	0.0718994	0.8115234	
2.14	0.4021606	0.7484131	
2.33	0.6746216	0.5592651	
2.52	0.8265991	0.2791748	
2.71	0.9163818	-0.07348633	
2.9	0.8293457	-0.4064331	
3.09	0.6124878	-0.7022705	
3.28	0.2993164	-0.8560181	
3.47	-0.01043701	-0.9309692	
3.66	-0.3425293	-0.850769	
3.85	-0.6612549	-0.6500854	
4.04	-0.8414307	-0.2852173	
4.23	-0.9109497	0.0643921	
4.42	-0.8015137	0.4113159	
4.61	-0.5778809	0.720459	
4.8	-0.21698	0.9234009	
4.99	0.2246094	0.9500122	
5.18	0.6256714	0.7897644	
5.37	0.947937	0.3947144	
5.56	1.044861	-0.03521729	
5.75	0.9469604	-0.3997803	
5.94	0.5776978	-0.7857056	
6.13	0.0454712	-0.9735718	
6.32	-0.4095459	-0.8717041	
6.51	-0.7575073	-0.529541	
6.7	-0.947876	0.0133667	
6.89	0.8427124	-0.5039063	
7.08	-0.8942871	0.1229248	
7.27	-0.4509888	0.7531128	
7.46	0.5694275	0.6833191	
7.65	-0.1363525	-0.914856	
7.84	-0.8267212	0.5405884	
8.03	0.1356812	0.9118652	
8.22	0.9383545	0.1618042	
8.41	0.1535645	-0.9882813	
8.6	-0.8889465	0.2457886	
8.79	0.1470947	0.9110718	
8.98	0.8793945	0.3727417	
9.17	0.5072327	-0.8165283	
9.36	-0.7797546	-0.5481262	
9.55	-0.890564	0.2739258	
9.74	-0.2850952	0.9158936	
9.93	0.8149719	0.4933167	
10.12	0.5235596	-0.8554688	
10.31	-0.7592773	-0.5802002	
10.5	-0.7700806	0.5243225	
10.69	-0.2307129	0.9627075	
10.88	0.4521484	0.880249	
11.07	0.9545288	0.1957397	
11.26	0.6410828	-0.8023987	
11.45	-0.7776794	-0.2915344	
11.64	0.4610596	0.6109009	
11.83	0.8614502	0.1581421	
12.02	0.8874512	-0.1968384	
12.21	0.730957	-0.5020447	
12.4	0.1676025	-0.8227539	
12.59	-0.274231	0.6625366	
12.78	0.6233826	-0.4120483	
12.97	0.2141113	-0.7929688	
13.16	-0.1917725	-0.8582153	
13.35	-0.550415	-0.7005615	
13.54	-0.5046082	-0.5338745	
13.73	-0.7870789	0.4978943	
13.92	-0.3208923	0.7797546	
14.11	-0.1542664	-0.7321777	
14.3	-0.5439148	0.0812683	
14.49	-0.9253845	0.3479919	
14.68	-0.7979126	0.5263062	
14.87	-0.3395081	0.8057556	
15.06	0.2940063	0.7878418	
15.25	0.7915649	0.3005066	
15.44	0.5803223	-0.5866394	
15.63	-0.70224	-0.3561707	
15.82	-0.4384766	0.567627	
16.01	0.4736328	0.8093567	
16.2	-0.3812103	-0.349472	
16.39	0.9001465	0.1340942	
16.58	0.2283478	0.4017181	
16.77	0.7991333	-0.08078003	
16.96	0.5922241	-0.5716858	
17.15	0.6923218	-0.2859802	
17.34	0.5527954	-0.5499878	
17.53	0.1991272	-0.7832642	
17.72	-0.101532	-0.7150879	
17.91	-0.2189026	-0.7458191	
18.1	-0.6780396	-0.8739929	
18.29	-0.9440918	-0.3339844	
18.48	-0.5325012	0.0297852	
18.67	-1.011475	-0.1477051	
18.86	-0.8916016	-0.03137207	
19.05	-0.1829224	0.5409241	
19.24	-0.918457	0.5059814	
19.43	-0.8018799	0.7619019	
19.62	-0.6596069	0.7485046	
19.81	0.1334839	0.7297668	
20.0	-0.02587891	0.8497314	
