# GHz S RI R 50 
!freq	ReS11	ImS11	
1.0	-0.5791016	-0.2545166	
1.19	-0.6872559	0.0206299	
1.38	-0.6605835	0.2984619	
1.57	-0.5329895	0.5365906	
1.76	-0.2689209	0.7463379	
1.95	0.0759888	0.81073	
2.14	0.4070435	0.7445679	
2.33	0.6732178	0.5604248	
2.52	0.8270264	0.2789917	
2.71	0.9176025	-0.07196045	
2.9	0.8276978	-0.4038086	
3.09	0.6067505	-0.7051392	
3.28	0.3051147	-0.8528442	
3.47	-0.01055908	-0.9361572	
3.66	-0.3378906	-0.8457031	
3.85	-0.6555176	-0.6520386	
4.04	-0.8406982	-0.2855835	
4.23	-0.9108276	0.0637817	
4.42	-0.8023071	0.4154053	
4.61	-0.586792	0.7286377	
4.8	-0.2174683	0.9193115	
4.99	0.2307129	0.9442139	
5.18	0.6334534	0.7867126	
5.37	0.9469604	0.3921509	
5.56	1.045288	-0.03570557	
5.75	0.9484863	-0.3978882	
5.94	0.5844116	-0.788147	
6.13	0.0447388	-0.9776611	
6.32	-0.4099731	-0.8673706	
6.51	-0.7553101	-0.5283813	
6.7	-0.9466553	0.0127563	
6.89	0.8435669	-0.5042725	
7.08	-0.8961182	0.1220703	
7.27	-0.447998	0.7492676	
7.46	0.5618896	0.6851807	
7.65	-0.1345215	-0.9147949	
7.84	-0.8236694	0.5407104	
8.03	0.1453247	0.9118042	
8.22	0.9381104	0.1621094	
8.41	0.1469727	-0.9925537	
8.6	-0.8875732	0.245575	
8.79	0.1424561	0.9128418	
8.98	0.8809509	0.375	
9.17	0.5070801	-0.817627	
9.36	-0.7751465	-0.5496216	
9.55	-0.8883057	0.272644	
9.74	-0.2875366	0.9224243	
9.93	0.8119507	0.4949646	
10.12	0.5316772	-0.8479614	
10.31	-0.7601624	-0.5772705	
10.5	-0.7678833	0.5264587	
10.69	-0.2355347	0.9694214	
10.88	0.4580078	0.8824463	
11.07	0.956604	0.1954956	
11.26	0.6426697	-0.8084106	
11.45	-0.7784119	-0.2909241	
11.64	0.462616	0.6071777	
11.83	0.8627319	0.1566162	
12.02	0.8890991	-0.1992188	
12.21	0.7321777	-0.5024719	
12.4	0.1544189	-0.8299561	
12.59	-0.2685547	0.6638489	
12.78	0.620697	-0.4109497	
12.97	0.2132568	-0.7907715	
13.16	-0.1908569	-0.8596191	
13.35	-0.5548706	-0.6985474	
13.54	-0.5011292	-0.5326843	
13.73	-0.7931824	0.4971008	
13.92	-0.3291626	0.7774658	
14.11	-0.1568298	-0.7369995	
14.3	-0.5443726	0.081665	
14.49	-0.9257507	0.3493042	
14.68	-0.8005676	0.5260315	
14.87	-0.3439026	0.8102417	
15.06	0.2935791	0.7890015	
15.25	0.7943115	0.3033752	
15.44	0.5814209	-0.5811768	
15.63	-0.7015686	-0.3568115	
15.82	-0.4394226	0.5629578	
16.01	0.4712524	0.8103943	
16.2	-0.3815765	-0.3495026	
16.39	0.8999023	0.1350098	
16.58	0.2262726	0.4039154	
16.77	0.7998657	-0.07992554	
16.96	0.5861511	-0.572876	
17.15	0.6925964	-0.2876892	
17.34	0.5543213	-0.5479736	
17.53	0.198822	-0.7819214	
17.72	-0.09371948	-0.7182922	
17.91	-0.2133484	-0.7447205	
18.1	-0.6710205	-0.8666077	
18.29	-0.9432983	-0.3327637	
18.48	-0.5330505	0.0301514	
18.67	-1.01178	-0.1494751	
18.86	-0.8917236	-0.03198242	
19.05	-0.1838379	0.5414734	
19.24	-0.9143066	0.505249	
19.43	-0.7998047	0.7614136	
19.62	-0.6595764	0.7438049	
19.81	0.1346741	0.7192078	
20.0	-0.03094482	0.8494873	
