# GHz S RI R 50 
!freq	ReS11	ImS11	
1.0	-0.5759277	-0.2555542	
1.19	-0.687561	0.020752	
1.38	-0.661377	0.3001099	
1.57	-0.5267944	0.5385132	
1.76	-0.2715454	0.7492065	
1.95	0.0767822	0.8135986	
2.14	0.402771	0.7435303	
2.33	0.6789551	0.5578003	
2.52	0.8265381	0.2798462	
2.71	0.9152832	-0.07403564	
2.9	0.8309326	-0.4075928	
3.09	0.6035156	-0.7072754	
3.28	0.2978516	-0.8513184	
3.47	-0.00994873	-0.9332275	
3.66	-0.3440552	-0.8458252	
3.85	-0.6591797	-0.6505127	
4.04	-0.8391113	-0.2839355	
4.23	-0.9094238	0.0643921	
4.42	-0.8019409	0.4110718	
4.61	-0.5827637	0.7143555	
4.8	-0.2199707	0.9185791	
4.99	0.2125244	0.9481812	
5.18	0.6279907	0.7824402	
5.37	0.9468384	0.3915405	
5.56	1.044983	-0.03607178	
5.75	0.9454956	-0.3983154	
5.94	0.5749512	-0.7887573	
6.13	0.0466919	-0.9740601	
6.32	-0.4077148	-0.8693237	
6.51	-0.7550049	-0.53125	
6.7	-0.9483032	0.0122681	
6.89	0.8441162	-0.4995728	
7.08	-0.8948975	0.1209106	
7.27	-0.4460449	0.7503662	
7.46	0.5657043	0.6788635	
7.65	-0.1348267	-0.9108276	
7.84	-0.8247681	0.5397949	
8.03	0.1358032	0.9082642	
8.22	0.9382324	0.1619263	
8.41	0.1490479	-0.9922485	
8.6	-0.8863831	0.2433167	
8.79	0.1436157	0.9154053	
8.98	0.8789673	0.3731689	
9.17	0.5059814	-0.8103943	
9.36	-0.7759399	-0.545166	
9.55	-0.8902588	0.2699585	
9.74	-0.3001099	0.9160767	
9.93	0.8155823	0.4953918	
10.12	0.5245972	-0.8532104	
10.31	-0.759552	-0.5788574	
10.5	-0.7696228	0.5261536	
10.69	-0.2325439	0.9551392	
10.88	0.4553833	0.8852539	
11.07	0.9557495	0.1947632	
11.26	0.6453247	-0.8042603	
11.45	-0.777832	-0.292511	
11.64	0.4675293	0.6109009	
11.83	0.8616943	0.1575317	
12.02	0.8874512	-0.1975098	
12.21	0.7354736	-0.4981995	
12.4	0.1634521	-0.8157349	
12.59	-0.2758179	0.6659851	
12.78	0.6224365	-0.4117126	
12.97	0.2095947	-0.7955322	
13.16	-0.1890869	-0.8599243	
13.35	-0.5490112	-0.708374	
13.54	-0.4998474	-0.5313416	
13.73	-0.7940369	0.496582	
13.92	-0.3249207	0.7800903	
14.11	-0.1499023	-0.73526	
14.3	-0.5439758	0.0813293	
14.49	-0.9303589	0.3482666	
14.68	-0.7990723	0.529541	
14.87	-0.3447266	0.8047485	
15.06	0.2931519	0.7921753	
15.25	0.7932739	0.3016663	
15.44	0.578186	-0.5859375	
15.63	-0.7017517	-0.3563843	
15.82	-0.4390259	0.5682373	
16.01	0.4776306	0.8096619	
16.2	-0.3821106	-0.3499908	
16.39	0.8996582	0.1348267	
16.58	0.2255859	0.4054565	
16.77	0.7988586	-0.07980347	
16.96	0.5877075	-0.5794067	
17.15	0.6938171	-0.2862244	
17.34	0.5533142	-0.5523071	
17.53	0.2049561	-0.7868958	
17.72	-0.09912109	-0.7158203	
17.91	-0.2161255	-0.7496643	
18.1	-0.6688232	-0.8679504	
18.29	-0.9438477	-0.3324585	
18.48	-0.5321655	0.0299988	
18.67	-1.010986	-0.1484985	
18.86	-0.8911743	-0.03155518	
19.05	-0.1788635	0.539917	
19.24	-0.918335	0.5103149	
19.43	-0.802002	0.7619629	
19.62	-0.6601563	0.7459717	
19.81	0.1307983	0.7295532	
20.0	-0.02416992	0.8485107	
