# GHz S RI R 50 
!freq	ReS11	ImS11	
1.0	-0.5783691	-0.253479	
1.19	-0.687439	0.0210571	
1.38	-0.6588135	0.3006592	
1.57	-0.5280762	0.5383911	
1.76	-0.2762451	0.7570801	
1.95	0.0759888	0.8150024	
2.14	0.4019775	0.7467041	
2.33	0.6755981	0.5627441	
2.52	0.8258057	0.2799072	
2.71	0.9159546	-0.0737915	
2.9	0.8283691	-0.4061279	
3.09	0.6078491	-0.7036133	
3.28	0.3004761	-0.8569336	
3.47	-0.01312256	-0.9276733	
3.66	-0.3404541	-0.845459	
3.85	-0.6585693	-0.6489258	
4.04	-0.840332	-0.286438	
4.23	-0.9104614	0.0647583	
4.42	-0.8011475	0.4130859	
4.61	-0.579834	0.7290039	
4.8	-0.2180786	0.9202881	
4.99	0.223999	0.9476318	
5.18	0.62677	0.7838745	
5.37	0.9471436	0.3929443	
5.56	1.045532	-0.03527832	
5.75	0.9448853	-0.3980103	
5.94	0.579895	-0.7843018	
6.13	0.0444336	-0.975708	
6.32	-0.4121704	-0.8668213	
6.51	-0.7540894	-0.5280762	
6.7	-0.9478149	0.0134277	
6.89	0.8403931	-0.5038452	
7.08	-0.8950806	0.12323	
7.27	-0.449707	0.7537842	
7.46	0.5612488	0.6780396	
7.65	-0.1343384	-0.9099731	
7.84	-0.8221436	0.541748	
8.03	0.142334	0.9145508	
8.22	0.9387207	0.1613159	
8.41	0.147583	-0.9924927	
8.6	-0.8862305	0.2442017	
8.79	0.1420288	0.9160156	
8.98	0.8795471	0.3737793	
9.17	0.5091858	-0.8125916	
9.36	-0.7761841	-0.5467224	
9.55	-0.8900757	0.267395	
9.74	-0.2902222	0.9205933	
9.93	0.8125	0.4920044	
10.12	0.526001	-0.8591919	
10.31	-0.7543335	-0.578186	
10.5	-0.770813	0.5283508	
10.69	-0.2277222	0.9558105	
10.88	0.4543457	0.8840942	
11.07	0.9543457	0.1940918	
11.26	0.6420288	-0.800415	
11.45	-0.7753601	-0.2902222	
11.64	0.4634094	0.6011658	
11.83	0.8601074	0.1583252	
12.02	0.8851318	-0.1952515	
12.21	0.7295837	-0.4999084	
12.4	0.1607056	-0.8272705	
12.59	-0.2788086	0.6616516	
12.78	0.6296997	-0.4043884	
12.97	0.2156982	-0.7990112	
13.16	-0.1889038	-0.8610229	
13.35	-0.5494995	-0.7026978	
13.54	-0.5065613	-0.5304871	
13.73	-0.7874756	0.4983826	
13.92	-0.3194885	0.7782288	
14.11	-0.1533813	-0.7405396	
14.3	-0.5413513	0.076416	
14.49	-0.9287415	0.3496399	
14.68	-0.8032532	0.5333862	
14.87	-0.3539734	0.8131714	
15.06	0.2962036	0.7901917	
15.25	0.7947083	0.301239	
15.44	0.5757751	-0.5914612	
15.63	-0.7046814	-0.3512573	
15.82	-0.4347229	0.5685425	
16.01	0.4747009	0.8150635	
16.2	-0.3802032	-0.3455505	
16.39	0.8996582	0.1333618	
16.58	0.2309723	0.4003448	
16.77	0.7984619	-0.08227539	
16.96	0.5867004	-0.5788574	
17.15	0.6890869	-0.2863464	
17.34	0.5581665	-0.5483398	
17.53	0.2024536	-0.7883911	
17.72	-0.1007996	-0.7134705	
17.91	-0.2165222	-0.7516479	
18.1	-0.6748962	-0.8706665	
18.29	-0.9431152	-0.3309937	
18.48	-0.5345764	0.0224304	
18.67	-1.011108	-0.1473389	
18.86	-0.890625	-0.02935791	
19.05	-0.1834106	0.5404358	
19.24	-0.9158936	0.5050659	
19.43	-0.8013916	0.7642212	
19.62	-0.6590881	0.7475891	
19.81	0.1305542	0.7256775	
20.0	-0.03015137	0.8526001	
