# GHz S RI R 50 
!freq	ReS11	ImS11	
1.0	-0.5768433	-0.2539673	
1.19	-0.6878052	0.0209961	
1.38	-0.661499	0.2973633	
1.57	-0.5317383	0.5383911	
1.76	-0.2718506	0.7556152	
1.95	0.0794678	0.8164063	
2.14	0.4037476	0.7463989	
2.33	0.6746826	0.5609131	
2.52	0.8259277	0.2790527	
2.71	0.9165649	-0.07373047	
2.9	0.8325806	-0.407959	
3.09	0.607666	-0.6972046	
3.28	0.296814	-0.8538818	
3.47	-0.008728027	-0.9255371	
3.66	-0.3383179	-0.8474731	
3.85	-0.65802	-0.6526489	
4.04	-0.8418579	-0.2860107	
4.23	-0.9101563	0.065979	
4.42	-0.8022461	0.4100952	
4.61	-0.5858154	0.71698	
4.8	-0.2246094	0.918396	
4.99	0.2248535	0.9407349	
5.18	0.6315002	0.7869263	
5.37	0.9483032	0.3920898	
5.56	1.045105	-0.03619385	
5.75	0.9490967	-0.3972778	
5.94	0.5784912	-0.7841187	
6.13	0.0463867	-0.973877	
6.32	-0.4080811	-0.8696289	
6.51	-0.7539673	-0.5302124	
6.7	-0.947998	0.0125122	
6.89	0.8452148	-0.5025024	
7.08	-0.8952026	0.1220093	
7.27	-0.4470215	0.7455444	
7.46	0.5649109	0.6814575	
7.65	-0.1376953	-0.9102783	
7.84	-0.8274536	0.543457	
8.03	0.1369019	0.9123535	
8.22	0.9381714	0.1619263	
8.41	0.1564941	-0.9944458	
8.6	-0.8862915	0.241394	
8.79	0.1387329	0.9187012	
8.98	0.8804321	0.3717651	
9.17	0.5107117	-0.8067627	
9.36	-0.7769775	-0.5481873	
9.55	-0.887146	0.2721558	
9.74	-0.2901001	0.9193726	
9.93	0.8165894	0.4966431	
10.12	0.5275879	-0.8491211	
10.31	-0.7586365	-0.5791626	
10.5	-0.7708435	0.5263367	
10.69	-0.2301025	0.958313	
10.88	0.4552002	0.8831177	
11.07	0.9551392	0.1946411	
11.26	0.6483154	-0.799408	
11.45	-0.7774353	-0.2912292	
11.64	0.4616089	0.6067505	
11.83	0.8626709	0.1572876	
12.02	0.8876953	-0.1987915	
12.21	0.7331848	-0.4994507	
12.4	0.1644897	-0.8276978	
12.59	-0.2730408	0.6664734	
12.78	0.6200867	-0.4045105	
12.97	0.2179565	-0.7921753	
13.16	-0.1821899	-0.8610229	
13.35	-0.5482788	-0.697998	
13.54	-0.5041809	-0.528717	
13.73	-0.7915039	0.4981384	
13.92	-0.3230286	0.7758789	
14.11	-0.1544189	-0.7355347	
14.3	-0.5444641	0.0808411	
14.49	-0.9284668	0.3536682	
14.68	-0.7967224	0.5271301	
14.87	-0.3419189	0.806488	
15.06	0.2912292	0.7869263	
15.25	0.7944946	0.302887	
15.44	0.5774841	-0.59021	
15.63	-0.70401	-0.3566284	
15.82	-0.4398499	0.5636902	
16.01	0.4772644	0.810791	
16.2	-0.3813477	-0.3492584	
16.39	0.9000854	0.1350098	
16.58	0.2292023	0.4026337	
16.77	0.8000183	-0.0796814	
16.96	0.5943604	-0.5766602	
17.15	0.693573	-0.2845154	
17.34	0.5564575	-0.5508423	
17.53	0.2080383	-0.7891541	
17.72	-0.09796143	-0.7209473	
17.91	-0.2185669	-0.7470398	
18.1	-0.6698914	-0.8674316	
18.29	-0.944519	-0.3321533	
18.48	-0.5327148	0.0309143	
18.67	-1.011047	-0.1494141	
18.86	-0.8917236	-0.03161621	
19.05	-0.1835022	0.5396118	
19.24	-0.9135742	0.5067139	
19.43	-0.8021851	0.7645264	
19.62	-0.6593933	0.7460938	
19.81	0.1338806	0.7254639	
20.0	-0.02520752	0.8511353	
