# GHz S RI R 50 
!freq	ReS11	ImS11	
1.0	-0.5786133	-0.2548218	
1.19	-0.6878052	0.0206299	
1.38	-0.6607666	0.2984619	
1.57	-0.5302124	0.5340576	
1.76	-0.2731323	0.7525024	
1.95	0.0775146	0.8114014	
2.14	0.4018555	0.7478638	
2.33	0.6759644	0.5632324	
2.52	0.8272705	0.2816772	
2.71	0.9163208	-0.07385254	
2.9	0.8302002	-0.4070435	
3.09	0.6077271	-0.7060547	
3.28	0.2955322	-0.8495483	
3.47	-0.01031494	-0.9281616	
3.66	-0.3347778	-0.8461914	
3.85	-0.6566772	-0.6432495	
4.04	-0.8400879	-0.2852783	
4.23	-0.90979	0.0644531	
4.42	-0.8031006	0.4152832	
4.61	-0.5848389	0.7346191	
4.8	-0.2216187	0.9192505	
4.99	0.2252197	0.9459839	
5.18	0.6296082	0.7862854	
5.37	0.9470215	0.3917236	
5.56	1.045532	-0.03625488	
5.75	0.9484253	-0.3977661	
5.94	0.5846558	-0.7835693	
6.13	0.0429688	-0.97052	
6.32	-0.409668	-0.8723755	
6.51	-0.755188	-0.5332336	
6.7	-0.9470215	0.0136719	
6.89	0.8459473	-0.503418	
7.08	-0.8939819	0.1220703	
7.27	-0.4539185	0.7468262	
7.46	0.5651855	0.6826782	
7.65	-0.1380615	-0.9093628	
7.84	-0.8260498	0.5410767	
8.03	0.1367798	0.9176636	
8.22	0.9379883	0.1617432	
8.41	0.1589966	-0.992981	
8.6	-0.8881836	0.2467346	
8.79	0.149292	0.9128418	
8.98	0.8800049	0.3728027	
9.17	0.5058289	-0.815918	
9.36	-0.7750244	-0.5475769	
9.55	-0.8883667	0.2713623	
9.74	-0.286377	0.9279785	
9.93	0.8155518	0.4975281	
10.12	0.5283813	-0.8518677	
10.31	-0.7598877	-0.5756836	
10.5	-0.7690125	0.5265808	
10.69	-0.223999	0.9498901	
10.88	0.4519043	0.8835449	
11.07	0.9567871	0.1946411	
11.26	0.632843	-0.8053894	
11.45	-0.7779541	-0.2901306	
11.64	0.4649353	0.6073303	
11.83	0.8624878	0.1567993	
12.02	0.8884888	-0.1948242	
12.21	0.7351074	-0.5037537	
12.4	0.1585693	-0.8237305	
12.59	-0.2740784	0.6636963	
12.78	0.6203613	-0.4101257	
12.97	0.2132568	-0.7937622	
13.16	-0.1831665	-0.8605347	
13.35	-0.5498657	-0.7022095	
13.54	-0.5040588	-0.5301208	
13.73	-0.7945862	0.4979248	
13.92	-0.3271484	0.7832642	
14.11	-0.1514587	-0.7368774	
14.3	-0.5447998	0.0834351	
14.49	-0.9243774	0.3478699	
14.68	-0.798645	0.528656	
14.87	-0.3450623	0.8125305	
15.06	0.2854004	0.7895508	
15.25	0.7943726	0.3029175	
15.44	0.582428	-0.5856934	
15.63	-0.7015076	-0.3570251	
15.82	-0.440094	0.5625305	
16.01	0.4719849	0.8173523	
16.2	-0.3830719	-0.3483276	
16.39	0.8995972	0.1346436	
16.58	0.225296	0.4038544	
16.77	0.8004456	-0.08093262	
16.96	0.5896301	-0.5789185	
17.15	0.6934204	-0.2858582	
17.34	0.554657	-0.5518494	
17.53	0.2028503	-0.7879944	
17.72	-0.1012573	-0.7156067	
17.91	-0.2167969	-0.7410889	
18.1	-0.6731567	-0.8684082	
18.29	-0.9432373	-0.3317261	
18.48	-0.5329895	0.0310059	
18.67	-1.010742	-0.1497803	
18.86	-0.8917847	-0.0322876	
19.05	-0.1821899	0.5439453	
19.24	-0.9171753	0.5084229	
19.43	-0.802124	0.7640991	
19.62	-0.6592102	0.7459412	
19.81	0.1285706	0.730957	
20.0	-0.02441406	0.8459473	
