# GHz S RI R 50 
!freq	ReS11	ImS11	
1.0	-0.5786743	-0.2536011	
1.19	-0.6876831	0.0206909	
1.38	-0.6626587	0.2998657	
1.57	-0.5308228	0.5384521	
1.76	-0.2720337	0.7520752	
1.95	0.0775757	0.8143311	
2.14	0.4023438	0.7471313	
2.33	0.6720581	0.562561	
2.52	0.8267822	0.2788696	
2.71	0.9154663	-0.07281494	
2.9	0.8327637	-0.4048462	
3.09	0.6028442	-0.7114258	
3.28	0.2979736	-0.8606567	
3.47	-0.009216309	-0.9331665	
3.66	-0.3327637	-0.8425903	
3.85	-0.6610107	-0.6486206	
4.04	-0.8422241	-0.2842407	
4.23	-0.9112549	0.0644531	
4.42	-0.8029785	0.4112549	
4.61	-0.5759888	0.7219849	
4.8	-0.2137451	0.9185791	
4.99	0.2168579	0.9369507	
5.18	0.6269531	0.7887573	
5.37	0.9483643	0.3951416	
5.56	1.045898	-0.03625488	
5.75	0.9489136	-0.395813	
5.94	0.5827637	-0.788147	
6.13	0.0458374	-0.97229	
6.32	-0.4083252	-0.8690186	
6.51	-0.7571411	-0.5286865	
6.7	-0.9472656	0.0131836	
6.89	0.8432617	-0.506958	
7.08	-0.8947144	0.1235352	
7.27	-0.4543457	0.7479248	
7.46	0.5646057	0.6836853	
7.65	-0.1292725	-0.9074097	
7.84	-0.8290405	0.5415649	
8.03	0.1410522	0.9094849	
8.22	0.9385376	0.1622314	
8.41	0.1574097	-0.9960938	
8.6	-0.8876343	0.2438965	
8.79	0.1444092	0.9172974	
8.98	0.8790894	0.37146	
9.17	0.5047913	-0.8113708	
9.36	-0.776123	-0.5484009	
9.55	-0.8908081	0.2736206	
9.74	-0.291748	0.9257813	
9.93	0.8132019	0.4911499	
10.12	0.5265503	-0.8545532	
10.31	-0.7585144	-0.5813904	
10.5	-0.770752	0.5252991	
10.69	-0.2315674	0.9570923	
10.88	0.4505005	0.8867188	
11.07	0.9558716	0.1953125	
11.26	0.6443787	-0.8008728	
11.45	-0.7790527	-0.2909546	
11.64	0.468811	0.6091309	
11.83	0.8619995	0.1577759	
12.02	0.8867798	-0.1981201	
12.21	0.7261658	-0.4996948	
12.4	0.1619873	-0.8231201	
12.59	-0.2763062	0.6668701	
12.78	0.6201172	-0.4102173	
12.97	0.2141724	-0.7944336	
13.16	-0.1784058	-0.8637085	
13.35	-0.5471802	-0.7011719	
13.54	-0.50177	-0.5323792	
13.73	-0.7880249	0.4958496	
13.92	-0.3267822	0.7799072	
14.11	-0.1529541	-0.7315063	
14.3	-0.5440063	0.0810242	
14.49	-0.9242554	0.3468933	
14.68	-0.7985535	0.526947	
14.87	-0.3479309	0.8109436	
15.06	0.2944031	0.7828674	
15.25	0.7940674	0.3016357	
15.44	0.576355	-0.5908508	
15.63	-0.7019043	-0.3582153	
15.82	-0.440033	0.5635071	
16.01	0.4780579	0.8139343	
16.2	-0.3829193	-0.3483734	
16.39	0.9002075	0.1350403	
16.58	0.2285156	0.4036255	
16.77	0.8004456	-0.07922363	
16.96	0.5862427	-0.5760498	
17.15	0.6912537	-0.2861328	
17.34	0.5499268	-0.5504456	
17.53	0.2025757	-0.7849426	
17.72	-0.1073608	-0.7154236	
17.91	-0.2170105	-0.7501221	
18.1	-0.6747437	-0.8673401	
18.29	-0.9439087	-0.3330688	
18.48	-0.5325928	0.0302734	
18.67	-1.010437	-0.1486206	
18.86	-0.8916626	-0.03137207	
19.05	-0.1772461	0.5419922	
19.24	-0.9180298	0.5064697	
19.43	-0.8048096	0.7652588	
19.62	-0.6584473	0.7455139	
19.81	0.1325378	0.7314453	
20.0	-0.02362061	0.8536987	
