# GHz S RI R 50 
!freq	ReS11	ImS11	
1.0	-0.5751343	-0.2536011	
1.19	-0.6878052	0.020752	
1.38	-0.6621094	0.2962036	
1.57	-0.5292358	0.5391846	
1.76	-0.2738037	0.7488403	
1.95	0.0778809	0.8134766	
2.14	0.4056396	0.7402344	
2.33	0.6738281	0.5634155	
2.52	0.8262939	0.2797852	
2.71	0.914978	-0.07366943	
2.9	0.8322144	-0.407959	
3.09	0.6045532	-0.7124634	
3.28	0.3007813	-0.8591919	
3.47	-0.0166626	-0.932373	
3.66	-0.3435669	-0.852356	
3.85	-0.6630859	-0.6477051	
4.04	-0.8423462	-0.2868652	
4.23	-0.9109497	0.0656128	
4.42	-0.8012695	0.4124756	
4.61	-0.5775146	0.7218628	
4.8	-0.2174683	0.9178467	
4.99	0.2164917	0.9456787	
5.18	0.6265869	0.7832336	
5.37	0.946228	0.3910522	
5.56	1.045654	-0.03527832	
5.75	0.9443359	-0.3980103	
5.94	0.5783691	-0.7863159	
6.13	0.0495605	-0.9694824	
6.32	-0.4124146	-0.8700562	
6.51	-0.7557373	-0.5287476	
6.7	-0.9476929	0.0128784	
6.89	0.8458252	-0.5054932	
7.08	-0.8960571	0.1231079	
7.27	-0.4523315	0.756897	
7.46	0.5618896	0.6828918	
7.65	-0.1343384	-0.9140015	
7.84	-0.8178101	0.538147	
8.03	0.1409302	0.9096069	
8.22	0.9382935	0.1615601	
8.41	0.1533813	-0.9902954	
8.6	-0.887085	0.2427673	
8.79	0.1461792	0.9192505	
8.98	0.8790283	0.3732605	
9.17	0.5088806	-0.809906	
9.36	-0.7752686	-0.5476379	
9.55	-0.8911133	0.2715454	
9.74	-0.2994995	0.9243774	
9.93	0.8141479	0.4950867	
10.12	0.5230103	-0.8571167	
10.31	-0.7577209	-0.5815125	
10.5	-0.7702332	0.5293579	
10.69	-0.2252197	0.9597778	
10.88	0.4521484	0.8845215	
11.07	0.9553833	0.1939087	
11.26	0.6369934	-0.7964783	
11.45	-0.7770691	-0.2922058	
11.64	0.4638062	0.6059265	
11.83	0.8610229	0.1578979	
12.02	0.887207	-0.196167	
12.21	0.7342834	-0.4997559	
12.4	0.1575928	-0.826416	
12.59	-0.276123	0.6616821	
12.78	0.6222534	-0.4092407	
12.97	0.2128906	-0.795166	
13.16	-0.1872559	-0.8594971	
13.35	-0.546936	-0.6987305	
13.54	-0.50354	-0.5302734	
13.73	-0.7921753	0.4995728	
13.92	-0.3287659	0.7798767	
14.11	-0.1548157	-0.7409058	
14.3	-0.543457	0.0800476	
14.49	-0.9277344	0.3486938	
14.68	-0.7989807	0.526123	
14.87	-0.3486938	0.8117676	
15.06	0.2906494	0.7929993	
15.25	0.7940369	0.3022156	
15.44	0.5852661	-0.5886841	
15.63	-0.7052612	-0.3562012	
15.82	-0.4377441	0.5651855	
16.01	0.4715881	0.8092041	
16.2	-0.3825531	-0.3463593	
16.39	0.9000244	0.1338196	
16.58	0.229538	0.4007874	
16.77	0.800354	-0.08026123	
16.96	0.5889282	-0.5740356	
17.15	0.6911621	-0.2913818	
17.34	0.5504456	-0.5524292	
17.53	0.1992493	-0.7888794	
17.72	-0.1032715	-0.7141418	
17.91	-0.2218323	-0.7483215	
18.1	-0.6705017	-0.8671875	
18.29	-0.9429321	-0.3309937	
18.48	-0.5309753	0.030365	
18.67	-1.01062	-0.1484375	
18.86	-0.8916626	-0.03076172	
19.05	-0.1750183	0.5421753	
19.24	-0.9144287	0.512146	
19.43	-0.8065796	0.7695923	
19.62	-0.6572266	0.7427368	
19.81	0.1312256	0.7292175	
20.0	-0.02246094	0.8460083	
