# GHz S RI R 50 
!freq	ReS11	ImS11	
1.0	-0.5758667	-0.2559814	
1.19	-0.6875	0.020813	
1.38	-0.6603394	0.2994995	
1.57	-0.53125	0.5391846	
1.76	-0.27771	0.7469482	
1.95	0.0797119	0.8202515	
2.14	0.4069214	0.7460327	
2.33	0.6741943	0.5620728	
2.52	0.8266602	0.2808838	
2.71	0.9169922	-0.0725708	
2.9	0.8313599	-0.4039307	
3.09	0.6018066	-0.7062988	
3.28	0.3004761	-0.8515015	
3.47	-0.01171875	-0.9309082	
3.66	-0.3358154	-0.8446045	
3.85	-0.6583252	-0.6502686	
4.04	-0.84021	-0.2858887	
4.23	-0.9108276	0.0654907	
4.42	-0.8063965	0.4109497	
4.61	-0.5802612	0.722229	
4.8	-0.2238159	0.9161377	
4.99	0.22052	0.9436646	
5.18	0.6316223	0.7874451	
5.37	0.9465332	0.3924561	
5.56	1.044556	-0.03570557	
5.75	0.9465942	-0.3920288	
5.94	0.5786133	-0.7849731	
6.13	0.0494385	-0.9689331	
6.32	-0.4093628	-0.8670654	
6.51	-0.7512207	-0.5276489	
6.7	-0.9468994	0.0126953	
6.89	0.8430786	-0.5038452	
7.08	-0.8950806	0.1218262	
7.27	-0.4458618	0.7542725	
7.46	0.5652466	0.6816711	
7.65	-0.137207	-0.9126587	
7.84	-0.8240356	0.5393066	
8.03	0.1358643	0.9172363	
8.22	0.9379883	0.1623535	
8.41	0.1511841	-0.9923706	
8.6	-0.8840332	0.2435303	
8.79	0.1487427	0.920166	
8.98	0.878479	0.3736572	
9.17	0.5094299	-0.8135071	
9.36	-0.7757874	-0.5507202	
9.55	-0.8883057	0.2716675	
9.74	-0.2839355	0.9153442	
9.93	0.8172913	0.4948425	
10.12	0.5273438	-0.8562622	
10.31	-0.7575073	-0.578186	
10.5	-0.769043	0.5249329	
10.69	-0.2294922	0.9558105	
10.88	0.4546509	0.880127	
11.07	0.9557495	0.1950684	
11.26	0.6448669	-0.8007507	
11.45	-0.7774658	-0.2921753	
11.64	0.4624023	0.6069641	
11.83	0.8624878	0.1571655	
12.02	0.8872681	-0.1976318	
12.21	0.7316895	-0.5024719	
12.4	0.1557617	-0.8295898	
12.59	-0.2767639	0.6635437	
12.78	0.6221924	-0.412323	
12.97	0.2145386	-0.7969971	
13.16	-0.1834717	-0.8621826	
13.35	-0.5487671	-0.694397	
13.54	-0.5053711	-0.5293579	
13.73	-0.7892456	0.4965515	
13.92	-0.3322754	0.7823486	
14.11	-0.1501465	-0.7378235	
14.3	-0.5444031	0.0815125	
14.49	-0.9259033	0.3497314	
14.68	-0.801178	0.5314026	
14.87	-0.3535767	0.8070068	
15.06	0.2937012	0.7897034	
15.25	0.7941284	0.3020935	
15.44	0.5825195	-0.5952148	
15.63	-0.7023315	-0.3576965	
15.82	-0.4391174	0.5659485	
16.01	0.4780273	0.8113708	
16.2	-0.3813477	-0.3481293	
16.39	0.9003906	0.1345825	
16.58	0.2275238	0.4048157	
16.77	0.8000793	-0.08007813	
16.96	0.5877991	-0.5808716	
17.15	0.6957703	-0.2854309	
17.34	0.5550537	-0.5532532	
17.53	0.204071	-0.7887878	
17.72	-0.1016235	-0.7174988	
17.91	-0.2169495	-0.7502747	
18.1	-0.6685181	-0.8667297	
18.29	-0.9435425	-0.3329468	
18.48	-0.5328674	0.030304	
18.67	-1.010437	-0.1490479	
18.86	-0.8915405	-0.03186035	
19.05	-0.1790161	0.5446167	
19.24	-0.9197998	0.5071411	
19.43	-0.8059692	0.7597046	
19.62	-0.6608887	0.7414551	
19.81	0.1322632	0.728302	
20.0	-0.02191162	0.8451538	
