# GHz S RI R 50 
!freq	ReS11	ImS11	
1.0	-0.5776367	-0.2538452	
1.19	-0.6873169	0.0209961	
1.38	-0.6592407	0.2981567	
1.57	-0.5271606	0.5335693	
1.76	-0.2694702	0.7512817	
1.95	0.0753174	0.8146362	
2.14	0.4052124	0.7488403	
2.33	0.6746826	0.56073	
2.52	0.8269653	0.2797241	
2.71	0.9162598	-0.07391357	
2.9	0.8330688	-0.4053345	
3.09	0.6121216	-0.7056274	
3.28	0.3007813	-0.8511963	
3.47	-0.01287842	-0.9321899	
3.66	-0.3366699	-0.8459473	
3.85	-0.659729	-0.645874	
4.04	-0.8416748	-0.2841187	
4.23	-0.9102173	0.0650024	
4.42	-0.8006592	0.4119873	
4.61	-0.5750122	0.7244263	
4.8	-0.2133789	0.916748	
4.99	0.2246094	0.9459229	
5.18	0.6235962	0.7834473	
5.37	0.9485474	0.394165	
5.56	1.045715	-0.03485107	
5.75	0.9447632	-0.3968506	
5.94	0.576416	-0.7874146	
6.13	0.0406494	-0.9710083	
6.32	-0.411499	-0.8669434	
6.51	-0.757019	-0.5272217	
6.7	-0.9470825	0.0137329	
6.89	0.8485107	-0.5108643	
7.08	-0.895874	0.1231689	
7.27	-0.4506226	0.7540283	
7.46	0.5620117	0.6787415	
7.65	-0.1296387	-0.9084473	
7.84	-0.822876	0.5394287	
8.03	0.1401978	0.9110107	
8.22	0.9381714	0.1616821	
8.41	0.1516724	-0.9916382	
8.6	-0.8866882	0.2447205	
8.79	0.1469116	0.9203491	
8.98	0.8787537	0.3753052	
9.17	0.5061951	-0.8110352	
9.36	-0.7782898	-0.5489807	
9.55	-0.8900757	0.2709351	
9.74	-0.2926636	0.9150391	
9.93	0.8159485	0.4943237	
10.12	0.5325317	-0.8458252	
10.31	-0.7612305	-0.5780945	
10.5	-0.7766113	0.5273132	
10.69	-0.227478	0.9640503	
10.88	0.4525146	0.8806152	
11.07	0.9550171	0.194458	
11.26	0.6416931	-0.8028564	
11.45	-0.7763367	-0.2913208	
11.64	0.4657288	0.6071167	
11.83	0.8615112	0.1575928	
12.02	0.887085	-0.1984863	
12.21	0.7301331	-0.5017395	
12.4	0.1624146	-0.8313599	
12.59	-0.2778625	0.665802	
12.78	0.6237793	-0.4128723	
12.97	0.2157593	-0.791687	
13.16	-0.1953735	-0.8556519	
13.35	-0.5476074	-0.6992798	
13.54	-0.500061	-0.5307007	
13.73	-0.7903748	0.4948425	
13.92	-0.3242798	0.7834167	
14.11	-0.1500244	-0.7398682	
14.3	-0.5435181	0.0794983	
14.49	-0.9275513	0.3495789	
14.68	-0.7992859	0.53302	
14.87	-0.3528748	0.8066406	
15.06	0.2913818	0.7880859	
15.25	0.7942505	0.3016357	
15.44	0.582489	-0.5892944	
15.63	-0.7040405	-0.3539429	
15.82	-0.4407654	0.5675659	
16.01	0.4767456	0.8099976	
16.2	-0.3822784	-0.3464661	
16.39	0.9004517	0.1335449	
16.58	0.2295227	0.4047546	
16.77	0.8007202	-0.08087158	
16.96	0.5898743	-0.5743103	
17.15	0.6918945	-0.2874146	
17.34	0.5581055	-0.5497437	
17.53	0.1985779	-0.7835083	
17.72	-0.09835815	-0.7123108	
17.91	-0.2203979	-0.7385559	
18.1	-0.6733704	-0.8658752	
18.29	-0.944519	-0.3305664	
18.48	-0.5315552	0.0305176	
18.67	-1.011353	-0.1479492	
18.86	-0.8917847	-0.03143311	
19.05	-0.1799011	0.5386047	
19.24	-0.9140015	0.5095215	
19.43	-0.8053589	0.7610474	
19.62	-0.6559448	0.7429199	
19.81	0.131134	0.7201233	
20.0	-0.02288818	0.8512573	
