# GHz S RI R 50 
!freq	ReS11	ImS11	
1.0	-0.578064	-0.2545166	
1.19	-0.6876831	0.020874	
1.38	-0.6618042	0.2982178	
1.57	-0.5281982	0.5400391	
1.76	-0.2737427	0.7525024	
1.95	0.0805054	0.809021	
2.14	0.4065552	0.7432861	
2.33	0.6763306	0.5591431	
2.52	0.8272095	0.2780762	
2.71	0.9144287	-0.07373047	
2.9	0.8322144	-0.4078369	
3.09	0.6056519	-0.7061768	
3.28	0.2985229	-0.8552246	
3.47	-0.0133667	-0.93573	
3.66	-0.3309326	-0.8492432	
3.85	-0.6594238	-0.6491089	
4.04	-0.8418579	-0.2851563	
4.23	-0.9098511	0.0644531	
4.42	-0.8023682	0.4136353	
4.61	-0.5734253	0.7245483	
4.8	-0.2098389	0.9223633	
4.99	0.2210693	0.9387207	
5.18	0.627594	0.7814026	
5.37	0.9466553	0.3912964	
5.56	1.045532	-0.03570557	
5.75	0.951416	-0.3947144	
5.94	0.5751343	-0.7844238	
6.13	0.0501709	-0.9736328	
6.32	-0.4144897	-0.8659668	
6.51	-0.7532654	-0.5293579	
6.7	-0.9483032	0.0133057	
6.89	0.8434448	-0.5025635	
7.08	-0.8952026	0.1228027	
7.27	-0.4523926	0.7481689	
7.46	0.5628967	0.6807861	
7.65	-0.1414795	-0.9055786	
7.84	-0.8215332	0.5410156	
8.03	0.1384888	0.9143677	
8.22	0.9382935	0.1615601	
8.41	0.1449585	-0.9855957	
8.6	-0.8860168	0.2426758	
8.79	0.151062	0.9213867	
8.98	0.8788452	0.3733521	
9.17	0.5081177	-0.8170776	
9.36	-0.7777405	-0.5520325	
9.55	-0.8875732	0.2710571	
9.74	-0.2870483	0.927002	
9.93	0.8174744	0.4938965	
10.12	0.5287476	-0.8530884	
10.31	-0.7600708	-0.5794067	
10.5	-0.7690125	0.5271606	
10.69	-0.2370605	0.9597168	
10.88	0.4509277	0.8859253	
11.07	0.9567871	0.1945801	
11.26	0.6309814	-0.7993774	
11.45	-0.7773132	-0.2914124	
11.64	0.4651184	0.6087341	
11.83	0.8619385	0.1572876	
12.02	0.8848877	-0.1974487	
12.21	0.7332458	-0.5016785	
12.4	0.1621704	-0.8328857	
12.59	-0.2750244	0.6685791	
12.78	0.6238403	-0.4139404	
12.97	0.2085571	-0.7982788	
13.16	-0.1878052	-0.8586426	
13.35	-0.5463867	-0.7072144	
13.54	-0.5034485	-0.5292969	
13.73	-0.7883911	0.4957275	
13.92	-0.3276978	0.7788696	
14.11	-0.1574097	-0.7367554	
14.3	-0.5452881	0.0816345	
14.49	-0.9246521	0.3536987	
14.68	-0.8007202	0.527832	
14.87	-0.3408813	0.8158264	
15.06	0.2980347	0.7931213	
15.25	0.7948303	0.3023987	
15.44	0.5719299	-0.5903015	
15.63	-0.7061462	-0.3547363	
15.82	-0.437561	0.5687866	
16.01	0.4747925	0.8161926	
16.2	-0.3831329	-0.3459167	
16.39	0.8994751	0.1339722	
16.58	0.2296448	0.4024658	
16.77	0.8001099	-0.08026123	
16.96	0.5914612	-0.5731812	
17.15	0.6908264	-0.2876587	
17.34	0.5491333	-0.5488586	
17.53	0.2048645	-0.7859192	
17.72	-0.1001892	-0.7128601	
17.91	-0.2186279	-0.7467041	
18.1	-0.668396	-0.8650208	
18.29	-0.9455566	-0.3322754	
18.48	-0.5323181	0.0309448	
18.67	-1.010315	-0.1488037	
18.86	-0.8911743	-0.03155518	
19.05	-0.178833	0.5380859	
19.24	-0.913147	0.5115967	
19.43	-0.8030396	0.7592773	
19.62	-0.6605835	0.7498169	
19.81	0.1294861	0.7246704	
20.0	-0.02508545	0.8530273	
