# GHz S RI R 50 
!freq	ReS11	ImS11	
1.0	-0.5802612	-0.2542725	
1.19	-0.687439	0.020813	
1.38	-0.6629028	0.3007202	
1.57	-0.5307007	0.5386353	
1.76	-0.2702637	0.7463989	
1.95	0.0737305	0.8126831	
2.14	0.4023438	0.7451172	
2.33	0.6730347	0.5614624	
2.52	0.8267212	0.2796021	
2.71	0.9161377	-0.07287598	
2.9	0.8305054	-0.4052124	
3.09	0.6054077	-0.708252	
3.28	0.2950439	-0.8553467	
3.47	-0.01287842	-0.9360352	
3.66	-0.3392334	-0.8416748	
3.85	-0.6590576	-0.6467285	
4.04	-0.8406982	-0.2844849	
4.23	-0.9105835	0.0650024	
4.42	-0.8057251	0.4115601	
4.61	-0.5831299	0.7233887	
4.8	-0.2190552	0.9158936	
4.99	0.2197266	0.9511719	
5.18	0.6268616	0.7844238	
5.37	0.9489746	0.3920898	
5.56	1.045227	-0.03552246	
5.75	0.9498291	-0.3985596	
5.94	0.5748291	-0.7848511	
6.13	0.0440674	-0.9651489	
6.32	-0.4108276	-0.8723145	
6.51	-0.7544556	-0.5299072	
6.7	-0.9472656	0.0139771	
6.89	0.8458862	-0.5068359	
7.08	-0.8953247	0.1228638	
7.27	-0.4481201	0.7490234	
7.46	0.5643311	0.6835022	
7.65	-0.1303101	-0.9169922	
7.84	-0.8256226	0.5438232	
8.03	0.138855	0.901062	
8.22	0.9376221	0.1621094	
8.41	0.1567383	-0.9890747	
8.6	-0.8903198	0.2450256	
8.79	0.149292	0.9197388	
8.98	0.8792725	0.3751221	
9.17	0.508667	-0.8143005	
9.36	-0.7775269	-0.5506592	
9.55	-0.8887939	0.2722778	
9.74	-0.2873535	0.9227905	
9.93	0.8148193	0.4924011	
10.12	0.5285645	-0.8497925	
10.31	-0.7589722	-0.5792236	
10.5	-0.769165	0.5247498	
10.69	-0.232605	0.9585571	
10.88	0.4526367	0.8829346	
11.07	0.9556274	0.1959839	
11.26	0.6451111	-0.8019104	
11.45	-0.7776794	-0.2922363	
11.64	0.4642944	0.6060791	
11.83	0.8612671	0.1585693	
12.02	0.8880615	-0.1965332	
12.21	0.7315369	-0.502655	
12.4	0.1577148	-0.8273315	
12.59	-0.2739258	0.6636047	
12.78	0.625946	-0.4110413	
12.97	0.2166138	-0.8024292	
13.16	-0.1870728	-0.8635254	
13.35	-0.5535889	-0.6994019	
13.54	-0.499115	-0.5323486	
13.73	-0.790802	0.4959412	
13.92	-0.3256836	0.78479	
14.11	-0.1503601	-0.7402344	
14.3	-0.5437927	0.0792542	
14.49	-0.9237061	0.3477478	
14.68	-0.7955322	0.5270691	
14.87	-0.3421326	0.8062439	
15.06	0.2946777	0.7892761	
15.25	0.7941895	0.3024292	
15.44	0.5794678	-0.591217	
15.63	-0.7041016	-0.3537903	
15.82	-0.4447937	0.5643616	
16.01	0.4754639	0.8152161	
16.2	-0.3811493	-0.3474274	
16.39	0.8999023	0.1339111	
16.58	0.2295227	0.4021606	
16.77	0.7992249	-0.08050537	
16.96	0.5865173	-0.577179	
17.15	0.6937866	-0.284668	
17.34	0.5573425	-0.5522156	
17.53	0.1986389	-0.7875977	
17.72	-0.1036682	-0.7207642	
17.91	-0.2210083	-0.7454224	
18.1	-0.6673279	-0.8662415	
18.29	-0.9440308	-0.3303833	
18.48	-0.5317078	0.0307922	
18.67	-1.011108	-0.1482544	
18.86	-0.8917847	-0.03118896	
19.05	-0.181427	0.5393982	
19.24	-0.9159546	0.5067749	
19.43	-0.7987671	0.762085	
19.62	-0.6625671	0.7441406	
19.81	0.1316528	0.7261047	
20.0	-0.03204346	0.8485718	
