# GHz S RI R 50 
!freq	ReS11	ImS11	
1.0	-0.5803223	-0.255249	
1.19	-0.6879272	0.0209351	
1.38	-0.6602783	0.3016357	
1.57	-0.5286255	0.5397339	
1.76	-0.2713013	0.7491455	
1.95	0.0806274	0.8095703	
2.14	0.401062	0.7515259	
2.33	0.6759644	0.5618896	
2.52	0.8276978	0.2789307	
2.71	0.9162598	-0.07489014	
2.9	0.8313599	-0.4071655	
3.09	0.6046753	-0.7021484	
3.28	0.2962646	-0.8572388	
3.47	-0.01611328	-0.9330444	
3.66	-0.3376465	-0.8477173	
3.85	-0.6627197	-0.6447754	
4.04	-0.8409424	-0.2868042	
4.23	-0.9102173	0.0656128	
4.42	-0.8057861	0.4128418	
4.61	-0.5802612	0.7279663	
4.8	-0.2182007	0.9196167	
4.99	0.2179565	0.9443359	
5.18	0.6240845	0.786377	
5.37	0.9464722	0.3931274	
5.56	1.045471	-0.03582764	
5.75	0.9489746	-0.3979492	
5.94	0.5898438	-0.7797852	
6.13	0.0487061	-0.9717407	
6.32	-0.4130249	-0.8666992	
6.51	-0.7561646	-0.52948	
6.7	-0.9473877	0.0133057	
6.89	0.8457642	-0.5036011	
7.08	-0.8950806	0.1228027	
7.27	-0.4532471	0.7528076	
7.46	0.5646057	0.6815796	
7.65	-0.1390991	-0.9072876	
7.84	-0.8266602	0.5355225	
8.03	0.1412354	0.9078369	
8.22	0.9384155	0.1623535	
8.41	0.1500854	-0.9874268	
8.6	-0.8866882	0.2458191	
8.79	0.1445923	0.9116821	
8.98	0.8786621	0.3746948	
9.17	0.508728	-0.8144531	
9.36	-0.775177	-0.5461731	
9.55	-0.8868408	0.2715454	
9.74	-0.2994995	0.9160767	
9.93	0.8135376	0.4907227	
10.12	0.5274048	-0.8575439	
10.31	-0.7572632	-0.5744934	
10.5	-0.7708435	0.5272827	
10.69	-0.2358398	0.9589844	
10.88	0.4523315	0.8834839	
11.07	0.9562378	0.1950073	
11.26	0.644165	-0.8021545	
11.45	-0.7776184	-0.2930603	
11.64	0.469574	0.6021118	
11.83	0.8623657	0.1577148	
12.02	0.8867798	-0.1974487	
12.21	0.7333374	-0.5015259	
12.4	0.1577759	-0.8237305	
12.59	-0.2731323	0.6648865	
12.78	0.6251221	-0.4109497	
12.97	0.2133789	-0.7963257	
13.16	-0.1869507	-0.8604736	
13.35	-0.5537109	-0.7011108	
13.54	-0.4994507	-0.5313721	
13.73	-0.7912903	0.4972534	
13.92	-0.3303223	0.7843628	
14.11	-0.1467285	-0.7394714	
14.3	-0.5439758	0.079895	
14.49	-0.927124	0.3447876	
14.68	-0.7979431	0.5316772	
14.87	-0.3479004	0.808197	
15.06	0.2894592	0.7889099	
15.25	0.7935181	0.302124	
15.44	0.5811768	-0.5875854	
15.63	-0.7032776	-0.3554382	
15.82	-0.4378052	0.5681458	
16.01	0.4718628	0.8145447	
16.2	-0.3823547	-0.3453217	
16.39	0.9001465	0.1341553	
16.58	0.2276764	0.4018555	
16.77	0.799469	-0.08050537	
16.96	0.5868835	-0.5768127	
17.15	0.693512	-0.2860718	
17.34	0.5495911	-0.5498352	
17.53	0.202301	-0.7861633	
17.72	-0.1026917	-0.7171326	
17.91	-0.2142944	-0.7473145	
18.1	-0.6652832	-0.8659058	
18.29	-0.9449463	-0.3323364	
18.48	-0.5321045	0.0302429	
18.67	-1.011353	-0.1477051	
18.86	-0.8914185	-0.03100586	
19.05	-0.1808472	0.5427246	
19.24	-0.9176025	0.5037231	
19.43	-0.8004761	0.7616577	
19.62	-0.6562805	0.7445374	
19.81	0.1325378	0.7271423	
20.0	-0.02459717	0.8540039	
