# GHz S RI R 50 
!freq	ReS11	ImS11	
1.0	-0.5784302	-0.2557983	
1.19	-0.6878052	0.020752	
1.38	-0.6599731	0.2990723	
1.57	-0.5272217	0.5365601	
1.76	-0.2695923	0.7507935	
1.95	0.0722656	0.819519	
2.14	0.4013062	0.7463989	
2.33	0.6746826	0.5606079	
2.52	0.8255615	0.2787476	
2.71	0.9169922	-0.07214355	
2.9	0.8312378	-0.4053955	
3.09	0.6085205	-0.7014771	
3.28	0.3060913	-0.8545532	
3.47	-0.008605957	-0.9326782	
3.66	-0.3355713	-0.8493652	
3.85	-0.6578979	-0.6513672	
4.04	-0.84021	-0.2855835	
4.23	-0.9112549	0.0650635	
4.42	-0.800354	0.4123535	
4.61	-0.5782471	0.7310791	
4.8	-0.2161255	0.9255981	
4.99	0.2236938	0.9455566	
5.18	0.6280823	0.7839661	
5.37	0.9457397	0.3911743	
5.56	1.045227	-0.03601074	
5.75	0.9460449	-0.3960571	
5.94	0.574585	-0.7914429	
6.13	0.0452271	-0.9693604	
6.32	-0.4121094	-0.8688354	
6.51	-0.7553711	-0.5251465	
6.7	-0.9467773	0.0130615	
6.89	0.8425903	-0.5068359	
7.08	-0.8939819	0.1230469	
7.27	-0.4447632	0.7555542	
7.46	0.5631104	0.6821289	
7.65	-0.142334	-0.9077759	
7.84	-0.8251953	0.5415649	
8.03	0.140625	0.9199829	
8.22	0.9382324	0.1613159	
8.41	0.1506348	-0.9873047	
8.6	-0.8892822	0.2425537	
8.79	0.1552734	0.9074097	
8.98	0.8778381	0.3710632	
9.17	0.5095215	-0.8105164	
9.36	-0.7741699	-0.5493164	
9.55	-0.8878784	0.2683105	
9.74	-0.2924194	0.9129028	
9.93	0.8165283	0.4923706	
10.12	0.529541	-0.8555298	
10.31	-0.7584534	-0.57901	
10.5	-0.7643433	0.5216064	
10.69	-0.2322388	0.9658203	
10.88	0.4497681	0.8813477	
11.07	0.9570313	0.1950073	
11.26	0.6361694	-0.8023987	
11.45	-0.7748718	-0.2917175	
11.64	0.4625244	0.6068726	
11.83	0.8614502	0.1578369	
12.02	0.8880005	-0.196228	
12.21	0.7332153	-0.5019836	
12.4	0.1572876	-0.828186	
12.59	-0.2769775	0.6671448	
12.78	0.6230164	-0.4072876	
12.97	0.2158203	-0.7952881	
13.16	-0.1812744	-0.8552856	
13.35	-0.5551147	-0.6936646	
13.54	-0.5029297	-0.5329285	
13.73	-0.7895508	0.4940491	
13.92	-0.3241882	0.7816467	
14.11	-0.1543884	-0.7340393	
14.3	-0.5438232	0.079895	
14.49	-0.9305725	0.3508301	
14.68	-0.8007813	0.5284119	
14.87	-0.3431702	0.8127747	
15.06	0.2998657	0.7870789	
15.25	0.7931824	0.2999878	
15.44	0.5791321	-0.5846558	
15.63	-0.7052917	-0.3544617	
15.82	-0.4406433	0.5618896	
16.01	0.477417	0.8139954	
16.2	-0.3825531	-0.3469238	
16.39	0.8997192	0.133606	
16.58	0.2280579	0.4022064	
16.77	0.8002014	-0.08123779	
16.96	0.582428	-0.5774231	
17.15	0.6928711	-0.289093	
17.34	0.5535278	-0.5521851	
17.53	0.2027893	-0.7845764	
17.72	-0.09796143	-0.7176514	
17.91	-0.2197876	-0.7445068	
18.1	-0.6705017	-0.8673401	
18.29	-0.9432373	-0.331543	
18.48	-0.5317383	0.0306702	
18.67	-1.011414	-0.1486206	
18.86	-0.8916626	-0.03070068	
19.05	-0.1786804	0.539978	
19.24	-0.9135742	0.5114746	
19.43	-0.791626	0.7572632	
19.62	-0.6590271	0.745575	
19.81	0.1331177	0.7223816	
20.0	-0.02526855	0.8513794	
