# GHz S RI R 50 
!freq	ReS11	ImS11	
1.0	-0.5765991	-0.2542114	
1.19	-0.6870117	0.0206299	
1.38	-0.65802	0.2988281	
1.57	-0.5307007	0.5344238	
1.76	-0.2739258	0.7503052	
1.95	0.0773926	0.8164063	
2.14	0.4074097	0.744812	
2.33	0.673645	0.5603027	
2.52	0.8271484	0.2781372	
2.71	0.9170532	-0.07470703	
2.9	0.828186	-0.4093018	
3.09	0.6083984	-0.7092285	
3.28	0.3009644	-0.8535767	
3.47	-0.01733398	-0.9307861	
3.66	-0.3422852	-0.8492432	
3.85	-0.6601563	-0.6418457	
4.04	-0.8418579	-0.2855835	
4.23	-0.9101563	0.0643921	
4.42	-0.8005371	0.4121094	
4.61	-0.5736694	0.7169189	
4.8	-0.2114258	0.9229736	
4.99	0.2202759	0.9481812	
5.18	0.6239014	0.7854919	
5.37	0.9457397	0.3936157	
5.56	1.044983	-0.03601074	
5.75	0.9473267	-0.3964233	
5.94	0.5789185	-0.7826538	
6.13	0.0419922	-0.9716797	
6.32	-0.4108887	-0.8684082	
6.51	-0.7549438	-0.5268555	
6.7	-0.9475098	0.0128784	
6.89	0.8412476	-0.5067749	
7.08	-0.8952026	0.1224365	
7.27	-0.4428101	0.7521362	
7.46	0.5639648	0.6824951	
7.65	-0.1355591	-0.9133301	
7.84	-0.8269043	0.5383911	
8.03	0.1397095	0.9082031	
8.22	0.9383545	0.1618652	
8.41	0.15625	-0.9942017	
8.6	-0.8884888	0.2458496	
8.79	0.149353	0.9152222	
8.98	0.8781128	0.3729248	
9.17	0.5059204	-0.8068542	
9.36	-0.7800293	-0.5482483	
9.55	-0.8897095	0.2723999	
9.74	-0.2890015	0.9115601	
9.93	0.8153076	0.4940186	
10.12	0.5189209	-0.8513794	
10.31	-0.7595215	-0.5764465	
10.5	-0.7669983	0.5249939	
10.69	-0.2230225	0.9466553	
10.88	0.4538574	0.8862305	
11.07	0.9560547	0.1945801	
11.26	0.6364746	-0.8018799	
11.45	-0.7783203	-0.2922058	
11.64	0.4647217	0.6090698	
11.83	0.8613281	0.1583252	
12.02	0.8883667	-0.1967773	
12.21	0.7312317	-0.5021362	
12.4	0.1575317	-0.8225098	
12.59	-0.2746582	0.6666565	
12.78	0.6250916	-0.407074	
12.97	0.2137451	-0.7920532	
13.16	-0.1878662	-0.8643799	
13.35	-0.546936	-0.7022095	
13.54	-0.5040283	-0.5264587	
13.73	-0.7905884	0.496582	
13.92	-0.3316956	0.7859802	
14.11	-0.1539001	-0.7312927	
14.3	-0.5441589	0.0804749	
14.49	-0.9257813	0.3501587	
14.68	-0.7972107	0.5324097	
14.87	-0.3436279	0.8160706	
15.06	0.2923279	0.7853699	
15.25	0.7938843	0.3003845	
15.44	0.5803833	-0.5901184	
15.63	-0.7062378	-0.3536987	
15.82	-0.4377136	0.5648193	
16.01	0.4724731	0.807373	
16.2	-0.3843689	-0.3464813	
16.39	0.8993225	0.1339417	
16.58	0.22966	0.4036407	
16.77	0.7989807	-0.08047485	
16.96	0.5924988	-0.5730591	
17.15	0.6912537	-0.2860413	
17.34	0.558197	-0.5516968	
17.53	0.2013245	-0.7790833	
17.72	-0.09744263	-0.71521	
17.91	-0.2212524	-0.7453613	
18.1	-0.6724854	-0.8645325	
18.29	-0.9457397	-0.3320923	
18.48	-0.5314331	0.0305481	
18.67	-1.011169	-0.1484985	
18.86	-0.8919067	-0.03100586	
19.05	-0.177063	0.5372925	
19.24	-0.9137573	0.5083618	
19.43	-0.8015137	0.7648315	
19.62	-0.6610107	0.7421265	
19.81	0.1306458	0.7231445	
20.0	-0.02459717	0.848877	
