# GHz S RI R 50 
!freq	ReS11	ImS11	
1.0	-0.576416	-0.253479	
1.19	-0.6873169	0.0213623	
1.38	-0.6613159	0.2996826	
1.57	-0.5276489	0.5387573	
1.76	-0.2672119	0.7460327	
1.95	0.0774536	0.8162231	
2.14	0.3994751	0.7427368	
2.33	0.6735229	0.5599365	
2.52	0.8273926	0.2788696	
2.71	0.9163208	-0.07263184	
2.9	0.8306885	-0.4047241	
3.09	0.6031494	-0.703125	
3.28	0.3029785	-0.8485107	
3.47	-0.01013184	-0.930481	
3.66	-0.3357544	-0.8563843	
3.85	-0.656311	-0.6489868	
4.04	-0.8399658	-0.284729	
4.23	-0.9116821	0.0643311	
4.42	-0.8013306	0.4128418	
4.61	-0.5776367	0.7293701	
4.8	-0.2144775	0.9199219	
4.99	0.2131958	0.9517822	
5.18	0.6261292	0.7853394	
5.37	0.9475098	0.3921509	
5.56	1.045349	-0.03588867	
5.75	0.9505005	-0.399231	
5.94	0.5788574	-0.7821045	
6.13	0.0423584	-0.9752197	
6.32	-0.4125977	-0.864624	
6.51	-0.7531738	-0.5298462	
6.7	-0.947998	0.0127563	
6.89	0.8432007	-0.5068359	
7.08	-0.895813	0.1223145	
7.27	-0.4504395	0.7489624	
7.46	0.5617676	0.6764832	
7.65	-0.1304321	-0.9118652	
7.84	-0.8260498	0.539917	
8.03	0.1450195	0.9088135	
8.22	0.9382935	0.1618652	
8.41	0.15448	-0.993103	
8.6	-0.8866577	0.2438354	
8.79	0.1447754	0.9196777	
8.98	0.878418	0.3724976	
9.17	0.512207	-0.8128357	
9.36	-0.7774963	-0.5493774	
9.55	-0.8891602	0.2696533	
9.74	-0.2907104	0.9204102	
9.93	0.8164063	0.4946289	
10.12	0.5264893	-0.8566284	
10.31	-0.7624207	-0.5773621	
10.5	-0.7694092	0.527771	
10.69	-0.2284546	0.9500122	
10.88	0.4523315	0.8848877	
11.07	0.9556885	0.1946411	
11.26	0.650177	-0.8062439	
11.45	-0.7777405	-0.2926636	
11.64	0.4638977	0.6085205	
11.83	0.8615112	0.15802	
12.02	0.8876953	-0.1982422	
12.21	0.7314453	-0.50177	
12.4	0.1581421	-0.824646	
12.59	-0.2782593	0.6629639	
12.78	0.6223755	-0.4054565	
12.97	0.2064209	-0.795166	
13.16	-0.1861572	-0.8596191	
13.35	-0.5499878	-0.7068481	
13.54	-0.5003967	-0.5315857	
13.73	-0.7894287	0.4977112	
13.92	-0.3244629	0.777771	
14.11	-0.1497803	-0.7381592	
14.3	-0.5442505	0.081665	
14.49	-0.9285583	0.3504028	
14.68	-0.7999573	0.5299072	
14.87	-0.3464355	0.8061523	
15.06	0.291748	0.7870789	
15.25	0.7933655	0.3006897	
15.44	0.5801392	-0.5868835	
15.63	-0.6998901	-0.3565979	
15.82	-0.4398804	0.5636597	
16.01	0.471344	0.8130493	
16.2	-0.3814697	-0.3479919	
16.39	0.8997803	0.1343994	
16.58	0.2306671	0.4026642	
16.77	0.7997131	-0.08023071	
16.96	0.5876465	-0.5765381	
17.15	0.6929626	-0.2853394	
17.34	0.5582581	-0.5458679	
17.53	0.200592	-0.7800903	
17.72	-0.09747314	-0.7108765	
17.91	-0.2206116	-0.7497864	
18.1	-0.6668701	-0.8612061	
18.29	-0.9437256	-0.3319092	
18.48	-0.5325012	0.0306702	
18.67	-1.011414	-0.1483765	
18.86	-0.8916016	-0.03143311	
19.05	-0.1841125	0.543335	
19.24	-0.9186401	0.5009766	
19.43	-0.8021851	0.7650146	
19.62	-0.6607361	0.7436829	
19.81	0.1276855	0.7201233	
20.0	-0.0244751	0.8462524	
