# GHz S RI R 50 
!freq	ReS11	ImS11	
1.0	-0.5778809	-0.2557983	
1.19	-0.6872559	0.0211182	
1.38	-0.6599731	0.2980957	
1.57	-0.5256348	0.5380859	
1.76	-0.2684937	0.7490845	
1.95	0.0733643	0.8121338	
2.14	0.4013672	0.7446899	
2.33	0.6777954	0.5627441	
2.52	0.8253784	0.2799072	
2.71	0.9165649	-0.07409668	
2.9	0.8314209	-0.4036255	
3.09	0.6065674	-0.703064	
3.28	0.300354	-0.8570557	
3.47	-0.009033203	-0.9308472	
3.66	-0.335083	-0.8444824	
3.85	-0.6536255	-0.6533813	
4.04	-0.8405762	-0.2850342	
4.23	-0.9122314	0.0656128	
4.42	-0.8040161	0.4163818	
4.61	-0.5817261	0.7293091	
4.8	-0.2202148	0.9160767	
4.99	0.2282104	0.944397	
5.18	0.6314087	0.7832031	
5.37	0.9477539	0.3917847	
5.56	1.045288	-0.03594971	
5.75	0.9437256	-0.3982544	
5.94	0.5751343	-0.7888794	
6.13	0.0429688	-0.97052	
6.32	-0.4146118	-0.8666382	
6.51	-0.7581177	-0.5288086	
6.7	-0.9470825	0.0139771	
6.89	0.8432617	-0.5078125	
7.08	-0.8959961	0.123291	
7.27	-0.4493408	0.7454224	
7.46	0.5621948	0.6795349	
7.65	-0.1351318	-0.9101563	
7.84	-0.8278809	0.5379639	
8.03	0.1381836	0.9071655	
8.22	0.9378662	0.1615601	
8.41	0.1521606	-0.9924316	
8.6	-0.8867188	0.2451477	
8.79	0.1484985	0.9177246	
8.98	0.8820496	0.3737183	
9.17	0.5097961	-0.8142395	
9.36	-0.7766724	-0.5480652	
9.55	-0.8897095	0.272522	
9.74	-0.2897339	0.9179688	
9.93	0.8169861	0.4936218	
10.12	0.5259399	-0.8545532	
10.31	-0.762146	-0.5798645	
10.5	-0.7708435	0.5258789	
10.69	-0.2265625	0.9649658	
10.88	0.4586182	0.882019	
11.07	0.9568481	0.1951294	
11.26	0.6383667	-0.8055725	
11.45	-0.7774048	-0.2920532	
11.64	0.4620667	0.6035156	
11.83	0.8623657	0.1576538	
12.02	0.887146	-0.197998	
12.21	0.7296753	-0.4991455	
12.4	0.1624146	-0.8317261	
12.59	-0.2730103	0.6677551	
12.78	0.6235962	-0.414093	
12.97	0.2127075	-0.796875	
13.16	-0.1864624	-0.8581543	
13.35	-0.5498657	-0.7080688	
13.54	-0.5045776	-0.5300903	
13.73	-0.7926636	0.502533	
13.92	-0.3294067	0.781311	
14.11	-0.1480103	-0.7432251	
14.3	-0.5437012	0.078949	
14.49	-0.9269714	0.3470459	
14.68	-0.7957458	0.5284729	
14.87	-0.3486328	0.8165894	
15.06	0.2929382	0.7932739	
15.25	0.7954407	0.3002625	
15.44	0.5784912	-0.5881348	
15.63	-0.7049255	-0.3537903	
15.82	-0.4429321	0.5611267	
16.01	0.4724731	0.8103333	
16.2	-0.3818817	-0.3447113	
16.39	0.8995667	0.1338806	
16.58	0.2293243	0.4030151	
16.77	0.8015137	-0.08123779	
16.96	0.5845337	-0.5779114	
17.15	0.690918	-0.2880249	
17.34	0.5559082	-0.5520325	
17.53	0.1996765	-0.7861633	
17.72	-0.102478	-0.7128601	
17.91	-0.2145386	-0.740448	
18.1	-0.6673279	-0.8677673	
18.29	-0.9448242	-0.329834	
18.48	-0.5316467	0.0314026	
18.67	-1.011475	-0.1481934	
18.86	-0.8917847	-0.03094482	
19.05	-0.1809998	0.5423889	
19.24	-0.9143677	0.5075073	
19.43	-0.8045044	0.7637939	
19.62	-0.6621094	0.7460938	
19.81	0.1329041	0.7266541	
20.0	-0.02575684	0.8508301	
