# GHz S RI R 50 
!freq	ReS11	ImS11	
1.0	-0.579895	-0.2560425	
1.19	-0.6875	0.020752	
1.38	-0.663269	0.2998047	
1.57	-0.5307007	0.5374146	
1.76	-0.2749634	0.7456665	
1.95	0.0786743	0.8104858	
2.14	0.4038696	0.7478027	
2.33	0.6750488	0.5609131	
2.52	0.8264771	0.27948	
2.71	0.9175415	-0.07281494	
2.9	0.8311157	-0.4088745	
3.09	0.6036377	-0.7078247	
3.28	0.2963257	-0.8599243	
3.47	-0.006408691	-0.9345703	
3.66	-0.331604	-0.8527832	
3.85	-0.6630249	-0.6459351	
4.04	-0.8414917	-0.2879028	
4.23	-0.911499	0.065918	
4.42	-0.7996216	0.4111938	
4.61	-0.5862427	0.7200317	
4.8	-0.2178345	0.9135742	
4.99	0.2108154	0.9493408	
5.18	0.6270447	0.7875061	
5.37	0.947937	0.3918457	
5.56	1.044861	-0.0355835	
5.75	0.9433594	-0.3998413	
5.94	0.5779419	-0.7798462	
6.13	0.0463257	-0.9688721	
6.32	-0.4116211	-0.8713989	
6.51	-0.7558899	-0.5310364	
6.7	-0.9466553	0.0123901	
6.89	0.8390503	-0.5072632	
7.08	-0.8952637	0.1243286	
7.27	-0.4526367	0.75354	
7.46	0.5661926	0.6831055	
7.65	-0.1342163	-0.9108887	
7.84	-0.8240356	0.541748	
8.03	0.1402588	0.9106445	
8.22	0.9376221	0.1618652	
8.41	0.1549683	-0.9932861	
8.6	-0.8867493	0.242981	
8.79	0.1451416	0.9147339	
8.98	0.8814087	0.3724976	
9.17	0.5087891	-0.8137512	
9.36	-0.7770996	-0.5443115	
9.55	-0.8884277	0.2700806	
9.74	-0.2902222	0.9205322	
9.93	0.8184204	0.4976807	
10.12	0.5264893	-0.8516846	
10.31	-0.7606201	-0.5769653	
10.5	-0.7689209	0.5229797	
10.69	-0.2346191	0.9608765	
10.88	0.4517822	0.881958	
11.07	0.9556274	0.1953735	
11.26	0.6381226	-0.8001099	
11.45	-0.7775879	-0.2931519	
11.64	0.4680481	0.6060486	
11.83	0.8623047	0.1577148	
12.02	0.8863525	-0.1966553	
12.21	0.730011	-0.499939	
12.4	0.159668	-0.824585	
12.59	-0.2775879	0.6647644	
12.78	0.6226807	-0.4112244	
12.97	0.2091675	-0.7912598	
13.16	-0.1821289	-0.8585815	
13.35	-0.5488281	-0.703186	
13.54	-0.5055542	-0.5385742	
13.73	-0.7882385	0.4937134	
13.92	-0.3252563	0.7897034	
14.11	-0.151001	-0.7446899	
14.3	-0.5438538	0.0805664	
14.49	-0.9271545	0.3477478	
14.68	-0.7991638	0.5299988	
14.87	-0.3427124	0.8066406	
15.06	0.2902527	0.7937317	
15.25	0.7937927	0.3018188	
15.44	0.5784607	-0.5925903	
15.63	-0.70401	-0.3535767	
15.82	-0.4344788	0.5692749	
16.01	0.4772339	0.8096313	
16.2	-0.3845062	-0.3446808	
16.39	0.8995667	0.1337891	
16.58	0.2269745	0.4025726	
16.77	0.7988586	-0.08102417	
16.96	0.5862122	-0.5722656	
17.15	0.690918	-0.2862244	
17.34	0.5552979	-0.5489807	
17.53	0.1977844	-0.7871704	
17.72	-0.09802246	-0.7135925	
17.91	-0.2206421	-0.7428894	
18.1	-0.6734009	-0.8619385	
18.29	-0.9431152	-0.3314209	
18.48	-0.5322876	0.0302124	
18.67	-1.010986	-0.1483154	
18.86	-0.8912964	-0.03070068	
19.05	-0.177124	0.5366821	
19.24	-0.916748	0.5058594	
19.43	-0.8026733	0.7546997	
19.62	-0.6565247	0.7471313	
19.81	0.1328125	0.7210388	
20.0	-0.02484131	0.8503418	
