# GHz S RI R 50 
!freq	ReS11	ImS11	
1.0	-0.5772705	-0.2537842	
1.19	-0.687561	0.020813	
1.38	-0.6619873	0.3002319	
1.57	-0.5305786	0.5375977	
1.76	-0.2722168	0.7509155	
1.95	0.0765991	0.8125	
2.14	0.3991089	0.7474976	
2.33	0.6707153	0.5584106	
2.52	0.8262329	0.2792969	
2.71	0.9155273	-0.07440186	
2.9	0.8356323	-0.4093018	
3.09	0.6010742	-0.7113647	
3.28	0.3014526	-0.8631592	
3.47	-0.02087402	-0.9318237	
3.66	-0.3366699	-0.8460693	
3.85	-0.6569214	-0.6487427	
4.04	-0.8410034	-0.2849731	
4.23	-0.9109497	0.0646362	
4.42	-0.8052979	0.4109497	
4.61	-0.5848389	0.7172852	
4.8	-0.2207031	0.9259033	
4.99	0.2261963	0.9446411	
5.18	0.6248474	0.7877808	
5.37	0.9470825	0.3936768	
5.56	1.044861	-0.03588867	
5.75	0.949646	-0.3966675	
5.94	0.5773926	-0.7885742	
6.13	0.0484619	-0.9772949	
6.32	-0.4104614	-0.8661499	
6.51	-0.756134	-0.5333557	
6.7	-0.9475098	0.0139771	
6.89	0.8433228	-0.5033569	
7.08	-0.8945313	0.1234741	
7.27	-0.456543	0.7523193	
7.46	0.5625305	0.6855469	
7.65	-0.1295166	-0.9141235	
7.84	-0.8248901	0.5391235	
8.03	0.1412964	0.9095459	
8.22	0.9376221	0.1610718	
8.41	0.1574097	-0.9916382	
8.6	-0.8856812	0.2461853	
8.79	0.147583	0.9141846	
8.98	0.880127	0.3736572	
9.17	0.5089111	-0.8044434	
9.36	-0.7774658	-0.5481873	
9.55	-0.8877563	0.2716064	
9.74	-0.2941895	0.9208374	
9.93	0.8150635	0.4935303	
10.12	0.5297852	-0.854248	
10.31	-0.7574158	-0.5724182	
10.5	-0.7678223	0.5292358	
10.69	-0.2174683	0.9624023	
10.88	0.4570923	0.8860474	
11.07	0.9558716	0.1943359	
11.26	0.6402893	-0.8091125	
11.45	-0.7750244	-0.2913513	
11.64	0.4605408	0.6053467	
11.83	0.8595581	0.1577759	
12.02	0.8865356	-0.1976318	
12.21	0.7327271	-0.4974365	
12.4	0.1599121	-0.8216553	
12.59	-0.2759705	0.6644897	
12.78	0.6271362	-0.4026489	
12.97	0.2178955	-0.7945557	
13.16	-0.1858521	-0.8618164	
13.35	-0.5482178	-0.699585	
13.54	-0.5053101	-0.5305786	
13.73	-0.7912598	0.5001221	
13.92	-0.3266602	0.7728882	
14.11	-0.1527405	-0.7419434	
14.3	-0.5427246	0.0768127	
14.49	-0.9279785	0.3475647	
14.68	-0.8005981	0.5287781	
14.87	-0.3479004	0.8074036	
15.06	0.2920532	0.7851868	
15.25	0.7936096	0.3001709	
15.44	0.5819397	-0.5894775	
15.63	-0.7025146	-0.3533325	
15.82	-0.43927	0.5661621	
16.01	0.4761963	0.8118896	
16.2	-0.3805084	-0.3436279	
16.39	0.8997803	0.1330566	
16.58	0.2263336	0.402298	
16.77	0.7977905	-0.08071899	
16.96	0.585022	-0.5752258	
17.15	0.6894226	-0.2874451	
17.34	0.550415	-0.5530396	
17.53	0.197998	-0.7808228	
17.72	-0.09829712	-0.7207642	
17.91	-0.2174988	-0.7525024	
18.1	-0.6728516	-0.868866	
18.29	-0.9457397	-0.3314209	
18.48	-0.5348206	0.0215759	
18.67	-1.010986	-0.1482544	
18.86	-0.8907471	-0.02972412	
19.05	-0.1835632	0.5431824	
19.24	-0.9144287	0.5067139	
19.43	-0.8032227	0.7513428	
19.62	-0.6598206	0.742981	
19.81	0.1269531	0.7211609	
20.0	-0.02502441	0.8508911	
