# GHz S RI R 50 
!freq	ReS11	ImS11	
1.0	-0.5782471	-0.253479	
1.19	-0.6871948	0.0209351	
1.38	-0.6599731	0.2976074	
1.57	-0.5334473	0.5379028	
1.76	-0.2713013	0.7529907	
1.95	0.076416	0.8135986	
2.14	0.4049072	0.7456665	
2.33	0.6757202	0.5598755	
2.52	0.8264771	0.2772827	
2.71	0.9174194	-0.07293701	
2.9	0.8295288	-0.4090576	
3.09	0.609375	-0.7070923	
3.28	0.3068848	-0.8584595	
3.47	-0.004394531	-0.9349976	
3.66	-0.3460693	-0.8502197	
3.85	-0.6651001	-0.6478271	
4.04	-0.8405762	-0.2849121	
4.23	-0.9102783	0.0650635	
4.42	-0.8059692	0.4128418	
4.61	-0.5803223	0.7224121	
4.8	-0.2189941	0.9230957	
4.99	0.2246704	0.9437866	
5.18	0.6290283	0.78479	
5.37	0.9475708	0.3914795	
5.56	1.045532	-0.03552246	
5.75	0.9473267	-0.3963013	
5.94	0.5765991	-0.7876587	
6.13	0.0469971	-0.9708252	
6.32	-0.4098511	-0.864624	
6.51	-0.7548218	-0.5300293	
6.7	-0.947876	0.0137939	
6.89	0.8450928	-0.5053711	
7.08	-0.8953247	0.1225586	
7.27	-0.449707	0.7506104	
7.46	0.5640869	0.6811218	
7.65	-0.1326294	-0.914978	
7.84	-0.8209229	0.5440063	
8.03	0.1425171	0.9163818	
8.22	0.9385376	0.1619873	
8.41	0.1517944	-0.9866333	
8.6	-0.887207	0.2417603	
8.79	0.1465454	0.9140015	
8.98	0.8773499	0.3747253	
9.17	0.5079956	-0.8103943	
9.36	-0.7762146	-0.5454102	
9.55	-0.8856812	0.270874	
9.74	-0.2926025	0.918396	
9.93	0.8155212	0.4941711	
10.12	0.5227661	-0.8491211	
10.31	-0.7623901	-0.5773926	
10.5	-0.7711792	0.5245361	
10.69	-0.2286377	0.9616089	
10.88	0.4509277	0.8796997	
11.07	0.9554443	0.1950073	
11.26	0.6435547	-0.8021545	
11.45	-0.7779236	-0.2906799	
11.64	0.4614258	0.6037903	
11.83	0.8610229	0.1567383	
12.02	0.8859253	-0.196228	
12.21	0.7337341	-0.4985352	
12.4	0.1564941	-0.8225098	
12.59	-0.2788696	0.6662903	
12.78	0.6228943	-0.4106445	
12.97	0.2061157	-0.7952271	
13.16	-0.1867676	-0.8613892	
13.35	-0.5493164	-0.7036743	
13.54	-0.5	-0.5307922	
13.73	-0.7912598	0.4962769	
13.92	-0.3222351	0.78479	
14.11	-0.1484375	-0.740448	
14.3	-0.5438232	0.0784607	
14.49	-0.9259949	0.3470154	
14.68	-0.7997742	0.52948	
14.87	-0.347229	0.8045959	
15.06	0.2837219	0.7904968	
15.25	0.7931824	0.2990112	
15.44	0.5774536	-0.5844727	
15.63	-0.7055969	-0.3523865	
15.82	-0.4369202	0.5667419	
16.01	0.4728699	0.8108215	
16.2	-0.3835602	-0.3444977	
16.39	0.8998718	0.133667	
16.58	0.2299652	0.4042511	
16.77	0.7999573	-0.08135986	
16.96	0.5831604	-0.5766296	
17.15	0.6937561	-0.2868042	
17.34	0.5543213	-0.5548706	
17.53	0.2011108	-0.7822571	
17.72	-0.1109619	-0.7142029	
17.91	-0.2189636	-0.7429199	
18.1	-0.6724548	-0.8664246	
18.29	-0.9441528	-0.3303833	
18.48	-0.5308228	0.0321045	
18.67	-1.011047	-0.1478271	
18.86	-0.8916626	-0.03057861	
19.05	-0.1788635	0.5391846	
19.24	-0.9172974	0.5078735	
19.43	-0.8018188	0.7597046	
19.62	-0.6637878	0.7453003	
19.81	0.1333008	0.7249756	
20.0	-0.02746582	0.8543091	
