# GHz S RI R 50 
!freq	ReS11	ImS11	
1.0	-0.5759277	-0.255249	
1.19	-0.687561	0.0205688	
1.38	-0.6651001	0.2994385	
1.57	-0.5276489	0.5386963	
1.76	-0.2651367	0.7481079	
1.95	0.0753174	0.8141479	
2.14	0.4036255	0.7456665	
2.33	0.671936	0.5617676	
2.52	0.8267822	0.2789917	
2.71	0.9155884	-0.0736084	
2.9	0.831543	-0.4063721	
3.09	0.6013184	-0.7059326	
3.28	0.2976074	-0.8518677	
3.47	-0.01702881	-0.9275513	
3.66	-0.3443604	-0.8466187	
3.85	-0.6600342	-0.6480713	
4.04	-0.8428955	-0.2853394	
4.23	-0.9096069	0.0650635	
4.42	-0.7995605	0.4138794	
4.61	-0.5800781	0.7302246	
4.8	-0.2179565	0.9208984	
4.99	0.2203369	0.9447632	
5.18	0.6308594	0.7851868	
5.37	0.9476318	0.3919678	
5.56	1.045837	-0.03570557	
5.75	0.9492798	-0.3968506	
5.94	0.5807495	-0.7877808	
6.13	0.050415	-0.9732666	
6.32	-0.4075317	-0.8679199	
6.51	-0.7537231	-0.5281982	
6.7	-0.9482422	0.0137939	
6.89	0.8397827	-0.4967651	
7.08	-0.8954468	0.1234131	
7.27	-0.4481201	0.746582	
7.46	0.5655212	0.6791077	
7.65	-0.1320801	-0.916687	
7.84	-0.8251343	0.5380249	
8.03	0.1375122	0.9102173	
8.22	0.9378052	0.1604614	
8.41	0.1511841	-0.9896851	
8.6	-0.8871155	0.2442017	
8.79	0.149353	0.9116821	
8.98	0.8796997	0.3709106	
9.17	0.5055542	-0.8073425	
9.36	-0.7775574	-0.5475159	
9.55	-0.8872681	0.2741699	
9.74	-0.2841187	0.9111938	
9.93	0.8190613	0.4937744	
10.12	0.5255127	-0.8531494	
10.31	-0.7570801	-0.5780334	
10.5	-0.7650146	0.5307922	
10.69	-0.2241821	0.9567871	
10.88	0.4558105	0.8804932	
11.07	0.9544067	0.1920776	
11.26	0.630249	-0.8123474	
11.45	-0.7669983	-0.2895203	
11.64	0.4536133	0.5980835	
11.83	0.852417	0.1593628	
12.02	0.8821411	-0.1913452	
12.21	0.7337036	-0.4959412	
12.4	0.1624146	-0.8245239	
12.59	-0.2844849	0.6669922	
12.78	0.6445313	-0.3896484	
12.97	0.2238159	-0.8009644	
13.16	-0.1831665	-0.8615112	
13.35	-0.5481567	-0.7037354	
13.54	-0.5044556	-0.5331726	
13.73	-0.7954102	0.5029297	
13.92	-0.3252563	0.7833862	
14.11	-0.1547546	-0.7438049	
14.3	-0.5340271	0.0667725	
14.49	-0.9266052	0.3519897	
14.68	-0.7976685	0.5316772	
14.87	-0.3464661	0.8103333	
15.06	0.2963562	0.7831726	
15.25	0.7956543	0.2988281	
15.44	0.5762329	-0.5922546	
15.63	-0.7077026	-0.3439026	
15.82	-0.4358826	0.5718994	
16.01	0.4743347	0.8097229	
16.2	-0.3830566	-0.3373871	
16.39	0.8995667	0.1335449	
16.58	0.2327728	0.3998718	
16.77	0.7952881	-0.0809021	
16.96	0.5922852	-0.5732117	
17.15	0.6890869	-0.2868042	
17.34	0.5527954	-0.5516357	
17.53	0.201416	-0.7788696	
17.72	-0.09768677	-0.7156982	
17.91	-0.2227173	-0.7533875	
18.1	-0.6691284	-0.8675537	
18.29	-0.9399414	-0.3311768	
18.48	-0.5422668	0.0160828	
18.67	-1.011169	-0.1479492	
18.86	-0.8894043	-0.0269165	
19.05	-0.179718	0.5456848	
19.24	-0.914917	0.5089111	
19.43	-0.8059692	0.7612305	
19.62	-0.6637573	0.7438965	
19.81	0.1251221	0.7292786	
20.0	-0.02618408	0.8496704	
