# GHz S RI R 50 
!freq	ReS11	ImS11	
1.0	-0.5789185	-0.2537842	
1.19	-0.6872559	0.0210571	
1.38	-0.6621094	0.3000488	
1.57	-0.5286865	0.5386353	
1.76	-0.2705688	0.7474976	
1.95	0.0786743	0.8075562	
2.14	0.4041748	0.7435303	
2.33	0.6744385	0.5611572	
2.52	0.8261719	0.2793579	
2.71	0.9159546	-0.0725708	
2.9	0.8308716	-0.4055176	
3.09	0.6092529	-0.7034302	
3.28	0.2993774	-0.8560791	
3.47	-0.01165771	-0.9275513	
3.66	-0.3393555	-0.8433838	
3.85	-0.6561279	-0.6531982	
4.04	-0.8422241	-0.2852173	
4.23	-0.9110718	0.0647583	
4.42	-0.8046265	0.4138794	
4.61	-0.5789185	0.7216797	
4.8	-0.2192383	0.9210815	
4.99	0.2183228	0.9481201	
5.18	0.6292114	0.7812805	
5.37	0.9480591	0.3910522	
5.56	1.0448	-0.03582764	
5.75	0.9482422	-0.3984985	
5.94	0.5784912	-0.7821655	
6.13	0.0508423	-0.9699097	
6.32	-0.4088135	-0.866394	
6.51	-0.7558594	-0.531311	
6.7	-0.9475098	0.013855	
6.89	0.8424072	-0.5032349	
7.08	-0.8938599	0.1228638	
7.27	-0.4466553	0.7489014	
7.46	0.5631409	0.6855469	
7.65	-0.1362915	-0.9094238	
7.84	-0.8186035	0.5445557	
8.03	0.1397095	0.9145508	
8.22	0.9389648	0.1620483	
8.41	0.1501465	-0.9920044	
8.6	-0.8875427	0.2426147	
8.79	0.1442261	0.9151611	
8.98	0.8811035	0.3744507	
9.17	0.5119934	-0.80896	
9.36	-0.7759094	-0.5478516	
9.55	-0.8901978	0.2706909	
9.74	-0.2857056	0.9100342	
9.93	0.8162842	0.4932861	
10.12	0.5313721	-0.8497314	
10.31	-0.7612305	-0.5782166	
10.5	-0.7730103	0.526825	
10.69	-0.2354736	0.9588013	
10.88	0.4511108	0.8841553	
11.07	0.9564819	0.1951904	
11.26	0.6382446	-0.7991333	
11.45	-0.7788696	-0.2926941	
11.64	0.4674072	0.6092834	
11.83	0.8623047	0.1575317	
12.02	0.8864746	-0.1972656	
12.21	0.7314758	-0.501709	
12.4	0.1660767	-0.8274536	
12.59	-0.2737122	0.6664734	
12.78	0.6203308	-0.4117126	
12.97	0.2131958	-0.7921753	
13.16	-0.1900635	-0.8555908	
13.35	-0.550293	-0.7028809	
13.54	-0.5005188	-0.5339355	
13.73	-0.7914734	0.4941101	
13.92	-0.3282776	0.7729187	
14.11	-0.147644	-0.7319641	
14.3	-0.545105	0.0812988	
14.49	-0.9282532	0.3503723	
14.68	-0.7970886	0.5312195	
14.87	-0.3397522	0.8091125	
15.06	0.2883911	0.7918701	
15.25	0.7949219	0.3017578	
15.44	0.5793762	-0.5871277	
15.63	-0.704071	-0.3578186	
15.82	-0.4396057	0.5665588	
16.01	0.4729919	0.8130493	
16.2	-0.3823547	-0.348053	
16.39	0.8999634	0.1343384	
16.58	0.226593	0.4024506	
16.77	0.7994385	-0.0798645	
16.96	0.5862427	-0.5769958	
17.15	0.6925049	-0.2846375	
17.34	0.5571899	-0.5495911	
17.53	0.1984863	-0.7890625	
17.72	-0.09857178	-0.7167969	
17.91	-0.21875	-0.7427063	
18.1	-0.6763306	-0.8674316	
18.29	-0.9432983	-0.331604	
18.48	-0.5322876	0.0304565	
18.67	-1.010681	-0.1495972	
18.86	-0.8917847	-0.03173828	
19.05	-0.1773682	0.5469666	
19.24	-0.9198608	0.5078735	
19.43	-0.7966919	0.7606812	
19.62	-0.6609802	0.7500916	
19.81	0.1314087	0.7289734	
20.0	-0.0223999	0.8515625	
