# GHz S RI R 50 
!freq	ReS11	ImS11	
1.0	-0.578064	-0.2561035	
1.19	-0.6875	0.0209961	
1.38	-0.6611328	0.2984619	
1.57	-0.5289307	0.5360718	
1.76	-0.2702026	0.74823	
1.95	0.074707	0.8082886	
2.14	0.4024658	0.7462158	
2.33	0.675415	0.5609741	
2.52	0.8275146	0.2781982	
2.71	0.9174805	-0.07208252	
2.9	0.8311768	-0.4043579	
3.09	0.6064453	-0.7005005	
3.28	0.2999878	-0.8549805	
3.47	-0.01049805	-0.9354858	
3.66	-0.3330688	-0.8510132	
3.85	-0.6566162	-0.6495972	
4.04	-0.8408813	-0.2858887	
4.23	-0.9099731	0.0643311	
4.42	-0.8004761	0.4143066	
4.61	-0.5789185	0.7285156	
4.8	-0.2130127	0.9202271	
4.99	0.211731	0.9533691	
5.18	0.6247253	0.7842407	
5.37	0.9470215	0.3902588	
5.56	1.045654	-0.03509521	
5.75	0.9500122	-0.3980713	
5.94	0.5797424	-0.7792664	
6.13	0.0443726	-0.9733276	
6.32	-0.4071045	-0.8655396	
6.51	-0.7556763	-0.5258179	
6.7	-0.9476318	0.0140381	
6.89	0.8444824	-0.5045166	
7.08	-0.8954468	0.12323	
7.27	-0.4439697	0.7508545	
7.46	0.5625916	0.6781006	
7.65	-0.1343384	-0.9107056	
7.84	-0.8295288	0.5367432	
8.03	0.1401367	0.9076538	
8.22	0.9381714	0.1612549	
8.41	0.1605835	-0.9909058	
8.6	-0.8848877	0.2440491	
8.79	0.1443481	0.9182739	
8.98	0.8780518	0.3713379	
9.17	0.5092468	-0.8051453	
9.36	-0.7759399	-0.5517273	
9.55	-0.8863525	0.2724609	
9.74	-0.2835693	0.9182739	
9.93	0.8136597	0.4939575	
10.12	0.5255737	-0.8560791	
10.31	-0.7610779	-0.5759888	
10.5	-0.772522	0.5278015	
10.69	-0.237915	0.9616089	
10.88	0.4517822	0.8848267	
11.07	0.9559937	0.1937866	
11.26	0.6429443	-0.8006287	
11.45	-0.7786865	-0.2936401	
11.64	0.4649353	0.606842	
11.83	0.8619385	0.1577759	
12.02	0.8862915	-0.1967163	
12.21	0.7321472	-0.5039063	
12.4	0.1568604	-0.8261719	
12.59	-0.2735291	0.6695251	
12.78	0.622345	-0.4053955	
12.97	0.2122803	-0.8007813	
13.16	-0.1903076	-0.8615112	
13.35	-0.5499878	-0.7084961	
13.54	-0.4987183	-0.5282593	
13.73	-0.7919312	0.4963989	
13.92	-0.3274536	0.7826843	
14.11	-0.1525574	-0.7476807	
14.3	-0.5439453	0.0796204	
14.49	-0.9284363	0.348114	
14.68	-0.7972412	0.5309143	
14.87	-0.3497925	0.8052368	
15.06	0.2940674	0.7913513	
15.25	0.7948303	0.29953	
15.44	0.5760193	-0.5848083	
15.63	-0.7039795	-0.3537598	
15.82	-0.4421997	0.5703125	
16.01	0.4768372	0.809082	
16.2	-0.3833466	-0.3456879	
16.39	0.8999634	0.1338501	
16.58	0.2267151	0.4067383	
16.77	0.7987976	-0.08035278	
16.96	0.5853882	-0.5735779	
17.15	0.6929016	-0.2885437	
17.34	0.5526428	-0.5519714	
17.53	0.2028809	-0.7850647	
17.72	-0.09533691	-0.7111816	
17.91	-0.2185059	-0.7483215	
18.1	-0.6704407	-0.8672485	
18.29	-0.9432373	-0.3322754	
18.48	-0.5325012	0.0299072	
18.67	-1.010498	-0.1484375	
18.86	-0.8911743	-0.03082275	
19.05	-0.1793823	0.5420532	
19.24	-0.9179077	0.506897	
19.43	-0.7989502	0.7619629	
19.62	-0.6619873	0.7461243	
19.81	0.1300964	0.7307129	
20.0	-0.0223999	0.8508911	
