# GHz S RI R 50 
!freq	ReS11	ImS11	
1.0	-0.5775146	-0.2558594	
1.19	-0.6873169	0.0212402	
1.38	-0.6610107	0.2993164	
1.57	-0.52948	0.5377808	
1.76	-0.2702026	0.7479248	
1.95	0.0819092	0.8125	
2.14	0.4043579	0.7457275	
2.33	0.6748657	0.5606079	
2.52	0.8273926	0.2781982	
2.71	0.9161987	-0.07336426	
2.9	0.8326416	-0.4054565	
3.09	0.6075439	-0.7001953	
3.28	0.2996826	-0.8534546	
3.47	-0.01159668	-0.9286499	
3.66	-0.3411255	-0.8516235	
3.85	-0.6595459	-0.6481934	
4.04	-0.8412476	-0.2844238	
4.23	-0.9110107	0.0648193	
4.42	-0.8026733	0.4075928	
4.61	-0.5809326	0.7180786	
4.8	-0.2174683	0.9157104	
4.99	0.2130127	0.9417114	
5.18	0.6292725	0.7841492	
5.37	0.9476318	0.3903809	
5.56	1.045166	-0.03607178	
5.75	0.9451904	-0.3970947	
5.94	0.5804443	-0.7859497	
6.13	0.0400391	-0.9744263	
6.32	-0.40802	-0.8672485	
6.51	-0.7570801	-0.5281982	
6.7	-0.9470215	0.0134888	
6.89	0.8452759	-0.5090942	
7.08	-0.8963013	0.1233521	
7.27	-0.4494019	0.7515259	
7.46	0.5649109	0.6829224	
7.65	-0.1364136	-0.9169922	
7.84	-0.8184204	0.5387573	
8.03	0.1453247	0.913147	
8.22	0.9381714	0.1616211	
8.41	0.1514893	-0.9934692	
8.6	-0.8883972	0.243042	
8.79	0.1523438	0.9121704	
8.98	0.8819275	0.3752136	
9.17	0.5082092	-0.8076782	
9.36	-0.7781982	-0.5470276	
9.55	-0.8866577	0.2710571	
9.74	-0.2912598	0.9104614	
9.93	0.8153687	0.4941406	
10.12	0.5228271	-0.8519897	
10.31	-0.7639465	-0.5784607	
10.5	-0.7701111	0.5270386	
10.69	-0.2268066	0.9598999	
10.88	0.4541626	0.8837891	
11.07	0.954895	0.1941528	
11.26	0.6365662	-0.800354	
11.45	-0.7749023	-0.2903442	
11.64	0.4671326	0.6066589	
11.83	0.8597412	0.1575317	
12.02	0.8855591	-0.196167	
12.21	0.7294617	-0.503479	
12.4	0.1720581	-0.8231812	
12.59	-0.276825	0.6651001	
12.78	0.6252747	-0.4029236	
12.97	0.2165527	-0.7937012	
13.16	-0.1841431	-0.8587646	
13.35	-0.5498047	-0.6985474	
13.54	-0.5067749	-0.5337524	
13.73	-0.7933044	0.4975586	
13.92	-0.3236084	0.7900696	
14.11	-0.1459656	-0.739502	
14.3	-0.5423889	0.0777588	
14.49	-0.9249878	0.3496399	
14.68	-0.7966919	0.5296021	
14.87	-0.3486938	0.8110352	
15.06	0.2875977	0.7903748	
15.25	0.7948914	0.2987976	
15.44	0.5736389	-0.5845642	
15.63	-0.7034302	-0.3526306	
15.82	-0.4393311	0.5679626	
16.01	0.472168	0.8061218	
16.2	-0.3822327	-0.3475189	
16.39	0.8995361	0.1341248	
16.58	0.2256775	0.3982697	
16.77	0.7981567	-0.08044434	
16.96	0.5914307	-0.5752563	
17.15	0.6916504	-0.2830811	
17.34	0.5522461	-0.5496521	
17.53	0.204895	-0.7826538	
17.72	-0.09329224	-0.7210388	
17.91	-0.2236328	-0.754303	
18.1	-0.6659546	-0.8611755	
18.29	-0.9417725	-0.3306885	
18.48	-0.5348816	0.021698	
18.67	-1.011292	-0.1482544	
18.86	-0.8904419	-0.02996826	
19.05	-0.1808777	0.5437317	
19.24	-0.9172363	0.5041504	
19.43	-0.8016968	0.7645874	
19.62	-0.6610413	0.7494507	
19.81	0.1334229	0.7249146	
20.0	-0.02185059	0.8495483	
