# GHz S RI R 50 
!freq	ReS11	ImS11	
1.0	-0.5784912	-0.2531738	
1.19	-0.6876831	0.0215454	
1.38	-0.659729	0.2996826	
1.57	-0.531311	0.5391846	
1.76	-0.2732544	0.7515869	
1.95	0.0817871	0.8151855	
2.14	0.4136353	0.7440186	
2.33	0.675354	0.5595703	
2.52	0.8267212	0.2778931	
2.71	0.9152222	-0.07391357	
2.9	0.8294678	-0.40979	
3.09	0.6046143	-0.7052002	
3.28	0.3041382	-0.8561401	
3.47	-0.01324463	-0.9365234	
3.66	-0.331604	-0.8475342	
3.85	-0.6564941	-0.6516113	
4.04	-0.8416138	-0.2850952	
4.23	-0.9106445	0.0648193	
4.42	-0.8028564	0.4133301	
4.61	-0.5782471	0.7181396	
4.8	-0.2084351	0.9198608	
4.99	0.2177734	0.9359131	
5.18	0.6250305	0.7832642	
5.37	0.9456177	0.3904419	
5.56	1.045959	-0.0355835	
5.75	0.9432373	-0.3961792	
5.94	0.5743103	-0.7841492	
6.13	0.0455322	-0.9685669	
6.32	-0.409668	-0.8685913	
6.51	-0.7553101	-0.5303345	
6.7	-0.9480591	0.0132446	
6.89	0.8455811	-0.5037231	
7.08	-0.8950806	0.1229248	
7.27	-0.4550781	0.7605591	
7.46	0.5648193	0.679718	
7.65	-0.1385498	-0.9122925	
7.84	-0.8253174	0.5386353	
8.03	0.1377563	0.9040527	
8.22	0.9376221	0.161377	
8.41	0.1567993	-0.9901733	
8.6	-0.8875427	0.2454834	
8.79	0.1460571	0.9104614	
8.98	0.8800049	0.3736572	
9.17	0.507843	-0.8099976	
9.36	-0.7755737	-0.5456543	
9.55	-0.8896484	0.2678833	
9.74	-0.2854004	0.9141235	
9.93	0.8126526	0.4994812	
10.12	0.526123	-0.8530884	
10.31	-0.7576904	-0.5792236	
10.5	-0.769165	0.5271912	
10.69	-0.2338257	0.9638672	
10.88	0.4532471	0.8843384	
11.07	0.9555054	0.1954956	
11.26	0.6414795	-0.8038635	
11.45	-0.7791138	-0.29245	
11.64	0.4613342	0.6089172	
11.83	0.8619385	0.1573486	
12.02	0.8881836	-0.1970215	
12.21	0.7332153	-0.5027771	
12.4	0.1555786	-0.8363647	
12.59	-0.2761841	0.6658936	
12.78	0.6201782	-0.4081116	
12.97	0.2078857	-0.7905273	
13.16	-0.184082	-0.8633423	
13.35	-0.5508423	-0.7003174	
13.54	-0.5037842	-0.532196	
13.73	-0.7936096	0.4937744	
13.92	-0.3308411	0.7789612	
14.11	-0.1508484	-0.7299805	
14.3	-0.5447388	0.080719	
14.49	-0.9281921	0.348114	
14.68	-0.8013306	0.5306091	
14.87	-0.3427124	0.8110352	
15.06	0.2903442	0.7936707	
15.25	0.7922668	0.302002	
15.44	0.5804138	-0.5879211	
15.63	-0.7005615	-0.3583069	
15.82	-0.4355774	0.5704346	
16.01	0.4787292	0.8101807	
16.2	-0.3819733	-0.3491821	
16.39	0.9001465	0.1343994	
16.58	0.2281952	0.4035187	
16.77	0.8004456	-0.08126831	
16.96	0.5874329	-0.5762329	
17.15	0.6921692	-0.2857971	
17.34	0.5544739	-0.551178	
17.53	0.2089844	-0.7867432	
17.72	-0.09725952	-0.7217407	
17.91	-0.217041	-0.7451477	
18.1	-0.6634521	-0.8692017	
18.29	-0.9431763	-0.3320313	
18.48	-0.5325012	0.0306091	
18.67	-1.011047	-0.1484375	
18.86	-0.8915405	-0.03155518	
19.05	-0.1822205	0.5410461	
19.24	-0.9138794	0.5083008	
19.43	-0.8043823	0.7609253	
19.62	-0.6630249	0.7471924	
19.81	0.1308899	0.726532	
20.0	-0.02575684	0.8482056	
