# GHz S RI R 50 
!freq	ReS11	ImS11	
1.0	-0.5775146	-0.2562256	
1.19	-0.6875	0.0213013	
1.38	-0.6618652	0.3008423	
1.57	-0.53125	0.536377	
1.76	-0.2740479	0.7506104	
1.95	0.0777588	0.8153687	
2.14	0.4017944	0.7437744	
2.33	0.6758423	0.5628052	
2.52	0.8267822	0.27948	
2.71	0.9158325	-0.07330322	
2.9	0.8311157	-0.4047241	
3.09	0.6066284	-0.7092285	
3.28	0.2955933	-0.8571777	
3.47	-0.005493164	-0.934082	
3.66	-0.3395996	-0.8359985	
3.85	-0.6517334	-0.6486206	
4.04	-0.8399048	-0.286438	
4.23	-0.9102173	0.0652466	
4.42	-0.8046265	0.4118042	
4.61	-0.578186	0.7155151	
4.8	-0.2163086	0.9241943	
4.99	0.2250366	0.9391479	
5.18	0.6307068	0.7838135	
5.37	0.9490967	0.3913574	
5.56	1.045471	-0.03564453	
5.75	0.9470215	-0.4018555	
5.94	0.5769653	-0.7819824	
6.13	0.0473633	-0.9713135	
6.32	-0.4121704	-0.8713379	
6.51	-0.7583313	-0.5352478	
6.7	-0.9484863	0.0131836	
6.89	0.8383789	-0.5059204	
7.08	-0.8947754	0.1237183	
7.27	-0.4483643	0.7543335	
7.46	0.5690613	0.6784668	
7.65	-0.1335449	-0.9125977	
7.84	-0.824585	0.5388184	
8.03	0.1327515	0.9091187	
8.22	0.9385986	0.1613159	
8.41	0.1487427	-0.9912109	
8.6	-0.8886414	0.2454224	
8.79	0.1444702	0.9140015	
8.98	0.8787842	0.3722534	
9.17	0.5128784	-0.8105774	
9.36	-0.7764893	-0.5461731	
9.55	-0.8905029	0.2737427	
9.74	-0.2868652	0.9212646	
9.93	0.815918	0.4966736	
10.12	0.527771	-0.8543091	
10.31	-0.7593384	-0.577301	
10.5	-0.765564	0.5248718	
10.69	-0.2373657	0.9650879	
10.88	0.460144	0.8811646	
11.07	0.9557495	0.1943359	
11.26	0.6435547	-0.8109741	
11.45	-0.7746582	-0.2906494	
11.64	0.4591675	0.6057129	
11.83	0.8591919	0.1582031	
12.02	0.8864136	-0.1957397	
12.21	0.7299194	-0.5024414	
12.4	0.1644897	-0.8327026	
12.59	-0.273468	0.6648865	
12.78	0.6279297	-0.4080505	
12.97	0.217041	-0.7957764	
13.16	-0.1929932	-0.8619385	
13.35	-0.5599976	-0.6989746	
13.54	-0.5002441	-0.5307007	
13.73	-0.7885742	0.5011902	
13.92	-0.3288879	0.7760315	
14.11	-0.1517639	-0.7377319	
14.3	-0.5419312	0.0764465	
14.49	-0.9271545	0.3494263	
14.68	-0.8014832	0.526886	
14.87	-0.3476868	0.8076477	
15.06	0.2991943	0.7880249	
15.25	0.7940674	0.302002	
15.44	0.579895	-0.5913086	
15.63	-0.7041321	-0.3532715	
15.82	-0.4395142	0.5645142	
16.01	0.4770203	0.8121948	
16.2	-0.3781738	-0.3447418	
16.39	0.8999634	0.1333618	
16.58	0.2280579	0.4010773	
16.77	0.7980652	-0.08059692	
16.96	0.5901794	-0.5807495	
17.15	0.6915894	-0.2871094	
17.34	0.5456543	-0.5507202	
17.53	0.1994324	-0.7801819	
17.72	-0.1015015	-0.7190857	
17.91	-0.2185059	-0.7530212	
18.1	-0.6731262	-0.866394	
18.29	-0.9432983	-0.3310547	
18.48	-0.5344543	0.0222473	
18.67	-1.011169	-0.1484375	
18.86	-0.890625	-0.02929688	
19.05	-0.1799316	0.5444031	
19.24	-0.9197998	0.5109253	
19.43	-0.7985229	0.7606812	
19.62	-0.6593018	0.7479553	
19.81	0.1287231	0.7237549	
20.0	-0.02288818	0.8442993	
