# GHz S RI R 50 
!freq	ReS11	ImS11	
1.0	-0.5789795	-0.2538452	
1.19	-0.6878052	0.0205688	
1.38	-0.6616821	0.2987061	
1.57	-0.5308838	0.5360718	
1.76	-0.2728271	0.7494507	
1.95	0.0776978	0.8217773	
2.14	0.4033813	0.7506104	
2.33	0.6725464	0.5612183	
2.52	0.8264771	0.2802734	
2.71	0.916626	-0.07501221	
2.9	0.8311768	-0.4069214	
3.09	0.6060791	-0.7078247	
3.28	0.2970581	-0.8562622	
3.47	-0.01464844	-0.9394531	
3.66	-0.3338013	-0.847168	
3.85	-0.6560059	-0.6478271	
4.04	-0.84021	-0.2858276	
4.23	-0.911377	0.0655518	
4.42	-0.8024902	0.4134521	
4.61	-0.5825806	0.722229	
4.8	-0.2139282	0.9216309	
4.99	0.2214966	0.9362793	
5.18	0.6287842	0.780426	
5.37	0.9473267	0.3915405	
5.56	1.045044	-0.0355835	
5.75	0.9420776	-0.3997192	
5.94	0.5787354	-0.7875977	
6.13	0.039856	-0.9738159	
6.32	-0.40979	-0.8718872	
6.51	-0.7571411	-0.5305786	
6.7	-0.9465942	0.0123291	
6.89	0.8425903	-0.5036621	
7.08	-0.8959351	0.121521	
7.27	-0.454895	0.7476196	
7.46	0.5594788	0.678772	
7.65	-0.1317139	-0.9110718	
7.84	-0.8244629	0.5390625	
8.03	0.1419067	0.9147949	
8.22	0.9383545	0.1622314	
8.41	0.151123	-0.989563	
8.6	-0.8856506	0.2431946	
8.79	0.1452026	0.9140015	
8.98	0.8798828	0.3726196	
9.17	0.5047607	-0.8086853	
9.36	-0.7764587	-0.5491943	
9.55	-0.8945313	0.2732544	
9.74	-0.2915649	0.9224243	
9.93	0.8167114	0.4943237	
10.12	0.526123	-0.8516846	
10.31	-0.7595215	-0.5750427	
10.5	-0.7680969	0.5256348	
10.69	-0.2340088	0.9649048	
10.88	0.4595947	0.8858643	
11.07	0.9558105	0.1957397	
11.26	0.6438599	-0.7976074	
11.45	-0.7756042	-0.2937622	
11.64	0.4663086	0.6066589	
11.83	0.861145	0.1582642	
12.02	0.8864136	-0.1973267	
12.21	0.7320862	-0.5023499	
12.4	0.1585083	-0.8271484	
12.59	-0.274292	0.6644287	
12.78	0.627533	-0.4107056	
12.97	0.2098999	-0.7988892	
13.16	-0.1875	-0.8566284	
13.35	-0.5550537	-0.7036743	
13.54	-0.5032349	-0.53479	
13.73	-0.7927856	0.4969788	
13.92	-0.3352356	0.7768555	
14.11	-0.1542358	-0.7383118	
14.3	-0.5432434	0.0800476	
14.49	-0.9313965	0.3486938	
14.68	-0.8011169	0.5333557	
14.87	-0.3516235	0.8049011	
15.06	0.2896118	0.7889709	
15.25	0.7937317	0.3021545	
15.44	0.5785522	-0.5852661	
15.63	-0.7029724	-0.3537292	
15.82	-0.4370422	0.5672607	
16.01	0.471283	0.8126221	
16.2	-0.3823547	-0.3446808	
16.39	0.9003296	0.1340332	
16.58	0.2296295	0.405014	
16.77	0.7995911	-0.08126831	
16.96	0.5864563	-0.5731812	
17.15	0.6941223	-0.2876282	
17.34	0.5511475	-0.553894	
17.53	0.1987	-0.7854614	
17.72	-0.09899902	-0.7199097	
17.91	-0.2156067	-0.749054	
18.1	-0.6705627	-0.8652039	
18.29	-0.944458	-0.3309937	
18.48	-0.5313416	0.0309143	
18.67	-1.011719	-0.1485596	
18.86	-0.8916016	-0.03100586	
19.05	-0.1806335	0.5410767	
19.24	-0.9141235	0.5090942	
19.43	-0.8002319	0.7591553	
19.62	-0.6552124	0.7433472	
19.81	0.1263733	0.7232971	
20.0	-0.02233887	0.8515015	
