# GHz S RI R 50 
!freq	ReS11	ImS11	
1.0	-0.5778809	-0.2559814	
1.19	-0.687439	0.0214844	
1.38	-0.6612549	0.2980957	
1.57	-0.5327148	0.5341797	
1.76	-0.2696533	0.7496948	
1.95	0.078125	0.8106079	
2.14	0.4008179	0.7438965	
2.33	0.6785278	0.5621338	
2.52	0.8251343	0.2794189	
2.71	0.9151611	-0.07385254	
2.9	0.8347168	-0.406311	
3.09	0.6105957	-0.7019653	
3.28	0.2987671	-0.855896	
3.47	-0.0166626	-0.9311523	
3.66	-0.3364258	-0.8531494	
3.85	-0.6608887	-0.6496582	
4.04	-0.8436279	-0.2855225	
4.23	-0.9110107	0.0650024	
4.42	-0.805481	0.4102173	
4.61	-0.5767212	0.7230225	
4.8	-0.2205811	0.9136963	
4.99	0.2098999	0.9413452	
5.18	0.6315613	0.7872925	
5.37	0.9468384	0.3892822	
5.56	1.045349	-0.03643799	
5.75	0.9494019	-0.3969727	
5.94	0.574646	-0.7846069	
6.13	0.0446777	-0.9667969	
6.32	-0.4086914	-0.866394	
6.51	-0.7539063	-0.5306396	
6.7	-0.9475098	0.0128784	
6.89	0.8435669	-0.5028076	
7.08	-0.8950195	0.1223755	
7.27	-0.4464722	0.7537842	
7.46	0.5621033	0.6820984	
7.65	-0.137085	-0.906189	
7.84	-0.8234253	0.545105	
8.03	0.1444702	0.9234009	
8.22	0.9390259	0.1622925	
8.41	0.1555786	-0.993042	
8.6	-0.8865662	0.2427673	
8.79	0.140564	0.9188843	
8.98	0.8792114	0.375	
9.17	0.5071716	-0.8122864	
9.36	-0.7783813	-0.5440063	
9.55	-0.887146	0.2720947	
9.74	-0.2851563	0.9120483	
9.93	0.81604	0.4919739	
10.12	0.5289917	-0.8500366	
10.31	-0.7601929	-0.5766602	
10.5	-0.7710571	0.5264587	
10.69	-0.2266235	0.9639893	
10.88	0.4515991	0.8849487	
11.07	0.956543	0.1942139	
11.26	0.6400757	-0.7984619	
11.45	-0.7778015	-0.2931824	
11.64	0.4604492	0.6040039	
11.83	0.8619385	0.1578369	
12.02	0.8866577	-0.1987915	
12.21	0.7348633	-0.504303	
12.4	0.1627808	-0.8254395	
12.59	-0.2766418	0.6644592	
12.78	0.6216736	-0.4073792	
12.97	0.2115479	-0.7943726	
13.16	-0.1841431	-0.8563232	
13.35	-0.5460205	-0.7023315	
13.54	-0.502533	-0.5318909	
13.73	-0.7917786	0.4916382	
13.92	-0.324585	0.7819519	
14.11	-0.1530762	-0.7365112	
14.3	-0.5445862	0.0816345	
14.49	-0.923645	0.3486938	
14.68	-0.7993164	0.5268555	
14.87	-0.3508301	0.8128357	
15.06	0.2944641	0.7894287	
15.25	0.7938843	0.3019409	
15.44	0.5799866	-0.5855103	
15.63	-0.7007446	-0.3579407	
15.82	-0.4391174	0.5665588	
16.01	0.4756775	0.8139038	
16.2	-0.3824463	-0.349472	
16.39	0.8997803	0.1339111	
16.58	0.2276917	0.4020081	
16.77	0.7992249	-0.08059692	
16.96	0.5899658	-0.5752869	
17.15	0.6923828	-0.2859192	
17.34	0.5538025	-0.5499573	
17.53	0.2015381	-0.7774048	
17.72	-0.09988403	-0.7207336	
17.91	-0.2225037	-0.745575	
18.1	-0.6604614	-0.8682556	
18.29	-0.9451904	-0.3330078	
18.48	-0.5325317	0.0309143	
18.67	-1.011169	-0.1483154	
18.86	-0.8913574	-0.03131104	
19.05	-0.1791382	0.5378418	
19.24	-0.913269	0.5061646	
19.43	-0.8033447	0.7628784	
19.62	-0.6584473	0.7530518	
19.81	0.1315002	0.7266846	
20.0	-0.02026367	0.8458862	
