# GHz S RI R 50 
!freq	ReS11	ImS11	
1.0	-0.5776978	-0.2540894	
1.19	-0.6876831	0.0206909	
1.38	-0.6600952	0.2993774	
1.57	-0.5300903	0.5368042	
1.76	-0.2680054	0.75354	
1.95	0.0733643	0.8134766	
2.14	0.3988037	0.7496338	
2.33	0.6746216	0.5600586	
2.52	0.8260498	0.2791138	
2.71	0.9151611	-0.07495117	
2.9	0.8331909	-0.40802	
3.09	0.6066895	-0.7110596	
3.28	0.3039551	-0.864624	
3.47	-0.008239746	-0.9395142	
3.66	-0.3413086	-0.8499756	
3.85	-0.6607666	-0.6452026	
4.04	-0.8414307	-0.2854614	
4.23	-0.9099121	0.0636597	
4.42	-0.8009033	0.4126587	
4.61	-0.5817261	0.7302856	
4.8	-0.2164307	0.9223022	
4.99	0.2207642	0.9467163	
5.18	0.6295776	0.7802429	
5.37	0.9473877	0.3905029	
5.56	1.045654	-0.0355835	
5.75	0.9449463	-0.3960571	
5.94	0.5772705	-0.7983398	
6.13	0.045166	-0.9700928	
6.32	-0.4168091	-0.8657227	
6.51	-0.7549438	-0.5283813	
6.7	-0.9475708	0.0130615	
6.89	0.84729	-0.5025635	
7.08	-0.8961792	0.1223755	
7.27	-0.4495239	0.7566528	
7.46	0.5618591	0.6813354	
7.65	-0.1358032	-0.90979	
7.84	-0.8225098	0.5396118	
8.03	0.1346436	0.9086914	
8.22	0.9379272	0.1623535	
8.41	0.1543579	-0.9957275	
8.6	-0.8881836	0.2437744	
8.79	0.1565552	0.9118652	
8.98	0.8795471	0.372345	
9.17	0.5090942	-0.8112183	
9.36	-0.7786255	-0.5472412	
9.55	-0.887146	0.2706299	
9.74	-0.2821045	0.9109497	
9.93	0.8135071	0.4923401	
10.12	0.5219727	-0.8529053	
10.31	-0.7590942	-0.5795593	
10.5	-0.7713318	0.5254822	
10.69	-0.2304077	0.9587402	
10.88	0.4519043	0.8847046	
11.07	0.9562378	0.1947632	
11.26	0.6403503	-0.8022156	
11.45	-0.7791748	-0.2907715	
11.64	0.4640503	0.6074524	
11.83	0.8618774	0.1567993	
12.02	0.8878174	-0.1972656	
12.21	0.7296143	-0.5006104	
12.4	0.1568604	-0.8231201	
12.59	-0.2723389	0.6632385	
12.78	0.6221008	-0.4082947	
12.97	0.2123413	-0.7884521	
13.16	-0.1859741	-0.8620605	
13.35	-0.5441284	-0.7006226	
13.54	-0.505127	-0.5318909	
13.73	-0.7928467	0.4966125	
13.92	-0.3276367	0.770752	
14.11	-0.1511536	-0.7356262	
14.3	-0.54422	0.0805969	
14.49	-0.9301147	0.3472595	
14.68	-0.8022461	0.5312195	
14.87	-0.3501587	0.8098145	
15.06	0.289856	0.7934875	
15.25	0.7946472	0.3033752	
15.44	0.5781555	-0.5887146	
15.63	-0.7023926	-0.3545532	
15.82	-0.44104	0.5665283	
16.01	0.4718323	0.8127747	
16.2	-0.3787689	-0.3497009	
16.39	0.8997803	0.1347656	
16.58	0.2292633	0.3994751	
16.77	0.8000183	-0.08068848	
16.96	0.5870056	-0.5743408	
17.15	0.6943054	-0.2859192	
17.34	0.5578003	-0.5565186	
17.53	0.2037659	-0.7880249	
17.72	-0.1026611	-0.7188721	
17.91	-0.2173157	-0.7449341	
18.1	-0.6719971	-0.8684082	
18.29	-0.9438477	-0.3321533	
18.48	-0.5326538	0.0307007	
18.67	-1.011108	-0.1488037	
18.86	-0.8914185	-0.03173828	
19.05	-0.1809998	0.5422363	
19.24	-0.9171143	0.5081787	
19.43	-0.7997437	0.7612915	
19.62	-0.6603088	0.7398376	
19.81	0.1297302	0.7279053	
20.0	-0.0302124	0.8440552	
