# GHz S RI R 50 
!freq	ReS11	ImS11	
1.0	-0.5770874	-0.255188	
1.19	-0.6875	0.020813	
1.38	-0.661438	0.2987061	
1.57	-0.5308228	0.5369873	
1.76	-0.272644	0.7452393	
1.95	0.0725708	0.8166504	
2.14	0.4025269	0.7460327	
2.33	0.6741943	0.5621948	
2.52	0.8256836	0.2796631	
2.71	0.9156494	-0.07489014	
2.9	0.8289795	-0.406189	
3.09	0.6054688	-0.7079468	
3.28	0.296875	-0.8592529	
3.47	-0.009094238	-0.9348145	
3.66	-0.3361816	-0.8518066	
3.85	-0.6560059	-0.6470337	
4.04	-0.8410034	-0.2841797	
4.23	-0.9119263	0.0654907	
4.42	-0.800293	0.413269	
4.61	-0.5751953	0.7306519	
4.8	-0.2105713	0.9188232	
4.99	0.2199097	0.9417725	
5.18	0.6262207	0.7805786	
5.37	0.946167	0.3900146	
5.56	1.045837	-0.0357666	
5.75	0.9448853	-0.3953247	
5.94	0.5800171	-0.788147	
6.13	0.0469971	-0.9718018	
6.32	-0.4095459	-0.8670654	
6.51	-0.7527466	-0.5274048	
6.7	-0.9476929	0.0133057	
6.89	0.8411255	-0.5065918	
7.08	-0.8950195	0.1236572	
7.27	-0.4498901	0.75	
7.46	0.5585938	0.6807251	
7.65	-0.1278687	-0.9074707	
7.84	-0.824646	0.5457764	
8.03	0.1303711	0.916748	
8.22	0.9382935	0.1611938	
8.41	0.1538086	-0.9898682	
8.6	-0.8896179	0.2434692	
8.79	0.1506348	0.9175415	
8.98	0.8783569	0.3728638	
9.17	0.5054016	-0.8148804	
9.36	-0.7789307	-0.5482788	
9.55	-0.8909302	0.2732544	
9.74	-0.2869263	0.9217529	
9.93	0.815155	0.4953308	
10.12	0.5198364	-0.8505249	
10.31	-0.7604675	-0.5818176	
10.5	-0.77005	0.5242004	
10.69	-0.2282104	0.9588623	
10.88	0.4520264	0.881958	
11.07	0.9556885	0.1958008	
11.26	0.6335144	-0.8065491	
11.45	-0.7785339	-0.2911682	
11.64	0.4625854	0.6034851	
11.83	0.8616333	0.1567993	
12.02	0.8869629	-0.1968384	
12.21	0.7330933	-0.4988098	
12.4	0.1602173	-0.8252563	
12.59	-0.2796326	0.6717834	
12.78	0.6218262	-0.4123535	
12.97	0.2123413	-0.7955322	
13.16	-0.1854248	-0.8521729	
13.35	-0.5514526	-0.7042236	
13.54	-0.4992676	-0.5328979	
13.73	-0.7932434	0.4991455	
13.92	-0.3287354	0.7791748	
14.11	-0.1539917	-0.7359314	
14.3	-0.5432129	0.0810852	
14.49	-0.9252319	0.3475342	
14.68	-0.7974854	0.5298157	
14.87	-0.34552	0.8093262	
15.06	0.289856	0.7837219	
15.25	0.7941589	0.3029175	
15.44	0.5770264	-0.59021	
15.63	-0.703949	-0.3539429	
15.82	-0.4403687	0.5645447	
16.01	0.4760742	0.8114929	
16.2	-0.3810272	-0.349762	
16.39	0.9002686	0.1339111	
16.58	0.2302246	0.4025574	
16.77	0.8001099	-0.0803833	
16.96	0.587677	-0.5707397	
17.15	0.6951904	-0.2860413	
17.34	0.5521545	-0.5539551	
17.53	0.2027893	-0.7802429	
17.72	-0.09405518	-0.7194519	
17.91	-0.2189331	-0.7489929	
18.1	-0.6700439	-0.8728943	
18.29	-0.9446411	-0.3301392	
18.48	-0.5328064	0.030426	
18.67	-1.010254	-0.1487427	
18.86	-0.8911743	-0.03131104	
19.05	-0.1826477	0.541687	
19.24	-0.9123535	0.5064697	
19.43	-0.7982178	0.7571411	
19.62	-0.6609192	0.7434692	
19.81	0.1296692	0.7284851	
20.0	-0.02526855	0.8500977	
