# GHz S RI R 50 
!freq	ReS11	ImS11	
1.0	-0.5803223	-0.2542114	
1.19	-0.6871338	0.020874	
1.38	-0.6583252	0.2990112	
1.57	-0.5307617	0.5361938	
1.76	-0.2700195	0.7476196	
1.95	0.0682983	0.8120728	
2.14	0.4016113	0.7460938	
2.33	0.6751709	0.5617676	
2.52	0.8266602	0.2794189	
2.71	0.9174805	-0.07348633	
2.9	0.8331909	-0.4064941	
3.09	0.6061401	-0.7077026	
3.28	0.3001099	-0.8587646	
3.47	-0.01812744	-0.9354248	
3.66	-0.3468018	-0.850769	
3.85	-0.6600342	-0.6480103	
4.04	-0.8411865	-0.2858276	
4.23	-0.9095459	0.0654297	
4.42	-0.8041992	0.4088135	
4.61	-0.5770874	0.7301636	
4.8	-0.2180176	0.9199219	
4.99	0.2172241	0.9414063	
5.18	0.6281738	0.7799988	
5.37	0.9483032	0.3893433	
5.56	1.044678	-0.03533936	
5.75	0.9458618	-0.4006348	
5.94	0.5778198	-0.7832642	
6.13	0.0402832	-0.9716797	
6.32	-0.4118042	-0.8638306	
6.51	-0.7567749	-0.5269165	
6.7	-0.9472656	0.0125122	
6.89	0.8432007	-0.5014038	
7.08	-0.894165	0.121521	
7.27	-0.4467773	0.7496948	
7.46	0.5649109	0.6821594	
7.65	-0.1326294	-0.9104614	
7.84	-0.8255005	0.5343018	
8.03	0.1376953	0.9140015	
8.22	0.9382935	0.1616821	
8.41	0.1539917	-0.9932861	
8.6	-0.8849182	0.2421265	
8.79	0.1414185	0.9192505	
8.98	0.8780212	0.3734741	
9.17	0.5027771	-0.8104248	
9.36	-0.7780762	-0.5506287	
9.55	-0.8880615	0.2694702	
9.74	-0.2836304	0.9140625	
9.93	0.8178101	0.4940796	
10.12	0.5236816	-0.8543701	
10.31	-0.7609863	-0.5777283	
10.5	-0.770752	0.5238037	
10.69	-0.2337036	0.9559326	
10.88	0.451416	0.8826294	
11.07	0.9556274	0.1948242	
11.26	0.6430359	-0.7985229	
11.45	-0.7779236	-0.2909546	
11.64	0.4577942	0.6051025	
11.83	0.8615723	0.1577148	
12.02	0.8869629	-0.1976929	
12.21	0.7312317	-0.4998169	
12.4	0.164978	-0.8225098	
12.59	-0.2723999	0.6667786	
12.78	0.6262512	-0.4117126	
12.97	0.2156982	-0.7945557	
13.16	-0.1896973	-0.8580933	
13.35	-0.5441895	-0.7052612	
13.54	-0.5025635	-0.5327148	
13.73	-0.7937927	0.4972839	
13.92	-0.3301392	0.7806091	
14.11	-0.145813	-0.737793	
14.3	-0.5451965	0.0805664	
14.49	-0.9286194	0.3453674	
14.68	-0.8041077	0.5310059	
14.87	-0.3505249	0.8089294	
15.06	0.2896118	0.790863	
15.25	0.7936401	0.3036194	
15.44	0.5800476	-0.5844116	
15.63	-0.7026978	-0.356781	
15.82	-0.4403076	0.5648804	
16.01	0.4733582	0.8127136	
16.2	-0.3798981	-0.3482208	
16.39	0.8999939	0.134552	
16.58	0.2272491	0.4042358	
16.77	0.7987061	-0.08059692	
16.96	0.5934753	-0.5748291	
17.15	0.6921387	-0.2844543	
17.34	0.5567627	-0.5473633	
17.53	0.2038574	-0.7843628	
17.72	-0.1011047	-0.7162781	
17.91	-0.2208557	-0.7449341	
18.1	-0.6704407	-0.8678284	
18.29	-0.9434814	-0.3322144	
18.48	-0.5323181	0.0310669	
18.67	-1.011108	-0.1484985	
18.86	-0.8912354	-0.03125	
19.05	-0.1741943	0.5424194	
19.24	-0.9192505	0.515686	
19.43	-0.8016357	0.7642212	
19.62	-0.6602173	0.7445984	
19.81	0.1259766	0.7285461	
20.0	-0.02185059	0.848877	
