# GHz S RI R 50 
!freq	ReS11	ImS11	
1.0	-0.5770874	-0.2544556	
1.19	-0.6876221	0.020752	
1.38	-0.6610718	0.2980957	
1.57	-0.5305786	0.5377197	
1.76	-0.2693481	0.7513428	
1.95	0.0742798	0.8104858	
2.14	0.401123	0.7473755	
2.33	0.6737671	0.5606689	
2.52	0.8269043	0.2776489	
2.71	0.9162598	-0.0737915	
2.9	0.8336182	-0.4083862	
3.09	0.6086426	-0.7063599	
3.28	0.302002	-0.857605	
3.47	-0.015625	-0.9281616	
3.66	-0.3403931	-0.8446655	
3.85	-0.6588135	-0.647583	
4.04	-0.8418579	-0.2831421	
4.23	-0.9105225	0.065979	
4.42	-0.8032227	0.4130249	
4.61	-0.5860596	0.7194214	
4.8	-0.2181396	0.9243164	
4.99	0.2241211	0.9398193	
5.18	0.6301575	0.7863159	
5.37	0.9468994	0.390686	
5.56	1.045471	-0.0357666	
5.75	0.9468994	-0.3985596	
5.94	0.5805054	-0.7830811	
6.13	0.0429688	-0.9777222	
6.32	-0.4122314	-0.8666382	
6.51	-0.757019	-0.5286255	
6.7	-0.9470825	0.0126953	
6.89	0.8423462	-0.506958	
7.08	-0.8954468	0.1221313	
7.27	-0.4494019	0.7531738	
7.46	0.5632629	0.682373	
7.65	-0.1384277	-0.9138184	
7.84	-0.8253784	0.5409546	
8.03	0.140564	0.9064941	
8.22	0.9382324	0.1615601	
8.41	0.1556396	-0.989624	
8.6	-0.8870544	0.2454529	
8.79	0.1479492	0.9192505	
8.98	0.8808289	0.3748169	
9.17	0.5022583	-0.8106384	
9.36	-0.7749023	-0.549469	
9.55	-0.8873291	0.272644	
9.74	-0.2831421	0.9075317	
9.93	0.8153076	0.4936829	
10.12	0.5300293	-0.8550415	
10.31	-0.7596436	-0.5803528	
10.5	-0.7715149	0.5209961	
10.69	-0.2372437	0.9562378	
10.88	0.4549561	0.8764648	
11.07	0.9553223	0.1933594	
11.26	0.6423645	-0.803772	
11.45	-0.7778625	-0.2921753	
11.64	0.46698	0.6080933	
11.83	0.8613892	0.1577148	
12.02	0.8864746	-0.1978149	
12.21	0.7330017	-0.5040894	
12.4	0.166687	-0.8267822	
12.59	-0.2738037	0.664917	
12.78	0.6224365	-0.4111023	
12.97	0.2149048	-0.7984619	
13.16	-0.1845703	-0.8592529	
13.35	-0.5467529	-0.7032471	
13.54	-0.5040283	-0.5296326	
13.73	-0.7926636	0.4940186	
13.92	-0.3221436	0.782074	
14.11	-0.1516113	-0.7388	
14.3	-0.5437317	0.0793762	
14.49	-0.9274292	0.3471985	
14.68	-0.7984619	0.5309143	
14.87	-0.3502502	0.8051453	
15.06	0.2950134	0.7897339	
15.25	0.7940063	0.3030701	
15.44	0.5816345	-0.5925293	
15.63	-0.7051392	-0.3567505	
15.82	-0.4411316	0.5688477	
16.01	0.4736633	0.8147888	
16.2	-0.3838959	-0.348175	
16.39	0.8996887	0.133728	
16.58	0.2311859	0.3994598	
16.77	0.7989502	-0.08074951	
16.96	0.5894775	-0.5760803	
17.15	0.6907959	-0.2861633	
17.34	0.5577087	-0.5519409	
17.53	0.2005005	-0.7838745	
17.72	-0.09979248	-0.7150879	
17.91	-0.2148743	-0.7408447	
18.1	-0.6667786	-0.8630981	
18.29	-0.9446411	-0.3321533	
18.48	-0.5320129	0.0303955	
18.67	-1.010498	-0.1482544	
18.86	-0.8912964	-0.03082275	
19.05	-0.1760254	0.5413513	
19.24	-0.9194946	0.5142822	
19.43	-0.8033447	0.762085	
19.62	-0.6529541	0.744812	
19.81	0.1321106	0.7276611	
20.0	-0.01904297	0.8510742	
