# GHz S RI R 50 
!freq	ReS11	ImS11	
1.0	-0.5785522	-0.2548828	
1.19	-0.6873169	0.0211792	
1.38	-0.6612549	0.2982178	
1.57	-0.5302734	0.5362549	
1.76	-0.2711182	0.7496338	
1.95	0.0750122	0.8153076	
2.14	0.4060059	0.7452393	
2.33	0.6755981	0.559082	
2.52	0.8248901	0.2791138	
2.71	0.9171753	-0.07409668	
2.9	0.831604	-0.4078369	
3.09	0.6029663	-0.7017822	
3.28	0.2970581	-0.8612061	
3.47	-0.002807617	-0.9255371	
3.66	-0.3323364	-0.8529053	
3.85	-0.6572876	-0.6533813	
4.04	-0.8406372	-0.2858276	
4.23	-0.9110107	0.0651855	
4.42	-0.8017578	0.4140625	
4.61	-0.5774536	0.7229004	
4.8	-0.2164307	0.9206543	
4.99	0.2168579	0.9418945	
5.18	0.6278687	0.7941895	
5.37	0.9462891	0.3919678	
5.56	1.045227	-0.03588867	
5.75	0.9446411	-0.394165	
5.94	0.5768433	-0.7819214	
6.13	0.0393677	-0.9695435	
6.32	-0.402832	-0.8673706	
6.51	-0.7539673	-0.5292969	
6.7	-0.9472656	0.0136108	
6.89	0.8439941	-0.5059814	
7.08	-0.8947144	0.1233521	
7.27	-0.4462891	0.7568359	
7.46	0.5643616	0.6825562	
7.65	-0.1356201	-0.9100952	
7.84	-0.8277588	0.5397339	
8.03	0.135498	0.9088745	
8.22	0.9380493	0.1610718	
8.41	0.1513672	-0.9984741	
8.6	-0.8871155	0.2442932	
8.79	0.1432495	0.9160156	
8.98	0.8808594	0.3701172	
9.17	0.4997253	-0.8122253	
9.36	-0.7764587	-0.5526428	
9.55	-0.8895874	0.2737427	
9.74	-0.2819824	0.9215088	
9.93	0.8164673	0.4916992	
10.12	0.5184326	-0.8499146	
10.31	-0.7598267	-0.5778809	
10.5	-0.7745972	0.5278625	
10.69	-0.2272949	0.9587402	
10.88	0.4579468	0.8811646	
11.07	0.9557495	0.1942749	
11.26	0.6446533	-0.7991638	
11.45	-0.7756653	-0.2912292	
11.64	0.4625854	0.604187	
11.83	0.8598633	0.1575928	
12.02	0.8866577	-0.1958618	
12.21	0.7322693	-0.5	
12.4	0.1673584	-0.8261108	
12.59	-0.2807312	0.6704712	
12.78	0.6261902	-0.4075012	
12.97	0.2134399	-0.795105	
13.16	-0.1878662	-0.8597412	
13.35	-0.5568848	-0.7089233	
13.54	-0.5009766	-0.5307312	
13.73	-0.7885742	0.5023193	
13.92	-0.327179	0.7826233	
14.11	-0.155304	-0.7392883	
14.3	-0.5431213	0.0778503	
14.49	-0.926178	0.3496094	
14.68	-0.7988281	0.5276489	
14.87	-0.3488159	0.8112793	
15.06	0.2944946	0.7906799	
15.25	0.7934875	0.2999878	
15.44	0.5795288	-0.5884399	
15.63	-0.7028503	-0.3540039	
15.82	-0.4367676	0.5665588	
16.01	0.4737854	0.806488	
16.2	-0.3800964	-0.345108	
16.39	0.8997192	0.1332397	
16.58	0.224884	0.3964386	
16.77	0.7987671	-0.08065796	
16.96	0.5903015	-0.5793457	
17.15	0.689209	-0.284729	
17.34	0.5551453	-0.5498657	
17.53	0.2106018	-0.781189	
17.72	-0.09838867	-0.722229	
17.91	-0.2172546	-0.7498169	
18.1	-0.6689453	-0.8701477	
18.29	-0.9402466	-0.3303833	
18.48	-0.534668	0.0215149	
18.67	-1.010986	-0.1484985	
18.86	-0.8909302	-0.02947998	
19.05	-0.1843872	0.5434265	
19.24	-0.9160156	0.5066528	
19.43	-0.8045044	0.7646484	
19.62	-0.6549072	0.75	
19.81	0.1251831	0.7289734	
20.0	-0.01635742	0.843811	
