# GHz S RI R 50 
!freq	ReS11	ImS11	
1.0	-0.5778809	-0.2532349	
1.19	-0.687561	0.0205688	
1.38	-0.6611938	0.2976685	
1.57	-0.5283203	0.5368042	
1.76	-0.2698364	0.7491455	
1.95	0.0721436	0.8145142	
2.14	0.4046631	0.7418823	
2.33	0.6757202	0.560791	
2.52	0.8253174	0.2801514	
2.71	0.9143066	-0.07366943	
2.9	0.8300781	-0.4049683	
3.09	0.6048584	-0.7052612	
3.28	0.3027344	-0.8577271	
3.47	-0.003540039	-0.9335327	
3.66	-0.3383789	-0.8429565	
3.85	-0.6596069	-0.6503906	
4.04	-0.840271	-0.2860107	
4.23	-0.9121094	0.0645752	
4.42	-0.8029175	0.4110107	
4.61	-0.5776367	0.7174683	
4.8	-0.2184448	0.928772	
4.99	0.2229614	0.9432373	
5.18	0.6275024	0.784729	
5.37	0.9497681	0.3918457	
5.56	1.046387	-0.03503418	
5.75	0.9467163	-0.3973999	
5.94	0.5789795	-0.7885132	
6.13	0.0444946	-0.9731445	
6.32	-0.4140625	-0.8695679	
6.51	-0.7568359	-0.526062	
6.7	-0.9467163	0.0130615	
6.89	0.8425293	-0.5049438	
7.08	-0.8947144	0.1228027	
7.27	-0.4523926	0.7542114	
7.46	0.559021	0.680542	
7.65	-0.1313477	-0.9125977	
7.84	-0.8276367	0.5374146	
8.03	0.1362305	0.90448	
8.22	0.9381714	0.1618042	
8.41	0.1576538	-0.9937744	
8.6	-0.885498	0.2446899	
8.79	0.1417236	0.9171143	
8.98	0.8763428	0.3731995	
9.17	0.5085754	-0.8102417	
9.36	-0.7774658	-0.5479126	
9.55	-0.8890991	0.2770996	
9.74	-0.2876587	0.9124756	
9.93	0.8160095	0.4933167	
10.12	0.5223999	-0.8543091	
10.31	-0.7616882	-0.5779419	
10.5	-0.773407	0.5262146	
10.69	-0.222229	0.9577637	
10.88	0.4547729	0.8830566	
11.07	0.9552612	0.1950073	
11.26	0.6412354	-0.7993469	
11.45	-0.7777405	-0.2918091	
11.64	0.4692383	0.609436	
11.83	0.8618774	0.1569214	
12.02	0.8873291	-0.1985474	
12.21	0.7332458	-0.5023193	
12.4	0.1596069	-0.8250732	
12.59	-0.2801514	0.6635742	
12.78	0.6205444	-0.4105225	
12.97	0.2151489	-0.7942505	
13.16	-0.1862793	-0.8595581	
13.35	-0.5499268	-0.7015991	
13.54	-0.5010376	-0.5359192	
13.73	-0.7900391	0.4964294	
13.92	-0.3260193	0.7849426	
14.11	-0.1504517	-0.7337646	
14.3	-0.5446472	0.0817566	
14.49	-0.931366	0.3472595	
14.68	-0.7966309	0.5265198	
14.87	-0.3455505	0.8052673	
15.06	0.2947388	0.7859497	
15.25	0.7943115	0.3013916	
15.44	0.5792847	-0.5888977	
15.63	-0.70401	-0.3578796	
15.82	-0.441925	0.562561	
16.01	0.4736938	0.8113403	
16.2	-0.3803711	-0.3484497	
16.39	0.8999023	0.1347656	
16.58	0.2267151	0.4079285	
16.77	0.7991943	-0.0798645	
16.96	0.5858765	-0.577301	
17.15	0.6925049	-0.2848206	
17.34	0.5525208	-0.5485229	
17.53	0.1985779	-0.7877808	
17.72	-0.1006165	-0.7144775	
17.91	-0.2169495	-0.7441101	
18.1	-0.6654053	-0.8699646	
18.29	-0.944519	-0.3314819	
18.48	-0.5326233	0.0303955	
18.67	-1.011841	-0.149353	
18.86	-0.8916626	-0.03161621	
19.05	-0.1799927	0.5404053	
19.24	-0.9136963	0.5070801	
19.43	-0.7977295	0.7579346	
19.62	-0.6578674	0.7434692	
19.81	0.1280823	0.7235107	
20.0	-0.01916504	0.8442993	
