# GHz S RI R 50 
!freq	ReS11	ImS11	
1.0	-0.5792236	-0.2543945	
1.19	-0.6873779	0.0205078	
1.38	-0.6650391	0.2987061	
1.57	-0.5291748	0.5372925	
1.76	-0.2717896	0.7506714	
1.95	0.0737915	0.8132935	
2.14	0.4003906	0.7449951	
2.33	0.6760864	0.5637817	
2.52	0.8265381	0.2796631	
2.71	0.9155273	-0.074646	
2.9	0.8312378	-0.411438	
3.09	0.6052856	-0.7114868	
3.28	0.2991333	-0.8591919	
3.47	-0.01025391	-0.9360352	
3.66	-0.338623	-0.8480835	
3.85	-0.6585083	-0.6459351	
4.04	-0.8421631	-0.2857666	
4.23	-0.9110107	0.0653687	
4.42	-0.8048706	0.4141846	
4.61	-0.5844727	0.7255859	
4.8	-0.2060547	0.9227905	
4.99	0.2244263	0.9386597	
5.18	0.6321716	0.7838745	
5.37	0.946228	0.392395	
5.56	1.045532	-0.03546143	
5.75	0.9458008	-0.4004517	
5.94	0.5859375	-0.7871399	
6.13	0.0462036	-0.9741821	
6.32	-0.4130859	-0.8677979	
6.51	-0.756134	-0.5310059	
6.7	-0.9476929	0.0131226	
6.89	0.8433228	-0.5040894	
7.08	-0.8947144	0.1219482	
7.27	-0.4447021	0.7546997	
7.46	0.5653076	0.6820679	
7.65	-0.1276245	-0.9105835	
7.84	-0.821228	0.5484009	
8.03	0.140564	0.9085693	
8.22	0.9376831	0.1616821	
8.41	0.1539917	-0.9944458	
8.6	-0.8866577	0.2452393	
8.79	0.1425781	0.9130859	
8.98	0.8816528	0.373291	
9.17	0.5046997	-0.8118286	
9.36	-0.7778015	-0.5479431	
9.55	-0.8880005	0.2711182	
9.74	-0.2962036	0.9257202	
9.93	0.8179932	0.4927063	
10.12	0.5200806	-0.847229	
10.31	-0.7622375	-0.5791626	
10.5	-0.7698059	0.5270691	
10.69	-0.2337646	0.9623413	
10.88	0.4528198	0.8809204	
11.07	0.9559937	0.1955566	
11.26	0.6443481	-0.8033447	
11.45	-0.7791138	-0.2926025	
11.64	0.4658203	0.610321	
11.83	0.8629761	0.1571045	
12.02	0.8846436	-0.1976929	
12.21	0.7317505	-0.5044556	
12.4	0.1574707	-0.8275757	
12.59	-0.272522	0.6635742	
12.78	0.6246948	-0.4117432	
12.97	0.2126465	-0.7962036	
13.16	-0.1772461	-0.8540039	
13.35	-0.5524292	-0.7026978	
13.54	-0.5022278	-0.5330811	
13.73	-0.7901001	0.4985962	
13.92	-0.3311462	0.7774963	
14.11	-0.1572876	-0.7366943	
14.3	-0.5436707	0.0801086	
14.49	-0.9276123	0.3501892	
14.68	-0.8024902	0.5301208	
14.87	-0.343811	0.8106384	
15.06	0.2894592	0.7879639	
15.25	0.7939453	0.3017578	
15.44	0.5764465	-0.5916443	
15.63	-0.7055969	-0.3567505	
15.82	-0.4415283	0.5654602	
16.01	0.4743652	0.8090515	
16.2	-0.3839111	-0.3495941	
16.39	0.8999634	0.1339111	
16.58	0.2265167	0.4029999	
16.77	0.7991943	-0.0809021	
16.96	0.586792	-0.5782776	
17.15	0.6925964	-0.2843628	
17.34	0.5534058	-0.5515747	
17.53	0.2031555	-0.7925415	
17.72	-0.1010437	-0.7200928	
17.91	-0.2141113	-0.7440491	
18.1	-0.672821	-0.8647156	
18.29	-0.9453735	-0.3323975	
18.48	-0.5319824	0.0299988	
18.67	-1.011719	-0.1490479	
18.86	-0.8917847	-0.03112793	
19.05	-0.1790161	0.5383606	
19.24	-0.9127808	0.5111694	
19.43	-0.8023682	0.7566528	
19.62	-0.6637878	0.7444153	
19.81	0.1321411	0.7271729	
20.0	-0.02386475	0.8494263	
