# GHz S RI R 50 
!freq	ReS11	ImS11	
1.0	-0.5775757	-0.2523804	
1.19	-0.6872559	0.0211182	
1.38	-0.6622925	0.298645	
1.57	-0.5292358	0.5376587	
1.76	-0.2753296	0.7478638	
1.95	0.0704346	0.8145752	
2.14	0.4032593	0.7509155	
2.33	0.6733398	0.5623779	
2.52	0.8261108	0.2790527	
2.71	0.9160156	-0.07281494	
2.9	0.8306274	-0.4055786	
3.09	0.6065674	-0.7028198	
3.28	0.303833	-0.8577881	
3.47	-0.002258301	-0.9266357	
3.66	-0.336853	-0.8462524	
3.85	-0.6586304	-0.6530762	
4.04	-0.8410645	-0.286438	
4.23	-0.9118652	0.0652466	
4.42	-0.8046875	0.4074097	
4.61	-0.5783081	0.7182007	
4.8	-0.2183838	0.9165039	
4.99	0.2147827	0.9452515	
5.18	0.6216736	0.7805176	
5.37	0.9454346	0.3924561	
5.56	1.044617	-0.03497314	
5.75	0.946167	-0.3947754	
5.94	0.5776367	-0.7912598	
6.13	0.0507813	-0.9732666	
6.32	-0.4080811	-0.8630981	
6.51	-0.7531128	-0.53302	
6.7	-0.9487915	0.0134277	
6.89	0.8410034	-0.5014038	
7.08	-0.8942871	0.1218872	
7.27	-0.4541016	0.7473145	
7.46	0.5651245	0.6835938	
7.65	-0.1304932	-0.9141235	
7.84	-0.8222656	0.5386963	
8.03	0.1375732	0.9111328	
8.22	0.9379272	0.161377	
8.41	0.1499023	-0.994751	
8.6	-0.8858337	0.2455444	
8.79	0.144043	0.9172363	
8.98	0.8775024	0.3721313	
9.17	0.5107422	-0.8145752	
9.36	-0.7773132	-0.5467529	
9.55	-0.8901978	0.2712402	
9.74	-0.28479	0.9194946	
9.93	0.8169556	0.4950562	
10.12	0.5254517	-0.8532104	
10.31	-0.7610168	-0.5795593	
10.5	-0.7702942	0.5274963	
10.69	-0.2251587	0.9571533	
10.88	0.458374	0.8867188	
11.07	0.9553833	0.1950073	
11.26	0.6395264	-0.7993164	
11.45	-0.7774353	-0.291687	
11.64	0.4667969	0.6159973	
11.83	0.8627319	0.15802	
12.02	0.8869629	-0.1967163	
12.21	0.730896	-0.503418	
12.4	0.1623535	-0.8223267	
12.59	-0.2747803	0.6661072	
12.78	0.6219788	-0.4125366	
12.97	0.2112427	-0.7960205	
13.16	-0.1894531	-0.8607178	
13.35	-0.5540161	-0.7019043	
13.54	-0.5002441	-0.5369568	
13.73	-0.7932129	0.4959717	
13.92	-0.3285217	0.7684021	
14.11	-0.1459656	-0.7349854	
14.3	-0.5451355	0.0813599	
14.49	-0.9316406	0.3505859	
14.68	-0.7986145	0.5283203	
14.87	-0.3449097	0.8112488	
15.06	0.2907104	0.789917	
15.25	0.7943115	0.3010864	
15.44	0.579895	-0.5866394	
15.63	-0.7011108	-0.3572998	
15.82	-0.4433899	0.5629272	
16.01	0.4746704	0.8122559	
16.2	-0.3832703	-0.3481903	
16.39	0.9001465	0.1348572	
16.58	0.2278137	0.4024048	
16.77	0.8005066	-0.08029175	
16.96	0.5847778	-0.5823364	
17.15	0.6918945	-0.2828979	
17.34	0.554718	-0.5469971	
17.53	0.2010193	-0.786377	
17.72	-0.1030273	-0.7147827	
17.91	-0.217865	-0.7485657	
18.1	-0.6680603	-0.8658142	
18.29	-0.9457397	-0.3319702	
18.48	-0.5325012	0.0300598	
18.67	-1.010681	-0.149292	
18.86	-0.8915405	-0.03161621	
19.05	-0.1841125	0.5408936	
19.24	-0.9165039	0.508728	
19.43	-0.8039551	0.7592163	
19.62	-0.6578064	0.7458191	
19.81	0.1255188	0.7301331	
20.0	-0.02679443	0.8475342	
