# GHz S RI R 50 
!freq	ReS11	ImS11	
1.0	-0.5756226	-0.2562866	
1.19	-0.6871948	0.0214233	
1.38	-0.6607666	0.3010254	
1.57	-0.5297241	0.5369873	
1.76	-0.2730713	0.7495728	
1.95	0.0750122	0.8128662	
2.14	0.4069824	0.7492676	
2.33	0.6713867	0.5578003	
2.52	0.8270264	0.2792358	
2.71	0.9158936	-0.07373047	
2.9	0.8292847	-0.4064331	
3.09	0.604187	-0.7023926	
3.28	0.3002319	-0.8588867	
3.47	0.0014038	-0.9269409	
3.66	-0.3341675	-0.8465576	
3.85	-0.6578369	-0.6513062	
4.04	-0.8399048	-0.2860107	
4.23	-0.9111328	0.0643921	
4.42	-0.8048706	0.4154663	
4.61	-0.5846558	0.7227783	
4.8	-0.2201538	0.9133911	
4.99	0.2138062	0.9508667	
5.18	0.6293945	0.7890015	
5.37	0.9467163	0.3918457	
5.56	1.0448	-0.0355835	
5.75	0.9471436	-0.3959961	
5.94	0.5784912	-0.7843018	
6.13	0.0479736	-0.9753418	
6.32	-0.4130249	-0.8677979	
6.51	-0.7584229	-0.5270996	
6.7	-0.9482422	0.0136719	
6.89	0.8404541	-0.5075073	
7.08	-0.8951416	0.1243286	
7.27	-0.4489136	0.7545166	
7.46	0.5649414	0.6808472	
7.65	-0.128479	-0.9064941	
7.84	-0.8240356	0.5415039	
8.03	0.1370239	0.9078369	
8.22	0.9381714	0.1616821	
8.41	0.1604004	-0.9901733	
8.6	-0.8860779	0.244751	
8.79	0.1463623	0.9163818	
8.98	0.8788452	0.3720703	
9.17	0.508728	-0.8101807	
9.36	-0.7762451	-0.5496826	
9.55	-0.8895264	0.2709351	
9.74	-0.289856	0.9157104	
9.93	0.815918	0.4890747	
10.12	0.5294189	-0.8496704	
10.31	-0.7568665	-0.5777283	
10.5	-0.7701416	0.5265503	
10.69	-0.2299805	0.9614868	
10.88	0.4527588	0.8840332	
11.07	0.9552002	0.1932373	
11.26	0.6424866	-0.8062134	
11.45	-0.7787476	-0.291626	
11.64	0.4615784	0.6075745	
11.83	0.8613281	0.157959	
12.02	0.8892212	-0.1955566	
12.21	0.7342224	-0.504364	
12.4	0.166626	-0.821167	
12.59	-0.2780762	0.6689758	
12.78	0.6256409	-0.4079895	
12.97	0.2196655	-0.800293	
13.16	-0.1818237	-0.8532715	
13.35	-0.5480957	-0.7026978	
13.54	-0.502594	-0.5318604	
13.73	-0.7922058	0.4971619	
13.92	-0.3257446	0.7744751	
14.11	-0.155365	-0.7355652	
14.3	-0.5443115	0.0791321	
14.49	-0.9273376	0.3507996	
14.68	-0.7989502	0.5316467	
14.87	-0.3503113	0.8041077	
15.06	0.2926025	0.7913818	
15.25	0.7973633	0.3012695	
15.44	0.5751343	-0.5848389	
15.63	-0.7058411	-0.3550415	
15.82	-0.4465942	0.5663452	
16.01	0.4740295	0.8121948	
16.2	-0.3816071	-0.3469696	
16.39	0.900116	0.1339722	
16.58	0.2287598	0.4026489	
16.77	0.79953	-0.08139038	
16.96	0.5897827	-0.5771179	
17.15	0.6908875	-0.2867432	
17.34	0.550354	-0.5536804	
17.53	0.2031555	-0.7874756	
17.72	-0.09994507	-0.712677	
17.91	-0.2270508	-0.7466431	
18.1	-0.671051	-0.8578491	
18.29	-0.9449463	-0.3324585	
18.48	-0.5314026	0.03125	
18.67	-1.010925	-0.1482544	
18.86	-0.8914795	-0.03076172	
19.05	-0.179718	0.5384521	
19.24	-0.9185181	0.5081787	
19.43	-0.8035278	0.756897	
19.62	-0.6564636	0.7436829	
19.81	0.1321716	0.7301331	
20.0	-0.01971436	0.8486938	
