# GHz S RI R 50 
!freq	ReS11	ImS11	
1.0	-0.5772095	-0.2558594	
1.19	-0.6873169	0.020813	
1.38	-0.6605835	0.2982788	
1.57	-0.5303345	0.5360107	
1.76	-0.2740479	0.7469482	
1.95	0.0762939	0.8145752	
2.14	0.4031982	0.7488403	
2.33	0.6727295	0.5606689	
2.52	0.8259888	0.2806396	
2.71	0.9156494	-0.07287598	
2.9	0.8309937	-0.4053345	
3.09	0.6051025	-0.7056885	
3.28	0.2906494	-0.8475342	
3.47	-0.01049805	-0.925415	
3.66	-0.3374634	-0.8422241	
3.85	-0.6602173	-0.6469727	
4.04	-0.84021	-0.2835693	
4.23	-0.9103394	0.0652466	
4.42	-0.8079834	0.4122314	
4.61	-0.5879517	0.7301025	
4.8	-0.2167969	0.9229126	
4.99	0.2181396	0.9463501	
5.18	0.6236267	0.7845764	
5.37	0.9471436	0.392395	
5.56	1.04541	-0.03564453	
5.75	0.9494019	-0.397644	
5.94	0.5795288	-0.7869263	
6.13	0.0488892	-0.977356	
6.32	-0.4112549	-0.8690796	
6.51	-0.7559814	-0.5263062	
6.7	-0.9480591	0.0129395	
6.89	0.8453369	-0.5049438	
7.08	-0.8950195	0.1213379	
7.27	-0.4523315	0.7515869	
7.46	0.5656433	0.6776123	
7.65	-0.1416626	-0.9130859	
7.84	-0.8239136	0.5443115	
8.03	0.135498	0.9188843	
8.22	0.9371948	0.1626587	
8.41	0.1442871	-0.9916992	
8.6	-0.8849182	0.2453918	
8.79	0.1454468	0.916626	
8.98	0.8796997	0.3718872	
9.17	0.5073547	-0.8141479	
9.36	-0.7785645	-0.5499268	
9.55	-0.8920288	0.2723389	
9.74	-0.2841187	0.918457	
9.93	0.8144531	0.4960938	
10.12	0.531311	-0.8480835	
10.31	-0.7593079	-0.5797424	
10.5	-0.7703857	0.5256653	
10.69	-0.2338867	0.9555054	
10.88	0.4489746	0.8866577	
11.07	0.9547729	0.1945801	
11.26	0.6425171	-0.802887	
11.45	-0.7763367	-0.2918701	
11.64	0.4648132	0.6068726	
11.83	0.8621826	0.1574097	
12.02	0.8864136	-0.1972656	
12.21	0.7357483	-0.5023499	
12.4	0.159729	-0.8232422	
12.59	-0.2763672	0.6653748	
12.78	0.6267395	-0.407074	
12.97	0.2142944	-0.7960205	
13.16	-0.1828003	-0.8568115	
13.35	-0.5465698	-0.6990356	
13.54	-0.5082703	-0.5310974	
13.73	-0.7921753	0.4976501	
13.92	-0.3291321	0.780426	
14.11	-0.1491699	-0.7360229	
14.3	-0.5448914	0.0801392	
14.49	-0.9288635	0.3503418	
14.68	-0.8031311	0.52771	
14.87	-0.3394165	0.8077698	
15.06	0.2950745	0.787384	
15.25	0.7948608	0.3012695	
15.44	0.5762329	-0.5840149	
15.63	-0.7037964	-0.3565674	
15.82	-0.440979	0.5654602	
16.01	0.4746399	0.8073425	
16.2	-0.3826599	-0.3470306	
16.39	0.8997803	0.1340332	
16.58	0.2284851	0.4045715	
16.77	0.7998352	-0.08126831	
16.96	0.5863037	-0.576416	
17.15	0.6949463	-0.286377	
17.34	0.5499268	-0.5482788	
17.53	0.1988525	-0.786377	
17.72	-0.1013794	-0.7254333	
17.91	-0.2218628	-0.7467651	
18.1	-0.672699	-0.8628235	
18.29	-0.9442749	-0.3310547	
18.48	-0.5318604	0.0300293	
18.67	-1.01123	-0.1483765	
18.86	-0.8911743	-0.03125	
19.05	-0.1785278	0.5410767	
19.24	-0.9176025	0.5046997	
19.43	-0.8016357	0.758667	
19.62	-0.6573181	0.7458191	
19.81	0.1297607	0.7225952	
20.0	-0.02850342	0.8480225	
