# GHz S RI R 50 
!freq	ReS11	ImS11	
1.0	-0.5765991	-0.2558594	
1.19	-0.6873169	0.0209961	
1.38	-0.6620483	0.2964478	
1.57	-0.5290527	0.5336914	
1.76	-0.2717896	0.750061	
1.95	0.0742188	0.8132324	
2.14	0.4048462	0.7453003	
2.33	0.6741943	0.5603638	
2.52	0.8267212	0.2783813	
2.71	0.9161987	-0.07250977	
2.9	0.8331299	-0.4037476	
3.09	0.6156006	-0.708313	
3.28	0.30896	-0.8525391	
3.47	-0.00970459	-0.9310913	
3.66	-0.3401489	-0.8482666	
3.85	-0.6596069	-0.6532593	
4.04	-0.8416138	-0.2860718	
4.23	-0.9119873	0.0653687	
4.42	-0.8037109	0.4171143	
4.61	-0.581604	0.7339478	
4.8	-0.215271	0.9227295	
4.99	0.2188721	0.9438477	
5.18	0.6306152	0.7841187	
5.37	0.9459839	0.3889771	
5.56	1.045532	-0.03546143	
5.75	0.9455566	-0.401001	
5.94	0.5794067	-0.786377	
6.13	0.0410767	-0.9765015	
6.32	-0.4108887	-0.8635864	
6.51	-0.7553101	-0.5307007	
6.7	-0.9481201	0.0136719	
6.89	0.8479614	-0.50354	
7.08	-0.8946533	0.1218262	
7.27	-0.4557495	0.7572021	
7.46	0.5646667	0.6818542	
7.65	-0.1346436	-0.9031982	
7.84	-0.8218994	0.5441895	
8.03	0.1377563	0.9118652	
8.22	0.9381714	0.1617432	
8.41	0.152771	-0.9960938	
8.6	-0.8884888	0.2452393	
8.79	0.1386719	0.9089355	
8.98	0.8822021	0.3704224	
9.17	0.5037842	-0.8115845	
9.36	-0.7792358	-0.5505066	
9.55	-0.8880005	0.2706299	
9.74	-0.2860107	0.9180908	
9.93	0.8177795	0.4944763	
10.12	0.5281372	-0.8557739	
10.31	-0.7597046	-0.5779724	
10.5	-0.7722778	0.5266418	
10.69	-0.2301025	0.9644775	
10.88	0.4509277	0.8837891	
11.07	0.956604	0.1957397	
11.26	0.6499939	-0.8101807	
11.45	-0.7783203	-0.293396	
11.64	0.4659729	0.6096802	
11.83	0.8623047	0.1569214	
12.02	0.8878174	-0.1967773	
12.21	0.7327576	-0.5003052	
12.4	0.1600342	-0.826416	
12.59	-0.2755432	0.6672974	
12.78	0.6174927	-0.4090881	
12.97	0.2169189	-0.7944946	
13.16	-0.1853027	-0.8551636	
13.35	-0.5533447	-0.7045288	
13.54	-0.4996033	-0.5305481	
13.73	-0.7923889	0.4960632	
13.92	-0.3253479	0.779541	
14.11	-0.1512756	-0.7436829	
14.3	-0.5446777	0.0808105	
14.49	-0.9305115	0.3496399	
14.68	-0.7991943	0.5278931	
14.87	-0.3482056	0.8071289	
15.06	0.2905884	0.7863464	
15.25	0.7956848	0.3032227	
15.44	0.5815735	-0.590271	
15.63	-0.7041016	-0.3598022	
15.82	-0.4399414	0.5662537	
16.01	0.4769592	0.8139038	
16.2	-0.3843231	-0.3474731	
16.39	0.9000244	0.133728	
16.58	0.229538	0.4022522	
16.77	0.7997131	-0.08126831	
16.96	0.591217	-0.5753479	
17.15	0.6913452	-0.2874451	
17.34	0.5550232	-0.5533752	
17.53	0.2024841	-0.7868042	
17.72	-0.1004944	-0.7205811	
17.91	-0.2168884	-0.7501221	
18.1	-0.6679688	-0.8687744	
18.29	-0.9441528	-0.3307495	
18.48	-0.5321655	0.0306091	
18.67	-1.011108	-0.1485596	
18.86	-0.8914795	-0.03094482	
19.05	-0.1784668	0.543457	
19.24	-0.9198608	0.506897	
19.43	-0.7973022	0.7622681	
19.62	-0.6594849	0.741272	
19.81	0.1270447	0.7273254	
20.0	-0.02764893	0.852356	
