# GHz S RI R 50 
!freq	ReS11	ImS11	
1.0	-0.5765381	-0.2545776	
1.19	-0.687439	0.0209351	
1.38	-0.6622314	0.2960815	
1.57	-0.5303955	0.538147	
1.76	-0.2692871	0.7496948	
1.95	0.0741577	0.8081055	
2.14	0.4020996	0.7452393	
2.33	0.6740112	0.5606689	
2.52	0.8260498	0.27948	
2.71	0.9159546	-0.07250977	
2.9	0.8309326	-0.4081421	
3.09	0.6101074	-0.7043457	
3.28	0.3043823	-0.8575439	
3.47	-0.01391602	-0.9338379	
3.66	-0.3339844	-0.8447266	
3.85	-0.6558838	-0.6535034	
4.04	-0.8403931	-0.2848511	
4.23	-0.9099731	0.06427	
4.42	-0.8010864	0.4135132	
4.61	-0.5771484	0.7269897	
4.8	-0.2196045	0.9185791	
4.99	0.2147217	0.9436035	
5.18	0.6262512	0.7891235	
5.37	0.9471436	0.3909912	
5.56	1.045532	-0.03570557	
5.75	0.9490967	-0.3994141	
5.94	0.5744019	-0.7835083	
6.13	0.0427246	-0.9717407	
6.32	-0.4130249	-0.8688354	
6.51	-0.7521973	-0.5293274	
6.7	-0.9482422	0.0134277	
6.89	0.8417969	-0.5046997	
7.08	-0.8950195	0.1224365	
7.27	-0.4523926	0.7529907	
7.46	0.5619202	0.6844177	
7.65	-0.1347656	-0.9120483	
7.84	-0.8318481	0.5430298	
8.03	0.1329346	0.9069824	
8.22	0.9384155	0.161438	
8.41	0.1495972	-0.9926758	
8.6	-0.886322	0.2416992	
8.79	0.137146	0.9152222	
8.98	0.8805542	0.3707275	
9.17	0.5066528	-0.813446	
9.36	-0.7766418	-0.5480652	
9.55	-0.8910522	0.2692871	
9.74	-0.2893677	0.9262085	
9.93	0.8151855	0.4940491	
10.12	0.5301514	-0.8597412	
10.31	-0.7547913	-0.5799866	
10.5	-0.7670593	0.5235901	
10.69	-0.2387695	0.9636841	
10.88	0.4501343	0.8864746	
11.07	0.956665	0.1948242	
11.26	0.6424866	-0.8058472	
11.45	-0.7789001	-0.2919922	
11.64	0.4707642	0.6090393	
11.83	0.8626099	0.1580811	
12.02	0.8858643	-0.1975708	
12.21	0.7327881	-0.5013733	
12.4	0.1570435	-0.8239746	
12.59	-0.2767944	0.6598816	
12.78	0.6236877	-0.4091187	
12.97	0.2104492	-0.7984009	
13.16	-0.1906128	-0.8659668	
13.35	-0.5447998	-0.7103882	
13.54	-0.5050964	-0.5327454	
13.73	-0.7935486	0.4981079	
13.92	-0.3303528	0.7789307	
14.11	-0.1479797	-0.7370911	
14.3	-0.5445862	0.0819702	
14.49	-0.9253235	0.3481445	
14.68	-0.8024902	0.5267639	
14.87	-0.3485413	0.8130798	
15.06	0.2919922	0.7889099	
15.25	0.7940369	0.3015137	
15.44	0.58078	-0.5906372	
15.63	-0.7041931	-0.3566589	
15.82	-0.4391785	0.5637512	
16.01	0.4777527	0.8058167	
16.2	-0.3852234	-0.3504791	
16.39	0.9000244	0.1347351	
16.58	0.2263947	0.4034729	
16.77	0.8000183	-0.08026123	
16.96	0.5876465	-0.5770569	
17.15	0.6926575	-0.2842102	
17.34	0.5574036	-0.5524292	
17.53	0.2054749	-0.7845154	
17.72	-0.09936523	-0.7179871	
17.91	-0.2178345	-0.7461243	
18.1	-0.6698608	-0.8661804	
18.29	-0.9440918	-0.3331909	
18.48	-0.5328369	0.0301819	
18.67	-1.010742	-0.1488647	
18.86	-0.8917847	-0.03161621	
19.05	-0.1808472	0.5427551	
19.24	-0.9203491	0.5045166	
19.43	-0.8046265	0.7536621	
19.62	-0.657959	0.7445679	
19.81	0.1318359	0.7225342	
20.0	-0.02398682	0.8504639	
