# GHz S RI R 50 
!freq	ReS11	ImS11	
1.0	-0.5770874	-0.2576904	
1.19	-0.6878052	0.0212402	
1.38	-0.6618042	0.2994385	
1.57	-0.5301514	0.536438	
1.76	-0.2752686	0.7518311	
1.95	0.0806885	0.8175659	
2.14	0.4015503	0.7444458	
2.33	0.6755371	0.5631714	
2.52	0.8261719	0.2797241	
2.71	0.9144897	-0.07324219	
2.9	0.8294067	-0.4072876	
3.09	0.6046143	-0.7017212	
3.28	0.2975464	-0.8567505	
3.47	-0.009216309	-0.9352417	
3.66	-0.34198	-0.8444214	
3.85	-0.6604614	-0.6456299	
4.04	-0.8412476	-0.2855835	
4.23	-0.9103394	0.0646973	
4.42	-0.8031616	0.4107056	
4.61	-0.5836792	0.7276611	
4.8	-0.2202148	0.918396	
4.99	0.2136841	0.9504395	
5.18	0.6216431	0.78302	
5.37	0.9484863	0.3933105	
5.56	1.045776	-0.03552246	
5.75	0.9462891	-0.3987427	
5.94	0.5812378	-0.7875366	
6.13	0.0431519	-0.9740601	
6.32	-0.4168701	-0.8647461	
6.51	-0.7528687	-0.5296631	
6.7	-0.9474487	0.0127563	
6.89	0.8435669	-0.5031738	
7.08	-0.8943481	0.1223145	
7.27	-0.4476929	0.7550049	
7.46	0.5597534	0.6816406	
7.65	-0.1378784	-0.9141235	
7.84	-0.8240967	0.5367432	
8.03	0.1374512	0.9089355	
8.22	0.9382935	0.1624146	
8.41	0.1547241	-0.9941406	
8.6	-0.8865662	0.2459106	
8.79	0.1517944	0.914856	
8.98	0.8781738	0.3717041	
9.17	0.5092773	-0.8131714	
9.36	-0.7771606	-0.5480652	
9.55	-0.8901367	0.2717285	
9.74	-0.2858887	0.9101563	
9.93	0.8167419	0.493866	
10.12	0.5214233	-0.8511963	
10.31	-0.7591553	-0.578064	
10.5	-0.7695923	0.5279846	
10.69	-0.2265625	0.9614868	
10.88	0.4511108	0.8856812	
11.07	0.9563599	0.1945801	
11.26	0.6398315	-0.8003235	
11.45	-0.7790222	-0.2921448	
11.64	0.4658203	0.6066589	
11.83	0.8618164	0.1568604	
12.02	0.8864136	-0.1951294	
12.21	0.7286377	-0.5022583	
12.4	0.1610718	-0.8278198	
12.59	-0.2773132	0.6668396	
12.78	0.6228027	-0.4128418	
12.97	0.2108765	-0.7937012	
13.16	-0.1918335	-0.8551636	
13.35	-0.5481567	-0.7058105	
13.54	-0.5037842	-0.5281982	
13.73	-0.7893677	0.4983521	
13.92	-0.3336182	0.7848816	
14.11	-0.1498108	-0.732666	
14.3	-0.5447998	0.0814514	
14.49	-0.9272766	0.3482971	
14.68	-0.7975769	0.5262756	
14.87	-0.3366699	0.8117981	
15.06	0.2887878	0.7928772	
15.25	0.7940063	0.3001099	
15.44	0.5726929	-0.5847778	
15.63	-0.7055054	-0.3568115	
15.82	-0.439209	0.5684509	
16.01	0.4759521	0.8074341	
16.2	-0.3820496	-0.3495483	
16.39	0.8997803	0.1343994	
16.58	0.2313995	0.404068	
16.77	0.8002014	-0.08078003	
16.96	0.5901794	-0.5749207	
17.15	0.6920471	-0.2857361	
17.34	0.5576782	-0.5486755	
17.53	0.2006226	-0.7825012	
17.72	-0.09707642	-0.7156067	
17.91	-0.2197266	-0.7459717	
18.1	-0.666626	-0.8651123	
18.29	-0.9436035	-0.3327637	
18.48	-0.5327759	0.0300293	
18.67	-1.010681	-0.1483765	
18.86	-0.8917847	-0.03125	
19.05	-0.1773987	0.5403137	
19.24	-0.9208374	0.5027466	
19.43	-0.8031616	0.7634888	
19.62	-0.6578674	0.7469482	
19.81	0.1289063	0.7297668	
20.0	-0.02392578	0.8477173	
