# GHz S RI R 50 
!freq	ReS11	ImS11	
1.0	-0.5772095	-0.2532349	
1.19	-0.6870728	0.0211792	
1.38	-0.6611938	0.2980347	
1.57	-0.5281372	0.5352783	
1.76	-0.2689819	0.7514648	
1.95	0.0755615	0.8153687	
2.14	0.4021606	0.7466431	
2.33	0.6767578	0.5592651	
2.52	0.8257446	0.2808228	
2.71	0.9160767	-0.07440186	
2.9	0.8283691	-0.4060669	
3.09	0.6084595	-0.7035522	
3.28	0.302002	-0.8580322	
3.47	-0.01721191	-0.9324341	
3.66	-0.3425293	-0.8480225	
3.85	-0.661377	-0.6477051	
4.04	-0.8396606	-0.284729	
4.23	-0.909729	0.0647583	
4.42	-0.8023071	0.4098511	
4.61	-0.5817871	0.7160645	
4.8	-0.2124023	0.9227295	
4.99	0.2198486	0.9371948	
5.18	0.6307068	0.7819214	
5.37	0.9460449	0.3915405	
5.56	1.045532	-0.03570557	
5.75	0.9448853	-0.3942871	
5.94	0.5769653	-0.7828979	
6.13	0.0467529	-0.9726563	
6.32	-0.4110107	-0.8643799	
6.51	-0.7559814	-0.5290527	
6.7	-0.9472656	0.0124512	
6.89	0.8444824	-0.5072021	
7.08	-0.894043	0.1224976	
7.27	-0.4500122	0.7560425	
7.46	0.5594482	0.6823425	
7.65	-0.1325073	-0.9083252	
7.84	-0.8238525	0.5421753	
8.03	0.1384277	0.9158325	
8.22	0.9382324	0.1623535	
8.41	0.1531982	-0.9927979	
8.6	-0.8856201	0.2443848	
8.79	0.144104	0.9147949	
8.98	0.878479	0.3717651	
9.17	0.5066528	-0.8111877	
9.36	-0.7782288	-0.5478821	
9.55	-0.8883057	0.2700806	
9.74	-0.2880249	0.913208	
9.93	0.8172302	0.4936523	
10.12	0.5262451	-0.8557739	
10.31	-0.7542114	-0.58078	
10.5	-0.7714233	0.5286865	
10.69	-0.2362671	0.9568481	
10.88	0.4525146	0.8883667	
11.07	0.9561768	0.1950073	
11.26	0.6431274	-0.8020325	
11.45	-0.7769775	-0.2920227	
11.64	0.4657898	0.6098328	
11.83	0.8622437	0.1573486	
12.02	0.8876953	-0.1968994	
12.21	0.7295837	-0.5013733	
12.4	0.1583862	-0.8242798	
12.59	-0.2772522	0.6687012	
12.78	0.620575	-0.4096069	
12.97	0.217041	-0.7971802	
13.16	-0.184021	-0.8582153	
13.35	-0.5477905	-0.7020264	
13.54	-0.501709	-0.5339355	
13.73	-0.7936707	0.5001831	
13.92	-0.3326721	0.7749329	
14.11	-0.1483459	-0.7373657	
14.3	-0.5446167	0.081665	
14.49	-0.9314575	0.3473511	
14.68	-0.8005676	0.5241699	
14.87	-0.3431396	0.8046265	
15.06	0.2897644	0.7861328	
15.25	0.7939148	0.3027954	
15.44	0.5736084	-0.5901489	
15.63	-0.7007751	-0.3573914	
15.82	-0.4385376	0.5667725	
16.01	0.4758911	0.8098145	
16.2	-0.3816376	-0.348175	
16.39	0.8996887	0.1342468	
16.58	0.2256622	0.4036713	
16.77	0.7983398	-0.08087158	
16.96	0.5838623	-0.5793152	
17.15	0.6920776	-0.2845154	
17.34	0.5526123	-0.5515747	
17.53	0.1964417	-0.7885742	
17.72	-0.09588623	-0.7155151	
17.91	-0.2152405	-0.74823	
18.1	-0.6678162	-0.8674316	
18.29	-0.9440918	-0.3323364	
18.48	-0.5326233	0.0295715	
18.67	-1.011597	-0.1489868	
18.86	-0.8912354	-0.03137207	
19.05	-0.1798706	0.5395203	
19.24	-0.9172974	0.5068359	
19.43	-0.8053589	0.7595215	
19.62	-0.6610107	0.7416992	
19.81	0.1267395	0.7246094	
20.0	-0.02697754	0.8538818	
