# GHz S RI R 50 
!freq	ReS11	ImS11	
1.0	-0.5783691	-0.2546387	
1.19	-0.6870728	0.0209351	
1.38	-0.6611328	0.2983398	
1.57	-0.5289917	0.5370178	
1.76	-0.2711182	0.7435913	
1.95	0.078186	0.8156738	
2.14	0.4015503	0.7473755	
2.33	0.6757202	0.5622559	
2.52	0.8262329	0.2792358	
2.71	0.9140015	-0.07312012	
2.9	0.8325806	-0.4051514	
3.09	0.6102295	-0.7026367	
3.28	0.2990723	-0.8553467	
3.47	-0.01507568	-0.9283447	
3.66	-0.3389893	-0.8491821	
3.85	-0.6583862	-0.6502075	
4.04	-0.8417358	-0.2856445	
4.23	-0.9109497	0.0646973	
4.42	-0.802063	0.4104614	
4.61	-0.5744019	0.7225952	
4.8	-0.2144165	0.918396	
4.99	0.2181396	0.9413452	
5.18	0.6280518	0.7822266	
5.37	0.9459839	0.3924561	
5.56	1.045776	-0.03613281	
5.75	0.9432983	-0.3969727	
5.94	0.5801392	-0.786499	
6.13	0.0401611	-0.9666138	
6.32	-0.409668	-0.871521	
6.51	-0.7556763	-0.5310669	
6.7	-0.9477539	0.0126953	
6.89	0.8452759	-0.5072021	
7.08	-0.8948975	0.1225586	
7.27	-0.4537354	0.7544556	
7.46	0.5718689	0.6842957	
7.65	-0.1286621	-0.9121094	
7.84	-0.8244629	0.5386963	
8.03	0.1413574	0.9171753	
8.22	0.9383545	0.1605835	
8.41	0.1459351	-0.9974976	
8.6	-0.8888855	0.2431641	
8.79	0.1448975	0.9196777	
8.98	0.8778076	0.3720703	
9.17	0.5045776	-0.8138428	
9.36	-0.7795715	-0.5429688	
9.55	-0.887085	0.2716064	
9.74	-0.2833862	0.9099121	
9.93	0.8169556	0.4942932	
10.12	0.5234375	-0.8546143	
10.31	-0.7580261	-0.5757446	
10.5	-0.7652588	0.5245667	
10.69	-0.2269897	0.9626465	
10.88	0.4553223	0.87323	
11.07	0.9537354	0.192688	
11.26	0.6375122	-0.8022461	
11.45	-0.7658386	-0.2906494	
11.64	0.4521484	0.5939941	
11.83	0.8529053	0.1593628	
12.02	0.8850708	-0.1902466	
12.21	0.7312927	-0.4998779	
12.4	0.1615601	-0.822876	
12.59	-0.2835388	0.665863	
12.78	0.6407471	-0.3953857	
12.97	0.2175293	-0.8016357	
13.16	-0.1859741	-0.8614502	
13.35	-0.5529785	-0.7051392	
13.54	-0.500824	-0.5354919	
13.73	-0.7920532	0.5005798	
13.92	-0.3318176	0.7805176	
14.11	-0.1601563	-0.7447205	
14.3	-0.532196	0.0663452	
14.49	-0.9264526	0.3480225	
14.68	-0.7971497	0.5292664	
14.87	-0.3461914	0.8070984	
15.06	0.2890625	0.7849731	
15.25	0.79599	0.2986145	
15.44	0.5690308	-0.5949097	
15.63	-0.7098999	-0.34198	
15.82	-0.439209	0.5681458	
16.01	0.4788513	0.8083191	
16.2	-0.3860016	-0.3373871	
16.39	0.8997803	0.131897	
16.58	0.2351532	0.4031982	
16.77	0.7958069	-0.08239746	
16.96	0.5906372	-0.5713196	
17.15	0.6880493	-0.2855835	
17.34	0.5469666	-0.5497131	
17.53	0.2041626	-0.7804565	
17.72	-0.104248	-0.7174072	
17.91	-0.224762	-0.7574768	
18.1	-0.6682739	-0.8655396	
18.29	-0.9401245	-0.3330078	
18.48	-0.5421143	0.0141296	
18.67	-1.010864	-0.1481323	
18.86	-0.8890991	-0.02667236	
19.05	-0.1751404	0.5499573	
19.24	-0.916748	0.5119019	
19.43	-0.7988281	0.760498	
19.62	-0.6562805	0.7461243	
19.81	0.1248779	0.7327271	
20.0	-0.02734375	0.8485718	
