# GHz S RI R 50 
!freq	ReS11	ImS11	
1.0	-0.5773315	-0.2536011	
1.19	-0.687439	0.0209351	
1.38	-0.6609497	0.298584	
1.57	-0.5332642	0.5386353	
1.76	-0.2727051	0.7516479	
1.95	0.0755615	0.8172607	
2.14	0.4053345	0.7471924	
2.33	0.6779785	0.5599976	
2.52	0.8264771	0.2796631	
2.71	0.9157715	-0.07531738	
2.9	0.8309937	-0.4102173	
3.09	0.6031494	-0.7072144	
3.28	0.2902222	-0.8586426	
3.47	-0.01330566	-0.9315796	
3.66	-0.3425903	-0.8518066	
3.85	-0.6598511	-0.6481934	
4.04	-0.8408203	-0.284729	
4.23	-0.9101563	0.0651855	
4.42	-0.8065186	0.4158936	
4.61	-0.5804443	0.7234497	
4.8	-0.2159424	0.9227905	
4.99	0.2144165	0.9504395	
5.18	0.6209106	0.7895508	
5.37	0.9478149	0.3919067	
5.56	1.045288	-0.03527832	
5.75	0.9470825	-0.4009399	
5.94	0.5845947	-0.7834473	
6.13	0.0423584	-0.972168	
6.32	-0.4089355	-0.8707275	
6.51	-0.7575073	-0.5287476	
6.7	-0.9472046	0.0136719	
6.89	0.842041	-0.5029907	
7.08	-0.8954468	0.12323	
7.27	-0.4502563	0.7540894	
7.46	0.5681152	0.6814575	
7.65	-0.1320801	-0.9080811	
7.84	-0.8282471	0.538269	
8.03	0.131897	0.9089966	
8.22	0.9373779	0.1622314	
8.41	0.1541748	-0.9925537	
8.6	-0.8871765	0.2442932	
8.79	0.151001	0.9209595	
8.98	0.8796387	0.3712158	
9.17	0.5067139	-0.8144836	
9.36	-0.7763367	-0.5513306	
9.55	-0.8914795	0.274231	
9.74	-0.2876587	0.9196167	
9.93	0.8169861	0.493927	
10.12	0.5284424	-0.8533325	
10.31	-0.7570496	-0.581543	
10.5	-0.770813	0.5254517	
10.69	-0.230835	0.9581909	
10.88	0.4489136	0.8809814	
11.07	0.9556885	0.1940308	
11.26	0.6434326	-0.7967529	
11.45	-0.7784729	-0.2915955	
11.64	0.4704285	0.6097107	
11.83	0.8619385	0.1565552	
12.02	0.8852539	-0.1988525	
12.21	0.7293091	-0.4990234	
12.4	0.1610718	-0.831665	
12.59	-0.274353	0.6664429	
12.78	0.6204529	-0.4075317	
12.97	0.2163086	-0.7924805	
13.16	-0.1843872	-0.8560181	
13.35	-0.5501709	-0.706604	
13.54	-0.5012207	-0.5345764	
13.73	-0.7932434	0.495575	
13.92	-0.3276062	0.7851563	
14.11	-0.1495361	-0.7420044	
14.3	-0.5447083	0.0811768	
14.49	-0.9249268	0.3478394	
14.68	-0.8012085	0.5278015	
14.87	-0.3530273	0.8104858	
15.06	0.2939148	0.7892456	
15.25	0.7953491	0.3012085	
15.44	0.5769653	-0.5910645	
15.63	-0.7045593	-0.3554077	
15.82	-0.4404297	0.5645752	
16.01	0.4766541	0.8110657	
16.2	-0.3832855	-0.3478546	
16.39	0.9005127	0.1331787	
16.58	0.2291565	0.4064484	
16.77	0.7993774	-0.08123779	
16.96	0.5826416	-0.5751953	
17.15	0.6913147	-0.2876892	
17.34	0.5544128	-0.5535278	
17.53	0.1990356	-0.7839966	
17.72	-0.09164429	-0.7154236	
17.91	-0.2207031	-0.7470398	
18.1	-0.665863	-0.8688354	
18.29	-0.9422607	-0.3312988	
18.48	-0.5322266	0.0302734	
18.67	-1.010986	-0.1477661	
18.86	-0.8919067	-0.03118896	
19.05	-0.1809387	0.5422974	
19.24	-0.9193115	0.5037842	
19.43	-0.7997437	0.7559204	
19.62	-0.6607056	0.7449951	
19.81	0.1340942	0.7279358	
20.0	-0.02905273	0.8431396	
