# GHz S RI R 50 
!freq	ReS11	ImS11	
1.0	-0.5768433	-0.2543945	
1.19	-0.6871338	0.0205688	
1.38	-0.6613159	0.2966309	
1.57	-0.5283813	0.5391846	
1.76	-0.2711182	0.7480469	
1.95	0.0768433	0.8081665	
2.14	0.4031372	0.748291	
2.33	0.6771851	0.557373	
2.52	0.8267822	0.2789307	
2.71	0.9169312	-0.07305908	
2.9	0.8320923	-0.4071045	
3.09	0.6071777	-0.7036743	
3.28	0.3017578	-0.854126	
3.47	-0.01672363	-0.9314575	
3.66	-0.3410034	-0.8431396	
3.85	-0.6603394	-0.6485596	
4.04	-0.8413696	-0.2869873	
4.23	-0.9105225	0.0650024	
4.42	-0.8049927	0.4071045	
4.61	-0.5760498	0.7213745	
4.8	-0.2123413	0.9196777	
4.99	0.2191162	0.9396973	
5.18	0.6252441	0.7801208	
5.37	0.9473267	0.3916626	
5.56	1.045288	-0.0355835	
5.75	0.9471436	-0.3979492	
5.94	0.5793152	-0.7878723	
6.13	0.0466919	-0.9814453	
6.32	-0.413269	-0.8695068	
6.51	-0.7536621	-0.5272827	
6.7	-0.9467773	0.0123901	
6.89	0.84198	-0.5001221	
7.08	-0.8948364	0.1231689	
7.27	-0.4551392	0.7466431	
7.46	0.56604	0.6810913	
7.65	-0.1348877	-0.9178467	
7.84	-0.8259277	0.5357666	
8.03	0.1420288	0.9067383	
8.22	0.9383545	0.1620483	
8.41	0.1522217	-0.9892578	
8.6	-0.8873901	0.2429504	
8.79	0.1474609	0.9143677	
8.98	0.8796997	0.3712769	
9.17	0.51297	-0.8069458	
9.36	-0.7748718	-0.5499268	
9.55	-0.8918457	0.2687988	
9.74	-0.2943726	0.9297485	
9.93	0.8163757	0.4945068	
10.12	0.5221558	-0.8534546	
10.31	-0.758606	-0.5798035	
10.5	-0.7735291	0.5280457	
10.69	-0.2347412	0.9610596	
10.88	0.4493408	0.8861694	
11.07	0.9554443	0.1940918	
11.26	0.6393127	-0.8045959	
11.45	-0.777832	-0.290802	
11.64	0.4645996	0.6053467	
11.83	0.8614502	0.1567383	
12.02	0.8886719	-0.1968384	
12.21	0.7304688	-0.5045166	
12.4	0.1605225	-0.8284302	
12.59	-0.2774353	0.6671753	
12.78	0.6220093	-0.4116211	
12.97	0.203186	-0.7943115	
13.16	-0.1841431	-0.8641968	
13.35	-0.5460815	-0.7047119	
13.54	-0.5111084	-0.5303955	
13.73	-0.7922363	0.4988708	
13.92	-0.3269043	0.7767029	
14.11	-0.1520386	-0.7376099	
14.3	-0.5441284	0.0823059	
14.49	-0.928009	0.3505554	
14.68	-0.8001404	0.5298157	
14.87	-0.3478699	0.811676	
15.06	0.291687	0.7849731	
15.25	0.7946167	0.3036194	
15.44	0.5823364	-0.5901794	
15.63	-0.7018127	-0.3582764	
15.82	-0.4428101	0.5644226	
16.01	0.4764709	0.8127747	
16.2	-0.3824768	-0.3492737	
16.39	0.9000244	0.1350708	
16.58	0.2280273	0.4013062	
16.77	0.800354	-0.07940674	
16.96	0.591156	-0.5792847	
17.15	0.6931458	-0.2868042	
17.34	0.5565186	-0.5515137	
17.53	0.2037354	-0.7778625	
17.72	-0.1008301	-0.7168884	
17.91	-0.2164917	-0.7431335	
18.1	-0.671051	-0.8612976	
18.29	-0.9447021	-0.3342285	
18.48	-0.5328369	0.030304	
18.67	-1.011047	-0.1495972	
18.86	-0.8912964	-0.03167725	
19.05	-0.1849365	0.5415649	
19.24	-0.9169312	0.5087891	
19.43	-0.7993164	0.767395	
19.62	-0.6589355	0.7400513	
19.81	0.1280518	0.7234192	
20.0	-0.02056885	0.8447876	
