# GHz S RI R 50 
!freq	ReS11	ImS11	
1.0	-0.5772705	-0.2539063	
1.19	-0.6872559	0.0209961	
1.38	-0.6619263	0.2998657	
1.57	-0.5282288	0.537384	
1.76	-0.2683716	0.7491455	
1.95	0.0802612	0.81073	
2.14	0.4046021	0.7485352	
2.33	0.6760864	0.5617676	
2.52	0.8261108	0.2789917	
2.71	0.9156494	-0.07373047	
2.9	0.8308716	-0.4070435	
3.09	0.6047363	-0.7089844	
3.28	0.3002319	-0.8515015	
3.47	-0.01593018	-0.9264526	
3.66	-0.3410645	-0.8413696	
3.85	-0.6611938	-0.6494751	
4.04	-0.8424072	-0.286438	
4.23	-0.9108887	0.0645752	
4.42	-0.8000488	0.4107056	
4.61	-0.5800171	0.7231445	
4.8	-0.2137451	0.9213867	
4.99	0.2129517	0.9343872	
5.18	0.6292114	0.7823486	
5.37	0.9481812	0.3918457	
5.56	1.045227	-0.03485107	
5.75	0.947998	-0.3983765	
5.94	0.5776978	-0.7873535	
6.13	0.0480957	-0.9696045	
6.32	-0.4080811	-0.8686523	
6.51	-0.7560425	-0.5288086	
6.7	-0.9483643	0.0125122	
6.89	0.8468018	-0.5020752	
7.08	-0.8959961	0.1235962	
7.27	-0.4498291	0.7543945	
7.46	0.5608215	0.6776733	
7.65	-0.1383667	-0.9143677	
7.84	-0.8284912	0.5404663	
8.03	0.138916	0.9199829	
8.22	0.9387207	0.1622314	
8.41	0.1577148	-0.9867554	
8.6	-0.8905945	0.2432556	
8.79	0.1463623	0.9234619	
8.98	0.8778076	0.3744202	
9.17	0.5113525	-0.81604	
9.36	-0.7755737	-0.5492249	
9.55	-0.8885498	0.2745361	
9.74	-0.2835083	0.9099731	
9.93	0.8154297	0.4936523	
10.12	0.5299683	-0.8516235	
10.31	-0.7604675	-0.5768433	
10.5	-0.7720337	0.5289917	
10.69	-0.2303467	0.9649048	
10.88	0.4500732	0.8849487	
11.07	0.9567261	0.1947632	
11.26	0.6425171	-0.8061218	
11.45	-0.7770386	-0.2928162	
11.64	0.4633484	0.6069336	
11.83	0.8617554	0.1582642	
12.02	0.8866577	-0.1976318	
12.21	0.7309875	-0.5031128	
12.4	0.152771	-0.8287964	
12.59	-0.2759399	0.6631165	
12.78	0.6245422	-0.4119568	
12.97	0.2144775	-0.789978	
13.16	-0.184021	-0.8560791	
13.35	-0.5512695	-0.6965332	
13.54	-0.5040894	-0.5325012	
13.73	-0.7900391	0.495575	
13.92	-0.3240051	0.7798767	
14.11	-0.1543579	-0.7371216	
14.3	-0.5446167	0.0820007	
14.49	-0.9264526	0.3484192	
14.68	-0.8005371	0.5294495	
14.87	-0.346283	0.806488	
15.06	0.2862854	0.7891235	
15.25	0.7947388	0.3008118	
15.44	0.5835876	-0.5830078	
15.63	-0.7019348	-0.3587952	
15.82	-0.4396667	0.5647583	
16.01	0.4737244	0.8093567	
16.2	-0.3829346	-0.348938	
16.39	0.9002075	0.1348877	
16.58	0.2236633	0.4048615	
16.77	0.7992859	-0.08132935	
16.96	0.5843201	-0.5777283	
17.15	0.6910706	-0.2840576	
17.34	0.5570984	-0.5515442	
17.53	0.1990051	-0.7848816	
17.72	-0.1025085	-0.7141724	
17.91	-0.2225037	-0.7457275	
18.1	-0.6733093	-0.8670959	
18.29	-0.9429321	-0.3330688	
18.48	-0.5327148	0.0300598	
18.67	-1.01123	-0.1496582	
18.86	-0.8916626	-0.03161621	
19.05	-0.1824341	0.5415039	
19.24	-0.9142456	0.5076904	
19.43	-0.7994385	0.7587891	
19.62	-0.6579895	0.7442932	
19.81	0.127594	0.7271118	
20.0	-0.02478027	0.8483276	
