# GHz S RI R 50 
!freq	ReS11	ImS11	
1.0	-0.5786743	-0.2542114	
1.19	-0.6878662	0.020752	
1.38	-0.6641846	0.2975464	
1.57	-0.5287476	0.5361938	
1.76	-0.2713623	0.7526245	
1.95	0.0759888	0.8101807	
2.14	0.4029541	0.7460327	
2.33	0.6743164	0.5639038	
2.52	0.8265991	0.2793579	
2.71	0.9155273	-0.07299805	
2.9	0.8278809	-0.4055176	
3.09	0.6116943	-0.7035522	
3.28	0.2963867	-0.8554077	
3.47	-0.007202148	-0.9262085	
3.66	-0.3424072	-0.8400269	
3.85	-0.6583862	-0.6474609	
4.04	-0.8419189	-0.2846069	
4.23	-0.9108276	0.0647583	
4.42	-0.802063	0.4105835	
4.61	-0.5761108	0.7259521	
4.8	-0.2133789	0.9175415	
4.99	0.2193604	0.9473267	
5.18	0.6260376	0.7928772	
5.37	0.9453125	0.3912964	
5.56	1.045105	-0.03540039	
5.75	0.9477539	-0.3968506	
5.94	0.5834961	-0.7858276	
6.13	0.0424194	-0.9728394	
6.32	-0.4106445	-0.8602905	
6.51	-0.7571411	-0.5299072	
6.7	-0.9471436	0.0139771	
6.89	0.8447266	-0.5020142	
7.08	-0.8942871	0.1229858	
7.27	-0.4625244	0.7426147	
7.46	0.5639038	0.6768799	
7.65	-0.1387939	-0.9147949	
7.84	-0.8224487	0.5446777	
8.03	0.1342773	0.9100342	
8.22	0.9382935	0.1622314	
8.41	0.149292	-0.9984131	
8.6	-0.8873291	0.2450867	
8.79	0.144104	0.9147339	
8.98	0.8788452	0.3730469	
9.17	0.5135498	-0.8131714	
9.36	-0.7757263	-0.5515747	
9.55	-0.8905029	0.2720337	
9.74	-0.2858276	0.9196167	
9.93	0.8144836	0.4938354	
10.12	0.526001	-0.8522339	
10.31	-0.757782	-0.5793457	
10.5	-0.7696838	0.5303955	
10.69	-0.2318726	0.9667358	
10.88	0.4547729	0.8874512	
11.07	0.9573364	0.1954346	
11.26	0.6440125	-0.8053589	
11.45	-0.7794189	-0.2914734	
11.64	0.4632263	0.609375	
11.83	0.8627319	0.1577148	
12.02	0.8847656	-0.1967773	
12.21	0.7294312	-0.5030518	
12.4	0.166748	-0.8268433	
12.59	-0.2754517	0.6642151	
12.78	0.6205139	-0.4105225	
12.97	0.2093506	-0.7908325	
13.16	-0.1812744	-0.857605	
13.35	-0.5491333	-0.7008667	
13.54	-0.5038757	-0.5335388	
13.73	-0.79245	0.4930115	
13.92	-0.3304749	0.7804565	
14.11	-0.1553345	-0.7385864	
14.3	-0.5441895	0.0810852	
14.49	-0.9267883	0.3485413	
14.68	-0.800354	0.5307007	
14.87	-0.3434448	0.8088684	
15.06	0.2923584	0.7892151	
15.25	0.7943726	0.3021851	
15.44	0.5818787	-0.5888062	
15.63	-0.7006531	-0.3576355	
15.82	-0.4415894	0.5687561	
16.01	0.4770203	0.8102112	
16.2	-0.3808441	-0.3495178	
16.39	0.8995361	0.1347046	
16.58	0.2287445	0.4045563	
16.77	0.7997131	-0.08016968	
16.96	0.580719	-0.5792847	
17.15	0.6900024	-0.2879639	
17.34	0.5524902	-0.553833	
17.53	0.2059631	-0.7795715	
17.72	-0.1011047	-0.7207336	
17.91	-0.2191467	-0.7436829	
18.1	-0.6681519	-0.8656616	
18.29	-0.9456177	-0.3305664	
18.48	-0.5326538	0.0293884	
18.67	-1.011047	-0.1488647	
18.86	-0.8922119	-0.03210449	
19.05	-0.1838989	0.537262	
19.24	-0.916687	0.5062256	
19.43	-0.8087158	0.7629395	
19.62	-0.6582642	0.7477417	
19.81	0.131897	0.7263184	
20.0	-0.02648926	0.8510742	
