# GHz S RI R 50 
!freq	ReS11	ImS11	
1.0	-0.576416	-0.2545166	
1.19	-0.6875	0.0209961	
1.38	-0.6618042	0.2972412	
1.57	-0.5303345	0.5350952	
1.76	-0.2696533	0.7493896	
1.95	0.0744019	0.8161011	
2.14	0.4018555	0.7449951	
2.33	0.6766357	0.5598145	
2.52	0.8262939	0.2811279	
2.71	0.9174805	-0.07342529	
2.9	0.8305054	-0.4053345	
3.09	0.6113586	-0.7053223	
3.28	0.3064575	-0.8581543	
3.47	-0.01000977	-0.9234619	
3.66	-0.3409424	-0.8411255	
3.85	-0.6554565	-0.6464233	
4.04	-0.8412476	-0.2838745	
4.23	-0.90979	0.0645142	
4.42	-0.8053589	0.4111328	
4.61	-0.5788574	0.7240601	
4.8	-0.2085571	0.9244995	
4.99	0.2250366	0.9386597	
5.18	0.6268311	0.7888184	
5.37	0.947998	0.3918457	
5.56	1.045532	-0.03656006	
5.75	0.9474487	-0.3994141	
5.94	0.5826416	-0.7841797	
6.13	0.0407104	-0.9656372	
6.32	-0.4093628	-0.866333	
6.51	-0.7559204	-0.5309448	
6.7	-0.9476318	0.0133667	
6.89	0.8413086	-0.5025024	
7.08	-0.8943481	0.1226196	
7.27	-0.4492798	0.7537231	
7.46	0.565979	0.6784668	
7.65	-0.1385498	-0.9092407	
7.84	-0.8217773	0.5387573	
8.03	0.138916	0.9176025	
8.22	0.9387207	0.161499	
8.41	0.1468506	-0.9907837	
8.6	-0.8881226	0.2478027	
8.79	0.1470337	0.9118652	
8.98	0.8794556	0.3713989	
9.17	0.5046997	-0.8163757	
9.36	-0.777771	-0.5510254	
9.55	-0.8892212	0.2735596	
9.74	-0.286438	0.9118652	
9.93	0.8171387	0.4958496	
10.12	0.5231323	-0.8526001	
10.31	-0.7619019	-0.5776672	
10.5	-0.7677612	0.5279846	
10.69	-0.2303467	0.9584961	
10.88	0.4547729	0.8775024	
11.07	0.9557495	0.1943359	
11.26	0.6429138	-0.8013611	
11.45	-0.7763062	-0.2909241	
11.64	0.4619446	0.6056213	
11.83	0.8590698	0.1577148	
12.02	0.8856201	-0.1929932	
12.21	0.730835	-0.496582	
12.4	0.1578369	-0.8217163	
12.59	-0.2695007	0.6665649	
12.78	0.6277466	-0.404541	
12.97	0.2151489	-0.7949219	
13.16	-0.1860352	-0.8600464	
13.35	-0.550293	-0.7034302	
13.54	-0.5038147	-0.5322876	
13.73	-0.791748	0.5009766	
13.92	-0.3340149	0.7837524	
14.11	-0.1520996	-0.7455139	
14.3	-0.5416565	0.0758667	
14.49	-0.9272156	0.3540955	
14.68	-0.7972717	0.5315552	
14.87	-0.3435669	0.8026123	
15.06	0.2932129	0.785553	
15.25	0.7943726	0.3018494	
15.44	0.5777893	-0.5912476	
15.63	-0.7057495	-0.3521423	
15.82	-0.4338684	0.5729065	
16.01	0.4737549	0.8105774	
16.2	-0.3807831	-0.344223	
16.39	0.8995972	0.1331787	
16.58	0.2268066	0.3988037	
16.77	0.7979431	-0.08050537	
16.96	0.5907898	-0.5730896	
17.15	0.6905212	-0.2869263	
17.34	0.5516663	-0.549469	
17.53	0.2033081	-0.7810669	
17.72	-0.1011047	-0.7171021	
17.91	-0.2168884	-0.7526855	
18.1	-0.673584	-0.8658447	
18.29	-0.9417725	-0.3308105	
18.48	-0.5342712	0.0209961	
18.67	-1.01062	-0.1483154	
18.86	-0.890686	-0.02947998	
19.05	-0.1802063	0.5400085	
19.24	-0.9161987	0.5075684	
19.43	-0.8025513	0.7594604	
19.62	-0.6668091	0.7401733	
19.81	0.1254272	0.7264709	
20.0	-0.02294922	0.8455811	
