# GHz S RI R 50 
!freq	ReS11	ImS11	
1.0	-0.5761719	-0.2546997	
1.19	-0.687561	0.020874	
1.38	-0.6622314	0.3001099	
1.57	-0.527832	0.5360107	
1.76	-0.270752	0.7478027	
1.95	0.0756226	0.8154297	
2.14	0.3936768	0.7542725	
2.33	0.6735229	0.5615845	
2.52	0.8257446	0.2804565	
2.71	0.9175415	-0.07391357	
2.9	0.8331299	-0.4087524	
3.09	0.6056519	-0.7085571	
3.28	0.2979126	-0.8569336	
3.47	-0.01525879	-0.9373779	
3.66	-0.3360596	-0.8518677	
3.85	-0.6621704	-0.651123	
4.04	-0.8417969	-0.2866211	
4.23	-0.9108276	0.0661011	
4.42	-0.7966309	0.4102173	
4.61	-0.5776978	0.7246094	
4.8	-0.2088013	0.9208984	
4.99	0.2240601	0.942749	
5.18	0.6287842	0.7863159	
5.37	0.9475098	0.3909302	
5.56	1.04541	-0.03546143	
5.75	0.9491577	-0.3952637	
5.94	0.5789795	-0.7792358	
6.13	0.0463867	-0.9696655	
6.32	-0.411438	-0.8659058	
6.51	-0.7525635	-0.5281372	
6.7	-0.9472656	0.0125122	
6.89	0.8447266	-0.50354	
7.08	-0.8950806	0.1227417	
7.27	-0.4457397	0.7507324	
7.46	0.5664368	0.6820374	
7.65	-0.1342773	-0.9122314	
7.84	-0.8303833	0.5396729	
8.03	0.1437988	0.9077148	
8.22	0.9385376	0.1616211	
8.41	0.1499634	-0.993103	
8.6	-0.8865356	0.2440186	
8.79	0.1433716	0.9159546	
8.98	0.8793335	0.3734131	
9.17	0.5060425	-0.8060913	
9.36	-0.7763672	-0.5474548	
9.55	-0.8899536	0.2702026	
9.74	-0.2940674	0.9255371	
9.93	0.8132324	0.4949341	
10.12	0.5319214	-0.8452148	
10.31	-0.7581787	-0.5806274	
10.5	-0.7701111	0.5271301	
10.69	-0.2310791	0.9603882	
10.88	0.4509888	0.8746338	
11.07	0.9562988	0.1958618	
11.26	0.6404724	-0.8082886	
11.45	-0.7798462	-0.290741	
11.64	0.4624634	0.6088257	
11.83	0.8623047	0.1581421	
12.02	0.885376	-0.1984863	
12.21	0.7318726	-0.5002441	
12.4	0.1641846	-0.8288574	
12.59	-0.2733765	0.6672974	
12.78	0.6235352	-0.4121399	
12.97	0.2150879	-0.7955322	
13.16	-0.1806641	-0.8572388	
13.35	-0.5469971	-0.7024536	
13.54	-0.5027161	-0.5338745	
13.73	-0.7878113	0.4902649	
13.92	-0.3346558	0.7732544	
14.11	-0.1516418	-0.7367554	
14.3	-0.5447083	0.0815735	
14.49	-0.9236145	0.3510132	
14.68	-0.8023071	0.5279541	
14.87	-0.3382568	0.8105164	
15.06	0.2907715	0.7901611	
15.25	0.7954712	0.3006287	
15.44	0.5766602	-0.5844421	
15.63	-0.7043152	-0.3548584	
15.82	-0.4418945	0.5635986	
16.01	0.4742432	0.8147888	
16.2	-0.384491	-0.3481293	
16.39	0.8992004	0.1342163	
16.58	0.2306366	0.4020691	
16.77	0.8014221	-0.07992554	
16.96	0.5906372	-0.5753174	
17.15	0.6918945	-0.2843018	
17.34	0.5498352	-0.5493164	
17.53	0.2017517	-0.7865601	
17.72	-0.09906006	-0.7128906	
17.91	-0.2187195	-0.7471008	
18.1	-0.6670532	-0.8692627	
18.29	-0.9434204	-0.3317871	
18.48	-0.5324402	0.0294189	
18.67	-1.010681	-0.1491089	
18.86	-0.8914795	-0.03161621	
19.05	-0.1777344	0.5428772	
19.24	-0.9176025	0.5146484	
19.43	-0.8052368	0.7627563	
19.62	-0.6604004	0.7446289	
19.81	0.1303406	0.7220154	
20.0	-0.02154541	0.8480835	
