# GHz S RI R 50 
!freq	ReS11	ImS11	
1.0	-0.578064	-0.2556763	
1.19	-0.6876221	0.020874	
1.38	-0.6611938	0.2993774	
1.57	-0.5302429	0.5394897	
1.76	-0.2688599	0.7472534	
1.95	0.0757446	0.8120728	
2.14	0.4026489	0.7487793	
2.33	0.6738281	0.5574951	
2.52	0.8264771	0.2793579	
2.71	0.9163818	-0.0725708	
2.9	0.8283691	-0.4058838	
3.09	0.6013794	-0.7025757	
3.28	0.2999268	-0.8595581	
3.47	-0.01599121	-0.9301147	
3.66	-0.3406372	-0.8474731	
3.85	-0.6612549	-0.6498413	
4.04	-0.8433228	-0.2858276	
4.23	-0.9110718	0.0647583	
4.42	-0.8016968	0.4106445	
4.61	-0.5760498	0.7205811	
4.8	-0.21698	0.9198608	
4.99	0.2211914	0.9368286	
5.18	0.6261597	0.7814941	
5.37	0.9481201	0.3920898	
5.56	1.045532	-0.03491211	
5.75	0.9433594	-0.4002686	
5.94	0.5783081	-0.7869263	
6.13	0.0463257	-0.977478	
6.32	-0.4122314	-0.8723755	
6.51	-0.7567749	-0.5294189	
6.7	-0.9471436	0.0130005	
6.89	0.8414307	-0.5006104	
7.08	-0.8954468	0.1235352	
7.27	-0.4467773	0.7485352	
7.46	0.5628357	0.6821594	
7.65	-0.1344604	-0.9108887	
7.84	-0.8233643	0.539917	
8.03	0.1403198	0.9192505	
8.22	0.937561	0.1621704	
8.41	0.1516724	-0.9933472	
8.6	-0.8886719	0.2449646	
8.79	0.1455078	0.916626	
8.98	0.8778381	0.3738708	
9.17	0.509613	-0.8096008	
9.36	-0.7730103	-0.5518799	
9.55	-0.8898926	0.2720337	
9.74	-0.2952271	0.9124146	
9.93	0.8171997	0.494812	
10.12	0.5274658	-0.850708	
10.31	-0.7583008	-0.5791626	
10.5	-0.7697449	0.5223694	
10.69	-0.2400513	0.958313	
10.88	0.454834	0.8832397	
11.07	0.9553833	0.1954956	
11.26	0.6454773	-0.8033752	
11.45	-0.7771301	-0.290863	
11.64	0.4662781	0.6057739	
11.83	0.8621216	0.1569214	
12.02	0.8884277	-0.1976318	
12.21	0.732666	-0.5009766	
12.4	0.159668	-0.8306274	
12.59	-0.2715454	0.664032	
12.78	0.6206665	-0.4096069	
12.97	0.2111206	-0.7940674	
13.16	-0.1836548	-0.8563232	
13.35	-0.552002	-0.7033081	
13.54	-0.5033264	-0.5307312	
13.73	-0.7892456	0.4981689	
13.92	-0.3286743	0.778595	
14.11	-0.1459961	-0.7403564	
14.3	-0.54422	0.0819397	
14.49	-0.9300842	0.3495789	
14.68	-0.8017273	0.5250244	
14.87	-0.3565369	0.8052673	
15.06	0.2864075	0.788269	
15.25	0.795166	0.3023376	
15.44	0.5755615	-0.5926208	
15.63	-0.7044983	-0.3568115	
15.82	-0.4377441	0.5657959	
16.01	0.4759216	0.8105469	
16.2	-0.3807526	-0.350647	
16.39	0.8999023	0.1348877	
16.58	0.226059	0.4029236	
16.77	0.8004761	-0.08013916	
16.96	0.5869446	-0.5778809	
17.15	0.6922607	-0.2843628	
17.34	0.5529785	-0.5557251	
17.53	0.1985474	-0.7847595	
17.72	-0.1005554	-0.7153625	
17.91	-0.2194214	-0.7459106	
18.1	-0.6710815	-0.8695374	
18.29	-0.9434814	-0.3328247	
18.48	-0.5324402	0.0308533	
18.67	-1.011475	-0.1497803	
18.86	-0.8916626	-0.03198242	
19.05	-0.1795654	0.5388489	
19.24	-0.9127197	0.5026855	
19.43	-0.802124	0.7587891	
19.62	-0.6601868	0.7429199	
19.81	0.1304321	0.7293396	
20.0	-0.02062988	0.845459	
