# GHz S RI R 50 
!freq	ReS11	ImS11	
1.0	-0.5791626	-0.2554321	
1.19	-0.6871948	0.020874	
1.38	-0.6608887	0.2976074	
1.57	-0.5301514	0.5378418	
1.76	-0.2693481	0.75	
1.95	0.0705566	0.8204346	
2.14	0.4046021	0.7503052	
2.33	0.6733398	0.5618286	
2.52	0.8251343	0.2789307	
2.71	0.9157104	-0.07470703	
2.9	0.8295898	-0.4094238	
3.09	0.6026001	-0.706665	
3.28	0.3067627	-0.8585205	
3.47	-0.01239014	-0.9385376	
3.66	-0.3347168	-0.8549194	
3.85	-0.6586304	-0.6524658	
4.04	-0.8401489	-0.2850342	
4.23	-0.9116821	0.0646362	
4.42	-0.8012085	0.4137573	
4.61	-0.5838623	0.7254639	
4.8	-0.2160034	0.9160156	
4.99	0.2211914	0.9509277	
5.18	0.6257324	0.7860718	
5.37	0.9467773	0.3901367	
5.56	1.045715	-0.0368042	
5.75	0.9459839	-0.3951416	
5.94	0.5838623	-0.7815552	
6.13	0.0465088	-0.9691162	
6.32	-0.4108276	-0.8728027	
6.51	-0.7573242	-0.527771	
6.7	-0.9472656	0.0137329	
6.89	0.8460083	-0.505249	
7.08	-0.8949585	0.1225586	
7.27	-0.4553833	0.7526245	
7.46	0.5665588	0.6777344	
7.65	-0.1333008	-0.9093628	
7.84	-0.8297119	0.5466309	
8.03	0.138855	0.9057007	
8.22	0.9386597	0.1610718	
8.41	0.1575928	-0.9854736	
8.6	-0.8865051	0.2460632	
8.79	0.1495361	0.9069824	
8.98	0.8807373	0.3728638	
9.17	0.5060425	-0.8115234	
9.36	-0.7740173	-0.5470276	
9.55	-0.8897705	0.2737427	
9.74	-0.2811279	0.9204102	
9.93	0.8159485	0.4964905	
10.12	0.5177612	-0.8521729	
10.31	-0.7571106	-0.5775146	
10.5	-0.7673035	0.5245667	
10.69	-0.2216797	0.9594116	
10.88	0.4555054	0.8800049	
11.07	0.9544067	0.1921387	
11.26	0.6400146	-0.7993164	
11.45	-0.7656555	-0.2891235	
11.64	0.4514771	0.5964661	
11.83	0.8514404	0.1600952	
12.02	0.8835449	-0.1928101	
12.21	0.7321777	-0.4956055	
12.4	0.15448	-0.8191528	
12.59	-0.2798157	0.6680603	
12.78	0.6408691	-0.3878174	
12.97	0.2244873	-0.7989502	
13.16	-0.1895142	-0.8635254	
13.35	-0.5543823	-0.7032471	
13.54	-0.5070496	-0.5392456	
13.73	-0.7904663	0.5033264	
13.92	-0.3231506	0.7825928	
14.11	-0.1592102	-0.7512512	
14.3	-0.5295105	0.0656128	
14.49	-0.9305725	0.3534851	
14.68	-0.802063	0.5310974	
14.87	-0.3521118	0.8076172	
15.06	0.2937317	0.7880249	
15.25	0.7978516	0.2997742	
15.44	0.5722656	-0.600769	
15.63	-0.7129211	-0.3388672	
15.82	-0.4356689	0.5729675	
16.01	0.4761658	0.8070068	
16.2	-0.3844299	-0.3355255	
16.39	0.8994141	0.1317139	
16.58	0.229126	0.3944702	
16.77	0.7947388	-0.08200073	
16.96	0.5858154	-0.5766602	
17.15	0.6877136	-0.2860413	
17.34	0.5476685	-0.5527344	
17.53	0.2044678	-0.77771	
17.72	-0.09091187	-0.7228394	
17.91	-0.2234497	-0.7660828	
18.1	-0.67276	-0.8616028	
18.29	-0.9382935	-0.3305054	
18.48	-0.5469666	0.0031128	
18.67	-1.01001	-0.1474609	
18.86	-0.8883362	-0.02401733	
19.05	-0.1816711	0.552063	
19.24	-0.9171143	0.5089111	
19.43	-0.8032227	0.7597046	
19.62	-0.6606445	0.7449341	
19.81	0.1201172	0.7278442	
20.0	-0.02203369	0.8545532	
