# GHz S RI R 50 
!freq	ReS11	ImS11	
1.0	-0.5771484	-0.2554932	
1.19	-0.687561	0.0204468	
1.38	-0.6639404	0.2974854	
1.57	-0.5314331	0.5359497	
1.76	-0.274353	0.7540894	
1.95	0.0765991	0.8078003	
2.14	0.4036865	0.7501221	
2.33	0.6732788	0.5626831	
2.52	0.8255615	0.2792969	
2.71	0.9162598	-0.07409668	
2.9	0.8305054	-0.4087524	
3.09	0.6083984	-0.7045898	
3.28	0.3053589	-0.852417	
3.47	-0.01385498	-0.9318848	
3.66	-0.3406372	-0.8477173	
3.85	-0.6583862	-0.6469727	
4.04	-0.8411865	-0.2866211	
4.23	-0.9119263	0.0650024	
4.42	-0.8060303	0.4122314	
4.61	-0.5810547	0.7261353	
4.8	-0.2151489	0.9171143	
4.99	0.2207642	0.9346313	
5.18	0.6218872	0.7790527	
5.37	0.9472656	0.3921509	
5.56	1.045959	-0.03509521	
5.75	0.9468994	-0.399353	
5.94	0.5805664	-0.7857056	
6.13	0.0426636	-0.9703979	
6.32	-0.4130249	-0.8733521	
6.51	-0.7547302	-0.5320129	
6.7	-0.9475708	0.0131836	
6.89	0.847229	-0.5072632	
7.08	-0.8952637	0.1217651	
7.27	-0.4509888	0.7501221	
7.46	0.5652161	0.6813049	
7.65	-0.1281128	-0.9074707	
7.84	-0.828064	0.5339966	
8.03	0.1426392	0.916687	
8.22	0.9372559	0.1616211	
8.41	0.1506348	-0.9936523	
8.6	-0.8861389	0.243866	
8.79	0.1467285	0.9153442	
8.98	0.880188	0.3728027	
9.17	0.5082703	-0.8114929	
9.36	-0.7769775	-0.5445557	
9.55	-0.8869019	0.2672119	
9.74	-0.2875366	0.9216919	
9.93	0.8129883	0.4958496	
10.12	0.522522	-0.8538818	
10.31	-0.7572021	-0.5764771	
10.5	-0.7703857	0.5297546	
10.69	-0.2268677	0.9584961	
10.88	0.4525146	0.8799438	
11.07	0.954895	0.194397	
11.26	0.6425781	-0.7991333	
11.45	-0.7776489	-0.2915649	
11.64	0.4669495	0.6028442	
11.83	0.8614502	0.15802	
12.02	0.8878174	-0.196106	
12.21	0.7366028	-0.4955139	
12.4	0.1633911	-0.8291016	
12.59	-0.2747192	0.6629639	
12.78	0.6252136	-0.4067688	
12.97	0.2127075	-0.7941895	
13.16	-0.1844482	-0.8630981	
13.35	-0.550354	-0.7081299	
13.54	-0.5030212	-0.5296021	
13.73	-0.7928162	0.4976196	
13.92	-0.3295593	0.7766113	
14.11	-0.1593933	-0.7385559	
14.3	-0.5444641	0.0795898	
14.49	-0.9307556	0.3490601	
14.68	-0.7990112	0.5256958	
14.87	-0.3460388	0.8126831	
15.06	0.2905273	0.7918701	
15.25	0.7944336	0.3022766	
15.44	0.5836182	-0.5879517	
15.63	-0.7058716	-0.3563232	
15.82	-0.4384155	0.566803	
16.01	0.4753723	0.8101196	
16.2	-0.3836365	-0.3470154	
16.39	0.8995056	0.1345215	
16.58	0.2286682	0.4035492	
16.77	0.7998047	-0.08053589	
16.96	0.5869141	-0.5777283	
17.15	0.6892395	-0.287384	
17.34	0.5516968	-0.5509338	
17.53	0.2000732	-0.7856445	
17.72	-0.1036072	-0.7207947	
17.91	-0.2183533	-0.7438965	
18.1	-0.6712646	-0.864624	
18.29	-0.9447632	-0.331665	
18.48	-0.5316162	0.0299988	
18.67	-1.010803	-0.1488647	
18.86	-0.8914185	-0.03106689	
19.05	-0.1775818	0.5409241	
19.24	-0.9133301	0.5079956	
19.43	-0.798645	0.7579956	
19.62	-0.6604614	0.747345	
19.81	0.1260986	0.7227783	
20.0	-0.02459717	0.8467407	
