# GHz S RI R 50 
!freq	ReS11	ImS11	
1.0	-0.5767212	-0.2560425	
1.19	-0.6876221	0.0210571	
1.38	-0.6595459	0.2982788	
1.57	-0.5278931	0.5397339	
1.76	-0.272583	0.7496338	
1.95	0.0748901	0.8165283	
2.14	0.4025269	0.7473755	
2.33	0.6745605	0.5588989	
2.52	0.8265991	0.2784424	
2.71	0.9173584	-0.0736084	
2.9	0.8327637	-0.4078369	
3.09	0.6094971	-0.7094116	
3.28	0.3043823	-0.861145	
3.47	-0.00994873	-0.9276123	
3.66	-0.3383789	-0.8491821	
3.85	-0.6643066	-0.6522217	
4.04	-0.8411865	-0.2854614	
4.23	-0.9110718	0.0647583	
4.42	-0.8064575	0.4094238	
4.61	-0.5814209	0.725708	
4.8	-0.2208252	0.9120483	
4.99	0.2139282	0.9522705	
5.18	0.6281738	0.7873535	
5.37	0.9476318	0.3912964	
5.56	1.045288	-0.03570557	
5.75	0.9464111	-0.3979492	
5.94	0.579834	-0.7886963	
6.13	0.0415649	-0.9682007	
6.32	-0.4133301	-0.8695679	
6.51	-0.7568359	-0.5281372	
6.7	-0.9478149	0.0135498	
6.89	0.8453979	-0.505249	
7.08	-0.8953247	0.1213379	
7.27	-0.4561768	0.7511597	
7.46	0.5657043	0.6787415	
7.65	-0.1345825	-0.913208	
7.84	-0.8237915	0.5415039	
8.03	0.137146	0.9103394	
8.22	0.9381104	0.161377	
8.41	0.1470337	-0.9957886	
8.6	-0.8850708	0.2447205	
8.79	0.1478882	0.9204712	
8.98	0.8786621	0.3739624	
9.17	0.5040894	-0.807251	
9.36	-0.7773438	-0.5465393	
9.55	-0.8916016	0.2706299	
9.74	-0.2928467	0.918396	
9.93	0.8154297	0.4928894	
10.12	0.526062	-0.8566284	
10.31	-0.757843	-0.5782471	
10.5	-0.7705078	0.5238342	
10.69	-0.2329102	0.9523926	
10.88	0.4528809	0.8831787	
11.07	0.9553833	0.1939087	
11.26	0.6420898	-0.802063	
11.45	-0.7752075	-0.2892151	
11.64	0.4622498	0.603241	
11.83	0.8589478	0.1574097	
12.02	0.8867798	-0.1952515	
12.21	0.7329712	-0.4994507	
12.4	0.1589355	-0.8262939	
12.59	-0.2774353	0.6651611	
12.78	0.6243896	-0.4060669	
12.97	0.2188721	-0.7925415	
13.16	-0.1846313	-0.8604126	
13.35	-0.5500488	-0.6998291	
13.54	-0.5055542	-0.5349121	
13.73	-0.7886963	0.4956055	
13.92	-0.3311157	0.7858276	
14.11	-0.1560974	-0.7388	
14.3	-0.5417786	0.0760803	
14.49	-0.9251404	0.3491821	
14.68	-0.7987671	0.5280762	
14.87	-0.3484802	0.8043213	
15.06	0.2930908	0.7868958	
15.25	0.7936096	0.3012695	
15.44	0.5793457	-0.5857849	
15.63	-0.70401	-0.352478	
15.82	-0.4393311	0.5736389	
16.01	0.4714966	0.8086243	
16.2	-0.3813934	-0.3447113	
16.39	0.9000854	0.1335449	
16.58	0.229599	0.4028168	
16.77	0.7977295	-0.08126831	
16.96	0.58255	-0.5779419	
17.15	0.6896362	-0.2846985	
17.34	0.5489502	-0.5530396	
17.53	0.2067871	-0.7865906	
17.72	-0.09231567	-0.7186279	
17.91	-0.2165222	-0.747406	
18.1	-0.6734009	-0.8653259	
18.29	-0.9423218	-0.3306274	
18.48	-0.534668	0.0227966	
18.67	-1.011414	-0.1481934	
18.86	-0.8910522	-0.02941895	
19.05	-0.1813049	0.5404663	
19.24	-0.9165649	0.506897	
19.43	-0.7997437	0.7572021	
19.62	-0.6604004	0.7417603	
19.81	0.129425	0.7275391	
20.0	-0.02038574	0.8458862	
