# GHz S RI R 50 
!freq	ReS11	ImS11	
1.0	-0.5785522	-0.25354	
1.19	-0.6876831	0.020813	
1.38	-0.6602173	0.2991333	
1.57	-0.531311	0.5360718	
1.76	-0.2694702	0.7521973	
1.95	0.0813599	0.8134155	
2.14	0.4070435	0.7454224	
2.33	0.6772461	0.5617676	
2.52	0.8269043	0.2802124	
2.71	0.9170532	-0.07385254	
2.9	0.8290405	-0.40802	
3.09	0.6080933	-0.7105713	
3.28	0.3024292	-0.8597412	
3.47	-0.01403809	-0.9345703	
3.66	-0.3395996	-0.8552856	
3.85	-0.659729	-0.6516724	
4.04	-0.8422241	-0.2868652	
4.23	-0.9113159	0.0639648	
4.42	-0.8014526	0.4086914	
4.61	-0.5765381	0.7213135	
4.8	-0.2155762	0.9191895	
4.99	0.2133789	0.9491577	
5.18	0.625885	0.7805176	
5.37	0.9463501	0.3928223	
5.56	1.045227	-0.03515625	
5.75	0.9492798	-0.3970947	
5.94	0.5785522	-0.7850342	
6.13	0.038208	-0.9700928	
6.32	-0.4098511	-0.871521	
6.51	-0.7536621	-0.5284424	
6.7	-0.9470825	0.0131836	
6.89	0.8435669	-0.5056763	
7.08	-0.8944702	0.1228638	
7.27	-0.4467163	0.7503052	
7.46	0.5643311	0.6838379	
7.65	-0.1343384	-0.9086914	
7.84	-0.8291626	0.5458984	
8.03	0.1383667	0.9125977	
8.22	0.9380493	0.161438	
8.41	0.152832	-0.9935913	
8.6	-0.8860779	0.2443848	
8.79	0.1516724	0.9135132	
8.98	0.8770752	0.3745117	
9.17	0.5075684	-0.8081665	
9.36	-0.7801208	-0.5511169	
9.55	-0.885376	0.2714844	
9.74	-0.282959	0.9212646	
9.93	0.8167725	0.4960022	
10.12	0.5236816	-0.8521729	
10.31	-0.7610474	-0.5821533	
10.5	-0.7679138	0.526062	
10.69	-0.2247925	0.9606323	
10.88	0.4508667	0.8824463	
11.07	0.9559937	0.1937256	
11.26	0.644928	-0.8037109	
11.45	-0.7792664	-0.2909546	
11.64	0.4705505	0.6097717	
11.83	0.8626709	0.1566162	
12.02	0.8876953	-0.1971436	
12.21	0.7334595	-0.5028381	
12.4	0.1607666	-0.8258057	
12.59	-0.27005	0.6676025	
12.78	0.620697	-0.4094543	
12.97	0.2153931	-0.793396	
13.16	-0.185791	-0.8568115	
13.35	-0.5521851	-0.7022705	
13.54	-0.504364	-0.534729	
13.73	-0.7941589	0.4926758	
13.92	-0.3259888	0.7772522	
14.11	-0.1542358	-0.7358398	
14.3	-0.5453796	0.081604	
14.49	-0.9259033	0.3500061	
14.68	-0.7993774	0.5299377	
14.87	-0.3506165	0.8083496	
15.06	0.292511	0.7922363	
15.25	0.796051	0.3030396	
15.44	0.5860596	-0.5937805	
15.63	-0.7046814	-0.3561096	
15.82	-0.44104	0.5651245	
16.01	0.4749146	0.8093567	
16.2	-0.3813934	-0.3515472	
16.39	0.8998413	0.1349792	
16.58	0.2264252	0.4019012	
16.77	0.7998352	-0.07928467	
16.96	0.5883789	-0.5780334	
17.15	0.6931458	-0.2865906	
17.34	0.5516052	-0.5559387	
17.53	0.2095032	-0.7877197	
17.72	-0.09567261	-0.7152405	
17.91	-0.2192078	-0.7467041	
18.1	-0.6687317	-0.8658447	
18.29	-0.9439087	-0.3328857	
18.48	-0.5329895	0.0293274	
18.67	-1.010864	-0.1494141	
18.86	-0.8916016	-0.03192139	
19.05	-0.1786194	0.5414734	
19.24	-0.9177246	0.5077515	
19.43	-0.8048706	0.7640991	
19.62	-0.6596069	0.7459717	
19.81	0.1260986	0.7295227	
20.0	-0.02185059	0.8439331	
