# GHz S RI R 50 
!freq	ReS11	ImS11	
1.0	-0.5771484	-0.2553711	
1.19	-0.6875	0.0203247	
1.38	-0.6605225	0.2979736	
1.57	-0.5302734	0.5371704	
1.76	-0.2744751	0.7481689	
1.95	0.0765381	0.8162231	
2.14	0.3995972	0.7481079	
2.33	0.6773071	0.5585327	
2.52	0.8250732	0.2796021	
2.71	0.9168091	-0.07397461	
2.9	0.8296509	-0.4075928	
3.09	0.6017456	-0.7070313	
3.28	0.2978516	-0.8554077	
3.47	-0.01849365	-0.9327393	
3.66	-0.3409424	-0.848938	
3.85	-0.6588135	-0.6483154	
4.04	-0.84198	-0.2844849	
4.23	-0.9102173	0.0657349	
4.42	-0.8047485	0.4122314	
4.61	-0.5839233	0.7190552	
4.8	-0.2255859	0.9234619	
4.99	0.22052	0.9447632	
5.18	0.6340942	0.7854309	
5.37	0.9452515	0.3932495	
5.56	1.045959	-0.03527832	
5.75	0.9457397	-0.3963013	
5.94	0.5786133	-0.7836304	
6.13	0.0467529	-0.9754028	
6.32	-0.407959	-0.8691406	
6.51	-0.7540283	-0.532196	
6.7	-0.947937	0.0130005	
6.89	0.8466187	-0.5055542	
7.08	-0.8945923	0.1224365	
7.27	-0.449707	0.7556152	
7.46	0.5641479	0.684021	
7.65	-0.1416626	-0.9089966	
7.84	-0.8283081	0.5397339	
8.03	0.1414795	0.9093628	
8.22	0.9380493	0.1621704	
8.41	0.1505737	-0.9857178	
8.6	-0.8851624	0.2420044	
8.79	0.1428833	0.9161377	
8.98	0.8794556	0.3724976	
9.17	0.5039673	-0.808197	
9.36	-0.7761536	-0.5489807	
9.55	-0.8877563	0.2736816	
9.74	-0.2905884	0.9212646	
9.93	0.8156738	0.4958191	
10.12	0.5258179	-0.8586426	
10.31	-0.7612915	-0.5795288	
10.5	-0.7689819	0.5274048	
10.69	-0.2313843	0.9631958	
10.88	0.4544678	0.8833618	
11.07	0.9569092	0.1937256	
11.26	0.6343384	-0.802124	
11.45	-0.7781067	-0.2912598	
11.64	0.4642029	0.6061707	
11.83	0.8621216	0.1571655	
12.02	0.887146	-0.1971436	
12.21	0.730957	-0.5004883	
12.4	0.1634521	-0.831543	
12.59	-0.2771301	0.6661682	
12.78	0.6235046	-0.413269	
12.97	0.2113647	-0.7930298	
13.16	-0.1898804	-0.866333	
13.35	-0.5523071	-0.7028809	
13.54	-0.5043945	-0.5328979	
13.73	-0.7904968	0.4978638	
13.92	-0.328949	0.7798767	
14.11	-0.1503296	-0.7346802	
14.3	-0.5446777	0.0812378	
14.49	-0.9273987	0.3439941	
14.68	-0.8021545	0.5312195	
14.87	-0.3458862	0.8054199	
15.06	0.2905884	0.7850952	
15.25	0.7930298	0.3034058	
15.44	0.5821533	-0.5915833	
15.63	-0.7042847	-0.3547974	
15.82	-0.442688	0.5646667	
16.01	0.4775391	0.8109436	
16.2	-0.3818054	-0.3478851	
16.39	0.8997803	0.1336365	
16.58	0.2289429	0.4019012	
16.77	0.7993469	-0.08050537	
16.96	0.588623	-0.5770569	
17.15	0.6899109	-0.2868958	
17.34	0.5521851	-0.5526733	
17.53	0.1960449	-0.7858887	
17.72	-0.1026611	-0.7151184	
17.91	-0.2188721	-0.7432861	
18.1	-0.6690369	-0.8661499	
18.29	-0.9465332	-0.3306274	
18.48	-0.532196	0.0302124	
18.67	-1.011353	-0.1486206	
18.86	-0.8914185	-0.03106689	
19.05	-0.1832275	0.5439758	
19.24	-0.9173584	0.508606	
19.43	-0.798584	0.7600098	
19.62	-0.6608276	0.7460938	
19.81	0.1257935	0.7241821	
20.0	-0.02124023	0.8513184	
