# GHz S RI R 50 
!freq	ReS11	ImS11	
1.0	-0.5761108	-0.2548828	
1.19	-0.6876221	0.020752	
1.38	-0.6622925	0.2973633	
1.57	-0.5299683	0.5390625	
1.76	-0.2754517	0.7504272	
1.95	0.0765381	0.8149414	
2.14	0.40448	0.7475586	
2.33	0.6747437	0.5617065	
2.52	0.8269043	0.2800293	
2.71	0.9158936	-0.0737915	
2.9	0.8313599	-0.4066772	
3.09	0.605835	-0.7049561	
3.28	0.3009033	-0.8566284	
3.47	-0.01068115	-0.9377441	
3.66	-0.3348999	-0.8512573	
3.85	-0.6583862	-0.6501465	
4.04	-0.8415527	-0.2860107	
4.23	-0.9106445	0.0648804	
4.42	-0.8027344	0.4102173	
4.61	-0.5852051	0.7219849	
4.8	-0.2164307	0.9185181	
4.99	0.2149658	0.9481201	
5.18	0.6289673	0.7849121	
5.37	0.9467773	0.3943481	
5.56	1.045044	-0.03515625	
5.75	0.9493408	-0.3995972	
5.94	0.5812988	-0.7824097	
6.13	0.0424194	-0.9699707	
6.32	-0.4087524	-0.8661499	
6.51	-0.7562256	-0.5258179	
6.7	-0.9475098	0.0137329	
6.89	0.8421631	-0.5045776	
7.08	-0.8942261	0.1235352	
7.27	-0.449646	0.7506104	
7.46	0.5613098	0.675293	
7.65	-0.138855	-0.9100342	
7.84	-0.8251953	0.5373535	
8.03	0.1403809	0.9130859	
8.22	0.937561	0.1620483	
8.41	0.1590576	-0.9851074	
8.6	-0.8862915	0.2441101	
8.79	0.144104	0.9196167	
8.98	0.8807983	0.3726807	
9.17	0.5121155	-0.8135071	
9.36	-0.7791443	-0.543396	
9.55	-0.8900757	0.2723999	
9.74	-0.2913818	0.9179688	
9.93	0.8135376	0.4946899	
10.12	0.5240479	-0.8503418	
10.31	-0.763092	-0.5764465	
10.5	-0.7697754	0.5243225	
10.69	-0.2293091	0.9553223	
10.88	0.4604492	0.8832397	
11.07	0.956665	0.1942749	
11.26	0.6412659	-0.8007507	
11.45	-0.7788696	-0.2900085	
11.64	0.4656677	0.6047974	
11.83	0.8623047	0.1575928	
12.02	0.8867188	-0.1974487	
12.21	0.7336121	-0.5041809	
12.4	0.161499	-0.8251343	
12.59	-0.2762451	0.6670837	
12.78	0.622406	-0.4116821	
12.97	0.2148438	-0.7896118	
13.16	-0.1793213	-0.8577271	
13.35	-0.5491943	-0.7001953	
13.54	-0.4978027	-0.5337219	
13.73	-0.791687	0.4957581	
13.92	-0.3338623	0.7844543	
14.11	-0.1480408	-0.7372437	
14.3	-0.5437317	0.0804138	
14.49	-0.9281616	0.3476257	
14.68	-0.7997742	0.5292664	
14.87	-0.348877	0.8039856	
15.06	0.2849426	0.7865906	
15.25	0.7939148	0.3020325	
15.44	0.5802002	-0.5895691	
15.63	-0.7035828	-0.3561096	
15.82	-0.4416199	0.5610962	
16.01	0.4721069	0.8040466	
16.2	-0.3835907	-0.3471832	
16.39	0.8999023	0.1343994	
16.58	0.2280731	0.4034119	
16.77	0.8003235	-0.08102417	
16.96	0.5844727	-0.5761719	
17.15	0.6956177	-0.2864075	
17.34	0.5514526	-0.5488892	
17.53	0.2029724	-0.7848816	
17.72	-0.1022034	-0.717865	
17.91	-0.2223206	-0.7456055	
18.1	-0.6703796	-0.8670349	
18.29	-0.942749	-0.3311768	
18.48	-0.532196	0.0305481	
18.67	-1.011108	-0.1485596	
18.86	-0.8915405	-0.03088379	
19.05	-0.1784363	0.5405579	
19.24	-0.9156494	0.5090942	
19.43	-0.8010864	0.7619629	
19.62	-0.6558228	0.7478027	
19.81	0.1313477	0.7297974	
20.0	-0.02349854	0.8476563	
