# GHz S RI R 50 
!freq	ReS11	ImS11	
1.0	-0.5785522	-0.2557373	
1.19	-0.6871948	0.0210571	
1.38	-0.6609497	0.2995605	
1.57	-0.5286255	0.5375366	
1.76	-0.270752	0.7467651	
1.95	0.0770874	0.8167725	
2.14	0.4024658	0.74646	
2.33	0.6774292	0.5626221	
2.52	0.8262939	0.2788086	
2.71	0.9152832	-0.07507324	
2.9	0.8288574	-0.4055786	
3.09	0.6073608	-0.7080688	
3.28	0.3012085	-0.855835	
3.47	-0.01550293	-0.9316406	
3.66	-0.3378296	-0.8464355	
3.85	-0.6578979	-0.6478882	
4.04	-0.8411255	-0.28479	
4.23	-0.9107056	0.0657349	
4.42	-0.7991943	0.4125366	
4.61	-0.5739746	0.7231445	
4.8	-0.2156982	0.9169922	
4.99	0.2179565	0.9343262	
5.18	0.6298218	0.7818604	
5.37	0.9470825	0.3922729	
5.56	1.045837	-0.03582764	
5.75	0.9432983	-0.3980103	
5.94	0.5809326	-0.7873535	
6.13	0.0473633	-0.975769	
6.32	-0.4118652	-0.8629761	
6.51	-0.7562866	-0.5308838	
6.7	-0.9476929	0.0134277	
6.89	0.8444214	-0.5036011	
7.08	-0.894165	0.1234131	
7.27	-0.4500732	0.7540283	
7.46	0.5649109	0.6873169	
7.65	-0.1325684	-0.9142456	
7.84	-0.824585	0.5409546	
8.03	0.147583	0.9088745	
8.22	0.9387817	0.1616821	
8.41	0.1552124	-0.9954224	
8.6	-0.8873596	0.2437744	
8.79	0.1417236	0.9161987	
8.98	0.8782959	0.3733826	
9.17	0.5116882	-0.809021	
9.36	-0.7732544	-0.5463867	
9.55	-0.8905029	0.272522	
9.74	-0.2885132	0.9226685	
9.93	0.8160095	0.4937134	
10.12	0.5304565	-0.8505859	
10.31	-0.759613	-0.5780334	
10.5	-0.7695618	0.525238	
10.69	-0.2282104	0.9570313	
10.88	0.4510498	0.880249	
11.07	0.9552002	0.1946411	
11.26	0.6439819	-0.8043213	
11.45	-0.7780762	-0.293335	
11.64	0.4602051	0.607605	
11.83	0.8602295	0.1581421	
12.02	0.8863525	-0.1954346	
12.21	0.7283936	-0.5006409	
12.4	0.163269	-0.8285522	
12.59	-0.2719116	0.6632996	
12.78	0.628418	-0.4055481	
12.97	0.2156372	-0.7974854	
13.16	-0.1887207	-0.8585205	
13.35	-0.552002	-0.7062988	
13.54	-0.5024109	-0.5291748	
13.73	-0.7916565	0.5018616	
13.92	-0.3335571	0.7843323	
14.11	-0.1537781	-0.7435608	
14.3	-0.543457	0.078064	
14.49	-0.9243469	0.3494873	
14.68	-0.7990723	0.5274048	
14.87	-0.3493042	0.8082581	
15.06	0.2990112	0.794281	
15.25	0.7941895	0.3013	
15.44	0.5848083	-0.5910339	
15.63	-0.704834	-0.3523254	
15.82	-0.440033	0.5679626	
16.01	0.4717102	0.8078613	
16.2	-0.3862152	-0.3463898	
16.39	0.9000854	0.1333008	
16.58	0.2328033	0.4019012	
16.77	0.7992554	-0.08013916	
16.96	0.5912476	-0.5751648	
17.15	0.6940918	-0.2885132	
17.34	0.5560303	-0.5545044	
17.53	0.2022705	-0.7848816	
17.72	-0.09698486	-0.7174377	
17.91	-0.2209167	-0.7510681	
18.1	-0.6738586	-0.8626099	
18.29	-0.9464722	-0.3303833	
18.48	-0.5306702	0.0310364	
18.67	-1.011047	-0.1480713	
18.86	-0.8914795	-0.03088379	
19.05	-0.1809692	0.5429382	
19.24	-0.9197998	0.5090942	
19.43	-0.7946777	0.7680054	
19.62	-0.6580811	0.7394714	
19.81	0.1247253	0.7273254	
20.0	-0.02954102	0.8482056	
