# GHz S RI R 50 
!freq	ReS11	ImS11	
1.0	-0.5804443	-0.25354	
1.19	-0.687561	0.0211182	
1.38	-0.6604004	0.2995605	
1.57	-0.5328979	0.5376892	
1.76	-0.2753906	0.7512207	
1.95	0.0769043	0.8187866	
2.14	0.3999023	0.7459717	
2.33	0.6732178	0.5617065	
2.52	0.8256836	0.2803345	
2.71	0.9157104	-0.0725708	
2.9	0.8323975	-0.4063721	
3.09	0.609375	-0.7026978	
3.28	0.2995605	-0.8555908	
3.47	-0.01428223	-0.9282837	
3.66	-0.3399048	-0.8465576	
3.85	-0.659668	-0.6513062	
4.04	-0.8403931	-0.2855835	
4.23	-0.9110107	0.064209	
4.42	-0.8041382	0.4156494	
4.61	-0.5823364	0.7262573	
4.8	-0.2175903	0.9257813	
4.99	0.2288208	0.9379272	
5.18	0.6277161	0.7837524	
5.37	0.9487305	0.3927002	
5.56	1.045105	-0.03527832	
5.75	0.946106	-0.3981934	
5.94	0.5770264	-0.7819214	
6.13	0.0517578	-0.9686279	
6.32	-0.4136353	-0.8676147	
6.51	-0.7541504	-0.5307007	
6.7	-0.947998	0.0134888	
6.89	0.8443604	-0.5075073	
7.08	-0.8951416	0.1217041	
7.27	-0.4502563	0.7485962	
7.46	0.5625916	0.6824951	
7.65	-0.1316528	-0.9122314	
7.84	-0.8262939	0.5352783	
8.03	0.1424561	0.911499	
8.22	0.9385986	0.1624146	
8.41	0.1519165	-0.9882813	
8.6	-0.8869019	0.2437744	
8.79	0.1419067	0.9165039	
8.98	0.8803711	0.3734741	
9.17	0.5084229	-0.8151245	
9.36	-0.7747498	-0.5503845	
9.55	-0.8920898	0.2698975	
9.74	-0.2893677	0.9197998	
9.93	0.8149719	0.4963684	
10.12	0.5230713	-0.8570557	
10.31	-0.7591553	-0.5812683	
10.5	-0.7680359	0.5254517	
10.69	-0.2375488	0.9620361	
10.88	0.4553223	0.8869019	
11.07	0.9558716	0.1956787	
11.26	0.6384583	-0.8021851	
11.45	-0.7776794	-0.2916565	
11.64	0.4703064	0.6031494	
11.83	0.8618774	0.1573486	
12.02	0.8864136	-0.197937	
12.21	0.7316895	-0.4981689	
12.4	0.1588135	-0.8236694	
12.59	-0.2723999	0.6655273	
12.78	0.6227112	-0.4125977	
12.97	0.2140503	-0.795166	
13.16	-0.1878662	-0.8607178	
13.35	-0.5487061	-0.7095947	
13.54	-0.4972229	-0.53125	
13.73	-0.7946472	0.4977112	
13.92	-0.3251038	0.7784424	
14.11	-0.1529541	-0.7357483	
14.3	-0.5443115	0.0813599	
14.49	-0.9267578	0.3465576	
14.68	-0.7989807	0.5270386	
14.87	-0.3452454	0.8138428	
15.06	0.2930908	0.7876892	
15.25	0.7931824	0.303009	
15.44	0.5832825	-0.5908813	
15.63	-0.7019348	-0.3597412	
15.82	-0.4389038	0.5682068	
16.01	0.4741516	0.8103027	
16.2	-0.3815765	-0.3482208	
16.39	0.9002075	0.1348267	
16.58	0.2281647	0.4049835	
16.77	0.8000488	-0.08001709	
16.96	0.5890198	-0.5768127	
17.15	0.6932068	-0.2852478	
17.34	0.5562439	-0.5516052	
17.53	0.1993103	-0.7825012	
17.72	-0.09725952	-0.7180176	
17.91	-0.2165527	-0.743927	
18.1	-0.6669312	-0.8670654	
18.29	-0.9432983	-0.3319702	
18.48	-0.5329285	0.0293884	
18.67	-1.011658	-0.149231	
18.86	-0.8916016	-0.03192139	
19.05	-0.1789246	0.5403748	
19.24	-0.9127197	0.5072021	
19.43	-0.805603	0.7635498	
19.62	-0.6605225	0.749054	
19.81	0.1290894	0.7262878	
20.0	-0.02258301	0.8476563	
