# GHz S RI R 50 
!freq	ReS11	ImS11	
1.0	-0.578064	-0.2543945	
1.19	-0.6873779	0.020752	
1.38	-0.6606445	0.2988892	
1.57	-0.5317383	0.5374756	
1.76	-0.2702026	0.7505493	
1.95	0.0824585	0.8133545	
2.14	0.4075928	0.7495728	
2.33	0.6765747	0.5657349	
2.52	0.8257446	0.2796631	
2.71	0.9150391	-0.07391357	
2.9	0.8287964	-0.4057007	
3.09	0.6113281	-0.7022705	
3.28	0.3031006	-0.8578491	
3.47	-0.009399414	-0.9348755	
3.66	-0.3374023	-0.8446655	
3.85	-0.6564331	-0.65271	
4.04	-0.8410645	-0.2852173	
4.23	-0.9099731	0.0657959	
4.42	-0.8028564	0.4110107	
4.61	-0.5846558	0.7196045	
4.8	-0.2200928	0.9169922	
4.99	0.2177124	0.9517822	
5.18	0.6242065	0.7828674	
5.37	0.9475708	0.3913574	
5.56	1.045959	-0.03527832	
5.75	0.9451294	-0.3973999	
5.94	0.5794678	-0.7837524	
6.13	0.0432129	-0.9716187	
6.32	-0.4098511	-0.8699951	
6.51	-0.7554321	-0.5287476	
6.7	-0.9473877	0.0131836	
6.89	0.8416138	-0.5046997	
7.08	-0.8952637	0.1222534	
7.27	-0.4511108	0.7497559	
7.46	0.5637817	0.6809692	
7.65	-0.1447144	-0.9124756	
7.84	-0.8265991	0.5421753	
8.03	0.1407471	0.9080811	
8.22	0.937561	0.1622314	
8.41	0.1542358	-0.9921875	
8.6	-0.8871155	0.245636	
8.79	0.1505127	0.9180298	
8.98	0.880127	0.373291	
9.17	0.5151672	-0.8146973	
9.36	-0.7756042	-0.547699	
9.55	-0.8880005	0.2696533	
9.74	-0.2929077	0.9104614	
9.93	0.8147888	0.4931946	
10.12	0.5285034	-0.8582764	
10.31	-0.7585754	-0.579834	
10.5	-0.771637	0.5243835	
10.69	-0.2317505	0.9594116	
10.88	0.4503174	0.8903809	
11.07	0.9558716	0.1960449	
11.26	0.6413574	-0.8010864	
11.45	-0.777771	-0.2924194	
11.64	0.4581299	0.6134644	
11.83	0.8625488	0.1578369	
12.02	0.8872681	-0.1970825	
12.21	0.7333374	-0.5028076	
12.4	0.1582642	-0.8249512	
12.59	-0.2737122	0.6622009	
12.78	0.6186218	-0.4133606	
12.97	0.2153931	-0.7952881	
13.16	-0.1889648	-0.8635254	
13.35	-0.5457153	-0.7091675	
13.54	-0.4953003	-0.5285645	
13.73	-0.794281	0.4971619	
13.92	-0.3299561	0.7854004	
14.11	-0.150177	-0.7396851	
14.3	-0.5441589	0.0815735	
14.49	-0.9301453	0.3467712	
14.68	-0.8019714	0.5298767	
14.87	-0.3486633	0.8069458	
15.06	0.2915039	0.7920837	
15.25	0.7941284	0.303009	
15.44	0.5777588	-0.5905762	
15.63	-0.7037048	-0.3594666	
15.82	-0.4403992	0.5646667	
16.01	0.4795532	0.8139954	
16.2	-0.3826447	-0.3503418	
16.39	0.9003296	0.1345215	
16.58	0.2255096	0.4030304	
16.77	0.7991028	-0.08044434	
16.96	0.5885925	-0.5733643	
17.15	0.6921692	-0.2859802	
17.34	0.5566406	-0.5518799	
17.53	0.2118835	-0.7808838	
17.72	-0.0994873	-0.7207031	
17.91	-0.2246094	-0.7464905	
18.1	-0.6711121	-0.8630676	
18.29	-0.9469604	-0.3319702	
18.48	-0.5326843	0.0299377	
18.67	-1.010986	-0.1494751	
18.86	-0.8918457	-0.03179932	
19.05	-0.1822205	0.5403137	
19.24	-0.9165039	0.5077515	
19.43	-0.8040771	0.7583618	
19.62	-0.6530151	0.7473145	
19.81	0.1333618	0.7244568	
20.0	-0.02185059	0.8557129	
