# GHz S RI R 50 
!freq	ReS11	ImS11	
1.0	-0.5789795	-0.2537231	
1.19	-0.6878662	0.0206909	
1.38	-0.6602783	0.2971191	
1.57	-0.5303955	0.5357971	
1.76	-0.2686768	0.7545166	
1.95	0.0792847	0.8150024	
2.14	0.4019775	0.7414551	
2.33	0.6743164	0.5632935	
2.52	0.826355	0.2798462	
2.71	0.9171143	-0.07373047	
2.9	0.8303223	-0.4074097	
3.09	0.6037598	-0.7039185	
3.28	0.3013306	-0.8555298	
3.47	-0.009094238	-0.932373	
3.66	-0.3321533	-0.8534546	
3.85	-0.6613159	-0.6521606	
4.04	-0.8414917	-0.2844849	
4.23	-0.9111328	0.0647583	
4.42	-0.8043823	0.4107056	
4.61	-0.5825195	0.7265015	
4.8	-0.2106323	0.9230957	
4.99	0.2141113	0.9383545	
5.18	0.6246033	0.7882385	
5.37	0.9462891	0.3927612	
5.56	1.045532	-0.03625488	
5.75	0.9453735	-0.3980103	
5.94	0.5814209	-0.7803345	
6.13	0.038208	-0.9733276	
6.32	-0.4144897	-0.8641357	
6.51	-0.7578125	-0.5288696	
6.7	-0.9478149	0.0131226	
6.89	0.8400269	-0.5036621	
7.08	-0.8959351	0.1217651	
7.27	-0.4506836	0.7485962	
7.46	0.565155	0.6810913	
7.65	-0.1373901	-0.9139404	
7.84	-0.8257446	0.5401611	
8.03	0.1392212	0.9078979	
8.22	0.9377441	0.1618042	
8.41	0.1509399	-0.9975586	
8.6	-0.8872986	0.2443542	
8.79	0.1433716	0.9116211	
8.98	0.878418	0.3728638	
9.17	0.4963684	-0.8037415	
9.36	-0.7802124	-0.5490723	
9.55	-0.8894653	0.2709961	
9.74	-0.2929077	0.9175415	
9.93	0.8151245	0.4924927	
10.12	0.5254517	-0.8527832	
10.31	-0.7613525	-0.5776672	
10.5	-0.771698	0.52771	
10.69	-0.232605	0.9647827	
10.88	0.4468384	0.8846436	
11.07	0.9559937	0.1947021	
11.26	0.6411743	-0.8000488	
11.45	-0.7773743	-0.2921753	
11.64	0.4615784	0.6072693	
11.83	0.8621826	0.1563721	
12.02	0.8856812	-0.1988525	
12.21	0.7332458	-0.5021362	
12.4	0.1679688	-0.8280029	
12.59	-0.2752075	0.660614	
12.78	0.6211853	-0.412262	
12.97	0.2119751	-0.7974243	
13.16	-0.1846313	-0.8595581	
13.35	-0.5492554	-0.7131958	
13.54	-0.5023804	-0.5305481	
13.73	-0.7844849	0.4921265	
13.92	-0.3238831	0.7837219	
14.11	-0.151947	-0.7368774	
14.3	-0.5457458	0.0816345	
14.49	-0.9277039	0.3497009	
14.68	-0.7993774	0.530365	
14.87	-0.3442078	0.8078918	
15.06	0.2877808	0.7896118	
15.25	0.7926941	0.3027039	
15.44	0.5784607	-0.5879517	
15.63	-0.7023315	-0.3563232	
15.82	-0.437439	0.565918	
16.01	0.474823	0.8118286	
16.2	-0.3822632	-0.3481598	
16.39	0.8999023	0.1345825	
16.58	0.2258301	0.3999939	
16.77	0.7985229	-0.07891846	
16.96	0.5899658	-0.5749817	
17.15	0.6915283	-0.2842407	
17.34	0.5530396	-0.5525208	
17.53	0.2020264	-0.7802429	
17.72	-0.09960938	-0.7185364	
17.91	-0.2234497	-0.7475281	
18.1	-0.6701355	-0.8631287	
18.29	-0.9421997	-0.3317261	
18.48	-0.5329895	0.0302734	
18.67	-1.010498	-0.149292	
18.86	-0.8912354	-0.03204346	
19.05	-0.1761169	0.5390015	
19.24	-0.9174194	0.5088501	
19.43	-0.8022461	0.7635498	
19.62	-0.657959	0.7428894	
19.81	0.1296082	0.7261658	
20.0	-0.02337646	0.8480225	
