# GHz S RI R 50 
!freq	ReS11	ImS11	
1.0	-0.578186	-0.2561646	
1.19	-0.6875	0.0212402	
1.38	-0.6620483	0.2991943	
1.57	-0.5292358	0.5379028	
1.76	-0.2728882	0.7456055	
1.95	0.0806885	0.8131104	
2.14	0.4017334	0.7445068	
2.33	0.6754761	0.5601196	
2.52	0.8254395	0.2810059	
2.71	0.9179688	-0.0736084	
2.9	0.8327026	-0.4072266	
3.09	0.6109009	-0.7003784	
3.28	0.307251	-0.8627319	
3.47	-0.01062012	-0.927063	
3.66	-0.3330078	-0.8428955	
3.85	-0.6609497	-0.6505737	
4.04	-0.8414917	-0.2853394	
4.23	-0.9116211	0.0655518	
4.42	-0.8009033	0.4107666	
4.61	-0.5717773	0.7210693	
4.8	-0.2223511	0.9168091	
4.99	0.227356	0.942749	
5.18	0.6276245	0.7807617	
5.37	0.9443359	0.390564	
5.56	1.0448	-0.03570557	
5.75	0.9492188	-0.4011841	
5.94	0.5796509	-0.7850952	
6.13	0.0435791	-0.9726563	
6.32	-0.4121094	-0.8745117	
6.51	-0.7545166	-0.527771	
6.7	-0.9474487	0.0131226	
6.89	0.8436279	-0.506958	
7.08	-0.894104	0.1227417	
7.27	-0.4489746	0.7548218	
7.46	0.5636597	0.6790466	
7.65	-0.1314697	-0.9130859	
7.84	-0.8250122	0.5390015	
8.03	0.1348877	0.9042969	
8.22	0.9381714	0.1626587	
8.41	0.1523438	-0.9842529	
8.6	-0.88974	0.2424011	
8.79	0.1477051	0.9174805	
8.98	0.8792725	0.3747559	
9.17	0.512146	-0.8085632	
9.36	-0.7767944	-0.552002	
9.55	-0.8894653	0.2714844	
9.74	-0.288208	0.9171753	
9.93	0.8173523	0.4941711	
10.12	0.5278931	-0.8579712	
10.31	-0.7607117	-0.5782776	
10.5	-0.769989	0.5285339	
10.69	-0.2234497	0.9594727	
10.88	0.4542847	0.8803711	
11.07	0.9558105	0.1943359	
11.26	0.6350708	-0.811615	
11.45	-0.7774963	-0.2910767	
11.64	0.4631653	0.6111755	
11.83	0.8630371	0.1580811	
12.02	0.8861084	-0.1975098	
12.21	0.7295532	-0.4995117	
12.4	0.1615601	-0.8249512	
12.59	-0.2753601	0.6668396	
12.78	0.6223145	-0.4109802	
12.97	0.2133789	-0.7942505	
13.16	-0.1777954	-0.8543701	
13.35	-0.5423584	-0.6992798	
13.54	-0.5012512	-0.5331421	
13.73	-0.7915039	0.49646	
13.92	-0.3303833	0.7827454	
14.11	-0.1422119	-0.7410278	
14.3	-0.5450439	0.0816345	
14.49	-0.9269409	0.3491516	
14.68	-0.7982788	0.5308228	
14.87	-0.3434448	0.8044739	
15.06	0.2932434	0.7886963	
15.25	0.7938538	0.3013611	
15.44	0.5783386	-0.5852966	
15.63	-0.7025452	-0.3579102	
15.82	-0.4429016	0.5681763	
16.01	0.4701843	0.8105469	
16.2	-0.3822327	-0.349884	
16.39	0.900238	0.134491	
16.58	0.227417	0.3997345	
16.77	0.7997742	-0.07861328	
16.96	0.585968	-0.57547	
17.15	0.6924744	-0.2838745	
17.34	0.5556641	-0.5477905	
17.53	0.2046204	-0.7843018	
17.72	-0.09719849	-0.7192078	
17.91	-0.2183533	-0.747345	
18.1	-0.6697083	-0.86026	
18.29	-0.9446411	-0.3303833	
18.48	-0.5326233	0.0306702	
18.67	-1.011108	-0.1497192	
18.86	-0.8914185	-0.03161621	
19.05	-0.1792603	0.5458679	
19.24	-0.9177246	0.5061035	
19.43	-0.8023071	0.7598877	
19.62	-0.65979	0.7445068	
19.81	0.128418	0.7287903	
20.0	-0.03039551	0.8464355	
