# GHz S RI R 50 
!freq	ReS11	ImS11	
1.0	-0.578125	-0.2566528	
1.19	-0.6877441	0.0205688	
1.38	-0.6618652	0.2984619	
1.57	-0.5299683	0.5354004	
1.76	-0.2678223	0.7495117	
1.95	0.0750732	0.8151245	
2.14	0.402771	0.7423096	
2.33	0.6738892	0.5587158	
2.52	0.826416	0.2792969	
2.71	0.9154053	-0.07366943	
2.9	0.8302612	-0.4090576	
3.09	0.6051025	-0.7051392	
3.28	0.2991333	-0.857666	
3.47	-0.007751465	-0.9378662	
3.66	-0.3409424	-0.8513184	
3.85	-0.65979	-0.6499023	
4.04	-0.8423462	-0.2840576	
4.23	-0.9106445	0.06427	
4.42	-0.8049316	0.4128418	
4.61	-0.5826416	0.7237549	
4.8	-0.2219238	0.916687	
4.99	0.2297363	0.9464111	
5.18	0.6293335	0.7858887	
5.37	0.949646	0.3918457	
5.56	1.045532	-0.03582764	
5.75	0.9487305	-0.3982544	
5.94	0.5811157	-0.7796021	
6.13	0.0443115	-0.9752197	
6.32	-0.4074707	-0.8702393	
6.51	-0.7549438	-0.5296021	
6.7	-0.9466553	0.013916	
6.89	0.8456421	-0.5023804	
7.08	-0.8947754	0.1236572	
7.27	-0.4494629	0.753418	
7.46	0.5639343	0.6821289	
7.65	-0.1311646	-0.911499	
7.84	-0.8261719	0.5419922	
8.03	0.1419067	0.9180908	
8.22	0.9381714	0.1621704	
8.41	0.1511841	-0.9906616	
8.6	-0.8872375	0.2424011	
8.79	0.1453247	0.9175415	
8.98	0.8798828	0.3737183	
9.17	0.5066223	-0.8088074	
9.36	-0.7749329	-0.5471802	
9.55	-0.8908691	0.2711182	
9.74	-0.2904663	0.9243164	
9.93	0.8123474	0.4959412	
10.12	0.5287476	-0.8531494	
10.31	-0.7587891	-0.5796814	
10.5	-0.7690735	0.5275879	
10.69	-0.2280273	0.9589844	
10.88	0.4474487	0.883728	
11.07	0.9553833	0.1942139	
11.26	0.6390991	-0.8010254	
11.45	-0.7783813	-0.2906494	
11.64	0.4598389	0.6057129	
11.83	0.8623657	0.1575928	
12.02	0.8884888	-0.1984253	
12.21	0.7282715	-0.5027771	
12.4	0.1604004	-0.8170166	
12.59	-0.2749329	0.6656189	
12.78	0.620697	-0.4086914	
12.97	0.2150269	-0.7952881	
13.16	-0.1837769	-0.852478	
13.35	-0.5447998	-0.7006836	
13.54	-0.5030212	-0.5297241	
13.73	-0.7914429	0.4966431	
13.92	-0.3258057	0.776123	
14.11	-0.1524658	-0.7424316	
14.3	-0.5440369	0.0807495	
14.49	-0.9289551	0.3513489	
14.68	-0.7977905	0.5323181	
14.87	-0.347168	0.8112183	
15.06	0.2915955	0.7883911	
15.25	0.7939453	0.3024292	
15.44	0.5844421	-0.5920105	
15.63	-0.7030945	-0.3562622	
15.82	-0.4373169	0.5663147	
16.01	0.4733276	0.8069763	
16.2	-0.3842621	-0.3501282	
16.39	0.9001465	0.1339111	
16.58	0.2288666	0.4000244	
16.77	0.7998352	-0.08200073	
16.96	0.5853271	-0.5726013	
17.15	0.691925	-0.2867737	
17.34	0.5566711	-0.5487366	
17.53	0.2012939	-0.7855225	
17.72	-0.1019592	-0.7149353	
17.91	-0.2195129	-0.7441101	
18.1	-0.6694336	-0.8629456	
18.29	-0.944397	-0.3325195	
18.48	-0.5321045	0.0307312	
18.67	-1.011108	-0.1481323	
18.86	-0.8913574	-0.03155518	
19.05	-0.1781006	0.5408936	
19.24	-0.90979	0.5029297	
19.43	-0.8057861	0.7528687	
19.62	-0.6576843	0.7485962	
19.81	0.130188	0.728302	
20.0	-0.02441406	0.8529053	
