# GHz S RI R 50 
!freq	ReS11	ImS11	
1.0	-0.5772095	-0.2532959	
1.19	-0.6877441	0.0209961	
1.38	-0.6616821	0.2977905	
1.57	-0.5256348	0.5377808	
1.76	-0.276001	0.7485962	
1.95	0.0748291	0.8153687	
2.14	0.4050293	0.7442627	
2.33	0.6741333	0.5581665	
2.52	0.8267822	0.2785034	
2.71	0.9158936	-0.07189941	
2.9	0.8312378	-0.4065552	
3.09	0.6102905	-0.7018433	
3.28	0.2977905	-0.8543091	
3.47	-0.01611328	-0.9290771	
3.66	-0.3416138	-0.8471069	
3.85	-0.657959	-0.6485596	
4.04	-0.8417358	-0.2850342	
4.23	-0.9101563	0.0641479	
4.42	-0.8029175	0.4129639	
4.61	-0.5778809	0.7304077	
4.8	-0.2169189	0.9210815	
4.99	0.2199097	0.9378662	
5.18	0.629303	0.7857666	
5.37	0.947998	0.3914185	
5.56	1.045776	-0.03546143	
5.75	0.9464111	-0.3972778	
5.94	0.5830688	-0.788147	
6.13	0.0474854	-0.9716187	
6.32	-0.4121094	-0.8669434	
6.51	-0.7557373	-0.5298462	
6.7	-0.9474487	0.0126953	
6.89	0.8414917	-0.5014038	
7.08	-0.8952026	0.1221313	
7.27	-0.4489136	0.7490234	
7.46	0.5698547	0.6855164	
7.65	-0.1380005	-0.9122314	
7.84	-0.824646	0.5377197	
8.03	0.1384277	0.9093628	
8.22	0.9385986	0.1625366	
8.41	0.1578369	-0.9885254	
8.6	-0.8891296	0.243042	
8.79	0.1456909	0.9207153	
8.98	0.8797607	0.3725586	
9.17	0.5089111	-0.8135681	
9.36	-0.7738647	-0.5503845	
9.55	-0.8913574	0.2703857	
9.74	-0.2957764	0.9202881	
9.93	0.8158569	0.4942322	
10.12	0.5255737	-0.8520508	
10.31	-0.7583923	-0.5774231	
10.5	-0.7689819	0.5270996	
10.69	-0.2299194	0.9579468	
10.88	0.4557495	0.8842163	
11.07	0.9562378	0.194519	
11.26	0.6460571	-0.8036499	
11.45	-0.776123	-0.2907715	
11.64	0.4646301	0.6103821	
11.83	0.862915	0.1571045	
12.02	0.8867188	-0.1976929	
12.21	0.7334595	-0.5006409	
12.4	0.1663208	-0.8220825	
12.59	-0.2714844	0.6652832	
12.78	0.6220093	-0.4110718	
12.97	0.2155762	-0.7945557	
13.16	-0.1792603	-0.8511963	
13.35	-0.5491943	-0.6989136	
13.54	-0.5033264	-0.5336914	
13.73	-0.7904358	0.4968872	
13.92	-0.3372498	0.7811279	
14.11	-0.1509094	-0.7402954	
14.3	-0.5447693	0.0826111	
14.49	-0.9232483	0.3470764	
14.68	-0.7995605	0.5266113	
14.87	-0.3435059	0.8106079	
15.06	0.2905579	0.7869873	
15.25	0.7960205	0.3022156	
15.44	0.5759583	-0.5872192	
15.63	-0.7007446	-0.3571777	
15.82	-0.4388733	0.5628662	
16.01	0.4745789	0.8147888	
16.2	-0.3809052	-0.3488617	
16.39	0.9000854	0.1345825	
16.58	0.2280579	0.4036865	
16.77	0.7995605	-0.07980347	
16.96	0.5916748	-0.5765076	
17.15	0.6939087	-0.2853699	
17.34	0.558136	-0.5560913	
17.53	0.2063599	-0.7876892	
17.72	-0.09783936	-0.7160339	
17.91	-0.2158203	-0.75	
18.1	-0.6654663	-0.8637085	
18.29	-0.9441528	-0.3323364	
18.48	-0.5323792	0.0304871	
18.67	-1.011292	-0.1489258	
18.86	-0.8917236	-0.03204346	
19.05	-0.181427	0.5419006	
19.24	-0.9130859	0.5036011	
19.43	-0.8066406	0.7661133	
19.62	-0.6632996	0.7450256	
19.81	0.1294861	0.7293091	
20.0	-0.02203369	0.8480835	
