# GHz S RI R 50 
!freq	ReS11	ImS11	
1.0	-0.5787964	-0.2545776	
1.19	-0.6876831	0.020752	
1.38	-0.6617432	0.2989502	
1.57	-0.5296631	0.5358276	
1.76	-0.267395	0.7498779	
1.95	0.0771484	0.812439	
2.14	0.4012451	0.7479858	
2.33	0.6737061	0.5583496	
2.52	0.8255615	0.2799683	
2.71	0.9158325	-0.07305908	
2.9	0.8300781	-0.4066162	
3.09	0.6097412	-0.6976318	
3.28	0.3031616	-0.8527832	
3.47	-0.0123291	-0.9377441	
3.66	-0.3365479	-0.8460693	
3.85	-0.6604614	-0.6536255	
4.04	-0.8412476	-0.2857056	
4.23	-0.9096069	0.065918	
4.42	-0.800415	0.4110718	
4.61	-0.5786133	0.7164307	
4.8	-0.2241821	0.9168091	
4.99	0.2282715	0.9438477	
5.18	0.6268616	0.7854614	
5.37	0.9504395	0.3927612	
5.56	1.045105	-0.03570557	
5.75	0.9489136	-0.395813	
5.94	0.5803223	-0.7822876	
6.13	0.0483398	-0.9665527	
6.32	-0.409668	-0.8634644	
6.51	-0.7532959	-0.5289307	
6.7	-0.9482422	0.0133667	
6.89	0.8411865	-0.5029297	
7.08	-0.8952026	0.1231079	
7.27	-0.4514771	0.7471313	
7.46	0.5613403	0.6799011	
7.65	-0.1343384	-0.9111328	
7.84	-0.8256226	0.5411377	
8.03	0.1389771	0.9213257	
8.22	0.9381104	0.1622314	
8.41	0.1480103	-0.9924316	
8.6	-0.8891907	0.2438965	
8.79	0.1481323	0.9190674	
8.98	0.878418	0.373291	
9.17	0.507843	-0.808197	
9.36	-0.7743835	-0.5509033	
9.55	-0.8898315	0.2711182	
9.74	-0.2885132	0.927124	
9.93	0.8180542	0.4941101	
10.12	0.5299683	-0.8515015	
10.31	-0.758606	-0.5739746	
10.5	-0.7713013	0.5271301	
10.69	-0.2318726	0.9595337	
10.88	0.4483032	0.8835449	
11.07	0.9560547	0.1953125	
11.26	0.6379395	-0.7989807	
11.45	-0.7772522	-0.2925415	
11.64	0.465332	0.6108398	
11.83	0.8621216	0.1575317	
12.02	0.8864136	-0.1966553	
12.21	0.7307739	-0.5021667	
12.4	0.15802	-0.8267212	
12.59	-0.2767944	0.668335	
12.78	0.6243591	-0.4069824	
12.97	0.2106934	-0.7959595	
13.16	-0.1813965	-0.8546143	
13.35	-0.5494385	-0.7027588	
13.54	-0.5057068	-0.5306702	
13.73	-0.7925415	0.5002747	
13.92	-0.3239136	0.7783508	
14.11	-0.1554871	-0.7380066	
14.3	-0.5440369	0.0810852	
14.49	-0.9277954	0.3491821	
14.68	-0.8019409	0.5277405	
14.87	-0.3511047	0.806366	
15.06	0.2904663	0.7888489	
15.25	0.7921753	0.3014221	
15.44	0.5829163	-0.5853882	
15.63	-0.701416	-0.3560486	
15.82	-0.4398804	0.5634155	
16.01	0.4751282	0.8170776	
16.2	-0.3847656	-0.347702	
16.39	0.8996277	0.1340027	
16.58	0.2301788	0.4029236	
16.77	0.7996826	-0.08016968	
16.96	0.5856323	-0.5769958	
17.15	0.6915894	-0.2854004	
17.34	0.5547791	-0.553894	
17.53	0.2011108	-0.7859192	
17.72	-0.09967041	-0.7148743	
17.91	-0.2188416	-0.7450867	
18.1	-0.6708069	-0.8680725	
18.29	-0.9436646	-0.3338013	
18.48	-0.5326233	0.0300903	
18.67	-1.011597	-0.1487427	
18.86	-0.8917236	-0.03112793	
19.05	-0.1744385	0.5383911	
19.24	-0.9165039	0.5072632	
19.43	-0.8043823	0.7613525	
19.62	-0.6632385	0.7440491	
19.81	0.129425	0.7258911	
20.0	-0.02490234	0.8470459	
