# GHz S RI R 50 
!freq	ReS11	ImS11	
1.0	-0.5765991	-0.2561035	
1.19	-0.6870728	0.020874	
1.38	-0.6608276	0.2977295	
1.57	-0.52948	0.5387268	
1.76	-0.2740479	0.7456665	
1.95	0.0775757	0.8116455	
2.14	0.4050903	0.7478638	
2.33	0.6723633	0.5621338	
2.52	0.826355	0.2786255	
2.71	0.9160156	-0.07342529	
2.9	0.8317261	-0.4066772	
3.09	0.6051636	-0.7028198	
3.28	0.2955322	-0.854187	
3.47	-0.01208496	-0.9301147	
3.66	-0.3341064	-0.8452759	
3.85	-0.6583252	-0.6477051	
4.04	-0.84021	-0.2845459	
4.23	-0.9111328	0.06427	
4.42	-0.8018799	0.4157715	
4.61	-0.5802002	0.7324219	
4.8	-0.2161865	0.9133911	
4.99	0.2228394	0.9452515	
5.18	0.6221924	0.7837219	
5.37	0.9470825	0.3924561	
5.56	1.045044	-0.03521729	
5.75	0.9494629	-0.3988037	
5.94	0.5824585	-0.7855225	
6.13	0.041626	-0.9725342	
6.32	-0.4093018	-0.8682861	
6.51	-0.7561646	-0.531311	
6.7	-0.9476318	0.0130615	
6.89	0.8493652	-0.5042725	
7.08	-0.8954468	0.1218872	
7.27	-0.4541626	0.7453003	
7.46	0.5615234	0.6837769	
7.65	-0.1333008	-0.9140625	
7.84	-0.8227539	0.5375366	
8.03	0.1430054	0.9139404	
8.22	0.9387207	0.161499	
8.41	0.1525879	-0.9889526	
8.6	-0.8892212	0.2425842	
8.79	0.1460571	0.9135742	
8.98	0.8800049	0.3717651	
9.17	0.505249	-0.8157959	
9.36	-0.7776794	-0.5515442	
9.55	-0.8887939	0.2709351	
9.74	-0.291748	0.9157104	
9.93	0.8151245	0.4915161	
10.12	0.5328369	-0.8501587	
10.31	-0.7548828	-0.5776367	
10.5	-0.7728882	0.5245972	
10.69	-0.232605	0.9562378	
10.88	0.4536743	0.8795166	
11.07	0.9562378	0.1952515	
11.26	0.6466064	-0.8009033	
11.45	-0.778595	-0.2922058	
11.64	0.467804	0.6069031	
11.83	0.8617554	0.1567383	
12.02	0.8861694	-0.1947632	
12.21	0.7350159	-0.4986572	
12.4	0.1599121	-0.8270264	
12.59	-0.2767639	0.6637573	
12.78	0.6177979	-0.4091492	
12.97	0.2125244	-0.7947388	
13.16	-0.1843872	-0.8581543	
13.35	-0.5496826	-0.7035522	
13.54	-0.5007324	-0.5316772	
13.73	-0.7964172	0.4992676	
13.92	-0.3291321	0.7753906	
14.11	-0.1478882	-0.741272	
14.3	-0.5434265	0.0820923	
14.49	-0.9259033	0.3495483	
14.68	-0.7966614	0.5298157	
14.87	-0.3500366	0.8114014	
15.06	0.289978	0.7909241	
15.25	0.7948914	0.3013306	
15.44	0.5809937	-0.5838318	
15.63	-0.7033997	-0.3580322	
15.82	-0.4420776	0.5650024	
16.01	0.4717407	0.8107605	
16.2	-0.3809509	-0.3509827	
16.39	0.9002075	0.1345215	
16.58	0.2293854	0.4051208	
16.77	0.7992859	-0.07989502	
16.96	0.5855408	-0.577301	
17.15	0.6930542	-0.2858582	
17.34	0.5556946	-0.5526733	
17.53	0.20224	-0.7836914	
17.72	-0.1001587	-0.7139893	
17.91	-0.2179871	-0.7494202	
18.1	-0.6715088	-0.8677368	
18.29	-0.9448853	-0.3311768	
18.48	-0.5322876	0.0298157	
18.67	-1.010559	-0.1487427	
18.86	-0.8917847	-0.03179932	
19.05	-0.1822815	0.539856	
19.24	-0.9191895	0.5066528	
19.43	-0.8026123	0.7674561	
19.62	-0.6608887	0.7440796	
19.81	0.1312561	0.7279053	
20.0	-0.02813721	0.8482666	
