# GHz S RI R 50 
!freq	ReS11	ImS11	
1.0	-0.5784302	-0.2539063	
1.19	-0.6876221	0.0212402	
1.38	-0.6611938	0.2993774	
1.57	-0.5297241	0.5384521	
1.76	-0.272644	0.7470703	
1.95	0.0807495	0.8135986	
2.14	0.4020996	0.7466431	
2.33	0.6752319	0.5610352	
2.52	0.8266602	0.2792969	
2.71	0.9154053	-0.0736084	
2.9	0.828125	-0.4116821	
3.09	0.605835	-0.7089233	
3.28	0.3061523	-0.8572998	
3.47	-0.01153564	-0.9345703	
3.66	-0.3378906	-0.8461304	
3.85	-0.6593628	-0.6518555	
4.04	-0.8406982	-0.2857666	
4.23	-0.9107056	0.0647583	
4.42	-0.8054199	0.4142456	
4.61	-0.5862427	0.7245483	
4.8	-0.211792	0.9264526	
4.99	0.2105103	0.937561	
5.18	0.6315002	0.7849426	
5.37	0.9475708	0.3916626	
5.56	1.045471	-0.03521729	
5.75	0.9473267	-0.3974609	
5.94	0.5859985	-0.7775269	
6.13	0.0427246	-0.9703979	
6.32	-0.4066772	-0.8721313	
6.51	-0.7531738	-0.5291748	
6.7	-0.9483032	0.0129395	
6.89	0.8450317	-0.5048828	
7.08	-0.8956909	0.1218872	
7.27	-0.4605103	0.7421875	
7.46	0.5655518	0.6791687	
7.65	-0.1393433	-0.9199219	
7.84	-0.824585	0.5419312	
8.03	0.1348877	0.9102783	
8.22	0.9381714	0.161438	
8.41	0.1550903	-0.991272	
8.6	-0.8876343	0.2458801	
8.79	0.1439209	0.9165039	
8.98	0.8786621	0.3739014	
9.17	0.5074768	-0.8150024	
9.36	-0.7771606	-0.550354	
9.55	-0.887085	0.2723389	
9.74	-0.2860107	0.911377	
9.93	0.8181458	0.4940186	
10.12	0.5267334	-0.8516846	
10.31	-0.7574768	-0.5768738	
10.5	-0.771759	0.5270996	
10.69	-0.2258301	0.9589844	
10.88	0.4544678	0.8837891	
11.07	0.9553223	0.1948853	
11.26	0.6357422	-0.8037415	
11.45	-0.7757263	-0.2920837	
11.64	0.461792	0.6046753	
11.83	0.8614502	0.1576538	
12.02	0.8856812	-0.1965332	
12.21	0.730957	-0.5049744	
12.4	0.1627808	-0.831543	
12.59	-0.2744141	0.6646729	
12.78	0.6251831	-0.4086914	
12.97	0.2143555	-0.7941895	
13.16	-0.1883545	-0.861084	
13.35	-0.5493164	-0.7041626	
13.54	-0.5019226	-0.5325928	
13.73	-0.796051	0.4933472	
13.92	-0.3253784	0.7760925	
14.11	-0.1516113	-0.7416382	
14.3	-0.5435486	0.0797119	
14.49	-0.9265747	0.349762	
14.68	-0.7991028	0.5288391	
14.87	-0.3476868	0.8032837	
15.06	0.2929077	0.7887268	
15.25	0.7929382	0.3008728	
15.44	0.5777588	-0.5864868	
15.63	-0.7046204	-0.3529358	
15.82	-0.4370728	0.565155	
16.01	0.476532	0.8110657	
16.2	-0.3813019	-0.3455353	
16.39	0.9001465	0.1335449	
16.58	0.2284088	0.4025726	
16.77	0.8004761	-0.0798645	
16.96	0.5900269	-0.5770874	
17.15	0.6907043	-0.2868958	
17.34	0.554657	-0.5507813	
17.53	0.2015381	-0.7828674	
17.72	-0.1025696	-0.71875	
17.91	-0.2185974	-0.7472534	
18.1	-0.6676331	-0.8638	
18.29	-0.9455566	-0.3320923	
18.48	-0.5312805	0.0322571	
18.67	-1.010803	-0.1479492	
18.86	-0.8917847	-0.03094482	
19.05	-0.1827393	0.545929	
19.24	-0.9160767	0.5109253	
19.43	-0.8017578	0.7631836	
19.62	-0.661499	0.7433777	
19.81	0.1291199	0.7246094	
20.0	-0.02581787	0.8459473	
