# GHz S RI R 50 
!freq	ReS11	ImS11	
1.0	-0.5787964	-0.2548828	
1.19	-0.687439	0.020874	
1.38	-0.6616821	0.2975464	
1.57	-0.5302124	0.5368042	
1.76	-0.2694092	0.7462158	
1.95	0.0783691	0.81427	
2.14	0.4047852	0.7470703	
2.33	0.6758423	0.5610962	
2.52	0.8266602	0.2784424	
2.71	0.9145508	-0.07391357	
2.9	0.8328857	-0.4090576	
3.09	0.6061401	-0.7037354	
3.28	0.3035889	-0.8500366	
3.47	-0.01135254	-0.9310913	
3.66	-0.3374023	-0.8450928	
3.85	-0.6567383	-0.647522	
4.04	-0.8409424	-0.2857056	
4.23	-0.9102783	0.0649414	
4.42	-0.8035889	0.4138184	
4.61	-0.5770264	0.7225952	
4.8	-0.2160645	0.9223633	
4.99	0.2297363	0.9451294	
5.18	0.6308594	0.7881775	
5.37	0.9483032	0.3932495	
5.56	1.045837	-0.03601074	
5.75	0.9483032	-0.3966675	
5.94	0.5805054	-0.782959	
6.13	0.0518799	-0.9678955	
6.32	-0.4101563	-0.8696289	
6.51	-0.7575073	-0.531311	
6.7	-0.9477539	0.0134277	
6.89	0.8409424	-0.5054932	
7.08	-0.8954468	0.1236572	
7.27	-0.4500122	0.7498169	
7.46	0.5689697	0.6821594	
7.65	-0.1328735	-0.9133911	
7.84	-0.8228149	0.5352173	
8.03	0.1418457	0.9143066	
8.22	0.9386597	0.1622925	
8.41	0.1484985	-0.991333	
8.6	-0.8850708	0.2432861	
8.79	0.1485596	0.921875	
8.98	0.8799744	0.3729248	
9.17	0.510498	-0.8097839	
9.36	-0.7757874	-0.5490723	
9.55	-0.8912354	0.2705688	
9.74	-0.2764282	0.9162598	
9.93	0.8173523	0.4943848	
10.12	0.5267334	-0.8522949	
10.31	-0.7618408	-0.5776367	
10.5	-0.7688904	0.5278015	
10.69	-0.2333984	0.9605103	
10.88	0.4588623	0.8796997	
11.07	0.9551392	0.1942139	
11.26	0.6417542	-0.8038025	
11.45	-0.775177	-0.2919617	
11.64	0.460968	0.5998535	
11.83	0.8598022	0.1572266	
12.02	0.8861694	-0.1965332	
12.21	0.7337341	-0.5039978	
12.4	0.1604614	-0.8234863	
12.59	-0.2813721	0.6639709	
12.78	0.6278687	-0.40802	
12.97	0.2096558	-0.7938232	
13.16	-0.1882324	-0.8560791	
13.35	-0.5506592	-0.7045898	
13.54	-0.5026245	-0.5346985	
13.73	-0.7934875	0.4993896	
13.92	-0.3365173	0.7802429	
14.11	-0.1547241	-0.7374573	
14.3	-0.5422668	0.0771484	
14.49	-0.9264832	0.3490906	
14.68	-0.7981567	0.5310364	
14.87	-0.3435974	0.8058167	
15.06	0.2894897	0.7887878	
15.25	0.7938538	0.3006897	
15.44	0.5806274	-0.5875549	
15.63	-0.7016907	-0.3518066	
15.82	-0.4398499	0.5646667	
16.01	0.4721985	0.8125916	
16.2	-0.3796234	-0.3446655	
16.39	0.899292	0.1339111	
16.58	0.2293396	0.3958893	
16.77	0.7983704	-0.08068848	
16.96	0.5826721	-0.5765076	
17.15	0.6884766	-0.2862854	
17.34	0.5516663	-0.5510864	
17.53	0.2073975	-0.7881775	
17.72	-0.1016235	-0.7121277	
17.91	-0.2210693	-0.7510986	
18.1	-0.6728516	-0.8694763	
18.29	-0.942688	-0.3295288	
18.48	-0.5346985	0.0209656	
18.67	-1.010681	-0.1487427	
18.86	-0.890564	-0.02960205	
19.05	-0.1846619	0.5447388	
19.24	-0.9172363	0.5073242	
19.43	-0.8000488	0.763916	
19.62	-0.6605835	0.7474365	
19.81	0.1313477	0.7230835	
20.0	-0.02618408	0.8530273	
