# GHz S RI R 50 
!freq	ReS11	ImS11	
1.0	-0.5779419	-0.2546387	
1.19	-0.6875	0.0211792	
1.38	-0.659668	0.2981567	
1.57	-0.527832	0.5375977	
1.76	-0.272583	0.7523193	
1.95	0.0761719	0.8117065	
2.14	0.4020386	0.7436523	
2.33	0.673584	0.5587769	
2.52	0.8265991	0.2788696	
2.71	0.9153442	-0.07543945	
2.9	0.8297729	-0.4082642	
3.09	0.6049194	-0.713623	
3.28	0.2961426	-0.8564453	
3.47	-0.01580811	-0.9300537	
3.66	-0.3404541	-0.8481445	
3.85	-0.6621704	-0.6466675	
4.04	-0.8408203	-0.2862549	
4.23	-0.9108276	0.0643311	
4.42	-0.8027344	0.4110107	
4.61	-0.5848389	0.7244263	
4.8	-0.2191772	0.9202271	
4.99	0.2192993	0.9390259	
5.18	0.6280212	0.7865295	
5.37	0.9474487	0.3904419	
5.56	1.046326	-0.03607178	
5.75	0.9468994	-0.3959351	
5.94	0.5700073	-0.7813721	
6.13	0.0471802	-0.9727173	
6.32	-0.4076538	-0.8610229	
6.51	-0.7578735	-0.5285034	
6.7	-0.9475098	0.0133667	
6.89	0.8411865	-0.5028076	
7.08	-0.8946533	0.1230469	
7.27	-0.4544067	0.7523804	
7.46	0.5646057	0.6809387	
7.65	-0.1363525	-0.9078369	
7.84	-0.8320313	0.5426025	
8.03	0.1352539	0.9116821	
8.22	0.9381104	0.1618042	
8.41	0.1478271	-0.9940796	
8.6	-0.8850708	0.2435303	
8.79	0.1486206	0.9174805	
8.98	0.8790283	0.3723145	
9.17	0.5027161	-0.8127747	
9.36	-0.7774353	-0.54776	
9.55	-0.8892822	0.2698364	
9.74	-0.2903442	0.9257813	
9.93	0.81427	0.4951172	
10.12	0.5298462	-0.8521118	
10.31	-0.756958	-0.5763855	
10.5	-0.766449	0.5280762	
10.69	-0.2199707	0.9578247	
10.88	0.4472046	0.8845825	
11.07	0.9560547	0.1942749	
11.26	0.6376953	-0.8005981	
11.45	-0.7784424	-0.2920227	
11.64	0.4672241	0.6065369	
11.83	0.8616943	0.1571655	
12.02	0.8874512	-0.1969604	
12.21	0.7312927	-0.502594	
12.4	0.1612549	-0.8269043	
12.59	-0.2711182	0.6665039	
12.78	0.6221924	-0.4117432	
12.97	0.2166138	-0.7926636	
13.16	-0.1885986	-0.8616943	
13.35	-0.5493164	-0.7038574	
13.54	-0.4973755	-0.5303345	
13.73	-0.7906494	0.5009155	
13.92	-0.3321533	0.7822266	
14.11	-0.1512756	-0.7381897	
14.3	-0.5437927	0.0809631	
14.49	-0.9260864	0.3465576	
14.68	-0.7996216	0.5276794	
14.87	-0.3391724	0.813324	
15.06	0.290863	0.7859192	
15.25	0.7945251	0.3006592	
15.44	0.5797119	-0.5864868	
15.63	-0.703125	-0.354126	
15.82	-0.4417419	0.5671082	
16.01	0.47229	0.811554	
16.2	-0.3842163	-0.3465118	
16.39	0.8994751	0.1342163	
16.58	0.2294922	0.4042053	
16.77	0.7992859	-0.08099365	
16.96	0.5869446	-0.5721741	
17.15	0.694397	-0.2859497	
17.34	0.5585022	-0.5556641	
17.53	0.1993713	-0.7834778	
17.72	-0.09780884	-0.7172241	
17.91	-0.2165222	-0.7492065	
18.1	-0.6676025	-0.8584595	
18.29	-0.9465332	-0.3308105	
18.48	-0.5315857	0.0302124	
18.67	-1.011292	-0.1484375	
18.86	-0.8912964	-0.03106689	
19.05	-0.1804504	0.5406189	
19.24	-0.9137573	0.5048828	
19.43	-0.8013306	0.7585449	
19.62	-0.6575317	0.7450867	
19.81	0.1282043	0.7292786	
20.0	-0.02484131	0.8500366	
