# GHz S RI R 50 
!freq	ReS11	ImS11	
1.0	-0.578064	-0.2554321	
1.19	-0.6876831	0.0206909	
1.38	-0.6600342	0.2994385	
1.57	-0.5305176	0.5360718	
1.76	-0.274231	0.7463379	
1.95	0.0750122	0.8128052	
2.14	0.4036255	0.7469482	
2.33	0.6791382	0.5606689	
2.52	0.824585	0.2797852	
2.71	0.9160767	-0.07342529	
2.9	0.8342285	-0.40625	
3.09	0.6107788	-0.7088623	
3.28	0.3000488	-0.8568115	
3.47	-0.01074219	-0.9332275	
3.66	-0.336792	-0.8453979	
3.85	-0.6544189	-0.6470947	
4.04	-0.8411865	-0.2852173	
4.23	-0.9111938	0.0650635	
4.42	-0.8017578	0.4158325	
4.61	-0.5786133	0.7279053	
4.8	-0.2105103	0.9203491	
4.99	0.2139282	0.947937	
5.18	0.6270752	0.7813416	
5.37	0.9460449	0.3929443	
5.56	1.04541	-0.03570557	
5.75	0.9501953	-0.3982544	
5.94	0.5808716	-0.7820435	
6.13	0.0413818	-0.9743042	
6.32	-0.4094849	-0.8686523	
6.51	-0.755127	-0.5266113	
6.7	-0.9468994	0.0129395	
6.89	0.8467407	-0.5032349	
7.08	-0.8960571	0.1229858	
7.27	-0.456665	0.7532959	
7.46	0.5661316	0.6853027	
7.65	-0.1313477	-0.9100952	
7.84	-0.8237305	0.5425415	
8.03	0.1426392	0.9125977	
8.22	0.9379272	0.1621704	
8.41	0.1547852	-0.9952393	
8.6	-0.8880005	0.2441406	
8.79	0.1498413	0.9160767	
8.98	0.878418	0.3753967	
9.17	0.5039673	-0.8132019	
9.36	-0.7785034	-0.5497742	
9.55	-0.8877563	0.269043	
9.74	-0.2834473	0.9112549	
9.93	0.8173218	0.4911804	
10.12	0.5306396	-0.8548584	
10.31	-0.7567444	-0.5764465	
10.5	-0.7718811	0.526947	
10.69	-0.2290649	0.9563599	
10.88	0.451355	0.8831177	
11.07	0.9562988	0.194458	
11.26	0.6323547	-0.8024292	
11.45	-0.7801819	-0.2919312	
11.64	0.4628296	0.6106873	
11.83	0.8620605	0.1572876	
12.02	0.8866577	-0.1974487	
12.21	0.7354736	-0.5005798	
12.4	0.1652222	-0.8254395	
12.59	-0.2736816	0.664032	
12.78	0.6212463	-0.406311	
12.97	0.2127075	-0.7962646	
13.16	-0.1875	-0.8601074	
13.35	-0.5501709	-0.6983032	
13.54	-0.5039978	-0.532196	
13.73	-0.786499	0.4972534	
13.92	-0.3288574	0.7808838	
14.11	-0.1479492	-0.7354736	
14.3	-0.5446777	0.0812378	
14.49	-0.9238586	0.349884	
14.68	-0.7973328	0.5309753	
14.87	-0.3431702	0.8152466	
15.06	0.2932434	0.7855225	
15.25	0.7928162	0.302063	
15.44	0.5798035	-0.5917053	
15.63	-0.7037048	-0.3594666	
15.82	-0.4418945	0.564209	
16.01	0.4754028	0.811615	
16.2	-0.3810272	-0.348465	
16.39	0.8999023	0.134552	
16.58	0.2240448	0.4034729	
16.77	0.7990112	-0.08026123	
16.96	0.5856018	-0.5709534	
17.15	0.6932678	-0.2849731	
17.34	0.556427	-0.5490723	
17.53	0.2019653	-0.7909546	
17.72	-0.1015625	-0.7097778	
17.91	-0.2155151	-0.7472839	
18.1	-0.6674805	-0.8655701	
18.29	-0.9437866	-0.3322144	
18.48	-0.5323181	0.0295715	
18.67	-1.011108	-0.1484985	
18.86	-0.8914795	-0.03137207	
19.05	-0.1817627	0.5387573	
19.24	-0.9146729	0.5070801	
19.43	-0.8046265	0.7607422	
19.62	-0.6625977	0.7397461	
19.81	0.1243591	0.7242126	
20.0	-0.02160645	0.8509521	
