# GHz S RI R 50 
!freq	ReS11	ImS11	
1.0	-0.578064	-0.2565918	
1.19	-0.6873169	0.0211182	
1.38	-0.6610107	0.2991333	
1.57	-0.5258789	0.5371094	
1.76	-0.2711182	0.7492676	
1.95	0.0719604	0.807312	
2.14	0.402832	0.746521	
2.33	0.6746216	0.5617065	
2.52	0.8267212	0.2803955	
2.71	0.9165649	-0.07318115	
2.9	0.8321533	-0.4080811	
3.09	0.6104736	-0.7042847	
3.28	0.3015137	-0.8637695	
3.47	-0.006469727	-0.9326782	
3.66	-0.3358765	-0.8405762	
3.85	-0.6576538	-0.6503906	
4.04	-0.8413086	-0.286499	
4.23	-0.9103394	0.0651855	
4.42	-0.802063	0.4152832	
4.61	-0.5734863	0.7216187	
4.8	-0.2197876	0.9207764	
4.99	0.2241211	0.9440918	
5.18	0.6274414	0.7822266	
5.37	0.9470825	0.3925171	
5.56	1.044739	-0.03485107	
5.75	0.9472656	-0.399292	
5.94	0.5824585	-0.7843628	
6.13	0.0424194	-0.9708862	
6.32	-0.4070435	-0.8693848	
6.51	-0.7553711	-0.5299683	
6.7	-0.9476318	0.0131226	
6.89	0.8410645	-0.5036621	
7.08	-0.8944092	0.1233521	
7.27	-0.446106	0.7490845	
7.46	0.5676575	0.6815186	
7.65	-0.1378784	-0.9130859	
7.84	-0.824646	0.5435791	
8.03	0.1442261	0.9126587	
8.22	0.9384155	0.1618652	
8.41	0.1550293	-0.9936523	
8.6	-0.8890991	0.241333	
8.79	0.1443481	0.9194336	
8.98	0.8778076	0.3739014	
9.17	0.5044556	-0.8133545	
9.36	-0.776825	-0.5522461	
9.55	-0.8903809	0.272644	
9.74	-0.2804565	0.9188232	
9.93	0.8191528	0.4932556	
10.12	0.5222168	-0.8589478	
10.31	-0.7614746	-0.5771179	
10.5	-0.7645569	0.5248718	
10.69	-0.2244263	0.9654541	
10.88	0.4562988	0.8841553	
11.07	0.956543	0.1951294	
11.26	0.6458435	-0.80896	
11.45	-0.7788696	-0.2918396	
11.64	0.465271	0.6092224	
11.83	0.8616943	0.1582031	
12.02	0.8870239	-0.1982422	
12.21	0.7335205	-0.5010071	
12.4	0.1530151	-0.821106	
12.59	-0.275238	0.6686401	
12.78	0.6243286	-0.4186096	
12.97	0.2132568	-0.7941895	
13.16	-0.1829834	-0.861084	
13.35	-0.5561523	-0.6987305	
13.54	-0.5004578	-0.5320129	
13.73	-0.7929382	0.4974365	
13.92	-0.3268433	0.7858276	
14.11	-0.1557312	-0.7344055	
14.3	-0.5442505	0.0806274	
14.49	-0.9266968	0.3529358	
14.68	-0.7968445	0.5298767	
14.87	-0.3459473	0.8131409	
15.06	0.2934875	0.7860718	
15.25	0.7942505	0.3008728	
15.44	0.581543	-0.5875549	
15.63	-0.7023926	-0.35849	
15.82	-0.440979	0.5682678	
16.01	0.4749451	0.8111572	
16.2	-0.3818054	-0.3499146	
16.39	0.9003906	0.1345215	
16.58	0.2316589	0.4016724	
16.77	0.7997131	-0.08010864	
16.96	0.5879211	-0.5775146	
17.15	0.6933289	-0.2862854	
17.34	0.5582886	-0.553009	
17.53	0.2043457	-0.7831116	
17.72	-0.09829712	-0.7148743	
17.91	-0.2165833	-0.7486877	
18.1	-0.6662598	-0.8656006	
18.29	-0.9448853	-0.3299561	
18.48	-0.5323181	0.0305481	
18.67	-1.010132	-0.1484985	
18.86	-0.8914185	-0.03082275	
19.05	-0.1787109	0.5412903	
19.24	-0.9130249	0.5123901	
19.43	-0.8018799	0.7598267	
19.62	-0.6593933	0.7467957	
19.81	0.1279602	0.7262573	
20.0	-0.03039551	0.8501587	
