# GHz S RI R 50 
!freq	ReS11	ImS11	
1.0	-0.5780029	-0.2550049	
1.19	-0.6878052	0.0209351	
1.38	-0.6600952	0.2990112	
1.57	-0.5302734	0.539978	
1.76	-0.2662964	0.7484741	
1.95	0.0735474	0.8131104	
2.14	0.4032593	0.7445679	
2.33	0.6760254	0.5616455	
2.52	0.8259888	0.2802124	
2.71	0.9162598	-0.07348633	
2.9	0.8303223	-0.4070435	
3.09	0.6087036	-0.7064819	
3.28	0.2965698	-0.8548584	
3.47	-0.01037598	-0.9285278	
3.66	-0.3421021	-0.8413696	
3.85	-0.6578369	-0.6504517	
4.04	-0.8407593	-0.284729	
4.23	-0.9105835	0.0655518	
4.42	-0.8015747	0.4111938	
4.61	-0.5767212	0.7260132	
4.8	-0.2171631	0.9157715	
4.99	0.2218018	0.9463501	
5.18	0.6275635	0.7840576	
5.37	0.9481201	0.3892212	
5.56	1.044922	-0.03607178	
5.75	0.9450073	-0.3931274	
5.94	0.5822144	-0.7860107	
6.13	0.0443726	-0.9736328	
6.32	-0.4157104	-0.8742676	
6.51	-0.7549438	-0.5289307	
6.7	-0.9475708	0.0134277	
6.89	0.8452148	-0.5081177	
7.08	-0.8948364	0.1240234	
7.27	-0.4442139	0.7489014	
7.46	0.5582275	0.6826782	
7.65	-0.1333618	-0.9074097	
7.84	-0.826355	0.5406494	
8.03	0.1390381	0.9074097	
8.22	0.9381714	0.161377	
8.41	0.1506348	-0.9957886	
8.6	-0.8867798	0.2452393	
8.79	0.1494751	0.9182739	
8.98	0.8796387	0.3729858	
9.17	0.5061951	-0.8068237	
9.36	-0.7741089	-0.5465088	
9.55	-0.8893433	0.270752	
9.74	-0.2901611	0.9225464	
9.93	0.8156738	0.4930115	
10.12	0.520813	-0.8555908	
10.31	-0.7594604	-0.5760498	
10.5	-0.7712097	0.524231	
10.69	-0.2370605	0.961731	
10.88	0.4536743	0.8828125	
11.07	0.9564819	0.194519	
11.26	0.640625	-0.8043518	
11.45	-0.7779846	-0.2939758	
11.64	0.4602356	0.607666	
11.83	0.861084	0.1581421	
12.02	0.8850708	-0.1950073	
12.21	0.7295227	-0.5014038	
12.4	0.1640625	-0.822937	
12.59	-0.2755432	0.6685181	
12.78	0.6261902	-0.4059753	
12.97	0.2108154	-0.7946777	
13.16	-0.1854248	-0.862915	
13.35	-0.5509033	-0.701416	
13.54	-0.5020752	-0.5333862	
13.73	-0.7898254	0.4994812	
13.92	-0.3314514	0.7800598	
14.11	-0.1502991	-0.7398376	
14.3	-0.5433044	0.0785217	
14.49	-0.9286804	0.3492737	
14.68	-0.7992859	0.5319214	
14.87	-0.3446045	0.8058777	
15.06	0.293396	0.7932434	
15.25	0.7961731	0.2997437	
15.44	0.5782471	-0.5852966	
15.63	-0.7074585	-0.3518982	
15.82	-0.4338684	0.5691833	
16.01	0.473938	0.8085327	
16.2	-0.3849335	-0.3444824	
16.39	0.9003906	0.1337891	
16.58	0.2310791	0.4063263	
16.77	0.7996826	-0.08203125	
16.96	0.585083	-0.5742188	
17.15	0.6937866	-0.2896729	
17.34	0.5537109	-0.5530701	
17.53	0.1957703	-0.7835999	
17.72	-0.100708	-0.7149353	
17.91	-0.2187805	-0.7327881	
18.1	-0.6623535	-0.8649292	
18.29	-0.9463501	-0.3287964	
18.48	-0.5299072	0.0320129	
18.67	-1.011047	-0.1479492	
18.86	-0.8916016	-0.03039551	
19.05	-0.1754761	0.5392761	
19.24	-0.9163818	0.508667	
19.43	-0.8068848	0.7670898	
19.62	-0.6606445	0.743103	
19.81	0.1299133	0.7243042	
20.0	-0.02392578	0.8483276	
