# GHz S RI R 50 
!freq	ReS11	ImS11	
1.0	-0.5792236	-0.2543945	
1.19	-0.6878052	0.020752	
1.38	-0.6586914	0.2987671	
1.57	-0.5301514	0.5372925	
1.76	-0.2732544	0.7484741	
1.95	0.0728149	0.8112793	
2.14	0.4039307	0.7458496	
2.33	0.6724854	0.5587769	
2.52	0.8267822	0.2786865	
2.71	0.916626	-0.07415771	
2.9	0.8295898	-0.4068604	
3.09	0.6069946	-0.7049561	
3.28	0.2993774	-0.8547363	
3.47	-0.01208496	-0.9365845	
3.66	-0.3396606	-0.8477783	
3.85	-0.6610107	-0.6511841	
4.04	-0.8411255	-0.2846069	
4.23	-0.9110718	0.0664673	
4.42	-0.8024292	0.4089966	
4.61	-0.5731201	0.7156372	
4.8	-0.211792	0.9198608	
4.99	0.2111816	0.9437256	
5.18	0.6269531	0.7828064	
5.37	0.9477539	0.390625	
5.56	1.045105	-0.03625488	
5.75	0.9467773	-0.3920288	
5.94	0.5789185	-0.7858276	
6.13	0.0477905	-0.9672852	
6.32	-0.4165649	-0.8623657	
6.51	-0.7525635	-0.5280151	
6.7	-0.9483032	0.0133667	
6.89	0.8415527	-0.5043335	
7.08	-0.8953247	0.1227417	
7.27	-0.4481812	0.7451172	
7.46	0.5628357	0.6826172	
7.65	-0.138916	-0.9123535	
7.84	-0.826416	0.5404053	
8.03	0.1386719	0.9104614	
8.22	0.9381714	0.1613159	
8.41	0.1509399	-0.9856567	
8.6	-0.8866272	0.2455139	
8.79	0.1471558	0.9125977	
8.98	0.8798218	0.3731689	
9.17	0.5083313	-0.8128052	
9.36	-0.7739563	-0.5465088	
9.55	-0.8894653	0.2723999	
9.74	-0.2843018	0.9137573	
9.93	0.8179626	0.4940186	
10.12	0.5275269	-0.848999	
10.31	-0.7591553	-0.5764771	
10.5	-0.7709351	0.5267639	
10.69	-0.2208862	0.9556274	
10.88	0.4551392	0.8781128	
11.07	0.956665	0.1931763	
11.26	0.6365967	-0.8037415	
11.45	-0.7752991	-0.290741	
11.64	0.4592285	0.6061096	
11.83	0.8596802	0.1582031	
12.02	0.8872681	-0.196167	
12.21	0.7281494	-0.5004578	
12.4	0.1636963	-0.8196411	
12.59	-0.2804565	0.6676331	
12.78	0.630188	-0.4067688	
12.97	0.2145386	-0.7972412	
13.16	-0.1783447	-0.8577271	
13.35	-0.5459595	-0.7045898	
13.54	-0.5012817	-0.5320435	
13.73	-0.7857971	0.5038452	
13.92	-0.3278198	0.7825623	
14.11	-0.1509399	-0.7404785	
14.3	-0.5424194	0.0766296	
14.49	-0.9260559	0.3495178	
14.68	-0.7975464	0.5258789	
14.87	-0.3522034	0.8103027	
15.06	0.2929382	0.7809753	
15.25	0.7949524	0.3006897	
15.44	0.5805054	-0.5917664	
15.63	-0.7052917	-0.3535156	
15.82	-0.4362183	0.5674744	
16.01	0.4736633	0.8110352	
16.2	-0.3829956	-0.3462067	
16.39	0.9002075	0.1334839	
16.58	0.231781	0.4015503	
16.77	0.7964478	-0.08093262	
16.96	0.5940857	-0.5786743	
17.15	0.6900635	-0.2851868	
17.34	0.5531921	-0.54953	
17.53	0.2008972	-0.7814331	
17.72	-0.097229	-0.7102661	
17.91	-0.2144775	-0.7483215	
18.1	-0.6734619	-0.8614502	
18.29	-0.9411621	-0.3319092	
18.48	-0.5343018	0.0213013	
18.67	-1.01123	-0.1480103	
18.86	-0.8909302	-0.02972412	
19.05	-0.1850891	0.5388184	
19.24	-0.9151611	0.5078735	
19.43	-0.796875	0.760376	
19.62	-0.6604004	0.7467346	
19.81	0.1293945	0.728363	
20.0	-0.02716064	0.8395996	
