# GHz S RI R 50 
!freq	ReS11	ImS11	
1.0	-0.5770874	-0.2532349	
1.19	-0.687561	0.0206299	
1.38	-0.6625977	0.296814	
1.57	-0.5265503	0.5361328	
1.76	-0.2731323	0.7485962	
1.95	0.0701294	0.8149414	
2.14	0.4016113	0.7495728	
2.33	0.6785278	0.560791	
2.52	0.8249512	0.277832	
2.71	0.9161987	-0.07299805	
2.9	0.8320923	-0.4070435	
3.09	0.6036377	-0.7079468	
3.28	0.3002319	-0.8498535	
3.47	-0.007202148	-0.9326782	
3.66	-0.3372192	-0.8515015	
3.85	-0.6619263	-0.6519775	
4.04	-0.8400879	-0.2875977	
4.23	-0.9106445	0.0648193	
4.42	-0.8022461	0.4091797	
4.61	-0.5720825	0.7249146	
4.8	-0.2132568	0.9189453	
4.99	0.2199097	0.9415894	
5.18	0.6270142	0.7844543	
5.37	0.946106	0.3903198	
5.56	1.045471	-0.0345459	
5.75	0.946228	-0.399231	
5.94	0.5784302	-0.7915649	
6.13	0.0493164	-0.9732666	
6.32	-0.40979	-0.8693237	
6.51	-0.7583008	-0.5279541	
6.7	-0.9466553	0.0134277	
6.89	0.845459	-0.5050049	
7.08	-0.8942261	0.1223145	
7.27	-0.4488525	0.7547607	
7.46	0.5656738	0.681366	
7.65	-0.1351929	-0.9191284	
7.84	-0.8227539	0.5410767	
8.03	0.1395874	0.9187622	
8.22	0.9384766	0.161438	
8.41	0.1541138	-0.9975586	
8.6	-0.8869629	0.2442627	
8.79	0.1477661	0.9161377	
8.98	0.8774109	0.3715515	
9.17	0.502533	-0.8067932	
9.36	-0.7790527	-0.5476074	
9.55	-0.8892822	0.2700195	
9.74	-0.2935181	0.9165039	
9.93	0.8123779	0.4911804	
10.12	0.5311279	-0.8518677	
10.31	-0.7612915	-0.5790405	
10.5	-0.7696228	0.5293274	
10.69	-0.2357788	0.9567261	
10.88	0.4576416	0.8809204	
11.07	0.9559326	0.1946411	
11.26	0.6446838	-0.81073	
11.45	-0.7796936	-0.2926331	
11.64	0.4659424	0.6073914	
11.83	0.8618774	0.1571045	
12.02	0.8869019	-0.1964722	
12.21	0.7291565	-0.5000916	
12.4	0.163147	-0.8248291	
12.59	-0.2763977	0.6665649	
12.78	0.6227722	-0.4108582	
12.97	0.2210693	-0.789856	
13.16	-0.1846924	-0.8625488	
13.35	-0.5458984	-0.7012329	
13.54	-0.4998474	-0.5290833	
13.73	-0.789032	0.495697	
13.92	-0.3305054	0.7796631	
14.11	-0.1496277	-0.7427673	
14.3	-0.5444336	0.080719	
14.49	-0.927948	0.3490906	
14.68	-0.7976379	0.5244446	
14.87	-0.348114	0.8082886	
15.06	0.2928772	0.7895508	
15.25	0.792572	0.3027344	
15.44	0.5814819	-0.5915527	
15.63	-0.70401	-0.3561096	
15.82	-0.4422607	0.5655212	
16.01	0.4787903	0.8123169	
16.2	-0.3814545	-0.3497467	
16.39	0.9001465	0.1341553	
16.58	0.2259369	0.4084625	
16.77	0.7993774	-0.08032227	
16.96	0.5819397	-0.5790405	
17.15	0.692627	-0.2854004	
17.34	0.5586243	-0.5504761	
17.53	0.2017517	-0.7877197	
17.72	-0.09890747	-0.7174072	
17.91	-0.2187805	-0.7467041	
18.1	-0.6667175	-0.8622437	
18.29	-0.9440918	-0.3328857	
18.48	-0.5323181	0.0299377	
18.67	-1.010803	-0.1489258	
18.86	-0.8915405	-0.03131104	
19.05	-0.1762695	0.5396423	
19.24	-0.9135742	0.5117798	
19.43	-0.8009033	0.7610474	
19.62	-0.6582336	0.7481689	
19.81	0.1333313	0.7283325	
20.0	-0.02679443	0.8457642	
