# GHz S RI R 50 
!freq	ReS11	ImS11	
1.0	-0.5774536	-0.2531738	
1.19	-0.6873779	0.0204468	
1.38	-0.6604004	0.2979126	
1.57	-0.53125	0.5346069	
1.76	-0.2738647	0.7510986	
1.95	0.0726929	0.807373	
2.14	0.4059448	0.7463379	
2.33	0.6732178	0.562439	
2.52	0.826355	0.2791138	
2.71	0.9168091	-0.07324219	
2.9	0.8322144	-0.4089966	
3.09	0.6040039	-0.7095947	
3.28	0.2981567	-0.8551636	
3.47	-0.009155273	-0.9307251	
3.66	-0.3383179	-0.8465576	
3.85	-0.6593018	-0.6432495	
4.04	-0.8421631	-0.2854004	
4.23	-0.9116211	0.0653687	
4.42	-0.8052979	0.4130859	
4.61	-0.5786743	0.7227173	
4.8	-0.2271118	0.9188843	
4.99	0.2175293	0.9455566	
5.18	0.6203918	0.7850647	
5.37	0.9468994	0.3924561	
5.56	1.045044	-0.03564453	
5.75	0.9468384	-0.3965454	
5.94	0.5794678	-0.7866211	
6.13	0.0440063	-0.9706421	
6.32	-0.4110107	-0.8647461	
6.51	-0.7547913	-0.5313721	
6.7	-0.947937	0.0126953	
6.89	0.8460083	-0.5058594	
7.08	-0.8950195	0.1229248	
7.27	-0.4535522	0.7503052	
7.46	0.5663757	0.6801453	
7.65	-0.1351318	-0.9133301	
7.84	-0.8274536	0.5495605	
8.03	0.1343994	0.9094849	
8.22	0.9379883	0.1617432	
8.41	0.1553345	-0.9987793	
8.6	-0.8902588	0.2404175	
8.79	0.1468506	0.9199219	
8.98	0.8775635	0.3731079	
9.17	0.5043945	-0.8095093	
9.36	-0.7790527	-0.5496826	
9.55	-0.8898926	0.2731934	
9.74	-0.2808838	0.9262085	
9.93	0.8132935	0.4931641	
10.12	0.5245972	-0.848938	
10.31	-0.7588501	-0.5762329	
10.5	-0.7716675	0.5237122	
10.69	-0.2266235	0.9564209	
10.88	0.4547119	0.8855591	
11.07	0.956543	0.1936035	
11.26	0.6419678	-0.7957764	
11.45	-0.7789612	-0.2915344	
11.64	0.4672546	0.6072998	
11.83	0.8618774	0.1574707	
12.02	0.8877563	-0.1984863	
12.21	0.7324219	-0.5036926	
12.4	0.1676636	-0.8310547	
12.59	-0.2751465	0.6721802	
12.78	0.6252136	-0.4120483	
12.97	0.2073975	-0.7955322	
13.16	-0.18573	-0.8554688	
13.35	-0.5483398	-0.7005005	
13.54	-0.5033875	-0.5298767	
13.73	-0.7929077	0.4985962	
13.92	-0.3253784	0.7779541	
14.11	-0.1499329	-0.7424316	
14.3	-0.543396	0.0809021	
14.49	-0.9265747	0.3502808	
14.68	-0.7971191	0.5275574	
14.87	-0.3425293	0.8128357	
15.06	0.2880554	0.7845459	
15.25	0.7938843	0.302948	
15.44	0.5756531	-0.58255	
15.63	-0.7010803	-0.3575134	
15.82	-0.4416199	0.5663452	
16.01	0.4731445	0.8097534	
16.2	-0.3804779	-0.3516235	
16.39	0.8999634	0.1345215	
16.58	0.2290497	0.4007568	
16.77	0.7997742	-0.08084106	
16.96	0.5878906	-0.5769653	
17.15	0.6933289	-0.2886658	
17.34	0.5576477	-0.5489197	
17.53	0.2049866	-0.7807922	
17.72	-0.09777832	-0.7182007	
17.91	-0.2225952	-0.7475891	
18.1	-0.6699829	-0.8654785	
18.29	-0.9445801	-0.3314819	
18.48	-0.532959	0.0298462	
18.67	-1.011719	-0.1488647	
18.86	-0.8917236	-0.03186035	
19.05	-0.1800537	0.5424194	
19.24	-0.9221802	0.5095825	
19.43	-0.7980957	0.7607422	
19.62	-0.6600952	0.7486572	
19.81	0.131073	0.726593	
20.0	-0.02429199	0.850708	
