# GHz S RI R 50 
!freq	ReS11	ImS11	
1.0	-0.576355	-0.2557373	
1.19	-0.6870117	0.0211182	
1.38	-0.6621094	0.2985229	
1.57	-0.5319214	0.5368652	
1.76	-0.2741089	0.7479248	
1.95	0.0797119	0.8152466	
2.14	0.4030151	0.7468262	
2.33	0.6765747	0.562561	
2.52	0.8258667	0.2787476	
2.71	0.9158325	-0.07336426	
2.9	0.8328247	-0.406189	
3.09	0.6083984	-0.7124634	
3.28	0.3046265	-0.8569336	
3.47	-0.007385254	-0.9185181	
3.66	-0.3397827	-0.8434448	
3.85	-0.6572266	-0.6484985	
4.04	-0.8423462	-0.2844849	
4.23	-0.9095459	0.0650635	
4.42	-0.8024292	0.4101563	
4.61	-0.5841064	0.7157593	
4.8	-0.2285156	0.9187622	
4.99	0.2293701	0.9552002	
5.18	0.6270752	0.7887878	
5.37	0.9472046	0.3938599	
5.56	1.046143	-0.03527832	
5.75	0.9476318	-0.3974609	
5.94	0.5784302	-0.7837524	
6.13	0.0452271	-0.9695435	
6.32	-0.4150391	-0.8649902	
6.51	-0.7589111	-0.5299072	
6.7	-0.9473267	0.0129395	
6.89	0.8477783	-0.5050659	
7.08	-0.8950195	0.1225586	
7.27	-0.4521484	0.7525024	
7.46	0.5586853	0.6817017	
7.65	-0.1339111	-0.9138184	
7.84	-0.8233643	0.5426025	
8.03	0.142395	0.9116821	
8.22	0.9385376	0.1618652	
8.41	0.1502686	-0.9963989	
8.6	-0.8865356	0.2440186	
8.79	0.1512756	0.9142456	
8.98	0.8799438	0.3721313	
9.17	0.5046997	-0.8090515	
9.36	-0.7792969	-0.5456238	
9.55	-0.8869019	0.2709961	
9.74	-0.2846069	0.9108276	
9.93	0.8189087	0.493988	
10.12	0.5267944	-0.8504028	
10.31	-0.7624512	-0.5770874	
10.5	-0.7709045	0.5272827	
10.69	-0.2249146	0.9693604	
10.88	0.4592896	0.8740845	
11.07	0.956665	0.1948242	
11.26	0.6337891	-0.7962036	
11.45	-0.7788391	-0.2926331	
11.64	0.4650269	0.6065674	
11.83	0.8612671	0.1573486	
12.02	0.8884277	-0.1983032	
12.21	0.7272644	-0.4967041	
12.4	0.1657715	-0.8267212	
12.59	-0.2749634	0.6679077	
12.78	0.6203613	-0.4056396	
12.97	0.2151489	-0.7925415	
13.16	-0.1865234	-0.855835	
13.35	-0.5424805	-0.7078247	
13.54	-0.5041809	-0.533844	
13.73	-0.7904968	0.5010071	
13.92	-0.32901	0.7861633	
14.11	-0.1510315	-0.7424316	
14.3	-0.5446777	0.0815125	
14.49	-0.9283447	0.3471375	
14.68	-0.7962036	0.5302734	
14.87	-0.3518066	0.8107605	
15.06	0.2912903	0.7844238	
15.25	0.7934265	0.3028259	
15.44	0.5800476	-0.5899353	
15.63	-0.7041931	-0.3601074	
15.82	-0.4412537	0.5651855	
16.01	0.4729309	0.8096619	
16.2	-0.3823547	-0.3488159	
16.39	0.8994141	0.1345825	
16.58	0.2279663	0.4053802	
16.77	0.7987671	-0.08004761	
16.96	0.5864868	-0.5747375	
17.15	0.6903687	-0.2839355	
17.34	0.5499878	-0.5511169	
17.53	0.1980896	-0.7832947	
17.72	-0.09622192	-0.7177429	
17.91	-0.2206116	-0.7442322	
18.1	-0.6733704	-0.8641052	
18.29	-0.9441528	-0.3310547	
18.48	-0.5325623	0.0302124	
18.67	-1.01123	-0.1487427	
18.86	-0.8913574	-0.03167725	
19.05	-0.1798706	0.5392151	
19.24	-0.9159546	0.5067749	
19.43	-0.796814	0.7635498	
19.62	-0.6591797	0.7434387	
19.81	0.127533	0.7259216	
20.0	-0.02130127	0.8452759	
