# GHz S RI R 50 
!freq	ReS11	ImS11	
1.0	-0.5784912	-0.2547607	
1.19	-0.6872559	0.0209961	
1.38	-0.6621704	0.2973633	
1.57	-0.5328979	0.5379028	
1.76	-0.2717896	0.7479858	
1.95	0.0765381	0.8153687	
2.14	0.4041138	0.7466431	
2.33	0.6751709	0.5614014	
2.52	0.8251953	0.279541	
2.71	0.9152832	-0.07470703	
2.9	0.8306274	-0.4060059	
3.09	0.6072388	-0.7077026	
3.28	0.2980347	-0.8562012	
3.47	-0.01080322	-0.9371338	
3.66	-0.3416748	-0.8445435	
3.85	-0.6594849	-0.6484985	
4.04	-0.8424072	-0.2848511	
4.23	-0.9099731	0.0648193	
4.42	-0.8025513	0.4127197	
4.61	-0.583313	0.723999	
4.8	-0.2201538	0.9178467	
4.99	0.2162476	0.9553833	
5.18	0.6238708	0.7752991	
5.37	0.9475708	0.392334	
5.56	1.04541	-0.03515625	
5.75	0.9456177	-0.3968506	
5.94	0.5745239	-0.788208	
6.13	0.050293	-0.973877	
6.32	-0.4110107	-0.8644409	
6.51	-0.7570801	-0.5314331	
6.7	-0.9481812	0.0128784	
6.89	0.8442993	-0.4998779	
7.08	-0.894104	0.1220703	
7.27	-0.4501953	0.7513428	
7.46	0.5646362	0.6808777	
7.65	-0.1340332	-0.9026489	
7.84	-0.8228149	0.5482788	
8.03	0.1418457	0.9050903	
8.22	0.9380493	0.1619263	
8.41	0.1602173	-0.9954224	
8.6	-0.8879089	0.2428284	
8.79	0.1478882	0.9163208	
8.98	0.8812256	0.3726807	
9.17	0.5042725	-0.8109436	
9.36	-0.776062	-0.5482483	
9.55	-0.8922119	0.270813	
9.74	-0.2885742	0.9206543	
9.93	0.8144226	0.4939575	
10.12	0.5269165	-0.8601074	
10.31	-0.7615356	-0.575531	
10.5	-0.7697754	0.5265503	
10.69	-0.2293091	0.9667358	
10.88	0.4568481	0.8890381	
11.07	0.9552612	0.1959229	
11.26	0.6400757	-0.7983704	
11.45	-0.7773743	-0.2920837	
11.64	0.4642029	0.6097717	
11.83	0.8626099	0.1566162	
12.02	0.8869629	-0.1969604	
12.21	0.7303772	-0.500946	
12.4	0.1602173	-0.8290405	
12.59	-0.2730103	0.6653137	
12.78	0.6191406	-0.4086304	
12.97	0.2181396	-0.7912598	
13.16	-0.1838379	-0.8512573	
13.35	-0.550415	-0.7025757	
13.54	-0.4992371	-0.5293579	
13.73	-0.7897339	0.4967651	
13.92	-0.3294373	0.7874451	
14.11	-0.1487732	-0.7384033	
14.3	-0.5450134	0.0817566	
14.49	-0.9267273	0.3510742	
14.68	-0.800293	0.5231018	
14.87	-0.3457947	0.8125305	
15.06	0.300415	0.7868958	
15.25	0.7936401	0.3046875	
15.44	0.5783997	-0.5806885	
15.63	-0.7017517	-0.3585815	
15.82	-0.4408569	0.5671692	
16.01	0.4740601	0.8106689	
16.2	-0.382843	-0.3485565	
16.39	0.8997498	0.1342163	
16.58	0.2263336	0.3996582	
16.77	0.8004761	-0.08074951	
16.96	0.5888672	-0.57901	
17.15	0.6931152	-0.2840881	
17.34	0.5565186	-0.5510559	
17.53	0.2067871	-0.7832642	
17.72	-0.09945679	-0.7209167	
17.91	-0.21521	-0.7463989	
18.1	-0.6714783	-0.8674622	
18.29	-0.9431152	-0.3323364	
18.48	-0.5324707	0.0308533	
18.67	-1.01123	-0.1489258	
18.86	-0.8914185	-0.03186035	
19.05	-0.1825562	0.5443726	
19.24	-0.9156494	0.5065918	
19.43	-0.8069458	0.7614746	
19.62	-0.6582031	0.7492676	
19.81	0.1335144	0.7300415	
20.0	-0.02532959	0.8452759	
