# GHz S RI R 50 
!freq	ReS11	ImS11	
1.0	-0.5801392	-0.2545166	
1.19	-0.6869507	0.0206299	
1.38	-0.661499	0.2997437	
1.57	-0.5310059	0.5387573	
1.76	-0.2723999	0.7492065	
1.95	0.0765381	0.8109131	
2.14	0.4033813	0.7470703	
2.33	0.6716919	0.5625	
2.52	0.8267822	0.2807007	
2.71	0.9153442	-0.07269287	
2.9	0.8297119	-0.4035034	
3.09	0.6032715	-0.7035522	
3.28	0.3005371	-0.8543701	
3.47	-0.007019043	-0.9296875	
3.66	-0.3342285	-0.8469238	
3.85	-0.6586304	-0.6525879	
4.04	-0.840271	-0.2845459	
4.23	-0.9102173	0.0646973	
4.42	-0.8026733	0.4142456	
4.61	-0.5818481	0.7212524	
4.8	-0.2178955	0.9202881	
4.99	0.2133789	0.9510498	
5.18	0.627594	0.7889404	
5.37	0.9477539	0.390686	
5.56	1.045837	-0.03521729	
5.75	0.9454346	-0.3985596	
5.94	0.5789185	-0.7867432	
6.13	0.0407104	-0.9692993	
6.32	-0.4123535	-0.8740234	
6.51	-0.752655	-0.5302734	
6.7	-0.9487305	0.013916	
6.89	0.8458862	-0.5032349	
7.08	-0.8942871	0.1220703	
7.27	-0.4564819	0.7479858	
7.46	0.5649109	0.6809998	
7.65	-0.1347656	-0.9178467	
7.84	-0.8231201	0.5386963	
8.03	0.1397095	0.9135742	
8.22	0.9380493	0.1609497	
8.41	0.1514893	-0.9960327	
8.6	-0.8875732	0.2436218	
8.79	0.1445313	0.9147339	
8.98	0.8791809	0.3742065	
9.17	0.5058899	-0.8094177	
9.36	-0.7753906	-0.5496826	
9.55	-0.8898315	0.2694702	
9.74	-0.2908936	0.9196777	
9.93	0.8153687	0.4943848	
10.12	0.5245361	-0.8554688	
10.31	-0.7592163	-0.574707	
10.5	-0.7658691	0.5262146	
10.69	-0.2249146	0.9619751	
10.88	0.451355	0.8814087	
11.07	0.9555664	0.194519	
11.26	0.6440735	-0.7979126	
11.45	-0.7770386	-0.2928162	
11.64	0.4616394	0.6062622	
11.83	0.8608398	0.1575317	
12.02	0.8879395	-0.1950073	
12.21	0.7290955	-0.4989929	
12.4	0.1587524	-0.8253174	
12.59	-0.2789307	0.6669617	
12.78	0.626709	-0.4072876	
12.97	0.2158813	-0.7980957	
13.16	-0.1864014	-0.8563232	
13.35	-0.5427856	-0.7067261	
13.54	-0.5066223	-0.533783	
13.73	-0.794342	0.4986267	
13.92	-0.3306274	0.7808228	
14.11	-0.1533508	-0.7341919	
14.3	-0.5432129	0.0784607	
14.49	-0.9297485	0.3506775	
14.68	-0.8047791	0.5301514	
14.87	-0.3404236	0.8104248	
15.06	0.2932129	0.7870789	
15.25	0.7947998	0.3013	
15.44	0.5744019	-0.5958862	
15.63	-0.7069397	-0.3527527	
15.82	-0.4370728	0.565918	
16.01	0.477356	0.8119202	
16.2	-0.3845673	-0.3442078	
16.39	0.8999329	0.1339722	
16.58	0.2319641	0.406189	
16.77	0.8005371	-0.08169556	
16.96	0.5875854	-0.5759583	
17.15	0.6931763	-0.2871704	
17.34	0.5529175	-0.5553589	
17.53	0.2013245	-0.7893066	
17.72	-0.09890747	-0.7160034	
17.91	-0.2189941	-0.7431641	
18.1	-0.6690369	-0.8695068	
18.29	-0.9477539	-0.3311157	
18.48	-0.5307617	0.0310974	
18.67	-1.010925	-0.1481323	
18.86	-0.8920288	-0.03082275	
19.05	-0.180603	0.5411682	
19.24	-0.9129639	0.5108032	
19.43	-0.8091431	0.7653198	
19.62	-0.6604309	0.7477417	
19.81	0.1300964	0.7251892	
20.0	-0.02105713	0.8510742	
