# GHz S RI R 50 
!freq	ReS11	ImS11	
1.0	-0.5793457	-0.25354	
1.19	-0.687561	0.020874	
1.38	-0.6619263	0.2962646	
1.57	-0.5302124	0.5376587	
1.76	-0.269104	0.7515869	
1.95	0.0740356	0.8112183	
2.14	0.4083862	0.7487183	
2.33	0.6743774	0.5619507	
2.52	0.826416	0.2787476	
2.71	0.9157715	-0.07476807	
2.9	0.8302612	-0.4057617	
3.09	0.6089478	-0.7022705	
3.28	0.2990723	-0.8587036	
3.47	-0.01379395	-0.9359741	
3.66	-0.340332	-0.8499756	
3.85	-0.65979	-0.6497192	
4.04	-0.8405151	-0.2843628	
4.23	-0.9095459	0.0650024	
4.42	-0.8044434	0.4152222	
4.61	-0.5803833	0.727478	
4.8	-0.2125244	0.9220581	
4.99	0.2220459	0.9414063	
5.18	0.6286316	0.7881165	
5.37	0.9480591	0.392395	
5.56	1.045532	-0.03570557	
5.75	0.949707	-0.3977661	
5.94	0.5836792	-0.7863159	
6.13	0.0476074	-0.9714966	
6.32	-0.4080811	-0.8707275	
6.51	-0.755249	-0.5269775	
6.7	-0.9477539	0.0135498	
6.89	0.8444824	-0.5050659	
7.08	-0.8959351	0.1231689	
7.27	-0.4509277	0.7522583	
7.46	0.5653381	0.6833496	
7.65	-0.1308594	-0.9138184	
7.84	-0.8223267	0.5481567	
8.03	0.1347046	0.9133911	
8.22	0.9381104	0.1625366	
8.41	0.1531372	-0.9973145	
8.6	-0.8872681	0.2440796	
8.79	0.1454468	0.9237671	
8.98	0.8803101	0.3718262	
9.17	0.5067749	-0.8085022	
9.36	-0.7773132	-0.550415	
9.55	-0.8875122	0.2730103	
9.74	-0.2861328	0.9173584	
9.93	0.8162231	0.4942932	
10.12	0.5253296	-0.8504639	
10.31	-0.759613	-0.5794678	
10.5	-0.769104	0.5282288	
10.69	-0.2375488	0.9622803	
10.88	0.4569702	0.8862915	
11.07	0.9569092	0.1960449	
11.26	0.6445618	-0.8013306	
11.45	-0.7782288	-0.2922974	
11.64	0.4718933	0.6076965	
11.83	0.8623047	0.1569824	
12.02	0.887207	-0.197937	
12.21	0.7365723	-0.5033569	
12.4	0.1572266	-0.8275146	
12.59	-0.276947	0.6622314	
12.78	0.6226196	-0.4131165	
12.97	0.2063599	-0.7921753	
13.16	-0.1898804	-0.8579102	
13.35	-0.5521851	-0.710144	
13.54	-0.4975891	-0.532135	
13.73	-0.7893677	0.4942932	
13.92	-0.3257141	0.7788086	
14.11	-0.1513367	-0.736084	
14.3	-0.5451965	0.0817871	
14.49	-0.9301147	0.3501892	
14.68	-0.7997131	0.5288391	
14.87	-0.3445435	0.8046265	
15.06	0.2936401	0.7917786	
15.25	0.7946472	0.3007202	
15.44	0.5766907	-0.5775757	
15.63	-0.7013245	-0.3578491	
15.82	-0.4409485	0.5637817	
16.01	0.4723816	0.8086853	
16.2	-0.3816528	-0.3477173	
16.39	0.8997803	0.1348267	
16.58	0.224762	0.4030609	
16.77	0.7999878	-0.08010864	
16.96	0.5862427	-0.5740051	
17.15	0.691864	-0.2840576	
17.34	0.559082	-0.54776	
17.53	0.2064514	-0.7848816	
17.72	-0.09817505	-0.721405	
17.91	-0.2192688	-0.7478027	
18.1	-0.6658325	-0.8690796	
18.29	-0.9428711	-0.3313599	
18.48	-0.5321045	0.029541	
18.67	-1.011719	-0.1496582	
18.86	-0.8917236	-0.03186035	
19.05	-0.1810608	0.54245	
19.24	-0.9185791	0.5074463	
19.43	-0.7980347	0.7553101	
19.62	-0.6524353	0.7436218	
19.81	0.1317444	0.7228088	
20.0	-0.0246582	0.8513794	
