# GHz S RI R 50 
!freq	ReS11	ImS11	
1.0	-0.5770264	-0.2539063	
1.19	-0.6871338	0.0212402	
1.38	-0.6584473	0.2984619	
1.57	-0.5337524	0.538269	
1.76	-0.2727661	0.7456665	
1.95	0.074585	0.8074951	
2.14	0.4033203	0.7463989	
2.33	0.6735229	0.5630493	
2.52	0.8262939	0.2789917	
2.71	0.9161377	-0.07269287	
2.9	0.831604	-0.4066772	
3.09	0.6065063	-0.7080688	
3.28	0.2997437	-0.8585815	
3.47	-0.01251221	-0.9344482	
3.66	-0.3359985	-0.8442383	
3.85	-0.6569824	-0.6502686	
4.04	-0.8411865	-0.2835693	
4.23	-0.90979	0.0652466	
4.42	-0.7994385	0.4151611	
4.61	-0.5795288	0.725647	
4.8	-0.2184448	0.9161377	
4.99	0.2272339	0.9480591	
5.18	0.6268616	0.7873535	
5.37	0.9464111	0.3912964	
5.56	1.0448	-0.03540039	
5.75	0.9453125	-0.3967896	
5.94	0.5818481	-0.7828369	
6.13	0.0422363	-0.9711304	
6.32	-0.4143677	-0.868103	
6.51	-0.7562866	-0.5294189	
6.7	-0.9478149	0.0130615	
6.89	0.8441162	-0.5055542	
7.08	-0.8945923	0.1235962	
7.27	-0.454895	0.7511597	
7.46	0.5631714	0.6807861	
7.65	-0.1360474	-0.9140625	
7.84	-0.8259277	0.5454102	
8.03	0.1295776	0.9193726	
8.22	0.9378052	0.1619263	
8.41	0.1570435	-0.9909058	
8.6	-0.8878784	0.2459106	
8.79	0.1525879	0.9181519	
8.98	0.8786926	0.3758545	
9.17	0.5045776	-0.8103638	
9.36	-0.7775574	-0.5488892	
9.55	-0.8850098	0.2724609	
9.74	-0.2897949	0.9136963	
9.93	0.8151855	0.4926758	
10.12	0.5343628	-0.8533325	
10.31	-0.7598572	-0.5753784	
10.5	-0.7693787	0.5274658	
10.69	-0.2344971	0.960083	
10.88	0.4501343	0.8856812	
11.07	0.9569092	0.1946411	
11.26	0.642395	-0.800354	
11.45	-0.7790222	-0.2911072	
11.64	0.4673462	0.6088562	
11.83	0.8622437	0.1572266	
12.02	0.887146	-0.1971436	
12.21	0.7329407	-0.502655	
12.4	0.1622314	-0.8267212	
12.59	-0.2791443	0.6639709	
12.78	0.625946	-0.4109192	
12.97	0.2093506	-0.7969971	
13.16	-0.1860962	-0.8623657	
13.35	-0.5443726	-0.7059326	
13.54	-0.5021973	-0.5297546	
13.73	-0.7938843	0.5001831	
13.92	-0.3203735	0.7838135	
14.11	-0.1567383	-0.7442932	
14.3	-0.5444641	0.0814819	
14.49	-0.9301147	0.3477478	
14.68	-0.8041382	0.5274963	
14.87	-0.3502197	0.8049316	
15.06	0.2906494	0.7903442	
15.25	0.7937012	0.3018188	
15.44	0.5809631	-0.590271	
15.63	-0.7041016	-0.3572693	
15.82	-0.4373169	0.566925	
16.01	0.4747009	0.8104858	
16.2	-0.3829193	-0.3459778	
16.39	0.8997803	0.1345215	
16.58	0.2280731	0.4035339	
16.77	0.7989807	-0.07983398	
16.96	0.5886536	-0.5732422	
17.15	0.6928406	-0.285553	
17.34	0.5539246	-0.5493164	
17.53	0.1982422	-0.7895508	
17.72	-0.1029663	-0.7119446	
17.91	-0.2183838	-0.7419434	
18.1	-0.6699219	-0.8681335	
18.29	-0.9448242	-0.3311157	
18.48	-0.5324707	0.0294495	
18.67	-1.011475	-0.1478271	
18.86	-0.8918457	-0.03112793	
19.05	-0.1798706	0.5448914	
19.24	-0.9190063	0.5085449	
19.43	-0.798645	0.7608643	
19.62	-0.6608887	0.7488098	
19.81	0.1317749	0.7313843	
20.0	-0.02606201	0.847229	
