# GHz S RI R 50 
!freq	ReS11	ImS11	
1.0	-0.5769043	-0.2556763	
1.19	-0.6878052	0.0205688	
1.38	-0.6618652	0.300415	
1.57	-0.5322876	0.5375977	
1.76	-0.2678223	0.7483521	
1.95	0.0736694	0.8095093	
2.14	0.4023438	0.7486572	
2.33	0.6723633	0.5539551	
2.52	0.8269653	0.2787476	
2.71	0.9171143	-0.07214355	
2.9	0.8319092	-0.4044189	
3.09	0.6114502	-0.7081299	
3.28	0.3010254	-0.854248	
3.47	-0.00994873	-0.9259644	
3.66	-0.3378906	-0.8471069	
3.85	-0.6587524	-0.6488647	
4.04	-0.8413086	-0.2859497	
4.23	-0.90979	0.0657349	
4.42	-0.8035278	0.4150391	
4.61	-0.5834351	0.7269287	
4.8	-0.2206421	0.918396	
4.99	0.2163696	0.9451294	
5.18	0.625061	0.7814636	
5.37	0.9474487	0.3913574	
5.56	1.045715	-0.03552246	
5.75	0.9450684	-0.3969727	
5.94	0.5757446	-0.7807007	
6.13	0.0421143	-0.9783325	
6.32	-0.4099121	-0.8665771	
6.51	-0.7581177	-0.53125	
6.7	-0.9473877	0.0131226	
6.89	0.8447876	-0.503418	
7.08	-0.895813	0.1222534	
7.27	-0.4501953	0.7546387	
7.46	0.564209	0.6813965	
7.65	-0.1353149	-0.9162598	
7.84	-0.8250122	0.5445557	
8.03	0.1452026	0.9053955	
8.22	0.9382324	0.1628418	
8.41	0.1548462	-0.9919434	
8.6	-0.8878784	0.2421875	
8.79	0.1417236	0.9185791	
8.98	0.8782349	0.3718262	
9.17	0.5073242	-0.8086548	
9.36	-0.7772217	-0.5472412	
9.55	-0.8901978	0.2702637	
9.74	-0.2755127	0.9222412	
9.93	0.8171692	0.4942932	
10.12	0.522644	-0.854187	
10.31	-0.760498	-0.5835266	
10.5	-0.7709656	0.5288086	
10.69	-0.2392578	0.9586792	
10.88	0.4508057	0.8880005	
11.07	0.9558105	0.1945801	
11.26	0.6459656	-0.8009644	
11.45	-0.7786865	-0.2896729	
11.64	0.4642029	0.6066895	
11.83	0.861084	0.1565552	
12.02	0.8873291	-0.1958618	
12.21	0.7308655	-0.5021667	
12.4	0.1574707	-0.8239136	
12.59	-0.2727966	0.6669922	
12.78	0.6242676	-0.4103699	
12.97	0.2153931	-0.7926636	
13.16	-0.1901245	-0.8569946	
13.35	-0.548584	-0.7038574	
13.54	-0.5030823	-0.5299988	
13.73	-0.7899475	0.4975281	
13.92	-0.3254089	0.7834778	
14.11	-0.1540527	-0.7377319	
14.3	-0.5438538	0.0820618	
14.49	-0.9280396	0.3478394	
14.68	-0.8036194	0.5273438	
14.87	-0.3516846	0.8065491	
15.06	0.2935791	0.7889709	
15.25	0.7943115	0.3031616	
15.44	0.5857239	-0.5905151	
15.63	-0.7033997	-0.3565979	
15.82	-0.4397278	0.568573	
16.01	0.4725037	0.8173523	
16.2	-0.380127	-0.3487701	
16.39	0.8994751	0.1346436	
16.58	0.2262573	0.4045715	
16.77	0.8007202	-0.08032227	
16.96	0.5864563	-0.5751953	
17.15	0.6903687	-0.2858887	
17.34	0.5535278	-0.5464478	
17.53	0.2019348	-0.7830811	
17.72	-0.1044617	-0.7131348	
17.91	-0.2167664	-0.7458801	
18.1	-0.6686707	-0.8662109	
18.29	-0.9440918	-0.3314209	
18.48	-0.5325623	0.0308228	
18.67	-1.011108	-0.1500854	
18.86	-0.8916626	-0.03106689	
19.05	-0.1806946	0.5377502	
19.24	-0.9125366	0.5065308	
19.43	-0.8051758	0.7628174	
19.62	-0.658844	0.7463379	
19.81	0.1291504	0.724762	
20.0	-0.01928711	0.8475342	
