# GHz S RI R 50 
!freq	ReS11	ImS11	
1.0	-0.5779419	-0.2540283	
1.19	-0.6876831	0.0210571	
1.38	-0.6616821	0.2976685	
1.57	-0.5315552	0.5380859	
1.76	-0.2688599	0.748291	
1.95	0.0750732	0.8092041	
2.14	0.4052734	0.7479248	
2.33	0.675293	0.5606079	
2.52	0.8279419	0.2789307	
2.71	0.9160767	-0.07415771	
2.9	0.8312378	-0.40802	
3.09	0.6054077	-0.7046509	
3.28	0.2979736	-0.8577271	
3.47	-0.01373291	-0.9384766	
3.66	-0.3400269	-0.8452148	
3.85	-0.6585693	-0.6477661	
4.04	-0.840271	-0.2827759	
4.23	-0.9092407	0.065979	
4.42	-0.7980957	0.4154663	
4.61	-0.5895996	0.7234497	
4.8	-0.2183228	0.9204102	
4.99	0.2182617	0.9295044	
5.18	0.6227417	0.7843628	
5.37	0.946228	0.3931885	
5.56	1.045593	-0.03619385	
5.75	0.9473877	-0.3954468	
5.94	0.5741577	-0.7842407	
6.13	0.045105	-0.9874878	
6.32	-0.4113159	-0.868042	
6.51	-0.7581177	-0.5275269	
6.7	-0.9470215	0.0137939	
6.89	0.8455811	-0.5043335	
7.08	-0.8937988	0.1240845	
7.27	-0.4457397	0.7522583	
7.46	0.5632935	0.6811218	
7.65	-0.1314697	-0.9071045	
7.84	-0.8212891	0.541748	
8.03	0.1381226	0.9144897	
8.22	0.9385986	0.1612549	
8.41	0.1500854	-0.9940796	
8.6	-0.8854675	0.2438965	
8.79	0.1409302	0.9138184	
8.98	0.8795471	0.3721924	
9.17	0.5063477	-0.8105469	
9.36	-0.7766113	-0.5477295	
9.55	-0.8894653	0.2722778	
9.74	-0.2863159	0.9176025	
9.93	0.8157349	0.4940186	
10.12	0.5228882	-0.8460083	
10.31	-0.7617798	-0.5765991	
10.5	-0.7720337	0.5284729	
10.69	-0.223877	0.9677734	
10.88	0.4522705	0.8831482	
11.07	0.9555664	0.1945801	
11.26	0.6385193	-0.8015442	
11.45	-0.7744141	-0.2919922	
11.64	0.4602966	0.6053467	
11.83	0.8592529	0.1584473	
12.02	0.887085	-0.1958008	
12.21	0.7325134	-0.5005188	
12.4	0.15979	-0.8253784	
12.59	-0.2723694	0.6643372	
12.78	0.6281738	-0.4060669	
12.97	0.2103271	-0.7872314	
13.16	-0.1877441	-0.861084	
13.35	-0.546814	-0.7078247	
13.54	-0.5050049	-0.532959	
13.73	-0.7928467	0.4955444	
13.92	-0.3183899	0.7795715	
14.11	-0.1555176	-0.7415161	
14.3	-0.5412292	0.0758667	
14.49	-0.928894	0.3476868	
14.68	-0.8041382	0.5302734	
14.87	-0.3495178	0.8134766	
15.06	0.2864685	0.7887878	
15.25	0.7962646	0.3025208	
15.44	0.5737305	-0.5843506	
15.63	-0.7048035	-0.3520813	
15.82	-0.4377747	0.5657654	
16.01	0.4754639	0.8078003	
16.2	-0.3768616	-0.3441772	
16.39	0.8999634	0.1337891	
16.58	0.2301025	0.3988953	
16.77	0.7987976	-0.08102417	
16.96	0.5907593	-0.5758667	
17.15	0.6889038	-0.2849731	
17.34	0.5478821	-0.5506897	
17.53	0.20401	-0.7848816	
17.72	-0.0980835	-0.7216492	
17.91	-0.219696	-0.7515869	
18.1	-0.6670532	-0.8610535	
18.29	-0.942688	-0.3317261	
18.48	-0.5344238	0.021759	
18.67	-1.010986	-0.1473999	
18.86	-0.8910522	-0.0291748	
19.05	-0.1821594	0.5473938	
19.24	-0.9172363	0.5054932	
19.43	-0.7990112	0.760376	
19.62	-0.6566162	0.7461548	
19.81	0.1268921	0.7277527	
20.0	-0.0234375	0.8466797	
