# GHz S RI R 50 
!freq	ReS11	ImS11	
1.0	-0.5774536	-0.2547607	
1.19	-0.6873169	0.0205688	
1.38	-0.6618042	0.2993164	
1.57	-0.5305786	0.5372314	
1.76	-0.2678223	0.7449951	
1.95	0.0806885	0.8106079	
2.14	0.3972168	0.7425537	
2.33	0.6731567	0.5557251	
2.52	0.8262329	0.2787476	
2.71	0.9170532	-0.07415771	
2.9	0.8342285	-0.4042969	
3.09	0.6048584	-0.7062378	
3.28	0.303833	-0.8600464	
3.47	-0.00769043	-0.9327393	
3.66	-0.3303833	-0.8447266	
3.85	-0.659668	-0.6541138	
4.04	-0.8405151	-0.2853394	
4.23	-0.9109497	0.0646362	
4.42	-0.802063	0.4146118	
4.61	-0.5735474	0.7262573	
4.8	-0.2080078	0.9203491	
4.99	0.2216797	0.9439087	
5.18	0.6346741	0.784668	
5.37	0.9481201	0.3933105	
5.56	1.045532	-0.0355835	
5.75	0.9487915	-0.4004517	
5.94	0.5801392	-0.7820435	
6.13	0.0521851	-0.9660034	
6.32	-0.407959	-0.8669434	
6.51	-0.751709	-0.52948	
6.7	-0.9478149	0.0122681	
6.89	0.8413086	-0.50354	
7.08	-0.8947144	0.1234131	
7.27	-0.4451904	0.7515259	
7.46	0.5706177	0.6820068	
7.65	-0.1364746	-0.9139404	
7.84	-0.8252563	0.5401611	
8.03	0.1414185	0.9122925	
8.22	0.9379272	0.1619263	
8.41	0.1539917	-0.9909058	
8.6	-0.8858032	0.2452698	
8.79	0.1449585	0.9118042	
8.98	0.8798218	0.3728638	
9.17	0.5024109	-0.8132935	
9.36	-0.7776489	-0.5487061	
9.55	-0.8901978	0.2693481	
9.74	-0.2909546	0.916626	
9.93	0.8147278	0.493988	
10.12	0.5224609	-0.8510132	
10.31	-0.7619324	-0.5783081	
10.5	-0.7694397	0.5267334	
10.69	-0.2288818	0.9569092	
10.88	0.4515991	0.8822632	
11.07	0.9559937	0.1939087	
11.26	0.6321411	-0.7998352	
11.45	-0.7796021	-0.291626	
11.64	0.4620667	0.6069641	
11.83	0.8613281	0.1576538	
12.02	0.8868408	-0.1978149	
12.21	0.7325439	-0.5007324	
12.4	0.1603394	-0.8270264	
12.59	-0.272522	0.6620178	
12.78	0.624115	-0.4096069	
12.97	0.2105103	-0.796814	
13.16	-0.1871338	-0.8577881	
13.35	-0.5512085	-0.6962891	
13.54	-0.5018311	-0.5333252	
13.73	-0.7927856	0.4966125	
13.92	-0.3295593	0.7859802	
14.11	-0.1494751	-0.7368164	
14.3	-0.5441895	0.0811157	
14.49	-0.9321899	0.3458862	
14.68	-0.7981262	0.5322876	
14.87	-0.3468628	0.8158569	
15.06	0.2929382	0.792572	
15.25	0.7947693	0.3012085	
15.44	0.5796814	-0.5856934	
15.63	-0.7027588	-0.3573608	
15.82	-0.4405518	0.5665588	
16.01	0.473877	0.8153992	
16.2	-0.3807678	-0.3477478	
16.39	0.9001465	0.1338501	
16.58	0.22612	0.4021759	
16.77	0.799469	-0.08032227	
16.96	0.5871277	-0.5779419	
17.15	0.6938477	-0.2862854	
17.34	0.5510254	-0.552948	
17.53	0.2028503	-0.7861938	
17.72	-0.1028442	-0.7168579	
17.91	-0.2195435	-0.7442322	
18.1	-0.663269	-0.8651733	
18.29	-0.9437866	-0.331665	
18.48	-0.5321045	0.0298767	
18.67	-1.011597	-0.149292	
18.86	-0.8916016	-0.03131104	
19.05	-0.1782227	0.5422058	
19.24	-0.9197998	0.508667	
19.43	-0.8060303	0.7720947	
19.62	-0.6647949	0.7440796	
19.81	0.1262207	0.7211609	
20.0	-0.02435303	0.8518677	
