# GHz S RI R 50 
!freq	ReS11	ImS11	
1.0	-0.5766602	-0.2547607	
1.19	-0.6869507	0.0203247	
1.38	-0.6615601	0.2990112	
1.57	-0.5324097	0.5358276	
1.76	-0.2747192	0.7543945	
1.95	0.078125	0.8078613	
2.14	0.402771	0.7493896	
2.33	0.6751099	0.5617065	
2.52	0.828125	0.2789917	
2.71	0.9165649	-0.07470703	
2.9	0.8287354	-0.4055176	
3.09	0.6108398	-0.7044067	
3.28	0.3018188	-0.8601074	
3.47	-0.008972168	-0.9313354	
3.66	-0.3354492	-0.8493042	
3.85	-0.6660767	-0.6559448	
4.04	-0.8400879	-0.2855835	
4.23	-0.9105225	0.0651245	
4.42	-0.8029785	0.4109497	
4.61	-0.5751343	0.7247314	
4.8	-0.2098999	0.9170532	
4.99	0.2156982	0.949707	
5.18	0.6294861	0.7836304	
5.37	0.9470215	0.390625	
5.56	1.044861	-0.03491211	
5.75	0.9442749	-0.3971558	
5.94	0.5826416	-0.7850952	
6.13	0.0400391	-0.9838867	
6.32	-0.4139404	-0.8616333	
6.51	-0.7541504	-0.5297852	
6.7	-0.9482422	0.0130615	
6.89	0.8424072	-0.5006714	
7.08	-0.8935547	0.1210938	
7.27	-0.4523926	0.7494507	
7.46	0.5626831	0.682312	
7.65	-0.135376	-0.9080811	
7.84	-0.8244019	0.5438232	
8.03	0.1414795	0.9087524	
8.22	0.9383545	0.161438	
8.41	0.1578369	-0.9894409	
8.6	-0.8865662	0.2423096	
8.79	0.1390381	0.9172363	
8.98	0.881897	0.3739014	
9.17	0.5026855	-0.8049011	
9.36	-0.7781677	-0.5463257	
9.55	-0.8904419	0.2665405	
9.74	-0.2854004	0.9196167	
9.93	0.8152466	0.4932861	
10.12	0.5205078	-0.8533936	
10.31	-0.7600403	-0.5790405	
10.5	-0.7705078	0.5282288	
10.69	-0.2348633	0.9659424	
10.88	0.451416	0.8878174	
11.07	0.9560547	0.1951294	
11.26	0.6473999	-0.7979126	
11.45	-0.7779846	-0.2933044	
11.64	0.4650269	0.6091003	
11.83	0.8624268	0.1581421	
12.02	0.8890381	-0.1988525	
12.21	0.730835	-0.5036926	
12.4	0.1573486	-0.8183594	
12.59	-0.2830811	0.6706238	
12.78	0.6220703	-0.4042969	
12.97	0.2116699	-0.7915039	
13.16	-0.1838989	-0.8526611	
13.35	-0.548584	-0.7011719	
13.54	-0.5079041	-0.5292664	
13.73	-0.7922974	0.4984131	
13.92	-0.3306885	0.7811279	
14.11	-0.1534424	-0.738739	
14.3	-0.5454407	0.0820618	
14.49	-0.9263916	0.3487549	
14.68	-0.8010254	0.5254517	
14.87	-0.3501892	0.8056946	
15.06	0.2878418	0.7857361	
15.25	0.7926636	0.3046265	
15.44	0.5838013	-0.587616	
15.63	-0.7027893	-0.3578491	
15.82	-0.4381104	0.5653687	
16.01	0.4728394	0.8099365	
16.2	-0.3795776	-0.348114	
16.39	0.8999634	0.1349487	
16.58	0.228302	0.4031372	
16.77	0.8013306	-0.07891846	
16.96	0.5898132	-0.5746765	
17.15	0.6925659	-0.2828064	
17.34	0.5557251	-0.5516357	
17.53	0.2042542	-0.7893372	
17.72	-0.1036682	-0.7219238	
17.91	-0.2229919	-0.7446594	
18.1	-0.6660461	-0.8648987	
18.29	-0.9451294	-0.3324585	
18.48	-0.532959	0.0306091	
18.67	-1.010681	-0.1495361	
18.86	-0.8917236	-0.03240967	
19.05	-0.1874695	0.5460815	
19.24	-0.9141846	0.506958	
19.43	-0.8045044	0.7623291	
19.62	-0.6619873	0.7424622	
19.81	0.1312866	0.7251282	
20.0	-0.02423096	0.8480225	
