# GHz S RI R 50 
!freq	ReS11	ImS11	
1.0	-0.5791016	-0.2553711	
1.19	-0.6873169	0.0205688	
1.38	-0.661438	0.3009644	
1.57	-0.5314941	0.5400391	
1.76	-0.2706909	0.7503662	
1.95	0.0767212	0.8092041	
2.14	0.4036255	0.7455444	
2.33	0.6742554	0.5615845	
2.52	0.8255615	0.2794189	
2.71	0.9161987	-0.07318115	
2.9	0.831543	-0.4046021	
3.09	0.6067505	-0.701355	
3.28	0.3021851	-0.8560181	
3.47	-0.009155273	-0.9276123	
3.66	-0.3353882	-0.8443604	
3.85	-0.6577759	-0.6477051	
4.04	-0.8404541	-0.2841797	
4.23	-0.9101563	0.0643921	
4.42	-0.8015747	0.4147949	
4.61	-0.581604	0.7283325	
4.8	-0.2156982	0.914978	
4.99	0.2233276	0.9501953	
5.18	0.6265259	0.7848816	
5.37	0.9481812	0.3918457	
5.56	1.045349	-0.03619385	
5.75	0.9504395	-0.401001	
5.94	0.586853	-0.7833862	
6.13	0.0413818	-0.9703979	
6.32	-0.4145508	-0.8702393	
6.51	-0.7579956	-0.5293579	
6.7	-0.9471436	0.0134888	
6.89	0.8452759	-0.5063477	
7.08	-0.8951416	0.12323	
7.27	-0.4503784	0.7561646	
7.46	0.5639343	0.679718	
7.65	-0.1271973	-0.9076538	
7.84	-0.8223877	0.5393066	
8.03	0.1481934	0.9104004	
8.22	0.9388428	0.1616211	
8.41	0.1513672	-0.9898071	
8.6	-0.8865967	0.2420654	
8.79	0.1450806	0.9158936	
8.98	0.8779602	0.372345	
9.17	0.5120239	-0.8085938	
9.36	-0.7803345	-0.5488586	
9.55	-0.8873291	0.2689209	
9.74	-0.2892456	0.9144287	
9.93	0.8171387	0.4959106	
10.12	0.526001	-0.8485107	
10.31	-0.7598877	-0.5820313	
10.5	-0.7708435	0.5250854	
10.69	-0.2337036	0.9628906	
10.88	0.4512939	0.8816528	
11.07	0.9561157	0.1950684	
11.26	0.6448364	-0.8010254	
11.45	-0.776825	-0.2926941	
11.64	0.4642639	0.6049805	
11.83	0.8612671	0.1577759	
12.02	0.8882446	-0.1986694	
12.21	0.7315979	-0.5019226	
12.4	0.1665039	-0.8303223	
12.59	-0.2704163	0.6657715	
12.78	0.6254883	-0.40802	
12.97	0.2107544	-0.7940674	
13.16	-0.1847534	-0.8567505	
13.35	-0.5498657	-0.6958618	
13.54	-0.5038452	-0.5340271	
13.73	-0.7901001	0.5007629	
13.92	-0.3300476	0.7798462	
14.11	-0.1507263	-0.7384033	
14.3	-0.5447388	0.0811157	
14.49	-0.927002	0.3501892	
14.68	-0.7989197	0.5297241	
14.87	-0.3442383	0.8097534	
15.06	0.2953186	0.7890015	
15.25	0.7928162	0.3020325	
15.44	0.5765991	-0.5895386	
15.63	-0.7017517	-0.3559875	
15.82	-0.4401245	0.5670776	
16.01	0.4787903	0.8120728	
16.2	-0.3830719	-0.3475189	
16.39	0.9002075	0.1347046	
16.58	0.2273254	0.4040375	
16.77	0.799408	-0.08035278	
16.96	0.5845642	-0.5746765	
17.15	0.6922302	-0.284668	
17.34	0.5560913	-0.5496826	
17.53	0.197998	-0.782074	
17.72	-0.09536743	-0.7085876	
17.91	-0.2168884	-0.7448425	
18.1	-0.6713867	-0.8687439	
18.29	-0.9438477	-0.3322754	
18.48	-0.5328369	0.0306091	
18.67	-1.012146	-0.1486816	
18.86	-0.8917236	-0.03155518	
19.05	-0.1806641	0.539093	
19.24	-0.9161987	0.503479	
19.43	-0.8029175	0.7608643	
19.62	-0.6594849	0.7434692	
19.81	0.1293945	0.727417	
20.0	-0.02758789	0.8502197	
