# GHz S RI R 50 
!freq	ReS11	ImS11	
1.0	-0.5770264	-0.2550659	
1.19	-0.6875	0.0211182	
1.38	-0.6621704	0.3002319	
1.57	-0.5288696	0.5348511	
1.76	-0.2705078	0.7444458	
1.95	0.0767822	0.8151245	
2.14	0.3996582	0.7470703	
2.33	0.6735229	0.5603638	
2.52	0.8269043	0.2790527	
2.71	0.9175415	-0.07342529	
2.9	0.8329468	-0.4082642	
3.09	0.6091919	-0.7057495	
3.28	0.3012695	-0.8596191	
3.47	-0.01348877	-0.9281006	
3.66	-0.3405762	-0.850708	
3.85	-0.6633911	-0.6500244	
4.04	-0.8424072	-0.286499	
4.23	-0.9104004	0.0650024	
4.42	-0.8071899	0.4099121	
4.61	-0.5787354	0.7214966	
4.8	-0.2225342	0.9207764	
4.99	0.2293701	0.9368896	
5.18	0.6329346	0.7875366	
5.37	0.9500122	0.3914795	
5.56	1.04541	-0.03552246	
5.75	0.9475098	-0.3969116	
5.94	0.5745239	-0.7833252	
6.13	0.0430908	-0.9700928	
6.32	-0.406311	-0.8707886	
6.51	-0.7537842	-0.5313721	
6.7	-0.947876	0.013855	
6.89	0.8444214	-0.5033569	
7.08	-0.8942871	0.1245117	
7.27	-0.4564819	0.7491455	
7.46	0.5619507	0.6815186	
7.65	-0.1312256	-0.9110107	
7.84	-0.819458	0.541626	
8.03	0.1427002	0.918457	
8.22	0.9377441	0.1618042	
8.41	0.1530762	-0.9942627	
8.6	-0.8857422	0.2461548	
8.79	0.1447144	0.9118042	
8.98	0.8786316	0.3743591	
9.17	0.5054626	-0.8088379	
9.36	-0.7770691	-0.5490112	
9.55	-0.8874512	0.2689209	
9.74	-0.2878418	0.9169312	
9.93	0.8155823	0.4888916	
10.12	0.5241699	-0.8564453	
10.31	-0.7618408	-0.5793457	
10.5	-0.7708435	0.5260315	
10.69	-0.2294312	0.9589844	
10.88	0.4505005	0.8815918	
11.07	0.9564819	0.1950073	
11.26	0.6379395	-0.7971802	
11.45	-0.7774048	-0.2931213	
11.64	0.4676819	0.6097412	
11.83	0.8619995	0.1582031	
12.02	0.8890991	-0.1958008	
12.21	0.7300415	-0.501709	
12.4	0.1589966	-0.8209229	
12.59	-0.2779541	0.6691284	
12.78	0.6239014	-0.4058533	
12.97	0.2150879	-0.7910767	
13.16	-0.1803589	-0.855835	
13.35	-0.5487061	-0.6983643	
13.54	-0.5053711	-0.5323792	
13.73	-0.7958069	0.4962769	
13.92	-0.3296814	0.7750549	
14.11	-0.1492615	-0.7396545	
14.3	-0.5440063	0.080719	
14.49	-0.9266052	0.3496399	
14.68	-0.7971802	0.5302124	
14.87	-0.3439941	0.8098145	
15.06	0.292572	0.7849731	
15.25	0.7936707	0.3006287	
15.44	0.5769653	-0.5912781	
15.63	-0.7022705	-0.3573608	
15.82	-0.440155	0.5672913	
16.01	0.4770813	0.8077698	
16.2	-0.3833008	-0.3462067	
16.39	0.8998413	0.1338501	
16.58	0.2267609	0.4032898	
16.77	0.7999878	-0.08218384	
16.96	0.5877991	-0.5760803	
17.15	0.6924438	-0.2856445	
17.34	0.5550842	-0.5508728	
17.53	0.2034912	-0.784668	
17.72	-0.09933472	-0.7204285	
17.91	-0.2217102	-0.7428894	
18.1	-0.6656494	-0.8649292	
18.29	-0.9437866	-0.3321533	
18.48	-0.5324402	0.0310974	
18.67	-1.011292	-0.1482544	
18.86	-0.8915405	-0.03088379	
19.05	-0.1775513	0.5393677	
19.24	-0.9168701	0.5079956	
19.43	-0.7999878	0.7651367	
19.62	-0.6634827	0.7438354	
19.81	0.1311951	0.7303467	
20.0	-0.02423096	0.8554688	
