# GHz S RI R 50 
!freq	ReS11	ImS11	
1.0	-0.5759277	-0.2529907	
1.19	-0.6875	0.0212402	
1.38	-0.661377	0.2987061	
1.57	-0.53125	0.5362549	
1.76	-0.2692871	0.7524414	
1.95	0.078186	0.8106079	
2.14	0.4039917	0.75177	
2.33	0.6747437	0.5588379	
2.52	0.8274536	0.279541	
2.71	0.9150391	-0.07421875	
2.9	0.8307495	-0.4100952	
3.09	0.5998535	-0.7007446	
3.28	0.3022461	-0.8546753	
3.47	-0.01361084	-0.9367676	
3.66	-0.3378906	-0.8493042	
3.85	-0.6605225	-0.6514282	
4.04	-0.8411865	-0.2852783	
4.23	-0.9105225	0.0649414	
4.42	-0.8015137	0.4084473	
4.61	-0.5845337	0.7161255	
4.8	-0.2206421	0.9177246	
4.99	0.2218018	0.9453125	
5.18	0.6272888	0.7807007	
5.37	0.9442139	0.3910522	
5.56	1.045959	-0.03546143	
5.75	0.9473267	-0.3984375	
5.94	0.5776367	-0.788147	
6.13	0.0405884	-0.9639893	
6.32	-0.4091187	-0.8682251	
6.51	-0.7559204	-0.5305786	
6.7	-0.9466553	0.0131226	
6.89	0.8444214	-0.5039063	
7.08	-0.8954468	0.1224976	
7.27	-0.4458618	0.7489014	
7.46	0.5641479	0.6794434	
7.65	-0.1334839	-0.9104614	
7.84	-0.8269043	0.5432739	
8.03	0.1375122	0.9110107	
8.22	0.9389038	0.1616211	
8.41	0.1483154	-0.9929199	
8.6	-0.8867798	0.2414551	
8.79	0.1455688	0.9129028	
8.98	0.8783569	0.3724976	
9.17	0.5023193	-0.8115845	
9.36	-0.7793274	-0.5491943	
9.55	-0.8887329	0.2780762	
9.74	-0.2854614	0.9147339	
9.93	0.8162842	0.4953308	
10.12	0.5273438	-0.852356	
10.31	-0.7592468	-0.5773621	
10.5	-0.7731323	0.5223694	
10.69	-0.234436	0.9559937	
10.88	0.4498291	0.8798828	
11.07	0.9562378	0.1947021	
11.26	0.6367188	-0.8021545	
11.45	-0.7789612	-0.2917175	
11.64	0.4658203	0.6072388	
11.83	0.8623657	0.1572876	
12.02	0.8873901	-0.1965942	
12.21	0.7299805	-0.5013428	
12.4	0.1638794	-0.8302612	
12.59	-0.276825	0.6655579	
12.78	0.6235046	-0.4085693	
12.97	0.2106934	-0.7921753	
13.16	-0.1881714	-0.8588867	
13.35	-0.5592041	-0.703186	
13.54	-0.5053406	-0.5382385	
13.73	-0.7905273	0.5003052	
13.92	-0.3298645	0.7766724	
14.11	-0.1512451	-0.7376099	
14.3	-0.5441895	0.0814209	
14.49	-0.9255981	0.3503418	
14.68	-0.7971497	0.5292053	
14.87	-0.34198	0.8124084	
15.06	0.2917786	0.7937317	
15.25	0.7939148	0.3033752	
15.44	0.5767517	-0.587677	
15.63	-0.7041626	-0.3565369	
15.82	-0.440979	0.5664673	
16.01	0.4772034	0.8068237	
16.2	-0.3838959	-0.3473053	
16.39	0.9000854	0.1342163	
16.58	0.2300415	0.4036255	
16.77	0.8004761	-0.08041382	
16.96	0.5887451	-0.5769653	
17.15	0.692688	-0.2830505	
17.34	0.5539246	-0.5505676	
17.53	0.1976929	-0.7835999	
17.72	-0.1014099	-0.7122803	
17.91	-0.2200928	-0.7426758	
18.1	-0.6694946	-0.8681946	
18.29	-0.9422607	-0.3327637	
18.48	-0.532074	0.0299683	
18.67	-1.011108	-0.1486816	
18.86	-0.8915405	-0.03131104	
19.05	-0.1805115	0.541626	
19.24	-0.9206543	0.5092163	
19.43	-0.805542	0.762085	
19.62	-0.661499	0.7424316	
19.81	0.1280823	0.7280273	
20.0	-0.02471924	0.8484497	
