# GHz S RI R 50 
!freq	ReS11	ImS11	
1.0	-0.5770874	-0.255127	
1.19	-0.6879272	0.0206909	
1.38	-0.6638184	0.3012695	
1.57	-0.5302124	0.5380249	
1.76	-0.2661133	0.75	
1.95	0.0761108	0.8166504	
2.14	0.4042358	0.7478027	
2.33	0.6766357	0.5614014	
2.52	0.8259277	0.2794189	
2.71	0.9164429	-0.07434082	
2.9	0.8317261	-0.4063721	
3.09	0.6039429	-0.7017822	
3.28	0.31073	-0.8546143	
3.47	-0.009460449	-0.9282227	
3.66	-0.3347168	-0.8444824	
3.85	-0.6574707	-0.651001	
4.04	-0.8413086	-0.2863159	
4.23	-0.9105835	0.0656128	
4.42	-0.8076782	0.4153442	
4.61	-0.5792236	0.730896	
4.8	-0.2109985	0.9200439	
4.99	0.2136841	0.9521484	
5.18	0.6269226	0.7827148	
5.37	0.9477539	0.3914795	
5.56	1.045776	-0.03515625	
5.75	0.9465332	-0.3950806	
5.94	0.5795898	-0.7850342	
6.13	0.0442505	-0.9763184	
6.32	-0.4161377	-0.8757935	
6.51	-0.7555542	-0.5325317	
6.7	-0.9484253	0.0125732	
6.89	0.8469849	-0.5076904	
7.08	-0.8944092	0.1227417	
7.27	-0.449707	0.7501221	
7.46	0.5653992	0.6776428	
7.65	-0.1342163	-0.914856	
7.84	-0.8265381	0.5392456	
8.03	0.1417236	0.9135742	
8.22	0.9376221	0.1621094	
8.41	0.1635742	-0.9955444	
8.6	-0.8881836	0.2452698	
8.79	0.1506958	0.9177246	
8.98	0.8792114	0.3745728	
9.17	0.5049133	-0.8128967	
9.36	-0.7770691	-0.5546875	
9.55	-0.8892212	0.2713623	
9.74	-0.2913208	0.9156494	
9.93	0.8149719	0.4950562	
10.12	0.5272827	-0.8496704	
10.31	-0.7578735	-0.5794373	
10.5	-0.7710876	0.5299072	
10.69	-0.2205811	0.9572144	
10.88	0.4508667	0.8841553	
11.07	0.956665	0.1940918	
11.26	0.6296997	-0.8051453	
11.45	-0.7791443	-0.2908936	
11.64	0.4646606	0.6072998	
11.83	0.8618774	0.1575317	
12.02	0.8880005	-0.1968994	
12.21	0.7311096	-0.5054321	
12.4	0.1602783	-0.8278198	
12.59	-0.2806396	0.6676636	
12.78	0.6203613	-0.4103088	
12.97	0.2128296	-0.7874146	
13.16	-0.1818848	-0.8555908	
13.35	-0.5519409	-0.703064	
13.54	-0.5029602	-0.5330811	
13.73	-0.7955017	0.4987183	
13.92	-0.3259277	0.7800903	
14.11	-0.1479492	-0.7410583	
14.3	-0.5441589	0.0812378	
14.49	-0.9308777	0.3492737	
14.68	-0.8019104	0.5326538	
14.87	-0.346344	0.8126526	
15.06	0.2888794	0.7884521	
15.25	0.7941589	0.3030701	
15.44	0.5827332	-0.5921936	
15.63	-0.7044067	-0.3580017	
15.82	-0.4408569	0.5635071	
16.01	0.4795837	0.8057556	
16.2	-0.3842163	-0.3478394	
16.39	0.8998413	0.1343384	
16.58	0.2282715	0.4039459	
16.77	0.7989807	-0.08059692	
16.96	0.5889587	-0.5749817	
17.15	0.6933289	-0.2848816	
17.34	0.5533447	-0.5473328	
17.53	0.2011108	-0.7870789	
17.72	-0.09777832	-0.7173157	
17.91	-0.2176208	-0.7478027	
18.1	-0.6723633	-0.8660278	
18.29	-0.9440308	-0.3319702	
18.48	-0.5326233	0.030426	
18.67	-1.011047	-0.1490479	
18.86	-0.8915405	-0.03186035	
19.05	-0.1809387	0.5411682	
19.24	-0.9196167	0.5123901	
19.43	-0.8005371	0.7623291	
19.62	-0.6603394	0.7446289	
19.81	0.1322632	0.725708	
20.0	-0.02215576	0.8486328	
