# GHz S RI R 50 
!freq	ReS11	ImS11	
1.0	-0.5786133	-0.2548218	
1.19	-0.6877441	0.0206909	
1.38	-0.6630859	0.2977295	
1.57	-0.5313721	0.5356445	
1.76	-0.2695313	0.7530518	
1.95	0.0780029	0.8078003	
2.14	0.4018555	0.7473145	
2.33	0.6754761	0.5591431	
2.52	0.8262939	0.2799683	
2.71	0.9154053	-0.07214355	
2.9	0.8306274	-0.4072266	
3.09	0.6106567	-0.704834	
3.28	0.2999268	-0.8600464	
3.47	-0.01373291	-0.9342041	
3.66	-0.3383789	-0.8490601	
3.85	-0.6590576	-0.6524048	
4.04	-0.8429565	-0.28479	
4.23	-0.9108887	0.0652466	
4.42	-0.8013916	0.4115601	
4.61	-0.5786743	0.7266846	
4.8	-0.2160034	0.9146729	
4.99	0.21521	0.946167	
5.18	0.624176	0.7841492	
5.37	0.9478149	0.3912354	
5.56	1.045227	-0.03564453	
5.75	0.9481812	-0.3934937	
5.94	0.5790405	-0.7841187	
6.13	0.0462036	-0.9708862	
6.32	-0.4122925	-0.8604736	
6.51	-0.7540283	-0.5303955	
6.7	-0.9476929	0.013855	
6.89	0.8464355	-0.505188	
7.08	-0.8953857	0.1223145	
7.27	-0.4499512	0.75	
7.46	0.5620728	0.680481	
7.65	-0.1405029	-0.920105	
7.84	-0.8237915	0.5376587	
8.03	0.1418457	0.9058228	
8.22	0.9389038	0.1616821	
8.41	0.1481323	-0.9910278	
8.6	-0.8866272	0.2441711	
8.79	0.1499634	0.9172974	
8.98	0.8779907	0.3709106	
9.17	0.5075684	-0.8074341	
9.36	-0.7783203	-0.5487671	
9.55	-0.8878174	0.2734375	
9.74	-0.289978	0.9191284	
9.93	0.8199463	0.4950256	
10.12	0.5261841	-0.8574829	
10.31	-0.756073	-0.5775452	
10.5	-0.7698364	0.5236816	
10.69	-0.2217407	0.9637451	
10.88	0.4514771	0.8850098	
11.07	0.9562378	0.1948242	
11.26	0.6386719	-0.8088074	
11.45	-0.7785034	-0.2911682	
11.64	0.4642944	0.6080933	
11.83	0.8621216	0.1570435	
12.02	0.8880615	-0.197937	
12.21	0.7290039	-0.5029907	
12.4	0.1636353	-0.8239746	
12.59	-0.2744751	0.6658325	
12.78	0.626709	-0.4087524	
12.97	0.2108765	-0.7911987	
13.16	-0.18927	-0.8582153	
13.35	-0.5473633	-0.7037964	
13.54	-0.4998779	-0.5322876	
13.73	-0.7911987	0.5004578	
13.92	-0.3222656	0.7838745	
14.11	-0.1524658	-0.7362976	
14.3	-0.543335	0.0800781	
14.49	-0.9299927	0.350708	
14.68	-0.8027649	0.5293579	
14.87	-0.3471985	0.8117981	
15.06	0.2955627	0.7888794	
15.25	0.7932739	0.3001099	
15.44	0.5779114	-0.5925293	
15.63	-0.7041321	-0.3540649	
15.82	-0.4380798	0.5676575	
16.01	0.4719849	0.8118896	
16.2	-0.3835602	-0.3451996	
16.39	0.8995361	0.133606	
16.58	0.2287445	0.4023285	
16.77	0.7989502	-0.0814209	
16.96	0.5866394	-0.5752258	
17.15	0.6941528	-0.2860107	
17.34	0.5534363	-0.5505676	
17.53	0.1936951	-0.7829895	
17.72	-0.09988403	-0.716095	
17.91	-0.2187805	-0.7403259	
18.1	-0.6711426	-0.8621521	
18.29	-0.9440308	-0.3323975	
18.48	-0.5323792	0.0301514	
18.67	-1.011169	-0.1478271	
18.86	-0.8912354	-0.03076172	
19.05	-0.1821594	0.5426941	
19.24	-0.9182129	0.506958	
19.43	-0.8056641	0.762207	
19.62	-0.6585693	0.7444458	
19.81	0.1328125	0.7290955	
20.0	-0.02044678	0.8439941	
