# GHz S RI R 50 
!freq	ReS11	ImS11	
1.0	-0.5801392	-0.2540283	
1.19	-0.6873779	0.0205078	
1.38	-0.65979	0.2984619	
1.57	-0.5285034	0.5393066	
1.76	-0.2694702	0.75177	
1.95	0.0787354	0.8123169	
2.14	0.4013672	0.7485962	
2.33	0.6759644	0.56073	
2.52	0.8260498	0.2793579	
2.71	0.9169312	-0.0723877	
2.9	0.8327026	-0.4059448	
3.09	0.6087036	-0.7058105	
3.28	0.3053589	-0.8526611	
3.47	-0.004516602	-0.9310913	
3.66	-0.3364258	-0.8458862	
3.85	-0.6596069	-0.6531372	
4.04	-0.8394165	-0.2858887	
4.23	-0.9109497	0.0639648	
4.42	-0.8013306	0.4147339	
4.61	-0.5806885	0.7180786	
4.8	-0.2232056	0.9179688	
4.99	0.2255249	0.9362183	
5.18	0.6268005	0.7856445	
5.37	0.9477539	0.3928223	
5.56	1.046143	-0.03564453	
5.75	0.9475098	-0.4018555	
5.94	0.5805054	-0.7848511	
6.13	0.0462036	-0.9730835	
6.32	-0.4099121	-0.8717041	
6.51	-0.7570801	-0.5292358	
6.7	-0.9472046	0.0136108	
6.89	0.836792	-0.5018921	
7.08	-0.8947144	0.1236572	
7.27	-0.4465332	0.7514648	
7.46	0.562439	0.6784058	
7.65	-0.1389771	-0.9098511	
7.84	-0.8292236	0.539856	
8.03	0.1444092	0.9151611	
8.22	0.9388428	0.1621094	
8.41	0.1516113	-0.9966431	
8.6	-0.8850708	0.2432251	
8.79	0.1473999	0.9175415	
8.98	0.8796997	0.3726807	
9.17	0.5108643	-0.8108521	
9.36	-0.7750854	-0.5526428	
9.55	-0.890564	0.2753296	
9.74	-0.2832642	0.9196167	
9.93	0.8163452	0.495575	
10.12	0.5270386	-0.8540039	
10.31	-0.7589722	-0.5826416	
10.5	-0.7672424	0.5240173	
10.69	-0.2325439	0.9542847	
10.88	0.4540405	0.8873291	
11.07	0.9556274	0.1948242	
11.26	0.6430969	-0.8007507	
11.45	-0.7767029	-0.291687	
11.64	0.4624329	0.6077271	
11.83	0.8610229	0.1569214	
12.02	0.887085	-0.196167	
12.21	0.7336121	-0.50354	
12.4	0.1669312	-0.8216553	
12.59	-0.2746582	0.6678467	
12.78	0.624939	-0.4104309	
12.97	0.215271	-0.7960815	
13.16	-0.1931763	-0.8565674	
13.35	-0.5552979	-0.7020264	
13.54	-0.4993591	-0.5327148	
13.73	-0.7936707	0.4978638	
13.92	-0.3279419	0.7732849	
14.11	-0.1524963	-0.7393799	
14.3	-0.5429688	0.0799561	
14.49	-0.9273376	0.3469238	
14.68	-0.8013611	0.5310974	
14.87	-0.3495178	0.8147278	
15.06	0.2858276	0.7887878	
15.25	0.7952576	0.3018188	
15.44	0.5769958	-0.5899048	
15.63	-0.7058105	-0.3560791	
15.82	-0.4420776	0.5684204	
16.01	0.4763184	0.8108215	
16.2	-0.3806915	-0.3465576	
16.39	0.9000244	0.1333618	
16.58	0.228241	0.4015045	
16.77	0.8000793	-0.08084106	
16.96	0.5863342	-0.5790405	
17.15	0.6908264	-0.287384	
17.34	0.5502319	-0.5491638	
17.53	0.2006531	-0.786377	
17.72	-0.1006165	-0.7169189	
17.91	-0.2174377	-0.7479553	
18.1	-0.6615601	-0.864624	
18.29	-0.940918	-0.3305054	
18.48	-0.5315552	0.0314636	
18.67	-1.011841	-0.1489258	
18.86	-0.8917236	-0.03094482	
19.05	-0.1780701	0.5410156	
19.24	-0.918335	0.5087891	
19.43	-0.7983398	0.7667236	
19.62	-0.6598206	0.7423401	
19.81	0.1269226	0.7258301	
20.0	-0.02478027	0.8487549	
