# GHz S RI R 50 
!freq	ReS11	ImS11	
1.0	-0.5785522	-0.2556152	
1.19	-0.6875	0.0209961	
1.38	-0.6619263	0.300415	
1.57	-0.5308228	0.5392456	
1.76	-0.267395	0.7460938	
1.95	0.0747681	0.8178711	
2.14	0.40271	0.7471313	
2.33	0.6732178	0.55896	
2.52	0.8260498	0.2797852	
2.71	0.9158936	-0.07458496	
2.9	0.8299561	-0.4057007	
3.09	0.6062012	-0.7024536	
3.28	0.2946167	-0.8544312	
3.47	-0.01306152	-0.9282227	
3.66	-0.3342285	-0.8480225	
3.85	-0.6586914	-0.6513672	
4.04	-0.8416748	-0.2853394	
4.23	-0.9113159	0.0645752	
4.42	-0.7994385	0.4118042	
4.61	-0.5769653	0.7236938	
4.8	-0.2123413	0.9230347	
4.99	0.2151489	0.9354858	
5.18	0.6327209	0.7807007	
5.37	0.9475098	0.3919678	
5.56	1.04541	-0.03564453	
5.75	0.9439697	-0.40271	
5.94	0.5794678	-0.7776489	
6.13	0.0410156	-0.968689	
6.32	-0.4085693	-0.8701782	
6.51	-0.7540283	-0.5285034	
6.7	-0.9466553	0.0128174	
6.89	0.8436279	-0.5067749	
7.08	-0.8960571	0.1224976	
7.27	-0.4469604	0.7588501	
7.46	0.5661011	0.6779785	
7.65	-0.1345825	-0.9106445	
7.84	-0.8251343	0.5391235	
8.03	0.1445923	0.9042358	
8.22	0.9380493	0.161438	
8.41	0.1524048	-0.9945068	
8.6	-0.8858948	0.2437744	
8.79	0.1448975	0.9103394	
8.98	0.8783569	0.3734436	
9.17	0.5074768	-0.8091736	
9.36	-0.7790527	-0.5467834	
9.55	-0.8902588	0.2697754	
9.74	-0.2936401	0.9169312	
9.93	0.8156738	0.493866	
10.12	0.5296021	-0.8501587	
10.31	-0.763031	-0.5801086	
10.5	-0.7696533	0.5291138	
10.69	-0.2263184	0.9574585	
10.88	0.4544678	0.8817749	
11.07	0.9569092	0.1950684	
11.26	0.6360168	-0.8027649	
11.45	-0.7798157	-0.2904663	
11.64	0.4668274	0.6094666	
11.83	0.8615723	0.1574097	
12.02	0.8862305	-0.197876	
12.21	0.7333374	-0.4980164	
12.4	0.1652222	-0.8269043	
12.59	-0.2744446	0.6704102	
12.78	0.62146	-0.409729	
12.97	0.2147217	-0.795166	
13.16	-0.1863403	-0.8562012	
13.35	-0.5534668	-0.6987915	
13.54	-0.5046692	-0.5341797	
13.73	-0.7911682	0.4941406	
13.92	-0.3198242	0.7816467	
14.11	-0.1507874	-0.7327881	
14.3	-0.544281	0.0813904	
14.49	-0.9267273	0.3447571	
14.68	-0.8032532	0.5292358	
14.87	-0.3467712	0.8049011	
15.06	0.2904968	0.7870178	
15.25	0.7928772	0.3013611	
15.44	0.5770264	-0.5895081	
15.63	-0.7019958	-0.3558655	
15.82	-0.4406738	0.566864	
16.01	0.4744263	0.8143921	
16.2	-0.3843079	-0.3474121	
16.39	0.8997192	0.1336365	
16.58	0.2306366	0.4021606	
16.77	0.7998657	-0.08087158	
16.96	0.5895691	-0.5742493	
17.15	0.6931152	-0.2872009	
17.34	0.5539551	-0.555542	
17.53	0.2039795	-0.7866211	
17.72	-0.09963989	-0.7158813	
17.91	-0.2188721	-0.7457275	
18.1	-0.66745	-0.8622742	
18.29	-0.9436035	-0.3319092	
18.48	-0.532074	0.0293274	
18.67	-1.011475	-0.1483765	
18.86	-0.8917847	-0.03131104	
19.05	-0.1794739	0.5440674	
19.24	-0.9152832	0.5073853	
19.43	-0.7990723	0.7645874	
19.62	-0.6611328	0.744812	
19.81	0.1287842	0.7272949	
20.0	-0.02124023	0.8450317	
