# GHz S RI R 50 
!freq	ReS11	ImS11	
1.0	-0.5780029	-0.2541504	
1.19	-0.6877441	0.0210571	
1.38	-0.6599121	0.2980347	
1.57	-0.5305176	0.5424805	
1.76	-0.269165	0.7510986	
1.95	0.078186	0.8121948	
2.14	0.4051514	0.7484741	
2.33	0.6727295	0.5597534	
2.52	0.8261719	0.2799683	
2.71	0.9151001	-0.07458496	
2.9	0.8286133	-0.4077148	
3.09	0.6044312	-0.7027588	
3.28	0.293457	-0.8508301	
3.47	-0.01098633	-0.9274292	
3.66	-0.3392334	-0.848938	
3.85	-0.6569214	-0.6464844	
4.04	-0.8421631	-0.2850342	
4.23	-0.9101563	0.0650024	
4.42	-0.8046265	0.4124146	
4.61	-0.5860596	0.7235718	
4.8	-0.2143555	0.9158325	
4.99	0.2177734	0.9515381	
5.18	0.6239929	0.7844543	
5.37	0.9481201	0.3916626	
5.56	1.045166	-0.0357666	
5.75	0.9487305	-0.4011841	
5.94	0.5831909	-0.7855225	
6.13	0.0488281	-0.9743042	
6.32	-0.4135742	-0.8631592	
6.51	-0.7540283	-0.5278931	
6.7	-0.9471436	0.012207	
6.89	0.8416748	-0.5037842	
7.08	-0.8949585	0.1219482	
7.27	-0.4489746	0.7480469	
7.46	0.5635376	0.6813354	
7.65	-0.1347046	-0.9122314	
7.84	-0.8220215	0.5391846	
8.03	0.1400757	0.9124756	
8.22	0.9381104	0.1613159	
8.41	0.1517944	-0.9898682	
8.6	-0.8870544	0.2431335	
8.79	0.1435547	0.9240112	
8.98	0.8790894	0.3713074	
9.17	0.5086365	-0.8135681	
9.36	-0.7739258	-0.5494995	
9.55	-0.8890991	0.2692871	
9.74	-0.295166	0.9176636	
9.93	0.815979	0.4946289	
10.12	0.5286865	-0.8513184	
10.31	-0.7585754	-0.5777588	
10.5	-0.7702637	0.5278015	
10.69	-0.230957	0.9575195	
10.88	0.4570923	0.8800659	
11.07	0.9549561	0.1942139	
11.26	0.6429138	-0.7947693	
11.45	-0.7783508	-0.2901917	
11.64	0.4657898	0.6087952	
11.83	0.861145	0.1577148	
12.02	0.887085	-0.1956177	
12.21	0.7296143	-0.5015869	
12.4	0.1582031	-0.8269043	
12.59	-0.275116	0.6636963	
12.78	0.6217957	-0.4108887	
12.97	0.2103271	-0.7979126	
13.16	-0.1885376	-0.8575439	
13.35	-0.5466309	-0.7099609	
13.54	-0.5002136	-0.5299072	
13.73	-0.7907104	0.499115	
13.92	-0.3267517	0.7810059	
14.11	-0.1505127	-0.7407532	
14.3	-0.5438538	0.079834	
14.49	-0.926178	0.3470764	
14.68	-0.7963867	0.5310059	
14.87	-0.3445435	0.8089294	
15.06	0.2955627	0.7912903	
15.25	0.79422	0.300415	
15.44	0.5738525	-0.5869446	
15.63	-0.7045898	-0.3520508	
15.82	-0.4378052	0.5605164	
16.01	0.4779663	0.8119812	
16.2	-0.3830261	-0.3465424	
16.39	0.9004517	0.1339111	
16.58	0.2272186	0.4023438	
16.77	0.7993164	-0.08099365	
16.96	0.5872498	-0.5704041	
17.15	0.6924133	-0.2852478	
17.34	0.5510254	-0.5514526	
17.53	0.1995239	-0.7894592	
17.72	-0.1001282	-0.7173157	
17.91	-0.2114563	-0.7446899	
18.1	-0.668457	-0.8656311	
18.29	-0.9439087	-0.3325806	
18.48	-0.5318604	0.0302124	
18.67	-1.011414	-0.1491089	
18.86	-0.8914795	-0.03112793	
19.05	-0.1793823	0.5396729	
19.24	-0.9126587	0.5102539	
19.43	-0.7977295	0.7563477	
19.62	-0.6620178	0.7466125	
19.81	0.1274414	0.7253113	
20.0	-0.02362061	0.8537598	
