# GHz S RI R 50 
!freq	ReS11	ImS11	
1.0	-0.5787964	-0.2561646	
1.19	-0.687439	0.0205688	
1.38	-0.661438	0.2988892	
1.57	-0.5275879	0.5371704	
1.76	-0.2688599	0.7488403	
1.95	0.0766602	0.8184204	
2.14	0.4036865	0.7446899	
2.33	0.6766357	0.5605469	
2.52	0.826355	0.2791138	
2.71	0.9178467	-0.0725708	
2.9	0.8310547	-0.4072876	
3.09	0.6035156	-0.7014771	
3.28	0.2996826	-0.8563843	
3.47	-0.007995605	-0.9307861	
3.66	-0.3415527	-0.8486328	
3.85	-0.6618652	-0.6503906	
4.04	-0.8416748	-0.2850952	
4.23	-0.9113159	0.0645752	
4.42	-0.8002319	0.413147	
4.61	-0.5738525	0.7272949	
4.8	-0.2087402	0.9133301	
4.99	0.2127075	0.947937	
5.18	0.6281738	0.7828369	
5.37	0.9477539	0.3911133	
5.56	1.044922	-0.03521729	
5.75	0.9490356	-0.3974609	
5.94	0.5834961	-0.7841187	
6.13	0.0440063	-0.9790039	
6.32	-0.4104004	-0.8633423	
6.51	-0.7550049	-0.5296021	
6.7	-0.9478149	0.012146	
6.89	0.8419189	-0.5027466	
7.08	-0.8942261	0.1228027	
7.27	-0.4483032	0.7577515	
7.46	0.561554	0.6821289	
7.65	-0.1334839	-0.9119263	
7.84	-0.8240356	0.5391235	
8.03	0.1376343	0.909729	
8.22	0.9378052	0.1620483	
8.41	0.1481934	-0.9971924	
8.6	-0.8847046	0.2434387	
8.79	0.1448364	0.9160156	
8.98	0.8792725	0.3712769	
9.17	0.5064392	-0.8126221	
9.36	-0.7790833	-0.5471191	
9.55	-0.887207	0.2702637	
9.74	-0.2883301	0.9124146	
9.93	0.8170776	0.4926147	
10.12	0.5261841	-0.8526001	
10.31	-0.7602539	-0.5796509	
10.5	-0.7672729	0.525116	
10.69	-0.2191162	0.9674683	
10.88	0.4553833	0.8832397	
11.07	0.9554443	0.1950073	
11.26	0.6463928	-0.7974854	
11.45	-0.778656	-0.2925415	
11.64	0.4673157	0.6100464	
11.83	0.8620605	0.1569824	
12.02	0.8874512	-0.1964111	
12.21	0.7286377	-0.5012512	
12.4	0.1549683	-0.8248901	
12.59	-0.2753296	0.6669617	
12.78	0.6209717	-0.4088135	
12.97	0.2114258	-0.7897339	
13.16	-0.1875	-0.8603516	
13.35	-0.5490112	-0.7005005	
13.54	-0.5032654	-0.5359192	
13.73	-0.7901306	0.4952393	
13.92	-0.3250732	0.7803955	
14.11	-0.1472473	-0.7372437	
14.3	-0.5445557	0.0810852	
14.49	-0.9255371	0.3491211	
14.68	-0.7957764	0.5319824	
14.87	-0.3408203	0.8085632	
15.06	0.2903748	0.7907715	
15.25	0.7943115	0.3021851	
15.44	0.5835266	-0.5853882	
15.63	-0.7021179	-0.3577271	
15.82	-0.440155	0.5682068	
16.01	0.4762878	0.8152161	
16.2	-0.381073	-0.3473358	
16.39	0.9001465	0.1348267	
16.58	0.2260895	0.4034576	
16.77	0.7991333	-0.07931519	
16.96	0.5882263	-0.5780334	
17.15	0.6938782	-0.2851563	
17.34	0.5582886	-0.5537415	
17.53	0.2032166	-0.7850647	
17.72	-0.0975647	-0.7216797	
17.91	-0.2179565	-0.7496948	
18.1	-0.6666565	-0.8666077	
18.29	-0.9436646	-0.3326416	
18.48	-0.5331421	0.0306396	
18.67	-1.010742	-0.1483765	
18.86	-0.8916626	-0.03167725	
19.05	-0.1834106	0.5482788	
19.24	-0.9154053	0.5087891	
19.43	-0.8006592	0.7610474	
19.62	-0.6622009	0.7444458	
19.81	0.1291504	0.7266846	
20.0	-0.02532959	0.8554077	
