# GHz S RI R 50 
!freq	ReS11	ImS11	
1.0	-0.578186	-0.2537231	
1.19	-0.687439	0.0210571	
1.38	-0.6621704	0.2994385	
1.57	-0.5309448	0.5363159	
1.76	-0.2745972	0.7528687	
1.95	0.0770874	0.8118286	
2.14	0.4025879	0.7474976	
2.33	0.6713867	0.5603638	
2.52	0.8257446	0.2796631	
2.71	0.9175415	-0.07330322	
2.9	0.8295288	-0.4057617	
3.09	0.6106567	-0.7078857	
3.28	0.2993774	-0.8543701	
3.47	-0.01519775	-0.9329224	
3.66	-0.3403931	-0.8479614	
3.85	-0.6621704	-0.6464233	
4.04	-0.8418579	-0.2853394	
4.23	-0.9111938	0.0647583	
4.42	-0.8023682	0.4164429	
4.61	-0.5734253	0.7283936	
4.8	-0.2160645	0.9158936	
4.99	0.2197266	0.9404297	
5.18	0.6257629	0.7836609	
5.37	0.9458618	0.3904419	
5.56	1.045166	-0.03521729	
5.75	0.9454956	-0.3972778	
5.94	0.5812378	-0.7814331	
6.13	0.050415	-0.9727783	
6.32	-0.4102783	-0.867981	
6.51	-0.7558594	-0.5302734	
6.7	-0.9483643	0.0128174	
6.89	0.84375	-0.5041504	
7.08	-0.8948975	0.1217041	
7.27	-0.4492188	0.7515869	
7.46	0.5664063	0.678894	
7.65	-0.1298218	-0.9116821	
7.84	-0.8236084	0.5385742	
8.03	0.1464233	0.9017334	
8.22	0.937561	0.1621094	
8.41	0.1544189	-0.9894409	
8.6	-0.88797	0.2456055	
8.79	0.147522	0.914856	
8.98	0.8792114	0.3737183	
9.17	0.5045166	-0.8113403	
9.36	-0.7740173	-0.5472412	
9.55	-0.8897095	0.2709351	
9.74	-0.289856	0.9199219	
9.93	0.8158569	0.4952698	
10.12	0.5280762	-0.8504639	
10.31	-0.761261	-0.5777283	
10.5	-0.7691956	0.5238953	
10.69	-0.230896	0.9537964	
10.88	0.4483032	0.8790283	
11.07	0.956543	0.1948853	
11.26	0.6412048	-0.7986145	
11.45	-0.7774963	-0.2918091	
11.64	0.4630127	0.6081238	
11.83	0.8618164	0.1574097	
12.02	0.8876953	-0.2005005	
12.21	0.7333679	-0.5021057	
12.4	0.161499	-0.8178711	
12.59	-0.2758789	0.6651917	
12.78	0.6218262	-0.4098816	
12.97	0.2177734	-0.7896118	
13.16	-0.1851196	-0.8488159	
13.35	-0.5483398	-0.7052002	
13.54	-0.5041504	-0.5319824	
13.73	-0.7951965	0.4917297	
13.92	-0.3293152	0.7781067	
14.11	-0.1462097	-0.7376099	
14.3	-0.5436401	0.0813599	
14.49	-0.9281616	0.3492737	
14.68	-0.7966309	0.5310364	
14.87	-0.3423462	0.8131714	
15.06	0.2906494	0.7872009	
15.25	0.7946167	0.3022461	
15.44	0.5805054	-0.591095	
15.63	-0.7019653	-0.3572083	
15.82	-0.4410095	0.5685425	
16.01	0.4700623	0.8111877	
16.2	-0.3825226	-0.348465	
16.39	0.8996582	0.1346436	
16.58	0.2295074	0.4029388	
16.77	0.7997437	-0.08215332	
16.96	0.5844727	-0.573761	
17.15	0.6944275	-0.2857056	
17.34	0.5532227	-0.5491638	
17.53	0.1976929	-0.7811279	
17.72	-0.09820557	-0.7190247	
17.91	-0.2134094	-0.7436218	
18.1	-0.6733704	-0.8712158	
18.29	-0.9423218	-0.3318481	
18.48	-0.5325317	0.0301819	
18.67	-1.010681	-0.1494141	
18.86	-0.8913574	-0.03143311	
19.05	-0.1838989	0.5412292	
19.24	-0.9190674	0.5048218	
19.43	-0.8065186	0.7634277	
19.62	-0.6572876	0.7426758	
19.81	0.1355896	0.7266235	
20.0	-0.02178955	0.8522949	
