# GHz S RI R 50 
!freq	ReS11	ImS11	
1.0	-0.5782471	-0.2558594	
1.19	-0.6873169	0.020752	
1.38	-0.6607056	0.3007813	
1.57	-0.5319214	0.5405884	
1.76	-0.2697754	0.75	
1.95	0.0698242	0.8146362	
2.14	0.4057617	0.7435303	
2.33	0.6744385	0.5596924	
2.52	0.8267212	0.2797852	
2.71	0.9152832	-0.07366943	
2.9	0.8319092	-0.407959	
3.09	0.6061401	-0.7057495	
3.28	0.3022461	-0.8563843	
3.47	-0.009887695	-0.9292603	
3.66	-0.3406982	-0.8549194	
3.85	-0.6606445	-0.6481323	
4.04	-0.8411255	-0.28479	
4.23	-0.9122925	0.065918	
4.42	-0.803833	0.4118042	
4.61	-0.5726318	0.7247314	
4.8	-0.2207642	0.9257202	
4.99	0.2341919	0.9451294	
5.18	0.6326904	0.7843018	
5.37	0.9457397	0.3939819	
5.56	1.045227	-0.03533936	
5.75	0.9464722	-0.4020386	
5.94	0.5819092	-0.7855225	
6.13	0.0471191	-0.9746704	
6.32	-0.4090576	-0.8709106	
6.51	-0.7573242	-0.5279541	
6.7	-0.9477539	0.0120239	
6.89	0.842041	-0.5046997	
7.08	-0.895874	0.1219482	
7.27	-0.4472046	0.7437134	
7.46	0.562439	0.6806641	
7.65	-0.1380005	-0.9158325	
7.84	-0.8257446	0.5393677	
8.03	0.1403809	0.9154053	
8.22	0.9383545	0.1617432	
8.41	0.1572876	-0.9953613	
8.6	-0.8859558	0.2427368	
8.79	0.1438599	0.9190063	
8.98	0.8788452	0.37146	
9.17	0.5130615	-0.8120728	
9.36	-0.7741699	-0.5498352	
9.55	-0.8896484	0.2703247	
9.74	-0.289917	0.9245605	
9.93	0.8182373	0.4958801	
10.12	0.527771	-0.8574219	
10.31	-0.7582703	-0.5778198	
10.5	-0.7694397	0.5260925	
10.69	-0.2266846	0.9545898	
10.88	0.4542236	0.8814087	
11.07	0.9553223	0.1956177	
11.26	0.6474915	-0.8027954	
11.45	-0.7778015	-0.2912598	
11.64	0.466156	0.6070251	
11.83	0.8615723	0.1577148	
12.02	0.8879395	-0.1951294	
12.21	0.7336426	-0.5024719	
12.4	0.1655273	-0.8213501	
12.59	-0.2702026	0.6645203	
12.78	0.6230164	-0.4109802	
12.97	0.2131958	-0.7966309	
13.16	-0.1829834	-0.8631592	
13.35	-0.5394287	-0.6992188	
13.54	-0.4994202	-0.5258789	
13.73	-0.7921143	0.4918213	
13.92	-0.3300781	0.7776794	
14.11	-0.1534119	-0.735321	
14.3	-0.5445251	0.0802917	
14.49	-0.9342651	0.3469543	
14.68	-0.7985229	0.5278931	
14.87	-0.3529968	0.812561	
15.06	0.2894287	0.786499	
15.25	0.7931824	0.3025818	
15.44	0.5808105	-0.5924072	
15.63	-0.7012024	-0.3594666	
15.82	-0.4416504	0.5701599	
16.01	0.4703064	0.8155212	
16.2	-0.3794556	-0.3482819	
16.39	0.9000854	0.1347656	
16.58	0.2315369	0.4028015	
16.77	0.8010559	-0.07965088	
16.96	0.5902405	-0.5764465	
17.15	0.6920776	-0.2832642	
17.34	0.5568542	-0.5543823	
17.53	0.2007446	-0.7865295	
17.72	-0.09594727	-0.7129211	
17.91	-0.2199402	-0.749939	
18.1	-0.668457	-0.8669434	
18.29	-0.9432983	-0.3339844	
18.48	-0.5325317	0.0297546	
18.67	-1.011597	-0.1487427	
18.86	-0.8914185	-0.03179932	
19.05	-0.181488	0.5424194	
19.24	-0.9157104	0.5004272	
19.43	-0.8006592	0.7635498	
19.62	-0.6573792	0.7408447	
19.81	0.1292725	0.7252197	
20.0	-0.0211792	0.8473511	
