# GHz S RI R 50 
!freq	ReS11	ImS11	
1.0	-0.5776367	-0.2565308	
1.19	-0.6877441	0.0203247	
1.38	-0.6625366	0.2974243	
1.57	-0.5280762	0.5371704	
1.76	-0.2723389	0.7530518	
1.95	0.0739746	0.8148193	
2.14	0.4052124	0.7474365	
2.33	0.6724243	0.5597534	
2.52	0.8248901	0.2796631	
2.71	0.9154663	-0.07391357	
2.9	0.8331909	-0.4092407	
3.09	0.6036987	-0.7084351	
3.28	0.3016357	-0.8609009	
3.47	-0.01739502	-0.927063	
3.66	-0.3414917	-0.848877	
3.85	-0.6586304	-0.649231	
4.04	-0.8422852	-0.2856445	
4.23	-0.9108276	0.0653076	
4.42	-0.8044434	0.413269	
4.61	-0.5792236	0.7240601	
4.8	-0.2180176	0.916687	
4.99	0.2258301	0.9395142	
5.18	0.6326599	0.7886963	
5.37	0.9478149	0.392395	
5.56	1.0448	-0.03491211	
5.75	0.9481812	-0.3987427	
5.94	0.5767822	-0.7860107	
6.13	0.0490723	-0.9745483	
6.32	-0.4106445	-0.8706665	
6.51	-0.7544556	-0.5291748	
6.7	-0.9476318	0.0136108	
6.89	0.8430176	-0.5014038	
7.08	-0.8948975	0.1227417	
7.27	-0.4492188	0.7481689	
7.46	0.5592957	0.6785278	
7.65	-0.142334	-0.9089966	
7.84	-0.8248901	0.5401001	
8.03	0.1412964	0.921936	
8.22	0.9387817	0.1621704	
8.41	0.1549683	-0.9950562	
8.6	-0.8850708	0.2424927	
8.79	0.1459961	0.911438	
8.98	0.8762817	0.371521	
9.17	0.5065613	-0.8103333	
9.36	-0.7763367	-0.5514832	
9.55	-0.8892822	0.2734985	
9.74	-0.2883301	0.9197388	
9.93	0.8149719	0.4931946	
10.12	0.5257568	-0.8530273	
10.31	-0.7602539	-0.5766296	
10.5	-0.7703247	0.52771	
10.69	-0.2252197	0.9537354	
10.88	0.4542847	0.883606	
11.07	0.9570923	0.1950684	
11.26	0.6393433	-0.7994385	
11.45	-0.7778625	-0.2911987	
11.64	0.4668884	0.6014404	
11.83	0.8625488	0.1572876	
12.02	0.8869629	-0.1973877	
12.21	0.7330322	-0.5016479	
12.4	0.161377	-0.8258667	
12.59	-0.2774658	0.6651001	
12.78	0.6242065	-0.4124146	
12.97	0.2106934	-0.791748	
13.16	-0.1837158	-0.8605347	
13.35	-0.5479126	-0.6991577	
13.54	-0.5047302	-0.52948	
13.73	-0.7909241	0.4976501	
13.92	-0.3318481	0.7741089	
14.11	-0.1474304	-0.7371521	
14.3	-0.5440979	0.0813904	
14.49	-0.9277649	0.3492737	
14.68	-0.7943726	0.5273438	
14.87	-0.3434753	0.8085327	
15.06	0.2917175	0.7915039	
15.25	0.7937927	0.3024597	
15.44	0.5832214	-0.5862427	
15.63	-0.7044983	-0.3598938	
15.82	-0.4403687	0.5656433	
16.01	0.4741516	0.8118591	
16.2	-0.3844757	-0.3475494	
16.39	0.8994751	0.1342163	
16.58	0.2281952	0.4020844	
16.77	0.7999878	-0.08053589	
16.96	0.5877686	-0.5775146	
17.15	0.6918945	-0.2856445	
17.34	0.552002	-0.5561523	
17.53	0.2116089	-0.7824707	
17.72	-0.1055603	-0.7168274	
17.91	-0.2200317	-0.7456055	
18.1	-0.6694641	-0.867218	
18.29	-0.9451294	-0.3314209	
18.48	-0.5325317	0.0302734	
18.67	-1.011169	-0.149353	
18.86	-0.8916626	-0.03137207	
19.05	-0.1826782	0.5358276	
19.24	-0.9135132	0.5057983	
19.43	-0.8048096	0.7562256	
19.62	-0.6579895	0.7431641	
19.81	0.1321106	0.7216187	
20.0	-0.02178955	0.8486328	
