# GHz S RI R 50 
!freq	ReS11	ImS11	
1.0	-0.5787354	-0.2543335	
1.19	-0.6872559	0.0203247	
1.38	-0.6605835	0.2999268	
1.57	-0.5303345	0.5352173	
1.76	-0.2766724	0.753418	
1.95	0.079834	0.8115845	
2.14	0.4034424	0.7461548	
2.33	0.6763306	0.5634766	
2.52	0.8275146	0.2783203	
2.71	0.9158325	-0.07385254	
2.9	0.8314209	-0.4074097	
3.09	0.5935669	-0.7021484	
3.28	0.298645	-0.8516235	
3.47	-0.01074219	-0.9329834	
3.66	-0.3380127	-0.8459473	
3.85	-0.6585083	-0.6521606	
4.04	-0.8413696	-0.2850952	
4.23	-0.9102173	0.0654297	
4.42	-0.8040161	0.414978	
4.61	-0.5830078	0.7207031	
4.8	-0.21698	0.9241943	
4.99	0.2224731	0.9451904	
5.18	0.6306152	0.7812195	
5.37	0.9476318	0.3921509	
5.56	1.045044	-0.03564453	
5.75	0.9442749	-0.3937378	
5.94	0.5767212	-0.7875977	
6.13	0.0410767	-0.9748535	
6.32	-0.4091797	-0.8676147	
6.51	-0.7540894	-0.529541	
6.7	-0.947998	0.0136719	
6.89	0.8449707	-0.5025635	
7.08	-0.8956909	0.1221313	
7.27	-0.4520264	0.7485962	
7.46	0.5596619	0.6786499	
7.65	-0.1346436	-0.9112549	
7.84	-0.824707	0.5432739	
8.03	0.1357422	0.9160156	
8.22	0.9379272	0.1621094	
8.41	0.1593018	-0.9884644	
8.6	-0.8870544	0.2421265	
8.79	0.1504517	0.9221191	
8.98	0.8812866	0.375	
9.17	0.5078735	-0.8108215	
9.36	-0.7804565	-0.5470886	
9.55	-0.8881836	0.2730713	
9.74	-0.2850952	0.9199219	
9.93	0.8166504	0.4939575	
10.12	0.5308228	-0.8571167	
10.31	-0.7581482	-0.5788879	
10.5	-0.7673035	0.5253296	
10.69	-0.2271729	0.9605713	
10.88	0.4476929	0.8831177	
11.07	0.9551392	0.1936646	
11.26	0.6436768	-0.7963867	
11.45	-0.7782288	-0.2914124	
11.64	0.4633789	0.6098328	
11.83	0.8616333	0.1580811	
12.02	0.8879395	-0.1991577	
12.21	0.7304993	-0.500061	
12.4	0.163269	-0.8244629	
12.59	-0.2758179	0.6677856	
12.78	0.6201477	-0.4066772	
12.97	0.2105103	-0.795105	
13.16	-0.1871338	-0.8612061	
13.35	-0.5499878	-0.7070313	
13.54	-0.5044861	-0.5313416	
13.73	-0.7943115	0.4954224	
13.92	-0.3286133	0.7756653	
14.11	-0.1471863	-0.7410583	
14.3	-0.5436096	0.0814209	
14.49	-0.9267578	0.3479004	
14.68	-0.8004456	0.526825	
14.87	-0.3479919	0.8106384	
15.06	0.2895508	0.7890625	
15.25	0.7934265	0.3029785	
15.44	0.5809326	-0.588623	
15.63	-0.7033386	-0.3572998	
15.82	-0.4373779	0.5657654	
16.01	0.4735718	0.8076172	
16.2	-0.3826599	-0.3462372	
16.39	0.8998108	0.1344299	
16.58	0.2277222	0.4070892	
16.77	0.79953	-0.07971191	
16.96	0.5865173	-0.5741577	
17.15	0.6918945	-0.2852478	
17.34	0.5521545	-0.5527954	
17.53	0.20224	-0.7851563	
17.72	-0.1008606	-0.7142639	
17.91	-0.2241821	-0.7477722	
18.1	-0.6724854	-0.8658447	
18.29	-0.946228	-0.3325195	
18.48	-0.5321045	0.0307007	
18.67	-1.011414	-0.1487427	
18.86	-0.8914795	-0.03137207	
19.05	-0.1766052	0.5444336	
19.24	-0.9175415	0.5067749	
19.43	-0.8030396	0.7636108	
19.62	-0.6549683	0.7442627	
19.81	0.1321716	0.7223816	
20.0	-0.03399658	0.8494263	
