# GHz S RI R 50 
!freq	ReS11	ImS11	
1.0	-0.5784912	-0.2557983	
1.19	-0.687439	0.0200195	
1.38	-0.6599121	0.2984619	
1.57	-0.5303345	0.538269	
1.76	-0.2713013	0.7488403	
1.95	0.0757446	0.8120117	
2.14	0.4012451	0.7437744	
2.33	0.6726685	0.5588989	
2.52	0.8252563	0.2790527	
2.71	0.9161987	-0.07348633	
2.9	0.8358765	-0.4072266	
3.09	0.6045532	-0.7090454	
3.28	0.3033447	-0.8629761	
3.47	-0.007385254	-0.9326782	
3.66	-0.3394165	-0.8468628	
3.85	-0.6621094	-0.6502075	
4.04	-0.8428345	-0.2861938	
4.23	-0.9105835	0.0648804	
4.42	-0.8009033	0.411438	
4.61	-0.5756226	0.7221069	
4.8	-0.2241211	0.920166	
4.99	0.229187	0.9463501	
5.18	0.6290588	0.7845764	
5.37	0.9462891	0.3917847	
5.56	1.045105	-0.03552246	
5.75	0.949646	-0.3952637	
5.94	0.5829468	-0.7857056	
6.13	0.0499878	-0.9714355	
6.32	-0.4089966	-0.8702393	
6.51	-0.7556152	-0.5276489	
6.7	-0.9474487	0.0136108	
6.89	0.8443604	-0.5032349	
7.08	-0.8951416	0.1222534	
7.27	-0.4522705	0.7489014	
7.46	0.568634	0.6860352	
7.65	-0.1361694	-0.9136353	
7.84	-0.8205566	0.5388794	
8.03	0.1467285	0.9118652	
8.22	0.9379272	0.161438	
8.41	0.1553345	-0.9911499	
8.6	-0.8883362	0.2411804	
8.79	0.1460571	0.9237061	
8.98	0.8797913	0.3708801	
9.17	0.5074463	-0.8138123	
9.36	-0.7741699	-0.5514221	
9.55	-0.8889771	0.2711792	
9.74	-0.2816772	0.9190063	
9.93	0.8168945	0.4942322	
10.12	0.5276489	-0.8546753	
10.31	-0.7581482	-0.5769348	
10.5	-0.7704773	0.5238647	
10.69	-0.2311401	0.9575195	
10.88	0.449707	0.8874512	
11.07	0.9567871	0.1945801	
11.26	0.6465149	-0.7988281	
11.45	-0.7757568	-0.2911072	
11.64	0.46875	0.6039734	
11.83	0.8620605	0.1574707	
12.02	0.8885498	-0.1970825	
12.21	0.7316284	-0.5003052	
12.4	0.161377	-0.828064	
12.59	-0.2720032	0.6673889	
12.78	0.6207275	-0.4075317	
12.97	0.2124634	-0.7960205	
13.16	-0.1835938	-0.8605347	
13.35	-0.5418701	-0.7017822	
13.54	-0.5039368	-0.5281067	
13.73	-0.7912292	0.4943542	
13.92	-0.3267822	0.7865601	
14.11	-0.1472473	-0.7302246	
14.3	-0.5448608	0.0821228	
14.49	-0.9262695	0.3457336	
14.68	-0.8017578	0.5263062	
14.87	-0.3511047	0.8144836	
15.06	0.2897339	0.7921448	
15.25	0.7933655	0.3024902	
15.44	0.5825806	-0.5918884	
15.63	-0.7051392	-0.3569946	
15.82	-0.4389954	0.5640564	
16.01	0.4753113	0.8112488	
16.2	-0.381073	-0.3515015	
16.39	0.8996277	0.1350708	
16.58	0.2245026	0.4042206	
16.77	0.8006287	-0.07980347	
16.96	0.5864258	-0.5775146	
17.15	0.6925964	-0.2841492	
17.34	0.5550842	-0.5523987	
17.53	0.2086182	-0.7866516	
17.72	-0.09921265	-0.7164612	
17.91	-0.2189941	-0.7485046	
18.1	-0.6698914	-0.868042	
18.29	-0.944397	-0.3322144	
18.48	-0.5324097	0.0315247	
18.67	-1.011108	-0.149231	
18.86	-0.8914185	-0.03210449	
19.05	-0.1789856	0.5447083	
19.24	-0.9168091	0.5114136	
19.43	-0.8043823	0.7575684	
19.62	-0.665863	0.7423096	
19.81	0.1260071	0.721405	
20.0	-0.02130127	0.8475342	
