# GHz S RI R 50 
!freq	ReS11	ImS11	
1.0	-0.5775146	-0.2545776	
1.19	-0.6875	0.0205688	
1.38	-0.6616821	0.2973022	
1.57	-0.5303345	0.5371704	
1.76	-0.2739868	0.7514648	
1.95	0.0759888	0.8115845	
2.14	0.401001	0.7440796	
2.33	0.6712646	0.5581665	
2.52	0.8264771	0.2796021	
2.71	0.9162598	-0.0736084	
2.9	0.8322144	-0.4031372	
3.09	0.6118774	-0.7023926	
3.28	0.3045044	-0.8567505	
3.47	-0.004882813	-0.9349365	
3.66	-0.3364258	-0.8475342	
3.85	-0.6643066	-0.6467285	
4.04	-0.8421631	-0.2838745	
4.23	-0.9107666	0.0656128	
4.42	-0.8024902	0.4104614	
4.61	-0.5818481	0.7261353	
4.8	-0.2154541	0.9179077	
4.99	0.2143555	0.9412231	
5.18	0.6305542	0.7862244	
5.37	0.9456177	0.3927002	
5.56	1.045837	-0.03546143	
5.75	0.9450684	-0.3944092	
5.94	0.5736084	-0.7791748	
6.13	0.0392456	-0.9730225	
6.32	-0.4171753	-0.866272	
6.51	-0.7564697	-0.5290527	
6.7	-0.947937	0.0133057	
6.89	0.8469849	-0.5023193	
7.08	-0.8959961	0.1220093	
7.27	-0.4553223	0.7530518	
7.46	0.5628662	0.6802979	
7.65	-0.1398315	-0.9121704	
7.84	-0.8231201	0.5378418	
8.03	0.147522	0.90802	
8.22	0.9378052	0.1629028	
8.41	0.1555176	-0.9856567	
8.6	-0.886261	0.2456055	
8.79	0.1503906	0.9208374	
8.98	0.879364	0.375	
9.17	0.5108032	-0.8110352	
9.36	-0.7774353	-0.5457764	
9.55	-0.8876953	0.2731323	
9.74	-0.2908936	0.9078369	
9.93	0.8145752	0.4923401	
10.12	0.5272217	-0.8519897	
10.31	-0.7606506	-0.5844116	
10.5	-0.7713928	0.5267334	
10.69	-0.2280273	0.96698	
10.88	0.4569702	0.8916626	
11.07	0.956543	0.1953125	
11.26	0.6456299	-0.8027954	
11.45	-0.7784729	-0.2919617	
11.64	0.4671021	0.6058655	
11.83	0.8615112	0.1577759	
12.02	0.8851318	-0.1972656	
12.21	0.7312622	-0.5000305	
12.4	0.161438	-0.8256226	
12.59	-0.2748108	0.6687622	
12.78	0.6209717	-0.4110413	
12.97	0.2111816	-0.7931519	
13.16	-0.1868896	-0.8565674	
13.35	-0.5457764	-0.7015381	
13.54	-0.5034485	-0.5290527	
13.73	-0.7916565	0.4959412	
13.92	-0.3313599	0.7806396	
14.11	-0.1537781	-0.7344055	
14.3	-0.544342	0.0806885	
14.49	-0.928894	0.3504333	
14.68	-0.7967529	0.5296936	
14.87	-0.3462219	0.8059998	
15.06	0.296814	0.7924805	
15.25	0.7922974	0.3031921	
15.44	0.5818176	-0.5852661	
15.63	-0.7023926	-0.3586731	
15.82	-0.4388733	0.5634766	
16.01	0.4721985	0.802002	
16.2	-0.3805695	-0.3477478	
16.39	0.8996582	0.1344604	
16.58	0.2245026	0.4008636	
16.77	0.7992554	-0.08071899	
16.96	0.5847168	-0.5757446	
17.15	0.6913757	-0.286377	
17.34	0.5527344	-0.5525818	
17.53	0.2089539	-0.7868042	
17.72	-0.09973145	-0.7206421	
17.91	-0.2174683	-0.7481384	
18.1	-0.6697693	-0.8697815	
18.29	-0.9431152	-0.3330078	
18.48	-0.5327759	0.0299988	
18.67	-1.01178	-0.1488647	
18.86	-0.8911743	-0.03155518	
19.05	-0.1772766	0.5446472	
19.24	-0.9159546	0.5070801	
19.43	-0.8006592	0.7578125	
19.62	-0.6616516	0.7459412	
19.81	0.1338501	0.7232361	
20.0	-0.02716064	0.8508301	
