# GHz S RI R 50 
!freq	ReS11	ImS11	
1.0	-0.5768433	-0.2545776	
1.19	-0.6872559	0.0203857	
1.38	-0.6610107	0.2999268	
1.57	-0.52948	0.5377197	
1.76	-0.2739868	0.7512817	
1.95	0.0715332	0.8103638	
2.14	0.3980713	0.7444458	
2.33	0.6719971	0.560791	
2.52	0.8269043	0.2789917	
2.71	0.9161987	-0.07397461	
2.9	0.8272095	-0.4112549	
3.09	0.6101379	-0.7012634	
3.28	0.3031616	-0.8517456	
3.47	-0.01068115	-0.9262085	
3.66	-0.34552	-0.8431396	
3.85	-0.6628418	-0.6504517	
4.04	-0.842041	-0.2856445	
4.23	-0.9110107	0.0647583	
4.42	-0.8018799	0.4137573	
4.61	-0.5802002	0.7154541	
4.8	-0.2189941	0.9192505	
4.99	0.2228394	0.9492798	
5.18	0.630127	0.7812195	
5.37	0.9476929	0.390625	
5.56	1.045227	-0.03607178	
5.75	0.9476318	-0.3972168	
5.94	0.5837402	-0.784668	
6.13	0.046936	-0.9740601	
6.32	-0.4138794	-0.8660278	
6.51	-0.7582397	-0.5273438	
6.7	-0.9474487	0.0133057	
6.89	0.8449097	-0.5050659	
7.08	-0.894104	0.1233521	
7.27	-0.4492798	0.7505493	
7.46	0.5661316	0.6808167	
7.65	-0.1287231	-0.9110107	
7.84	-0.8243408	0.5405273	
8.03	0.1379395	0.9133301	
8.22	0.9382935	0.1616211	
8.41	0.1472778	-0.9880371	
8.6	-0.88797	0.244873	
8.79	0.1466064	0.914917	
8.98	0.8816528	0.3707275	
9.17	0.508606	-0.8115234	
9.36	-0.7803955	-0.5465088	
9.55	-0.8902588	0.2694702	
9.74	-0.2874146	0.9213867	
9.93	0.8154907	0.4943848	
10.12	0.5251465	-0.8604736	
10.31	-0.7617798	-0.5802002	
10.5	-0.7679443	0.5298462	
10.69	-0.2281494	0.9595337	
10.88	0.4561157	0.8845215	
11.07	0.9550781	0.194458	
11.26	0.645813	-0.7958984	
11.45	-0.7772217	-0.291687	
11.64	0.4604797	0.6063843	
11.83	0.8590088	0.1577759	
12.02	0.8873291	-0.1969604	
12.21	0.7334595	-0.5043945	
12.4	0.1582642	-0.8265991	
12.59	-0.2763672	0.6617737	
12.78	0.6302185	-0.4062805	
12.97	0.2131348	-0.7999268	
13.16	-0.1867065	-0.8602295	
13.35	-0.5504761	-0.7022705	
13.54	-0.5039673	-0.5327454	
13.73	-0.7916565	0.4962463	
13.92	-0.3165588	0.7745056	
14.11	-0.1576843	-0.7377625	
14.3	-0.5416565	0.0765686	
14.49	-0.9268494	0.3508606	
14.68	-0.7978821	0.5265198	
14.87	-0.3461609	0.8079224	
15.06	0.2835999	0.7920837	
15.25	0.7957458	0.3026733	
15.44	0.5758057	-0.5895691	
15.63	-0.7033386	-0.3520203	
15.82	-0.4388123	0.5664673	
16.01	0.4777832	0.8150024	
16.2	-0.3808594	-0.3446045	
16.39	0.8997192	0.1335449	
16.58	0.228363	0.4002075	
16.77	0.7988281	-0.081604	
16.96	0.5882568	-0.5798035	
17.15	0.6886902	-0.2851868	
17.34	0.5541077	-0.5559692	
17.53	0.2060242	-0.7826538	
17.72	-0.09210205	-0.7158813	
17.91	-0.2179871	-0.7464905	
18.1	-0.6713562	-0.87323	
18.29	-0.942688	-0.3313599	
18.48	-0.5342407	0.0219727	
18.67	-1.01123	-0.1481323	
18.86	-0.8907471	-0.02960205	
19.05	-0.1798401	0.5438538	
19.24	-0.9169922	0.505188	
19.43	-0.800354	0.7592773	
19.62	-0.6584778	0.7442017	
19.81	0.1262207	0.7296143	
20.0	-0.02429199	0.8544922	
