# GHz S RI R 50 
!freq	ReS11	ImS11	
1.0	-0.579895	-0.2548218	
1.19	-0.6870117	0.0214233	
1.38	-0.661499	0.3008423	
1.57	-0.5316162	0.5421753	
1.76	-0.267334	0.7480469	
1.95	0.0799561	0.8136597	
2.14	0.4031982	0.7473145	
2.33	0.6755981	0.5616455	
2.52	0.8273926	0.2781982	
2.71	0.9157715	-0.07476807	
2.9	0.8292847	-0.4055176	
3.09	0.6032104	-0.7049561	
3.28	0.2974243	-0.8503418	
3.47	-0.01519775	-0.9342041	
3.66	-0.3410034	-0.8449707	
3.85	-0.6591187	-0.6477661	
4.04	-0.8416748	-0.2855225	
4.23	-0.9105225	0.0655518	
4.42	-0.8040771	0.4092407	
4.61	-0.5822144	0.7219238	
4.8	-0.2207642	0.9187622	
4.99	0.208252	0.9387817	
5.18	0.6221619	0.7817078	
5.37	0.947998	0.3926392	
5.56	1.045837	-0.03540039	
5.75	0.9478149	-0.3946533	
5.94	0.5738525	-0.7869263	
6.13	0.0419922	-0.97229	
6.32	-0.4082642	-0.8667603	
6.51	-0.7545166	-0.5291138	
6.7	-0.9469604	0.012207	
6.89	0.8457642	-0.5016479	
7.08	-0.8960571	0.1230469	
7.27	-0.4507446	0.7520752	
7.46	0.5654602	0.680481	
7.65	-0.1352539	-0.9109497	
7.84	-0.8261719	0.5397339	
8.03	0.1448975	0.9160767	
8.22	0.9382324	0.1620483	
8.41	0.1513062	-0.9938965	
8.6	-0.8862305	0.2443237	
8.79	0.1431274	0.9193115	
8.98	0.8777466	0.3728943	
9.17	0.5103455	-0.8139343	
9.36	-0.7737732	-0.5492554	
9.55	-0.8884888	0.2719727	
9.74	-0.2810669	0.9161377	
9.93	0.8170166	0.4937744	
10.12	0.5250854	-0.8605347	
10.31	-0.761261	-0.5780029	
10.5	-0.7729492	0.5247192	
10.69	-0.2276611	0.9619141	
10.88	0.4567261	0.8840332	
11.07	0.9561157	0.1939087	
11.26	0.645813	-0.7985535	
11.45	-0.7767639	-0.291687	
11.64	0.4635925	0.6060791	
11.83	0.8616943	0.1577148	
12.02	0.8870239	-0.1992188	
12.21	0.7340698	-0.5023499	
12.4	0.161377	-0.8264771	
12.59	-0.2745056	0.66745	
12.78	0.6206665	-0.4110107	
12.97	0.2155151	-0.7923584	
13.16	-0.185791	-0.8579102	
13.35	-0.5595703	-0.7026978	
13.54	-0.5025635	-0.5305786	
13.73	-0.788147	0.5005188	
13.92	-0.3253479	0.7774048	
14.11	-0.1533813	-0.7388	
14.3	-0.5435791	0.0809631	
14.49	-0.9255981	0.3509521	
14.68	-0.7998962	0.526825	
14.87	-0.3402405	0.8063354	
15.06	0.2929688	0.7897949	
15.25	0.7943115	0.3017578	
15.44	0.5814209	-0.5856628	
15.63	-0.7006531	-0.3580627	
15.82	-0.443634	0.5691528	
16.01	0.4725647	0.8109436	
16.2	-0.3824005	-0.3487396	
16.39	0.8998413	0.1333313	
16.58	0.2279663	0.4029388	
16.77	0.7991333	-0.08078003	
16.96	0.5812073	-0.583374	
17.15	0.6931152	-0.2859497	
17.34	0.557312	-0.5499573	
17.53	0.2011414	-0.7846069	
17.72	-0.102417	-0.7194519	
17.91	-0.2166748	-0.7489624	
18.1	-0.6719971	-0.866394	
18.29	-0.942688	-0.331543	
18.48	-0.5327454	0.0301514	
18.67	-1.011292	-0.1484985	
18.86	-0.8919678	-0.03088379	
19.05	-0.1750793	0.5419312	
19.24	-0.9168701	0.5043945	
19.43	-0.8010864	0.7614746	
19.62	-0.6623535	0.7408142	
19.81	0.1326904	0.7280579	
20.0	-0.01947021	0.8447266	
