# GHz S RI R 50 
!freq	ReS11	ImS11	
1.0	-0.5803223	-0.25354	
1.19	-0.6873169	0.0212402	
1.38	-0.6611938	0.2991333	
1.57	-0.5316162	0.5361938	
1.76	-0.2740479	0.7498779	
1.95	0.0748901	0.8154297	
2.14	0.401001	0.742981	
2.33	0.675293	0.5580444	
2.52	0.8275146	0.2794189	
2.71	0.9169312	-0.07415771	
2.9	0.8327026	-0.407959	
3.09	0.6050415	-0.7111816	
3.28	0.2994995	-0.8572998	
3.47	-0.01409912	-0.9268188	
3.66	-0.3427124	-0.8480225	
3.85	-0.6594238	-0.6480103	
4.04	-0.8414917	-0.2863159	
4.23	-0.9113159	0.0635376	
4.42	-0.8032837	0.4129639	
4.61	-0.5801392	0.7269897	
4.8	-0.2197876	0.9163208	
4.99	0.2185059	0.947998	
5.18	0.6325378	0.7861328	
5.37	0.9472046	0.3920898	
5.56	1.045776	-0.03570557	
5.75	0.949646	-0.3932495	
5.94	0.5795898	-0.7820435	
6.13	0.0442505	-0.9675293	
6.32	-0.4107056	-0.8638916	
6.51	-0.7529907	-0.5281372	
6.7	-0.947876	0.0126343	
6.89	0.8426514	-0.5039063	
7.08	-0.8944092	0.1222534	
7.27	-0.4501953	0.7497559	
7.46	0.5682678	0.6808472	
7.65	-0.1313477	-0.9106445	
7.84	-0.8261108	0.5385132	
8.03	0.1416016	0.9093018	
8.22	0.9388428	0.161438	
8.41	0.1503906	-0.9893188	
8.6	-0.8869324	0.2443542	
8.79	0.1491089	0.9136963	
8.98	0.8781128	0.37323	
9.17	0.5063782	-0.8162537	
9.36	-0.7764587	-0.5515747	
9.55	-0.8880615	0.2718506	
9.74	-0.2848511	0.9180908	
9.93	0.8166809	0.4941711	
10.12	0.529541	-0.8512573	
10.31	-0.7589722	-0.5815735	
10.5	-0.7685547	0.5238037	
10.69	-0.2297974	0.9559937	
10.88	0.4512329	0.8840942	
11.07	0.9559326	0.1947632	
11.26	0.6408691	-0.7961731	
11.45	-0.7805176	-0.2905884	
11.64	0.4624023	0.6111755	
11.83	0.8619995	0.1569824	
12.02	0.8863525	-0.1954956	
12.21	0.7309265	-0.5000916	
12.4	0.1647949	-0.8256226	
12.59	-0.276062	0.665741	
12.78	0.6225281	-0.4112549	
12.97	0.2104492	-0.7970581	
13.16	-0.1925049	-0.8644409	
13.35	-0.5473022	-0.7056274	
13.54	-0.4998169	-0.5310974	
13.73	-0.7891541	0.4971313	
13.92	-0.3274231	0.7763062	
14.11	-0.1539917	-0.7363281	
14.3	-0.5446167	0.0819092	
14.49	-0.9267578	0.3485107	
14.68	-0.8008423	0.5266418	
14.87	-0.3389893	0.8049011	
15.06	0.2911987	0.7885742	
15.25	0.7940979	0.3019714	
15.44	0.5808716	-0.5899048	
15.63	-0.7023926	-0.3562012	
15.82	-0.4413452	0.5640564	
16.01	0.4749451	0.8114624	
16.2	-0.3843079	-0.3484955	
16.39	0.8996277	0.1344604	
16.58	0.2237854	0.4027405	
16.77	0.7993774	-0.07962036	
16.96	0.5874023	-0.5805664	
17.15	0.6916504	-0.2865906	
17.34	0.5544739	-0.5489807	
17.53	0.2018433	-0.7849121	
17.72	-0.1075745	-0.7172241	
17.91	-0.2227783	-0.7460327	
18.1	-0.672821	-0.868103	
18.29	-0.9456787	-0.333313	
18.48	-0.5326538	0.0307617	
18.67	-1.010986	-0.1483154	
18.86	-0.8916626	-0.03149414	
19.05	-0.1802673	0.5409241	
19.24	-0.9192505	0.5054321	
19.43	-0.8004761	0.7630615	
19.62	-0.6579285	0.7433777	
19.81	0.1324768	0.7266541	
20.0	-0.02642822	0.8461304	
