# GHz S RI R 50 
!freq	ReS11	ImS11	
1.0	-0.5769043	-0.255188	
1.19	-0.6871338	0.0206909	
1.38	-0.6605225	0.2983398	
1.57	-0.5276489	0.5387573	
1.76	-0.274353	0.7504272	
1.95	0.0740356	0.8051147	
2.14	0.4033203	0.744873	
2.33	0.6730347	0.5609741	
2.52	0.8252563	0.2789917	
2.71	0.9156494	-0.07226563	
2.9	0.826416	-0.4049683	
3.09	0.6077881	-0.7028198	
3.28	0.3008423	-0.8560181	
3.47	-0.008911133	-0.9263916	
3.66	-0.3352661	-0.8465576	
3.85	-0.6603394	-0.6516724	
4.04	-0.8404541	-0.2843018	
4.23	-0.9108887	0.0654297	
4.42	-0.7991333	0.4129639	
4.61	-0.5762329	0.7263794	
4.8	-0.2161255	0.9188232	
4.99	0.2180786	0.947937	
5.18	0.6322937	0.784729	
5.37	0.9509888	0.3930054	
5.56	1.045166	-0.03540039	
5.75	0.9482422	-0.3936157	
5.94	0.5787964	-0.7871704	
6.13	0.0405273	-0.9768066	
6.32	-0.4129639	-0.8694458	
6.51	-0.760376	-0.5280151	
6.7	-0.9476318	0.0123901	
6.89	0.8428955	-0.5032349	
7.08	-0.8949585	0.1223145	
7.27	-0.4425659	0.7495728	
7.46	0.5664673	0.6829529	
7.65	-0.1367188	-0.9107666	
7.84	-0.824646	0.5432129	
8.03	0.1368408	0.9119873	
8.22	0.9379272	0.1622925	
8.41	0.1497803	-0.9869385	
8.6	-0.8861084	0.2448425	
8.79	0.1489258	0.9168701	
8.98	0.8809814	0.3713989	
9.17	0.507782	-0.8110962	
9.36	-0.7758789	-0.5499268	
9.55	-0.8915405	0.2700195	
9.74	-0.2919312	0.9241333	
9.93	0.8144531	0.494873	
10.12	0.5290527	-0.8511963	
10.31	-0.7590942	-0.5784302	
10.5	-0.7714539	0.5262756	
10.69	-0.227356	0.9541016	
10.88	0.4507446	0.8867188	
11.07	0.9554443	0.1945801	
11.26	0.6391296	-0.7960205	
11.45	-0.7778931	-0.2910767	
11.64	0.4645386	0.6072388	
11.83	0.8623657	0.1571655	
12.02	0.8875732	-0.197937	
12.21	0.7331238	-0.5037537	
12.4	0.1633301	-0.824646	
12.59	-0.2789612	0.6668396	
12.78	0.6248474	-0.4113464	
12.97	0.2119141	-0.7918701	
13.16	-0.1807861	-0.8585205	
13.35	-0.543335	-0.7055054	
13.54	-0.5027161	-0.530426	
13.73	-0.7915039	0.494873	
13.92	-0.3323059	0.7748413	
14.11	-0.1494751	-0.7339783	
14.3	-0.544342	0.0816956	
14.49	-0.9241333	0.3477478	
14.68	-0.796936	0.5267334	
14.87	-0.3461914	0.8087463	
15.06	0.2879639	0.787384	
15.25	0.7932129	0.3006592	
15.44	0.578125	-0.5878296	
15.63	-0.7027588	-0.3572998	
15.82	-0.4390259	0.5651855	
16.01	0.4718933	0.8147888	
16.2	-0.3815308	-0.3495331	
16.39	0.8999634	0.1349792	
16.58	0.2279358	0.4015198	
16.77	0.7999268	-0.07983398	
16.96	0.5852966	-0.578186	
17.15	0.6955566	-0.2854919	
17.34	0.5558472	-0.5505371	
17.53	0.2005615	-0.7790527	
17.72	-0.09585571	-0.7166138	
17.91	-0.2221069	-0.747345	
18.1	-0.6716309	-0.8658142	
18.29	-0.944397	-0.331543	
18.48	-0.5328674	0.0308838	
18.67	-1.011047	-0.149231	
18.86	-0.8916016	-0.03149414	
19.05	-0.1794434	0.5429688	
19.24	-0.9164429	0.5116577	
19.43	-0.800415	0.7553101	
19.62	-0.6568909	0.7423401	
19.81	0.1257019	0.7330322	
20.0	-0.0211792	0.8410034	
