# GHz S RI R 50 
!freq	ReS11	ImS11	
1.0	-0.578186	-0.2544556	
1.19	-0.6873169	0.0210571	
1.38	-0.6600952	0.2971191	
1.57	-0.532135	0.5418396	
1.76	-0.2712402	0.7505493	
1.95	0.0769653	0.8169556	
2.14	0.406189	0.7495117	
2.33	0.6767578	0.560791	
2.52	0.8266602	0.2800903	
2.71	0.9163208	-0.07244873	
2.9	0.8304443	-0.4063721	
3.09	0.6116333	-0.7080688	
3.28	0.3065186	-0.8540039	
3.47	-0.009460449	-0.9310303	
3.66	-0.3428345	-0.8475952	
3.85	-0.6593628	-0.6524048	
4.04	-0.8413696	-0.2855225	
4.23	-0.9099121	0.0658569	
4.42	-0.8031616	0.4186401	
4.61	-0.5811768	0.7249146	
4.8	-0.2144775	0.9200439	
4.99	0.2252197	0.9431763	
5.18	0.626709	0.7851563	
5.37	0.947937	0.3927612	
5.56	1.045471	-0.03485107	
5.75	0.9492798	-0.3978271	
5.94	0.5773315	-0.7860107	
6.13	0.0418091	-0.9712524	
6.32	-0.4046021	-0.866272	
6.51	-0.7544556	-0.5327759	
6.7	-0.947998	0.0133667	
6.89	0.84375	-0.5065308	
7.08	-0.8955688	0.1226196	
7.27	-0.4440308	0.7539063	
7.46	0.5641479	0.6825256	
7.65	-0.1403809	-0.9093018	
7.84	-0.8192749	0.5424805	
8.03	0.1393433	0.9152222	
8.22	0.9381104	0.1625977	
8.41	0.1530762	-0.9938354	
8.6	-0.8887939	0.2444153	
8.79	0.1480103	0.9197998	
8.98	0.8782959	0.3729248	
9.17	0.5086365	-0.8128662	
9.36	-0.7776794	-0.5462341	
9.55	-0.8907471	0.2716064	
9.74	-0.2905273	0.9230347	
9.93	0.81604	0.493042	
10.12	0.5302124	-0.8537598	
10.31	-0.7597961	-0.5810242	
10.5	-0.7696838	0.5279846	
10.69	-0.2336426	0.9581909	
10.88	0.4537354	0.8897705	
11.07	0.9559326	0.1942749	
11.26	0.6434326	-0.8039856	
11.45	-0.7790222	-0.2923889	
11.64	0.4657593	0.6124268	
11.83	0.8626099	0.1568604	
12.02	0.8873901	-0.1973877	
12.21	0.7304382	-0.5039673	
12.4	0.1549683	-0.8270874	
12.59	-0.2747192	0.6627808	
12.78	0.6238098	-0.4111328	
12.97	0.2105103	-0.7976074	
13.16	-0.1832275	-0.8596191	
13.35	-0.5480957	-0.7019043	
13.54	-0.4995117	-0.5328674	
13.73	-0.7893066	0.4943542	
13.92	-0.3272705	0.7733765	
14.11	-0.1495056	-0.7349548	
14.3	-0.5445557	0.0812683	
14.49	-0.9253235	0.3479004	
14.68	-0.7997131	0.5298767	
14.87	-0.3479309	0.8125305	
15.06	0.288269	0.7861938	
15.25	0.7947998	0.3036804	
15.44	0.5773926	-0.5932922	
15.63	-0.7034607	-0.35849	
15.82	-0.4346924	0.5676575	
16.01	0.4740601	0.8114624	
16.2	-0.3807526	-0.3489685	
16.39	0.8993835	0.1351929	
16.58	0.2262268	0.4042206	
16.77	0.7999573	-0.08032227	
16.96	0.5922852	-0.569519	
17.15	0.6929626	-0.2858276	
17.34	0.5571594	-0.5523987	
17.53	0.2051392	-0.7824097	
17.72	-0.09555054	-0.7160034	
17.91	-0.21698	-0.7532654	
18.1	-0.6652832	-0.8668823	
18.29	-0.9434814	-0.3338623	
18.48	-0.532135	0.0299072	
18.67	-1.010925	-0.149292	
18.86	-0.8916626	-0.03161621	
19.05	-0.1800537	0.5392456	
19.24	-0.9121704	0.5067749	
19.43	-0.8031006	0.7637329	
19.62	-0.6577759	0.744812	
19.81	0.1332703	0.7233582	
20.0	-0.02368164	0.8500366	
