# GHz S RI R 50 
!freq	ReS11	ImS11	
1.0	-0.576416	-0.2540283	
1.19	-0.6871338	0.0210571	
1.38	-0.6610107	0.2982788	
1.57	-0.5308228	0.5390625	
1.76	-0.2713013	0.7501221	
1.95	0.0800171	0.810791	
2.14	0.4040527	0.7485352	
2.33	0.6732788	0.5605469	
2.52	0.8278809	0.2801514	
2.71	0.9163208	-0.07391357	
2.9	0.835022	-0.4064331	
3.09	0.6044922	-0.7087402	
3.28	0.3013306	-0.8591919	
3.47	-0.01409912	-0.9349365	
3.66	-0.34021	-0.852478	
3.85	-0.6610718	-0.6453857	
4.04	-0.8404541	-0.2858276	
4.23	-0.9104004	0.0654907	
4.42	-0.8044434	0.4122314	
4.61	-0.5821533	0.7348633	
4.8	-0.21521	0.9143066	
4.99	0.2161865	0.9523926	
5.18	0.6255798	0.7925415	
5.37	0.9477539	0.3910522	
5.56	1.044983	-0.03570557	
5.75	0.9511719	-0.3968506	
5.94	0.5806274	-0.7808228	
6.13	0.0478516	-0.9705811	
6.32	-0.4058228	-0.87146	
6.51	-0.7554321	-0.5294189	
6.7	-0.9475708	0.0136108	
6.89	0.8476563	-0.5036621	
7.08	-0.8948975	0.121521	
7.27	-0.4512329	0.748291	
7.46	0.5674133	0.679718	
7.65	-0.1364746	-0.9154053	
7.84	-0.8262939	0.5376587	
8.03	0.1339722	0.9076538	
8.22	0.9378662	0.1617432	
8.41	0.1647949	-0.9974976	
8.6	-0.8853149	0.2442017	
8.79	0.1417847	0.9157104	
8.98	0.8809204	0.3734741	
9.17	0.5041199	-0.8125305	
9.36	-0.7791443	-0.5482178	
9.55	-0.8895874	0.2686157	
9.74	-0.2861938	0.9155884	
9.93	0.8166199	0.4928589	
10.12	0.5269165	-0.8561401	
10.31	-0.7583008	-0.5759277	
10.5	-0.7688293	0.5244751	
10.69	-0.2279053	0.9559937	
10.88	0.4541016	0.8809814	
11.07	0.9547119	0.1948853	
11.26	0.6462097	-0.8044128	
11.45	-0.7781372	-0.2911072	
11.64	0.4647522	0.6075439	
11.83	0.8617554	0.1569824	
12.02	0.8878174	-0.1975098	
12.21	0.7299805	-0.5023804	
12.4	0.1561279	-0.8300171	
12.59	-0.2762451	0.6636353	
12.78	0.6210632	-0.4074097	
12.97	0.2122192	-0.7896729	
13.16	-0.1808472	-0.8530273	
13.35	-0.5509033	-0.7057495	
13.54	-0.5032959	-0.53125	
13.73	-0.7921448	0.496582	
13.92	-0.3272705	0.7776794	
14.11	-0.153595	-0.7408447	
14.3	-0.5447998	0.0810547	
14.49	-0.9291992	0.3500061	
14.68	-0.7993469	0.5319214	
14.87	-0.3478394	0.8050232	
15.06	0.2897034	0.7842712	
15.25	0.793396	0.302063	
15.44	0.5744019	-0.5901794	
15.63	-0.706543	-0.356842	
15.82	-0.4376831	0.5668335	
16.01	0.475708	0.8076782	
16.2	-0.3836975	-0.3470612	
16.39	0.8995667	0.1342468	
16.58	0.2288971	0.4033966	
16.77	0.7993774	-0.07971191	
16.96	0.5926208	-0.5708008	
17.15	0.6932068	-0.2858276	
17.34	0.5591736	-0.5495911	
17.53	0.203064	-0.7879639	
17.72	-0.1026611	-0.7188721	
17.91	-0.2173767	-0.7420349	
18.1	-0.6722717	-0.8640442	
18.29	-0.9451904	-0.3328857	
18.48	-0.532074	0.0304871	
18.67	-1.010925	-0.1481323	
18.86	-0.8917847	-0.03149414	
19.05	-0.1799927	0.5394897	
19.24	-0.9164429	0.5065308	
19.43	-0.8005981	0.7596436	
19.62	-0.6596069	0.7427368	
19.81	0.1322327	0.7259216	
20.0	-0.02600098	0.8498535	
