# GHz S RI R 50 
!freq	ReS11	ImS11	
1.0	-0.5795898	-0.2546997	
1.19	-0.6873169	0.0211182	
1.38	-0.6602173	0.2991943	
1.57	-0.5302734	0.5373535	
1.76	-0.2717285	0.7449341	
1.95	0.0825195	0.8206787	
2.14	0.4034424	0.7496338	
2.33	0.6784668	0.5596924	
2.52	0.8278198	0.2793579	
2.71	0.9161377	-0.07250977	
2.9	0.8312988	-0.4078979	
3.09	0.6151733	-0.7063599	
3.28	0.2990723	-0.8615723	
3.47	-0.01013184	-0.9287109	
3.66	-0.3428955	-0.8479614	
3.85	-0.65448	-0.6480103	
4.04	-0.8417358	-0.2835693	
4.23	-0.9110718	0.0650024	
4.42	-0.8039551	0.4136963	
4.61	-0.5874634	0.7238159	
4.8	-0.2233276	0.9189453	
4.99	0.223938	0.9420776	
5.18	0.6221008	0.7857056	
5.37	0.9458008	0.3934326	
5.56	1.044983	-0.0355835	
5.75	0.9457397	-0.3980103	
5.94	0.5820313	-0.786438	
6.13	0.0462646	-0.9700317	
6.32	-0.4146729	-0.8728027	
6.51	-0.7515259	-0.5285339	
6.7	-0.9476929	0.0133057	
6.89	0.8418579	-0.5039673	
7.08	-0.8954468	0.121582	
7.27	-0.4498901	0.7525635	
7.46	0.5619202	0.6819153	
7.65	-0.1370239	-0.914978	
7.84	-0.8255005	0.5345459	
8.03	0.1430054	0.9008789	
8.22	0.9382324	0.1622925	
8.41	0.1557617	-0.9928589	
8.6	-0.888092	0.2447205	
8.79	0.1489868	0.9212646	
8.98	0.8786011	0.3739624	
9.17	0.5109558	-0.8108521	
9.36	-0.7807617	-0.5473633	
9.55	-0.8850098	0.272522	
9.74	-0.2884521	0.9110718	
9.93	0.8148193	0.4950562	
10.12	0.5232544	-0.8544312	
10.31	-0.7596741	-0.578064	
10.5	-0.7709351	0.5262756	
10.69	-0.2340088	0.956665	
10.88	0.4609375	0.8834839	
11.07	0.9556274	0.1941528	
11.26	0.6400452	-0.8024902	
11.45	-0.7766418	-0.2912598	
11.64	0.464447	0.6020813	
11.83	0.8618164	0.1568604	
12.02	0.8856201	-0.1975708	
12.21	0.733429	-0.5044556	
12.4	0.1589966	-0.8257446	
12.59	-0.2774048	0.6626587	
12.78	0.6244202	-0.4131165	
12.97	0.2140503	-0.7945557	
13.16	-0.1899414	-0.8589478	
13.35	-0.5494385	-0.703064	
13.54	-0.4993896	-0.5312805	
13.73	-0.7915649	0.5001831	
13.92	-0.3287659	0.7810974	
14.11	-0.1556091	-0.7367859	
14.3	-0.5444641	0.0812378	
14.49	-0.9283142	0.3513184	
14.68	-0.7955627	0.5309753	
14.87	-0.3404541	0.8140259	
15.06	0.2926941	0.7875366	
15.25	0.7943115	0.3029175	
15.44	0.5776062	-0.5873108	
15.63	-0.7036133	-0.3565979	
15.82	-0.4438171	0.5635986	
16.01	0.4725952	0.8086243	
16.2	-0.3809967	-0.3492432	
16.39	0.9002991	0.1343384	
16.58	0.2297668	0.40242	
16.77	0.7994995	-0.07992554	
16.96	0.5889893	-0.5717468	
17.15	0.6911621	-0.2836914	
17.34	0.5555725	-0.5499878	
17.53	0.2096863	-0.7819824	
17.72	-0.1003418	-0.7210083	
17.91	-0.2160034	-0.7484741	
18.1	-0.6723633	-0.8652649	
18.29	-0.9447632	-0.3317871	
18.48	-0.5322266	0.0297241	
18.67	-1.011292	-0.1488647	
18.86	-0.8916016	-0.03137207	
19.05	-0.1810303	0.5418701	
19.24	-0.9174194	0.5073853	
19.43	-0.8013306	0.7668457	
19.62	-0.6591492	0.745697	
19.81	0.1282959	0.7245178	
20.0	-0.0291748	0.8490601	
