# GHz S RI R 50 
!freq	ReS11	ImS11	
1.0	-0.5765991	-0.2553101	
1.19	-0.687439	0.0209961	
1.38	-0.6599121	0.2990112	
1.57	-0.5274658	0.5388794	
1.76	-0.2735596	0.7512207	
1.95	0.0766602	0.8085327	
2.14	0.4053955	0.7483521	
2.33	0.6740112	0.5604858	
2.52	0.8260498	0.2794189	
2.71	0.9157104	-0.07397461	
2.9	0.8327637	-0.4086914	
3.09	0.6069946	-0.7034302	
3.28	0.302002	-0.854126	
3.47	-0.01086426	-0.9386597	
3.66	-0.3378906	-0.8518066	
3.85	-0.6570435	-0.6533203	
4.04	-0.840271	-0.2852173	
4.23	-0.9113159	0.0650635	
4.42	-0.8021851	0.4105225	
4.61	-0.5787354	0.722168	
4.8	-0.217041	0.920166	
4.99	0.2217407	0.9420166	
5.18	0.6261292	0.7872314	
5.37	0.9486694	0.3911133	
5.56	1.04541	-0.03533936	
5.75	0.9464722	-0.4020996	
5.94	0.5805054	-0.7841187	
6.13	0.0456543	-0.9696655	
6.32	-0.4130859	-0.8684692	
6.51	-0.7557373	-0.5306396	
6.7	-0.9478149	0.013916	
6.89	0.8461304	-0.5033569	
7.08	-0.8954468	0.1231079	
7.27	-0.4508667	0.7589722	
7.46	0.5606079	0.6795654	
7.65	-0.1370239	-0.9077148	
7.84	-0.8239746	0.541748	
8.03	0.1442261	0.9089355	
8.22	0.9383545	0.161499	
8.41	0.1570435	-0.9900513	
8.6	-0.8867798	0.243103	
8.79	0.1420288	0.9157104	
8.98	0.8787842	0.3723145	
9.17	0.5111084	-0.809845	
9.36	-0.7729187	-0.5489502	
9.55	-0.8913574	0.2716064	
9.74	-0.2886963	0.9066772	
9.93	0.8184509	0.4937744	
10.12	0.5306396	-0.8556519	
10.31	-0.7612915	-0.5760193	
10.5	-0.7698364	0.5273438	
10.69	-0.2288208	0.9649658	
10.88	0.451355	0.8830566	
11.07	0.9558716	0.1937866	
11.26	0.6395874	-0.7970581	
11.45	-0.7771606	-0.2911377	
11.64	0.4651184	0.6048584	
11.83	0.8619385	0.1571655	
12.02	0.8866577	-0.1967773	
12.21	0.7325134	-0.501709	
12.4	0.1594238	-0.8268433	
12.59	-0.2762451	0.6641846	
12.78	0.62146	-0.4065552	
12.97	0.2155151	-0.7938843	
13.16	-0.1818237	-0.862854	
13.35	-0.5539551	-0.7005005	
13.54	-0.50177	-0.5339966	
13.73	-0.7876587	0.5013428	
13.92	-0.3252869	0.7799072	
14.11	-0.1536255	-0.7401733	
14.3	-0.5433655	0.0810852	
14.49	-0.9326172	0.3521729	
14.68	-0.797821	0.5296936	
14.87	-0.3423767	0.8048096	
15.06	0.2928467	0.7875671	
15.25	0.7921143	0.3022766	
15.44	0.5795288	-0.5955505	
15.63	-0.7060852	-0.3561401	
15.82	-0.4388123	0.5623474	
16.01	0.4751282	0.8106384	
16.2	-0.3838806	-0.3470917	
16.39	0.9006348	0.1340332	
16.58	0.2251434	0.404129	
16.77	0.7988892	-0.08105469	
16.96	0.5884094	-0.5786743	
17.15	0.6921387	-0.2859802	
17.34	0.5538025	-0.5556946	
17.53	0.2064819	-0.784729	
17.72	-0.1013489	-0.7144165	
17.91	-0.2169189	-0.7467957	
18.1	-0.6714478	-0.8642578	
18.29	-0.944519	-0.3343506	
18.48	-0.5315857	0.0300293	
18.67	-1.011536	-0.1489258	
18.86	-0.8912354	-0.03094482	
19.05	-0.1797485	0.5400085	
19.24	-0.9091797	0.5116577	
19.43	-0.8028564	0.7607422	
19.62	-0.6627502	0.7417297	
19.81	0.1323547	0.723938	
20.0	-0.02142334	0.8446045	
