# GHz S RI R 50 
!freq	ReS11	ImS11	
1.0	-0.5786133	-0.2556152	
1.19	-0.6871338	0.020813	
1.38	-0.6616821	0.2987061	
1.57	-0.5274963	0.5370789	
1.76	-0.2697754	0.7525635	
1.95	0.0759888	0.8134155	
2.14	0.4018555	0.7479858	
2.33	0.6732178	0.5606689	
2.52	0.8258667	0.2796631	
2.71	0.9157715	-0.07366943	
2.9	0.8323364	-0.4110718	
3.09	0.607605	-0.7061157	
3.28	0.2949219	-0.8556519	
3.47	-0.0166626	-0.9364624	
3.66	-0.3426514	-0.848877	
3.85	-0.6593628	-0.647522	
4.04	-0.8400879	-0.2860718	
4.23	-0.9115601	0.0641479	
4.42	-0.8058472	0.4133911	
4.61	-0.5794067	0.7218018	
4.8	-0.2178345	0.9210205	
4.99	0.2247314	0.9436646	
5.18	0.6256409	0.7884216	
5.37	0.9447632	0.3927002	
5.56	1.045288	-0.03521729	
5.75	0.9424438	-0.3964233	
5.94	0.585083	-0.7816162	
6.13	0.050293	-0.970459	
6.32	-0.4168701	-0.8702393	
6.51	-0.7528687	-0.5294189	
6.7	-0.9476929	0.0128784	
6.89	0.8390503	-0.5039063	
7.08	-0.8956299	0.1227417	
7.27	-0.4503174	0.7487793	
7.46	0.5619507	0.6824341	
7.65	-0.1316528	-0.909668	
7.84	-0.8256836	0.5422363	
8.03	0.1403198	0.9075317	
8.22	0.9378052	0.1623535	
8.41	0.1480103	-0.9976807	
8.6	-0.8887329	0.2435303	
8.79	0.1486206	0.9203491	
8.98	0.8790283	0.3746338	
9.17	0.5187988	-0.8169861	
9.36	-0.7792969	-0.5501099	
9.55	-0.8892822	0.2731323	
9.74	-0.2915649	0.9243774	
9.93	0.8143311	0.4976196	
10.12	0.5293579	-0.8535767	
10.31	-0.7589111	-0.579834	
10.5	-0.7708435	0.5253906	
10.69	-0.2297363	0.9637451	
10.88	0.4577026	0.8835449	
11.07	0.9562988	0.1947021	
11.26	0.6401978	-0.7926025	
11.45	-0.7783203	-0.2919617	
11.64	0.4619446	0.6099243	
11.83	0.8618774	0.1570435	
12.02	0.8856812	-0.1980591	
12.21	0.7284546	-0.4998474	
12.4	0.1600952	-0.824707	
12.59	-0.2719116	0.6675415	
12.78	0.6239929	-0.4092712	
12.97	0.2106934	-0.7941895	
13.16	-0.1801758	-0.852356	
13.35	-0.5516968	-0.7057495	
13.54	-0.5009155	-0.5288086	
13.73	-0.7952576	0.4970093	
13.92	-0.3287048	0.7802734	
14.11	-0.1480408	-0.741394	
14.3	-0.5448303	0.0817261	
14.49	-0.9269714	0.3487854	
14.68	-0.7988586	0.5295105	
14.87	-0.3520813	0.8129272	
15.06	0.2912292	0.7830811	
15.25	0.7938232	0.3022766	
15.44	0.57724	-0.5923462	
15.63	-0.7022095	-0.3564758	
15.82	-0.4380798	0.565979	
16.01	0.4727173	0.816803	
16.2	-0.3782501	-0.3476105	
16.39	0.8998718	0.1346741	
16.58	0.2266846	0.4028473	
16.77	0.8009338	-0.08126831	
16.96	0.5854797	-0.5721436	
17.15	0.6932373	-0.2875366	
17.34	0.5551758	-0.5485535	
17.53	0.2075806	-0.788147	
17.72	-0.09338379	-0.717804	
17.91	-0.2179871	-0.7365723	
18.1	-0.6645203	-0.8615417	
18.29	-0.9424438	-0.3322144	
18.48	-0.5328674	0.0297546	
18.67	-1.011108	-0.1483765	
18.86	-0.8917236	-0.03131104	
19.05	-0.1774902	0.539978	
19.24	-0.9152222	0.5064697	
19.43	-0.7990723	0.7564087	
19.62	-0.6582642	0.7460327	
19.81	0.1270142	0.7261658	
20.0	-0.02502441	0.8483887	
