# GHz S RI R 50 
!freq	ReS11	ImS11	
1.0	-0.5769043	-0.2561035	
1.19	-0.6878662	0.020752	
1.38	-0.6605835	0.2990112	
1.57	-0.5298462	0.5375977	
1.76	-0.2735596	0.7455444	
1.95	0.0755615	0.814209	
2.14	0.4014893	0.7478638	
2.33	0.6758423	0.5621338	
2.52	0.8253174	0.2785034	
2.71	0.9176025	-0.07312012	
2.9	0.8322754	-0.4081421	
3.09	0.6057739	-0.7080078	
3.28	0.3000488	-0.8600464	
3.47	-0.01239014	-0.9312744	
3.66	-0.3374023	-0.8459473	
3.85	-0.6586304	-0.6478271	
4.04	-0.8397827	-0.2858887	
4.23	-0.9100952	0.0661621	
4.42	-0.8021851	0.4169312	
4.61	-0.5709229	0.7284546	
4.8	-0.2142334	0.9138794	
4.99	0.2114868	0.9369507	
5.18	0.6250305	0.7888794	
5.37	0.9467163	0.3931274	
5.56	1.045715	-0.03436279	
5.75	0.9457397	-0.3959961	
5.94	0.5817261	-0.7821655	
6.13	0.0439453	-0.9680176	
6.32	-0.4103394	-0.8676758	
6.51	-0.7573242	-0.5322266	
6.7	-0.9473877	0.0134277	
6.89	0.8427124	-0.5040283	
7.08	-0.8947754	0.1240234	
7.27	-0.4487305	0.7537842	
7.46	0.5635071	0.6824951	
7.65	-0.1345825	-0.9140015	
7.84	-0.8282471	0.5431519	
8.03	0.1398926	0.9133301	
8.22	0.9382324	0.1625977	
8.41	0.1509399	-0.9891968	
8.6	-0.8875427	0.2437134	
8.79	0.1444092	0.9180298	
8.98	0.8775635	0.3735962	
9.17	0.5099792	-0.8160706	
9.36	-0.7755127	-0.5511475	
9.55	-0.8876953	0.2695313	
9.74	-0.2909546	0.9220581	
9.93	0.8156433	0.4934387	
10.12	0.5214844	-0.8508301	
10.31	-0.7592163	-0.5794678	
10.5	-0.7704773	0.5278931	
10.69	-0.2276001	0.9622803	
10.88	0.4536133	0.881958	
11.07	0.9567871	0.194519	
11.26	0.6418152	-0.8072205	
11.45	-0.7776794	-0.29245	
11.64	0.4644775	0.6065674	
11.83	0.862915	0.1575317	
12.02	0.8863525	-0.1986084	
12.21	0.7318115	-0.4989624	
12.4	0.1661377	-0.8233032	
12.59	-0.276947	0.6654663	
12.78	0.6271057	-0.4101563	
12.97	0.2142334	-0.7943115	
13.16	-0.1875	-0.8599243	
13.35	-0.5534058	-0.7001953	
13.54	-0.5040588	-0.5322571	
13.73	-0.7904053	0.4969788	
13.92	-0.3276978	0.7801208	
14.11	-0.1542053	-0.7347412	
14.3	-0.5446777	0.0820313	
14.49	-0.9267578	0.3486938	
14.68	-0.8012085	0.5285645	
14.87	-0.3346252	0.8123779	
15.06	0.2902527	0.789093	
15.25	0.7941895	0.3019714	
15.44	0.583313	-0.5912781	
15.63	-0.7052307	-0.3596802	
15.82	-0.4378052	0.5630188	
16.01	0.4780884	0.8097839	
16.2	-0.3815613	-0.348999	
16.39	0.8999023	0.1341858	
16.58	0.22966	0.4021912	
16.77	0.7999878	-0.08129883	
16.96	0.5896912	-0.5734558	
17.15	0.6908875	-0.2849121	
17.34	0.5533142	-0.5552368	
17.53	0.2077332	-0.788269	
17.72	-0.09884644	-0.7135925	
17.91	-0.2180176	-0.7458496	
18.1	-0.6691284	-0.869812	
18.29	-0.9422607	-0.3321533	
18.48	-0.5324402	0.0300293	
18.67	-1.010864	-0.1489258	
18.86	-0.8915405	-0.03155518	
19.05	-0.181366	0.5413208	
19.24	-0.9137573	0.5111694	
19.43	-0.8057251	0.7549438	
19.62	-0.6600952	0.7451477	
19.81	0.1333313	0.727356	
20.0	-0.02813721	0.843689	
