# GHz S RI R 50 
!freq	ReS11	ImS11	
1.0	-0.5773315	-0.2549438	
1.19	-0.6873169	0.0211182	
1.38	-0.6619873	0.2981567	
1.57	-0.5280762	0.5386353	
1.76	-0.2740479	0.7510376	
1.95	0.0783691	0.8068237	
2.14	0.4029541	0.7451172	
2.33	0.6726685	0.5600586	
2.52	0.8274536	0.279541	
2.71	0.9171753	-0.07489014	
2.9	0.831543	-0.4048462	
3.09	0.6021118	-0.7052612	
3.28	0.3045044	-0.8540039	
3.47	-0.01312256	-0.9260864	
3.66	-0.3411865	-0.8499146	
3.85	-0.6591187	-0.6483765	
4.04	-0.8421021	-0.2850342	
4.23	-0.9102783	0.0650024	
4.42	-0.8022461	0.4088745	
4.61	-0.5759277	0.7227783	
4.8	-0.2299194	0.9197388	
4.99	0.2214966	0.9486694	
5.18	0.6221924	0.7857361	
5.37	0.9478149	0.3928833	
5.56	1.045837	-0.03564453	
5.75	0.9434814	-0.3959351	
5.94	0.5791016	-0.7886963	
6.13	0.046875	-0.9736938	
6.32	-0.4135132	-0.8666992	
6.51	-0.7532959	-0.5264282	
6.7	-0.947876	0.0126343	
6.89	0.8434448	-0.5032349	
7.08	-0.8948364	0.1221924	
7.27	-0.4492798	0.7529297	
7.46	0.5650024	0.6777954	
7.65	-0.1333618	-0.9160767	
7.84	-0.8237305	0.5418091	
8.03	0.1390991	0.9104614	
8.22	0.9378052	0.1622925	
8.41	0.1587524	-0.9935913	
8.6	-0.8859558	0.2442932	
8.79	0.1484375	0.9230957	
8.98	0.8782043	0.374176	
9.17	0.5096741	-0.8140259	
9.36	-0.7797852	-0.546051	
9.55	-0.8911133	0.2700806	
9.74	-0.2994995	0.9187622	
9.93	0.81427	0.4940186	
10.12	0.522583	-0.8560181	
10.31	-0.7617798	-0.5765686	
10.5	-0.7706299	0.5245667	
10.69	-0.2352295	0.9539185	
10.88	0.4570313	0.8807983	
11.07	0.9567261	0.1949463	
11.26	0.6452637	-0.8001099	
11.45	-0.7776489	-0.2923889	
11.64	0.4603271	0.6056824	
11.83	0.8620605	0.1572876	
12.02	0.8869019	-0.1951904	
12.21	0.7350159	-0.5000305	
12.4	0.1633301	-0.8256226	
12.59	-0.2744141	0.6680908	
12.78	0.6186829	-0.4067993	
12.97	0.2184448	-0.7904053	
13.16	-0.1901855	-0.8561401	
13.35	-0.5490112	-0.7061768	
13.54	-0.5091858	-0.5240173	
13.73	-0.790741	0.4983521	
13.92	-0.3264465	0.77948	
14.11	-0.1509399	-0.7388916	
14.3	-0.5446472	0.0817871	
14.49	-0.9292908	0.3450012	
14.68	-0.8026428	0.5268555	
14.87	-0.3448486	0.8064575	
15.06	0.2920837	0.7889709	
15.25	0.7949829	0.3038635	
15.44	0.5780945	-0.5915833	
15.63	-0.6995239	-0.3573914	
15.82	-0.4391785	0.5657043	
16.01	0.4731445	0.8203125	
16.2	-0.382019	-0.3487854	
16.39	0.8997192	0.1343384	
16.58	0.2306671	0.403595	
16.77	0.7996216	-0.07861328	
16.96	0.5907593	-0.5741577	
17.15	0.6934814	-0.2839661	
17.34	0.5570374	-0.550415	
17.53	0.1995544	-0.7832947	
17.72	-0.1002808	-0.710968	
17.91	-0.2200317	-0.7434387	
18.1	-0.6652832	-0.8669128	
18.29	-0.9430542	-0.3319092	
18.48	-0.5327148	0.0299377	
18.67	-1.011719	-0.149353	
18.86	-0.8918457	-0.03167725	
19.05	-0.1777344	0.5422974	
19.24	-0.9111938	0.5058594	
19.43	-0.7990112	0.7562256	
19.62	-0.6585083	0.7467041	
19.81	0.1305237	0.7263794	
20.0	-0.02630615	0.8466797	
