# GHz S RI R 50 
!freq	ReS11	ImS11	
1.0	-0.5771484	-0.2559204	
1.19	-0.6871948	0.0204468	
1.38	-0.6609497	0.2998657	
1.57	-0.5272827	0.536377	
1.76	-0.2663574	0.751709	
1.95	0.0751953	0.8137207	
2.14	0.4053955	0.7444458	
2.33	0.6761475	0.5606689	
2.52	0.8256836	0.2802124	
2.71	0.9154663	-0.07409668	
2.9	0.8297119	-0.4083862	
3.09	0.6035156	-0.7057495	
3.28	0.2973633	-0.8560181	
3.47	-0.008911133	-0.9277344	
3.66	-0.3386841	-0.8476563	
3.85	-0.6566162	-0.6488037	
4.04	-0.8407593	-0.2839966	
4.23	-0.9095459	0.0650024	
4.42	-0.8031616	0.4164429	
4.61	-0.5817261	0.7244873	
4.8	-0.2167969	0.9213257	
4.99	0.2248535	0.9456177	
5.18	0.6326294	0.7808533	
5.37	0.9488525	0.3924561	
5.56	1.045593	-0.03509521	
5.75	0.9475708	-0.3988037	
5.94	0.5823059	-0.7818604	
6.13	0.0440674	-0.9700928	
6.32	-0.4082031	-0.8713989	
6.51	-0.7543335	-0.52771	
6.7	-0.9473877	0.013916	
6.89	0.8424683	-0.5079346	
7.08	-0.8960571	0.1231079	
7.27	-0.4472046	0.7451172	
7.46	0.5621948	0.6799927	
7.65	-0.1383057	-0.9118042	
7.84	-0.8322754	0.5379639	
8.03	0.1381226	0.9118042	
8.22	0.9387817	0.1622314	
8.41	0.1480103	-0.9907837	
8.6	-0.8884583	0.2431946	
8.79	0.1450195	0.9160156	
8.98	0.880127	0.3719482	
9.17	0.5027161	-0.8110352	
9.36	-0.7767944	-0.5483398	
9.55	-0.8894653	0.2693481	
9.74	-0.2929688	0.9249878	
9.93	0.8148499	0.4925842	
10.12	0.5296631	-0.848938	
10.31	-0.7592773	-0.5755005	
10.5	-0.7687378	0.5270691	
10.69	-0.2282104	0.9611816	
10.88	0.4581909	0.883728	
11.07	0.956665	0.1954346	
11.26	0.6414795	-0.8049316	
11.45	-0.7778625	-0.290863	
11.64	0.4661865	0.6113892	
11.83	0.862915	0.1572876	
12.02	0.8874512	-0.1986084	
12.21	0.7268372	-0.5049133	
12.4	0.1626587	-0.826355	
12.59	-0.2767944	0.6623535	
12.78	0.6185608	-0.4127197	
12.97	0.2125244	-0.7902832	
13.16	-0.1804199	-0.8534546	
13.35	-0.5480347	-0.7022705	
13.54	-0.506134	-0.5331726	
13.73	-0.7906494	0.4966736	
13.92	-0.3357239	0.7778625	
14.11	-0.1497192	-0.7435608	
14.3	-0.545166	0.0808105	
14.49	-0.9280701	0.3486633	
14.68	-0.7949219	0.5245667	
14.87	-0.3482056	0.8048401	
15.06	0.2880249	0.7836914	
15.25	0.7948608	0.3013306	
15.44	0.5784912	-0.5874634	
15.63	-0.7047119	-0.358551	
15.82	-0.4411011	0.5628662	
16.01	0.4733887	0.8129578	
16.2	-0.3818512	-0.3493042	
16.39	0.8999634	0.1347046	
16.58	0.223877	0.4038696	
16.77	0.7996521	-0.0798645	
16.96	0.5843811	-0.581665	
17.15	0.6914368	-0.2849426	
17.34	0.5535583	-0.5531616	
17.53	0.2046509	-0.7917175	
17.72	-0.1082764	-0.7191772	
17.91	-0.2200317	-0.7454834	
18.1	-0.6707153	-0.8647766	
18.29	-0.9452515	-0.3318481	
18.48	-0.5326538	0.0300293	
18.67	-1.011108	-0.1494141	
18.86	-0.8914795	-0.03192139	
19.05	-0.1780396	0.5385742	
19.24	-0.9192505	0.5076904	
19.43	-0.7984009	0.7623901	
19.62	-0.6621094	0.7506104	
19.81	0.1286926	0.728363	
20.0	-0.0302124	0.8465576	
