# GHz S RI R 50 
!freq	ReS11	ImS11	
1.0	-0.5748291	-0.2543335	
1.19	-0.6869507	0.0211182	
1.38	-0.6600952	0.2987671	
1.57	-0.5322266	0.5353088	
1.76	-0.2720947	0.7493286	
1.95	0.0818481	0.8119507	
2.14	0.4060669	0.7427368	
2.33	0.6777954	0.5584106	
2.52	0.8265381	0.2789307	
2.71	0.9145508	-0.07373047	
2.9	0.8296509	-0.4039917	
3.09	0.6074829	-0.6975708	
3.28	0.3013916	-0.859314	
3.47	-0.01147461	-0.9279175	
3.66	-0.3398438	-0.843811	
3.85	-0.6580811	-0.6498413	
4.04	-0.8410034	-0.2845459	
4.23	-0.9104004	0.0635376	
4.42	-0.8034058	0.411377	
4.61	-0.5821533	0.7213135	
4.8	-0.2164307	0.9222412	
4.99	0.2232666	0.9364624	
5.18	0.6307678	0.7828369	
5.37	0.9472046	0.3896484	
5.56	1.045105	-0.03552246	
5.75	0.9498291	-0.4006958	
5.94	0.5821533	-0.7832031	
6.13	0.0460205	-0.9719849	
6.32	-0.4098511	-0.8713989	
6.51	-0.7540894	-0.5308838	
6.7	-0.9465942	0.0140381	
6.89	0.8457031	-0.5045776	
7.08	-0.8954468	0.1225586	
7.27	-0.4532471	0.7547607	
7.46	0.5621338	0.6818237	
7.65	-0.1340942	-0.9152832	
7.84	-0.8218384	0.5374146	
8.03	0.1383667	0.9061279	
8.22	0.9376221	0.1622925	
8.41	0.1448364	-0.99646	
8.6	-0.887146	0.2445068	
8.79	0.1499634	0.9155273	
8.98	0.880249	0.3718872	
9.17	0.505188	-0.8146057	
9.36	-0.775177	-0.5460815	
9.55	-0.8927612	0.2686157	
9.74	-0.2839966	0.9193726	
9.93	0.8158569	0.4944763	
10.12	0.526001	-0.8514404	
10.31	-0.7597351	-0.5780334	
10.5	-0.7673035	0.5231934	
10.69	-0.2272949	0.9622803	
10.88	0.4489746	0.8816528	
11.07	0.9557495	0.1953125	
11.26	0.6481018	-0.7999573	
11.45	-0.7801819	-0.2919006	
11.64	0.4625854	0.6109009	
11.83	0.8609619	0.1574097	
12.02	0.8873291	-0.1993408	
12.21	0.7330322	-0.5033569	
12.4	0.1643677	-0.8259888	
12.59	-0.274353	0.6634827	
12.78	0.6190796	-0.4101257	
12.97	0.2114868	-0.7892456	
13.16	-0.1841431	-0.8563843	
13.35	-0.5534668	-0.6992188	
13.54	-0.4992371	-0.5319519	
13.73	-0.7912903	0.5014343	
13.92	-0.3293762	0.7862244	
14.11	-0.1477966	-0.7420654	
14.3	-0.5452576	0.0821228	
14.49	-0.9266968	0.3453369	
14.68	-0.8024597	0.5276489	
14.87	-0.3420105	0.8043823	
15.06	0.2938538	0.7864075	
15.25	0.7937317	0.3018494	
15.44	0.5817261	-0.5864258	
15.63	-0.7017212	-0.3587646	
15.82	-0.4372864	0.5611877	
16.01	0.4754639	0.8145752	
16.2	-0.3809052	-0.3501587	
16.39	0.8997803	0.1342773	
16.58	0.2263947	0.4024811	
16.77	0.7998352	-0.07928467	
16.96	0.5830078	-0.5782471	
17.15	0.6932983	-0.2832642	
17.34	0.5556946	-0.5510864	
17.53	0.203186	-0.7849121	
17.72	-0.09616089	-0.7173462	
17.91	-0.2200317	-0.7477417	
18.1	-0.671814	-0.8640137	
18.29	-0.9418335	-0.3312988	
18.48	-0.5331726	0.0298157	
18.67	-1.011169	-0.149292	
18.86	-0.8919678	-0.0322876	
19.05	-0.1847229	0.5421143	
19.24	-0.9152832	0.5092163	
19.43	-0.8021851	0.7579346	
19.62	-0.6578064	0.745575	
19.81	0.1296387	0.7261963	
20.0	-0.02178955	0.8481445	
