# GHz S RI R 50 
!freq	ReS11	ImS11	
1.0	-0.5762939	-0.2542114	
1.19	-0.6877441	0.0205078	
1.38	-0.6608276	0.2990723	
1.57	-0.5282593	0.5355835	
1.76	-0.2702026	0.7492676	
1.95	0.0754395	0.8180542	
2.14	0.4047852	0.7442017	
2.33	0.6758423	0.5598145	
2.52	0.8264771	0.2800293	
2.71	0.9151611	-0.07324219	
2.9	0.8279419	-0.40625	
3.09	0.6032104	-0.7020874	
3.28	0.3048706	-0.8536987	
3.47	-0.01544189	-0.930481	
3.66	-0.340271	-0.8485718	
3.85	-0.6593018	-0.6489258	
4.04	-0.84021	-0.284729	
4.23	-0.9102783	0.0649414	
4.42	-0.8068848	0.4127808	
4.61	-0.5788574	0.7233276	
4.8	-0.2162476	0.913269	
4.99	0.2258911	0.9360352	
5.18	0.625885	0.7818298	
5.37	0.9483643	0.3922119	
5.56	1.045593	-0.03503418	
5.75	0.9474487	-0.3967285	
5.94	0.5772705	-0.7865601	
6.13	0.0472412	-0.9747925	
6.32	-0.40979	-0.8676758	
6.51	-0.7551575	-0.5304871	
6.7	-0.9477539	0.0134277	
6.89	0.843689	-0.5048828	
7.08	-0.8959961	0.1230469	
7.27	-0.449707	0.7503052	
7.46	0.5617981	0.685791	
7.65	-0.1358643	-0.909668	
7.84	-0.8258057	0.5480957	
8.03	0.1375122	0.9195557	
8.22	0.9376831	0.163208	
8.41	0.1520996	-0.9916992	
8.6	-0.8873291	0.2451477	
8.79	0.1499023	0.9194946	
8.98	0.8798828	0.3723755	
9.17	0.5090942	-0.8167419	
9.36	-0.7760315	-0.5502014	
9.55	-0.8893433	0.2721558	
9.74	-0.2939453	0.9188232	
9.93	0.8145447	0.4966736	
10.12	0.5325928	-0.8557739	
10.31	-0.7558899	-0.5791931	
10.5	-0.7710266	0.5259094	
10.69	-0.2246094	0.9534912	
10.88	0.4519653	0.8771362	
11.07	0.9564819	0.1952515	
11.26	0.6451721	-0.7982788	
11.45	-0.778595	-0.2920532	
11.64	0.4613037	0.6132507	
11.83	0.8625488	0.1571655	
12.02	0.8889771	-0.1970215	
12.21	0.7287903	-0.5029907	
12.4	0.1620483	-0.8308105	
12.59	-0.2735901	0.6629333	
12.78	0.6205444	-0.4115295	
12.97	0.2072754	-0.7924194	
13.16	-0.1935425	-0.8583984	
13.35	-0.5510254	-0.703125	
13.54	-0.5018005	-0.5329895	
13.73	-0.7899475	0.4960327	
13.92	-0.3341675	0.7831116	
14.11	-0.151123	-0.7369995	
14.3	-0.5444946	0.0825195	
14.49	-0.9298706	0.3505249	
14.68	-0.7987366	0.5290527	
14.87	-0.3456116	0.8059692	
15.06	0.2883301	0.7901306	
15.25	0.7948303	0.3027344	
15.44	0.580719	-0.5864258	
15.63	-0.7017517	-0.3576965	
15.82	-0.4429016	0.5659485	
16.01	0.4747925	0.8186951	
16.2	-0.3786774	-0.348938	
16.39	0.8995667	0.1353149	
16.58	0.2287598	0.4036713	
16.77	0.800354	-0.08044434	
16.96	0.5894165	-0.5751038	
17.15	0.6931458	-0.2861633	
17.34	0.5544128	-0.550293	
17.53	0.2071228	-0.7835388	
17.72	-0.1019897	-0.7144775	
17.91	-0.2190857	-0.7457275	
18.1	-0.6696777	-0.8654785	
18.29	-0.9436646	-0.3320313	
18.48	-0.5333252	0.0288391	
18.67	-1.011169	-0.1489258	
18.86	-0.8915405	-0.03198242	
19.05	-0.1846619	0.5441895	
19.24	-0.9140015	0.5084839	
19.43	-0.8061523	0.7588501	
19.62	-0.6601257	0.7443848	
19.81	0.1299744	0.7272034	
20.0	-0.02636719	0.8509521	
