# GHz S RI R 50 
!freq	ReS11	ImS11	
1.0	-0.5776367	-0.2525024	
1.19	-0.687439	0.020874	
1.38	-0.6610107	0.2998047	
1.57	-0.5241089	0.5401611	
1.76	-0.2720337	0.7491455	
1.95	0.0741577	0.8156128	
2.14	0.401062	0.7443237	
2.33	0.6768799	0.5597534	
2.52	0.8257446	0.2800903	
2.71	0.9161377	-0.07440186	
2.9	0.8286133	-0.4101563	
3.09	0.6068115	-0.7023315	
3.28	0.2963257	-0.8562012	
3.47	-0.0144043	-0.9297485	
3.66	-0.3381348	-0.8500366	
3.85	-0.661438	-0.6494141	
4.04	-0.8427734	-0.2850952	
4.23	-0.9105225	0.0646973	
4.42	-0.8008423	0.4103394	
4.61	-0.5772705	0.7276611	
4.8	-0.2175293	0.9173584	
4.99	0.2183228	0.9389648	
5.18	0.6273499	0.7866516	
5.37	0.9458618	0.3922729	
5.56	1.045349	-0.03552246	
5.75	0.9488525	-0.3963013	
5.94	0.5799561	-0.7817383	
6.13	0.0441284	-0.9730835	
6.32	-0.4078979	-0.866272	
6.51	-0.7542725	-0.5285645	
6.7	-0.9464722	0.0142822	
6.89	0.8480225	-0.5044556	
7.08	-0.8953857	0.1231689	
7.27	-0.4536743	0.7550659	
7.46	0.5651855	0.6817932	
7.65	-0.1295166	-0.9108887	
7.84	-0.8253784	0.5413818	
8.03	0.1384277	0.9133301	
8.22	0.9381104	0.1616821	
8.41	0.1467285	-0.9967041	
8.6	-0.886261	0.2423096	
8.79	0.1469727	0.9135742	
8.98	0.8806458	0.3723755	
9.17	0.5056458	-0.8117371	
9.36	-0.7781372	-0.5444946	
9.55	-0.8891602	0.2702026	
9.74	-0.2920532	0.918396	
9.93	0.81427	0.4955444	
10.12	0.5250854	-0.8577271	
10.31	-0.7573242	-0.5769958	
10.5	-0.7690125	0.5231934	
10.69	-0.2294312	0.9611206	
10.88	0.4511108	0.8832397	
11.07	0.9567261	0.1948853	
11.26	0.6348877	-0.8123779	
11.45	-0.7781982	-0.2928772	
11.64	0.4636536	0.6058044	
11.83	0.8621216	0.1574097	
12.02	0.885376	-0.1969604	
12.21	0.7304688	-0.502594	
12.4	0.1657715	-0.8235474	
12.59	-0.271637	0.6606445	
12.78	0.6235046	-0.4108276	
12.97	0.2120361	-0.7952271	
13.16	-0.185791	-0.859314	
13.35	-0.5528564	-0.7018433	
13.54	-0.4995117	-0.5296631	
13.73	-0.7890625	0.4946289	
13.92	-0.3298645	0.7797852	
14.11	-0.1515503	-0.7371521	
14.3	-0.543457	0.080658	
14.49	-0.9291687	0.3511353	
14.68	-0.7993774	0.5268555	
14.87	-0.3449707	0.8057861	
15.06	0.3009949	0.7930603	
15.25	0.7928467	0.3031616	
15.44	0.5797424	-0.5864868	
15.63	-0.7042542	-0.355957	
15.82	-0.4353638	0.5699768	
16.01	0.4760437	0.8133545	
16.2	-0.3824463	-0.3488007	
16.39	0.8998718	0.1339111	
16.58	0.2263489	0.405426	
16.77	0.79953	-0.08010864	
16.96	0.5853271	-0.5760498	
17.15	0.690155	-0.2880859	
17.34	0.5570068	-0.5478821	
17.53	0.202301	-0.7885132	
17.72	-0.0993042	-0.7160034	
17.91	-0.2190857	-0.7448425	
18.1	-0.6694946	-0.8630981	
18.29	-0.9454346	-0.3323975	
18.48	-0.5321655	0.0293884	
18.67	-1.011719	-0.1489868	
18.86	-0.8917847	-0.03143311	
19.05	-0.1817017	0.5415039	
19.24	-0.9142456	0.5083618	
19.43	-0.8032837	0.7553101	
19.62	-0.6573792	0.7448425	
19.81	0.129303	0.7242432	
20.0	-0.02056885	0.848938	
