# GHz S RI R 50 
!freq	ReS11	ImS11	
1.0	-0.5791626	-0.2556152	
1.19	-0.6871338	0.0211792	
1.38	-0.6610107	0.2983398	
1.57	-0.5299072	0.5359802	
1.76	-0.2683716	0.744873	
1.95	0.0730591	0.8144531	
2.14	0.4001465	0.7419434	
2.33	0.675415	0.5604858	
2.52	0.8259277	0.2788086	
2.71	0.9171753	-0.07495117	
2.9	0.8287354	-0.4105225	
3.09	0.6063843	-0.7093506	
3.28	0.3028564	-0.8599243	
3.47	-0.01617432	-0.9334106	
3.66	-0.3466797	-0.8505249	
3.85	-0.6574707	-0.6447144	
4.04	-0.8403931	-0.2854004	
4.23	-0.9106445	0.0653687	
4.42	-0.8065796	0.4108887	
4.61	-0.5811157	0.7258911	
4.8	-0.2120972	0.9226074	
4.99	0.2156982	0.9439697	
5.18	0.62854	0.7875671	
5.37	0.9468994	0.3911133	
5.56	1.045532	-0.0355835	
5.75	0.9467773	-0.399353	
5.94	0.5776978	-0.7803345	
6.13	0.0438232	-0.9734497	
6.32	-0.4102173	-0.8718262	
6.51	-0.756958	-0.5288696	
6.7	-0.9476929	0.0130005	
6.89	0.8451538	-0.5067139	
7.08	-0.895874	0.1237793	
7.27	-0.4574585	0.7516479	
7.46	0.5624084	0.684845	
7.65	-0.1394043	-0.9176636	
7.84	-0.8220215	0.5443115	
8.03	0.1444092	0.9179077	
8.22	0.9384766	0.1608887	
8.41	0.1484375	-0.9922485	
8.6	-0.8891296	0.2442017	
8.79	0.1484985	0.9147949	
8.98	0.8757935	0.3720703	
9.17	0.5009155	-0.8166809	
9.36	-0.7745056	-0.5508728	
9.55	-0.888855	0.2727661	
9.74	-0.2927246	0.9187622	
9.93	0.8161621	0.496521	
10.12	0.5332642	-0.8536987	
10.31	-0.7568665	-0.5786438	
10.5	-0.7713623	0.5278015	
10.69	-0.2266235	0.9625244	
10.88	0.4588013	0.8804321	
11.07	0.9559326	0.1950684	
11.26	0.6412354	-0.796936	
11.45	-0.7769775	-0.2900391	
11.64	0.4704895	0.6101685	
11.83	0.8619995	0.1569214	
12.02	0.8880615	-0.1970215	
12.21	0.7305908	-0.499054	
12.4	0.1610718	-0.8226318	
12.59	-0.279541	0.667511	
12.78	0.6228638	-0.4107361	
12.97	0.2148438	-0.7981567	
13.16	-0.1807251	-0.8614502	
13.35	-0.5479126	-0.7038574	
13.54	-0.5018311	-0.5303345	
13.73	-0.7946777	0.4961548	
13.92	-0.3274536	0.7786255	
14.11	-0.1524658	-0.7375183	
14.3	-0.5444031	0.0795288	
14.49	-0.9283142	0.3466797	
14.68	-0.802002	0.5336304	
14.87	-0.3479004	0.8135071	
15.06	0.2901917	0.7909546	
15.25	0.7965393	0.3005981	
15.44	0.5805054	-0.5882874	
15.63	-0.7040405	-0.3552246	
15.82	-0.4410095	0.5681152	
16.01	0.4723206	0.8141479	
16.2	-0.3843384	-0.3457794	
16.39	0.8999634	0.1336975	
16.58	0.2319031	0.4018707	
16.77	0.8002319	-0.08120728	
16.96	0.5871582	-0.5746765	
17.15	0.6928406	-0.2876892	
17.34	0.5560608	-0.5487976	
17.53	0.1964722	-0.7790833	
17.72	-0.0970459	-0.7157593	
17.91	-0.2236328	-0.7455444	
18.1	-0.6745605	-0.8657837	
18.29	-0.9467163	-0.3299561	
18.48	-0.5314941	0.0307617	
18.67	-1.011414	-0.1480713	
18.86	-0.8921509	-0.03076172	
19.05	-0.1772461	0.5386963	
19.24	-0.9181519	0.5098877	
19.43	-0.8083496	0.7617188	
19.62	-0.6584167	0.7400818	
19.81	0.1292114	0.7214661	
20.0	-0.02539063	0.8463745	
