# GHz S RI R 50 
!freq	ReS11	ImS11	
1.0	-0.578186	-0.2557983	
1.19	-0.687561	0.020752	
1.38	-0.6591187	0.2974854	
1.57	-0.5299072	0.5366821	
1.76	-0.2749023	0.7501221	
1.95	0.0788574	0.8060303	
2.14	0.4024658	0.7503662	
2.33	0.6754761	0.5601196	
2.52	0.8274536	0.2796631	
2.71	0.9154663	-0.07318115	
2.9	0.8294067	-0.4088745	
3.09	0.6066284	-0.7092896	
3.28	0.2996826	-0.855896	
3.47	-0.008850098	-0.9293213	
3.66	-0.3411865	-0.8485718	
3.85	-0.6623535	-0.6467896	
4.04	-0.8417358	-0.2845459	
4.23	-0.9115601	0.0645142	
4.42	-0.8033447	0.4110718	
4.61	-0.5842896	0.7219238	
4.8	-0.2194214	0.9238892	
4.99	0.2294922	0.9437866	
5.18	0.6324768	0.7826233	
5.37	0.9482422	0.394043	
5.56	1.045349	-0.03570557	
5.75	0.9468994	-0.3996582	
5.94	0.5792847	-0.7821655	
6.13	0.0421143	-0.9707031	
6.32	-0.4128418	-0.8713379	
6.51	-0.7554932	-0.5315552	
6.7	-0.9476929	0.0123291	
6.89	0.8447876	-0.5067749	
7.08	-0.8952637	0.1239014	
7.27	-0.4525146	0.755188	
7.46	0.5628357	0.6841736	
7.65	-0.1383057	-0.9162598	
7.84	-0.8209839	0.5394897	
8.03	0.1426392	0.9150391	
8.22	0.9378662	0.1623535	
8.41	0.1561279	-0.9958496	
8.6	-0.887146	0.2441711	
8.79	0.1401367	0.914856	
8.98	0.878479	0.3726196	
9.17	0.5124207	-0.8151855	
9.36	-0.7762146	-0.5476379	
9.55	-0.8927612	0.2664795	
9.74	-0.2957764	0.9256592	
9.93	0.8166809	0.4935303	
10.12	0.5270996	-0.8543701	
10.31	-0.7578125	-0.578125	
10.5	-0.7728271	0.5262451	
10.69	-0.2254639	0.9616699	
10.88	0.4590454	0.8862305	
11.07	0.956604	0.1940308	
11.26	0.6401672	-0.7994385	
11.45	-0.7789917	-0.2911377	
11.64	0.4679871	0.6092529	
11.83	0.8619385	0.1576538	
12.02	0.8886108	-0.1975708	
12.21	0.7345581	-0.5003357	
12.4	0.1567383	-0.8228149	
12.59	-0.2727966	0.6679688	
12.78	0.618866	-0.4117126	
12.97	0.211853	-0.7943115	
13.16	-0.1881104	-0.8596191	
13.35	-0.5524902	-0.7098999	
13.54	-0.4979248	-0.527771	
13.73	-0.792511	0.4969482	
13.92	-0.3290405	0.7776794	
14.11	-0.1491089	-0.7392273	
14.3	-0.5449829	0.0820007	
14.49	-0.9268188	0.3443604	
14.68	-0.7986145	0.5297852	
14.87	-0.3455505	0.8060303	
15.06	0.2910461	0.7895508	
15.25	0.7936096	0.3038025	
15.44	0.5834656	-0.584259	
15.63	-0.7008057	-0.3586426	
15.82	-0.4403687	0.5628662	
16.01	0.4694214	0.8059692	
16.2	-0.3813019	-0.3469391	
16.39	0.8999634	0.1348572	
16.58	0.2285461	0.4038086	
16.77	0.7996521	-0.07980347	
16.96	0.5884399	-0.5759277	
17.15	0.6931152	-0.2852478	
17.34	0.5570679	-0.5552063	
17.53	0.2024231	-0.7868042	
17.72	-0.1000061	-0.7243652	
17.91	-0.2184753	-0.7460632	
18.1	-0.6673279	-0.8672485	
18.29	-0.9447021	-0.3325806	
18.48	-0.532196	0.02948	
18.67	-1.011536	-0.1484985	
18.86	-0.8916016	-0.03216553	
19.05	-0.1842957	0.5394897	
19.24	-0.9172363	0.5059814	
19.43	-0.8061523	0.7571411	
19.62	-0.662384	0.7478027	
19.81	0.1309509	0.7286987	
20.0	-0.0213623	0.8429565	
