# GHz S RI R 50 
!freq	ReS11	ImS11	
1.0	-0.5770874	-0.2542114	
1.19	-0.6877441	0.020813	
1.38	-0.6621094	0.2988892	
1.57	-0.5314331	0.538208	
1.76	-0.270752	0.7518921	
1.95	0.0786743	0.8110352	
2.14	0.4031982	0.7489624	
2.33	0.6752319	0.5610352	
2.52	0.8266602	0.2789307	
2.71	0.9160156	-0.07275391	
2.9	0.8308716	-0.4014893	
3.09	0.6086426	-0.7035522	
3.28	0.2977905	-0.8549805	
3.47	-0.01934814	-0.9328613	
3.66	-0.3460083	-0.8443604	
3.85	-0.659668	-0.6485596	
4.04	-0.8417358	-0.2857056	
4.23	-0.9109497	0.06427	
4.42	-0.8052368	0.4115601	
4.61	-0.5897827	0.7246094	
4.8	-0.2178345	0.9223022	
4.99	0.2209473	0.9423218	
5.18	0.6348877	0.7870483	
5.37	0.9470215	0.3934326	
5.56	1.044617	-0.03515625	
5.75	0.946167	-0.4009399	
5.94	0.5783081	-0.7875977	
6.13	0.0534668	-0.9726563	
6.32	-0.4113159	-0.8728027	
6.51	-0.755127	-0.5292358	
6.7	-0.9481201	0.0137329	
6.89	0.8430786	-0.5030518	
7.08	-0.894165	0.1228027	
7.27	-0.4486084	0.75354	
7.46	0.563324	0.6790161	
7.65	-0.1361084	-0.909668	
7.84	-0.8262939	0.545166	
8.03	0.1404419	0.9179688	
8.22	0.9380493	0.1621094	
8.41	0.1549072	-0.9980469	
8.6	-0.8856506	0.2440186	
8.79	0.1515503	0.9151611	
8.98	0.8813477	0.3739014	
9.17	0.5065918	-0.8111877	
9.36	-0.7757263	-0.5496826	
9.55	-0.887207	0.2730103	
9.74	-0.2816162	0.9154663	
9.93	0.8148193	0.4946594	
10.12	0.5267334	-0.8614502	
10.31	-0.7631531	-0.5769653	
10.5	-0.770752	0.5236206	
10.69	-0.2288208	0.9606323	
10.88	0.4498901	0.8826294	
11.07	0.9560547	0.1953735	
11.26	0.6403809	-0.796875	
11.45	-0.7779541	-0.2926331	
11.64	0.4653015	0.6095581	
11.83	0.8618774	0.1578979	
12.02	0.8855591	-0.197937	
12.21	0.7278442	-0.5010681	
12.4	0.1593018	-0.8197021	
12.59	-0.2751465	0.6632385	
12.78	0.6242676	-0.4086304	
12.97	0.2122803	-0.7938232	
13.16	-0.1865845	-0.8639526	
13.35	-0.5455933	-0.7061157	
13.54	-0.502594	-0.5310364	
13.73	-0.7911987	0.4985046	
13.92	-0.3315125	0.7789307	
14.11	-0.1513062	-0.7422791	
14.3	-0.5443115	0.0810242	
14.49	-0.9290771	0.3494873	
14.68	-0.8014221	0.5267334	
14.87	-0.3429565	0.8048401	
15.06	0.2916565	0.7873535	
15.25	0.7928162	0.3014526	
15.44	0.5809326	-0.5892639	
15.63	-0.704895	-0.3570251	
15.82	-0.4378052	0.5697632	
16.01	0.471344	0.807251	
16.2	-0.382309	-0.3494263	
16.39	0.9006653	0.1342468	
16.58	0.231308	0.4020844	
16.77	0.7995911	-0.08105469	
16.96	0.5883484	-0.5744324	
17.15	0.691864	-0.2843933	
17.34	0.5523376	-0.5510864	
17.53	0.200531	-0.7910156	
17.72	-0.1042786	-0.7230225	
17.91	-0.2165527	-0.7416077	
18.1	-0.6700134	-0.8663635	
18.29	-0.9433594	-0.3320313	
18.48	-0.5323181	0.0299377	
18.67	-1.011536	-0.1478271	
18.86	-0.8914795	-0.03125	
19.05	-0.1815186	0.5475159	
19.24	-0.9143677	0.5097656	
19.43	-0.7978516	0.7643433	
19.62	-0.6672974	0.7442627	
19.81	0.1297302	0.7252502	
20.0	-0.0246582	0.8532715	
