# GHz S RI R 50 
!freq	ReS11	ImS11	
1.0	-0.5789795	-0.2539673	
1.19	-0.6875	0.0209351	
1.38	-0.6600342	0.298645	
1.57	-0.5287476	0.5360718	
1.76	-0.2748413	0.7546997	
1.95	0.0796509	0.8114624	
2.14	0.4036865	0.7455444	
2.33	0.6738281	0.5603638	
2.52	0.8277588	0.2791138	
2.71	0.9173584	-0.07403564	
2.9	0.829895	-0.4105835	
3.09	0.6040039	-0.7012939	
3.28	0.3007202	-0.8563232	
3.47	-0.0100708	-0.9324951	
3.66	-0.3432617	-0.8456421	
3.85	-0.6585083	-0.6498413	
4.04	-0.8422852	-0.2850952	
4.23	-0.9109497	0.0654297	
4.42	-0.8042603	0.4100342	
4.61	-0.5752563	0.7218018	
4.8	-0.2219238	0.9212036	
4.99	0.2248535	0.9498291	
5.18	0.6299133	0.7841187	
5.37	0.9454956	0.3928833	
5.56	1.045471	-0.03588867	
5.75	0.9482422	-0.3960571	
5.94	0.5788574	-0.7860718	
6.13	0.0450439	-0.9708252	
6.32	-0.4091187	-0.8723145	
6.51	-0.7556763	-0.5267334	
6.7	-0.9481201	0.0132446	
6.89	0.8449707	-0.5022583	
7.08	-0.8937988	0.1210327	
7.27	-0.4468994	0.7501221	
7.46	0.5620422	0.6781006	
7.65	-0.1418457	-0.9165039	
7.84	-0.8255005	0.5410767	
8.03	0.1408691	0.9110718	
8.22	0.9384155	0.1617432	
8.41	0.1604614	-0.9970703	
8.6	-0.8852234	0.2411804	
8.79	0.1330566	0.914856	
8.98	0.8811035	0.3727417	
9.17	0.5049744	-0.8098755	
9.36	-0.7756348	-0.5478516	
9.55	-0.890686	0.2697144	
9.74	-0.2938843	0.9238892	
9.93	0.8148193	0.4945984	
10.12	0.5234375	-0.8538818	
10.31	-0.7634888	-0.5787354	
10.5	-0.7751465	0.5213623	
10.69	-0.2258911	0.9640503	
10.88	0.4525146	0.8792114	
11.07	0.9562378	0.1945801	
11.26	0.6417236	-0.8007202	
11.45	-0.7801819	-0.2922974	
11.64	0.4669495	0.6064148	
11.83	0.8620605	0.1571045	
12.02	0.887085	-0.1970825	
12.21	0.7331848	-0.5002747	
12.4	0.156311	-0.8284302	
12.59	-0.2711792	0.6625671	
12.78	0.62323	-0.4107361	
12.97	0.2148438	-0.7953491	
13.16	-0.1875	-0.8574829	
13.35	-0.5424194	-0.703125	
13.54	-0.5057678	-0.5311584	
13.73	-0.790863	0.4986267	
13.92	-0.3383179	0.7786865	
14.11	-0.1454773	-0.7400513	
14.3	-0.5444946	0.0822449	
14.49	-0.9264221	0.3463745	
14.68	-0.8009949	0.5256348	
14.87	-0.3520813	0.8075256	
15.06	0.2854614	0.786438	
15.25	0.7922058	0.3031921	
15.44	0.5785522	-0.5913696	
15.63	-0.7056885	-0.3565979	
15.82	-0.4429626	0.5679626	
16.01	0.4776001	0.8135681	
16.2	-0.3813324	-0.349411	
16.39	0.8994751	0.1347046	
16.58	0.2264709	0.4042969	
16.77	0.7995911	-0.08169556	
16.96	0.5882568	-0.5779724	
17.15	0.6924133	-0.2848511	
17.34	0.5591125	-0.548645	
17.53	0.1983643	-0.784668	
17.72	-0.0982666	-0.7171936	
17.91	-0.2245789	-0.7478638	
18.1	-0.6687012	-0.8703003	
18.29	-0.9449463	-0.3334961	
18.48	-0.5323486	0.0306396	
18.67	-1.010681	-0.1484985	
18.86	-0.8915405	-0.03167725	
19.05	-0.1810913	0.5428162	
19.24	-0.9194336	0.5091553	
19.43	-0.8056641	0.7598877	
19.62	-0.659729	0.7424622	
19.81	0.1326294	0.7265015	
20.0	-0.03320313	0.8479614	
