# GHz S RI R 50 
!freq	ReS11	ImS11	
1.0	-0.578064	-0.2555542	
1.19	-0.6873169	0.020874	
1.38	-0.6594849	0.2985229	
1.57	-0.5285645	0.5361328	
1.76	-0.2702026	0.7461548	
1.95	0.0750122	0.8143921	
2.14	0.401123	0.7416382	
2.33	0.6728516	0.5576172	
2.52	0.8277588	0.2793579	
2.71	0.9169922	-0.07336426	
2.9	0.831543	-0.4107056	
3.09	0.6027832	-0.7043457	
3.28	0.3024292	-0.8571167	
3.47	-0.01696777	-0.9367676	
3.66	-0.3381958	-0.8487549	
3.85	-0.661377	-0.6497192	
4.04	-0.84198	-0.2842407	
4.23	-0.9107056	0.0654907	
4.42	-0.8053589	0.4116211	
4.61	-0.5760498	0.7218018	
4.8	-0.2145386	0.9141235	
4.99	0.2234497	0.9523315	
5.18	0.6292725	0.7824402	
5.37	0.9483032	0.392395	
5.56	1.045105	-0.0355835	
5.75	0.9433594	-0.3955688	
5.94	0.5767822	-0.786499	
6.13	0.0437012	-0.9767456	
6.32	-0.4116821	-0.8633423	
6.51	-0.7559814	-0.5296021	
6.7	-0.9468994	0.0137939	
6.89	0.8484497	-0.5054321	
7.08	-0.8961182	0.1226807	
7.27	-0.4511719	0.7509766	
7.46	0.5603027	0.68396	
7.65	-0.1265869	-0.9031372	
7.84	-0.8248291	0.5386963	
8.03	0.1420898	0.9077148	
8.22	0.9380493	0.161438	
8.41	0.1536255	-0.9909058	
8.6	-0.8858032	0.2437439	
8.79	0.1494141	0.9164429	
8.98	0.8784485	0.3754578	
9.17	0.5084839	-0.8121643	
9.36	-0.7787476	-0.5493469	
9.55	-0.8919678	0.2693481	
9.74	-0.2911987	0.9174805	
9.93	0.8152771	0.4928894	
10.12	0.5314941	-0.8504639	
10.31	-0.7612305	-0.5765686	
10.5	-0.772583	0.5236206	
10.69	-0.234375	0.9603271	
10.88	0.454895	0.8800659	
11.07	0.9562378	0.1950073	
11.26	0.6444092	-0.8062744	
11.45	-0.7788391	-0.2917786	
11.64	0.4641724	0.6056824	
11.83	0.8615723	0.157959	
12.02	0.8895264	-0.1983032	
12.21	0.7294922	-0.5074158	
12.4	0.1590576	-0.8239136	
12.59	-0.2762146	0.6654053	
12.78	0.6242065	-0.409668	
12.97	0.2114258	-0.7922974	
13.16	-0.1893921	-0.8540039	
13.35	-0.5496216	-0.7051392	
13.54	-0.5050049	-0.5324707	
13.73	-0.7907715	0.496582	
13.92	-0.3269043	0.783905	
14.11	-0.1557312	-0.7441101	
14.3	-0.5440369	0.0819702	
14.49	-0.9264832	0.3478699	
14.68	-0.7993164	0.5317688	
14.87	-0.3442993	0.8061523	
15.06	0.2965393	0.783905	
15.25	0.7926331	0.3026733	
15.44	0.5789185	-0.591095	
15.63	-0.7021484	-0.356781	
15.82	-0.441803	0.5663147	
16.01	0.4842529	0.8196411	
16.2	-0.381958	-0.348053	
16.39	0.8997192	0.1342773	
16.58	0.2265015	0.4016724	
16.77	0.7998047	-0.07992554	
16.96	0.586792	-0.5755005	
17.15	0.6932373	-0.2829285	
17.34	0.5526733	-0.5505066	
17.53	0.1996765	-0.7838745	
17.72	-0.1022644	-0.7158508	
17.91	-0.2209473	-0.7432861	
18.1	-0.6607971	-0.8703308	
18.29	-0.9431763	-0.3314209	
18.48	-0.5324402	0.0299072	
18.67	-1.01123	-0.1486816	
18.86	-0.8919678	-0.03161621	
19.05	-0.1820068	0.543396	
19.24	-0.9169922	0.505249	
19.43	-0.7990723	0.7625732	
19.62	-0.6573486	0.7426453	
19.81	0.1371765	0.7254639	
20.0	-0.02331543	0.8463745	
