# GHz S RI R 50 
!freq	ReS11	ImS11	
1.0	-0.5774536	-0.2554932	
1.19	-0.687561	0.0209961	
1.38	-0.6588745	0.2978516	
1.57	-0.5292969	0.5373535	
1.76	-0.2675781	0.7512817	
1.95	0.0736084	0.8084717	
2.14	0.4020996	0.7453003	
2.33	0.6721191	0.5605469	
2.52	0.8284302	0.2798462	
2.71	0.9176636	-0.07397461	
2.9	0.8326416	-0.4069824	
3.09	0.6051636	-0.7067261	
3.28	0.3027344	-0.8591919	
3.47	-0.01416016	-0.9318848	
3.66	-0.3309937	-0.8616943	
3.85	-0.6585693	-0.6517944	
4.04	-0.8428955	-0.2837524	
4.23	-0.9102783	0.0645752	
4.42	-0.8048096	0.4128418	
4.61	-0.5784302	0.7199097	
4.8	-0.2122192	0.9226685	
4.99	0.2197266	0.9505615	
5.18	0.6283875	0.781311	
5.37	0.9486084	0.3922119	
5.56	1.045898	-0.03588867	
5.75	0.9455566	-0.3966064	
5.94	0.5720215	-0.7874146	
6.13	0.0426636	-0.9725952	
6.32	-0.4115601	-0.866333	
6.51	-0.7560425	-0.5303345	
6.7	-0.9481201	0.0127563	
6.89	0.8484497	-0.5072021	
7.08	-0.8953247	0.1217651	
7.27	-0.4494629	0.755249	
7.46	0.5658875	0.6820068	
7.65	-0.1343994	-0.9118652	
7.84	-0.8243408	0.5385132	
8.03	0.1514282	0.9098511	
8.22	0.9378052	0.1619263	
8.41	0.1535034	-0.9839478	
8.6	-0.8870544	0.2434082	
8.79	0.149231	0.9209595	
8.98	0.8789063	0.375	
9.17	0.5059204	-0.8145142	
9.36	-0.7774963	-0.5446167	
9.55	-0.8876343	0.2698975	
9.74	-0.2891235	0.918396	
9.93	0.8148804	0.4906006	
10.12	0.5340576	-0.8520508	
10.31	-0.7624207	-0.5801392	
10.5	-0.7730713	0.5280762	
10.69	-0.2341309	0.9609375	
10.88	0.4534912	0.885376	
11.07	0.9568481	0.1948242	
11.26	0.6421814	-0.8059998	
11.45	-0.778717	-0.2919006	
11.64	0.4634705	0.6085815	
11.83	0.8621826	0.1572266	
12.02	0.8866577	-0.196167	
12.21	0.730896	-0.5028381	
12.4	0.1542358	-0.826416	
12.59	-0.2750244	0.6626282	
12.78	0.6194458	-0.4110107	
12.97	0.2200928	-0.7929077	
13.16	-0.1876221	-0.8579102	
13.35	-0.5458374	-0.699585	
13.54	-0.5018921	-0.5345154	
13.73	-0.7879639	0.4958496	
13.92	-0.3210144	0.7781982	
14.11	-0.1522522	-0.7380066	
14.3	-0.5445251	0.0813599	
14.49	-0.9255066	0.3484802	
14.68	-0.8020935	0.5326233	
14.87	-0.3471069	0.8118591	
15.06	0.2915039	0.7931213	
15.25	0.7953186	0.3033752	
15.44	0.5813293	-0.5912781	
15.63	-0.703186	-0.3579407	
15.82	-0.442749	0.5651855	
16.01	0.4752197	0.8113708	
16.2	-0.3819733	-0.3471069	
16.39	0.899292	0.1345215	
16.58	0.2275391	0.403717	
16.77	0.8000488	-0.08102417	
16.96	0.5808105	-0.5771179	
17.15	0.6928711	-0.2849121	
17.34	0.5515442	-0.5525818	
17.53	0.2006531	-0.7879639	
17.72	-0.09854126	-0.7148438	
17.91	-0.2207642	-0.7471619	
18.1	-0.6689758	-0.867218	
18.29	-0.9437866	-0.3308716	
18.48	-0.5323792	0.0299683	
18.67	-1.011047	-0.1489258	
18.86	-0.8916016	-0.03155518	
19.05	-0.1791992	0.5437012	
19.24	-0.916748	0.5074463	
19.43	-0.8024902	0.7650757	
19.62	-0.6610107	0.743103	
19.81	0.1309814	0.7285767	
20.0	-0.02124023	0.8487549	
