# GHz S RI R 50 
!freq	ReS11	ImS11	
1.0	-0.5771484	-0.2556763	
1.19	-0.6871338	0.0206299	
1.38	-0.6612549	0.2992554	
1.57	-0.5282593	0.5395508	
1.76	-0.2687378	0.7543335	
1.95	0.0767212	0.812561	
2.14	0.4040527	0.7485352	
2.33	0.6724243	0.5591431	
2.52	0.8262329	0.2792969	
2.71	0.9158936	-0.07281494	
2.9	0.8272095	-0.4078979	
3.09	0.6012573	-0.7042847	
3.28	0.298584	-0.8555298	
3.47	-0.02075195	-0.934021	
3.66	-0.3394775	-0.8516235	
3.85	-0.6594849	-0.6523438	
4.04	-0.8431396	-0.2843018	
4.23	-0.9099121	0.0649414	
4.42	-0.802124	0.411377	
4.61	-0.5758057	0.7203979	
4.8	-0.2194824	0.9118652	
4.99	0.215271	0.9466553	
5.18	0.6235046	0.7814026	
5.37	0.9472656	0.3917847	
5.56	1.046143	-0.03479004	
5.75	0.9448853	-0.3982544	
5.94	0.5812988	-0.7849426	
6.13	0.0319214	-0.9736938	
6.32	-0.4170532	-0.8662109	
6.51	-0.7553711	-0.5268555	
6.7	-0.9477539	0.0133667	
6.89	0.8444214	-0.5014038	
7.08	-0.8948975	0.1221313	
7.27	-0.4465332	0.7473755	
7.46	0.5650024	0.6853333	
7.65	-0.1303711	-0.9137573	
7.84	-0.8261108	0.5444946	
8.03	0.1375122	0.9110718	
8.22	0.9377441	0.1630859	
8.41	0.1532593	-0.9886475	
8.6	-0.8862305	0.2456665	
8.79	0.1525269	0.9215698	
8.98	0.8809204	0.3723755	
9.17	0.5064392	-0.8104553	
9.36	-0.7774658	-0.5461731	
9.55	-0.8878784	0.2692261	
9.74	-0.2939453	0.9140625	
9.93	0.8136902	0.4927979	
10.12	0.5284424	-0.8504639	
10.31	-0.760437	-0.5780334	
10.5	-0.7695007	0.5239563	
10.69	-0.2350464	0.9580078	
10.88	0.4505615	0.885376	
11.07	0.9556274	0.1947632	
11.26	0.6398621	-0.7993164	
11.45	-0.7774658	-0.2904968	
11.64	0.460022	0.608551	
11.83	0.8612671	0.1578369	
12.02	0.8894653	-0.1988525	
12.21	0.730957	-0.5015869	
12.4	0.1618042	-0.8259888	
12.59	-0.2723389	0.6651001	
12.78	0.6209106	-0.4087219	
12.97	0.2116699	-0.7937012	
13.16	-0.187439	-0.8515015	
13.35	-0.5493164	-0.7034302	
13.54	-0.4993896	-0.5269775	
13.73	-0.7904358	0.4948425	
13.92	-0.3359375	0.7852173	
14.11	-0.1515808	-0.7408142	
14.3	-0.5444641	0.0815735	
14.49	-0.9275513	0.346283	
14.68	-0.7980652	0.5299072	
14.87	-0.3440552	0.8147278	
15.06	0.2887268	0.7896729	
15.25	0.7951355	0.3003845	
15.44	0.5787048	-0.5893555	
15.63	-0.7041016	-0.3575745	
15.82	-0.4390869	0.5658569	
16.01	0.4711304	0.8119812	
16.2	-0.38237	-0.3499146	
16.39	0.9002686	0.1340942	
16.58	0.2311707	0.4011536	
16.77	0.7999268	-0.08074951	
16.96	0.589386	-0.5736084	
17.15	0.6923523	-0.2860413	
17.34	0.5544128	-0.5488281	
17.53	0.1905212	-0.7817383	
17.72	-0.1048889	-0.7156067	
17.91	-0.2157288	-0.7465515	
18.1	-0.6661987	-0.8646545	
18.29	-0.9440918	-0.3301392	
18.48	-0.5327454	0.0297852	
18.67	-1.011047	-0.1484985	
18.86	-0.8916626	-0.03125	
19.05	-0.1844177	0.5440674	
19.24	-0.9185181	0.5067139	
19.43	-0.8085938	0.7611084	
19.62	-0.6613159	0.7486572	
19.81	0.127533	0.7248535	
20.0	-0.03179932	0.8473511	
