# GHz S RI R 50 
!freq	ReS11	ImS11	
1.0	-0.5784302	-0.2548828	
1.19	-0.6875	0.0210571	
1.38	-0.6593628	0.2998657	
1.57	-0.5321045	0.5350952	
1.76	-0.2727051	0.746582	
1.95	0.0791016	0.8099365	
2.14	0.4047241	0.7445068	
2.33	0.6773071	0.5618286	
2.52	0.8273926	0.2799683	
2.71	0.9161377	-0.0736084	
2.9	0.8289795	-0.4060669	
3.09	0.6088867	-0.7036133	
3.28	0.2953491	-0.8574829	
3.47	-0.01275635	-0.9263306	
3.66	-0.3355103	-0.8386841	
3.85	-0.6557617	-0.6535034	
4.04	-0.8408203	-0.2850952	
4.23	-0.9102783	0.0631104	
4.42	-0.8048706	0.4102173	
4.61	-0.5837402	0.7288208	
4.8	-0.2181396	0.921875	
4.99	0.2229004	0.9406738	
5.18	0.6269531	0.7832336	
5.37	0.9476318	0.3904419	
5.56	1.044861	-0.03546143	
5.75	0.9458008	-0.3956299	
5.94	0.5786133	-0.7872314	
6.13	0.0473633	-0.9780273	
6.32	-0.4075928	-0.8623047	
6.51	-0.7546997	-0.5290527	
6.7	-0.9481201	0.0139771	
6.89	0.8463745	-0.4995117	
7.08	-0.8939209	0.1217651	
7.27	-0.4515991	0.7554932	
7.46	0.5647888	0.6799622	
7.65	-0.1324463	-0.8989258	
7.84	-0.8270264	0.5413818	
8.03	0.1483154	0.9111938	
8.22	0.9382935	0.1616211	
8.41	0.1448975	-0.9907837	
8.6	-0.8878479	0.2452393	
8.79	0.1416016	0.9138794	
8.98	0.878479	0.3740234	
9.17	0.5073853	-0.8101501	
9.36	-0.7727051	-0.5509338	
9.55	-0.8880005	0.2736816	
9.74	-0.2923584	0.9091797	
9.93	0.8148804	0.492157	
10.12	0.527832	-0.8536377	
10.31	-0.7611389	-0.5783691	
10.5	-0.7719116	0.5231323	
10.69	-0.2365723	0.956543	
10.88	0.4547729	0.8806763	
11.07	0.9559937	0.1945801	
11.26	0.6441345	-0.7996826	
11.45	-0.7794495	-0.292511	
11.64	0.4636841	0.6063538	
11.83	0.8612061	0.1575928	
12.02	0.8858032	-0.197998	
12.21	0.7312622	-0.4992371	
12.4	0.1625366	-0.8239136	
12.59	-0.2737732	0.6620789	
12.78	0.6286316	-0.4061279	
12.97	0.213562	-0.7973022	
13.16	-0.1884155	-0.8624878	
13.35	-0.5473022	-0.7007446	
13.54	-0.5013123	-0.5320129	
13.73	-0.7901306	0.497467	
13.92	-0.3340149	0.780365	
14.11	-0.1508484	-0.7352295	
14.3	-0.5438538	0.0806274	
14.49	-0.9271545	0.3475647	
14.68	-0.79953	0.5298767	
14.87	-0.3497314	0.8114014	
15.06	0.2903442	0.7875671	
15.25	0.7966003	0.3019714	
15.44	0.5790405	-0.5871277	
15.63	-0.7053833	-0.3565979	
15.82	-0.4392395	0.5720825	
16.01	0.4809875	0.8169556	
16.2	-0.3820801	-0.3462067	
16.39	0.9002075	0.1331787	
16.58	0.2314911	0.403717	
16.77	0.7996216	-0.08139038	
16.96	0.5887451	-0.5773621	
17.15	0.6919861	-0.2877502	
17.34	0.5531006	-0.5529175	
17.53	0.2061157	-0.7827148	
17.72	-0.1078186	-0.7138977	
17.91	-0.2210388	-0.743988	
18.1	-0.6673584	-0.8634033	
18.29	-0.9454956	-0.3312378	
18.48	-0.5316162	0.0297852	
18.67	-1.011719	-0.1488647	
18.86	-0.8917236	-0.03076172	
19.05	-0.1812744	0.5378418	
19.24	-0.9194336	0.5072021	
19.43	-0.8036499	0.7611084	
19.62	-0.6598816	0.75	
19.81	0.12854	0.7280273	
20.0	-0.02581787	0.8443604	
