# GHz S RI R 50 
!freq	ReS11	ImS11	
1.0	-0.5776367	-0.2541504	
1.19	-0.6879883	0.0206909	
1.38	-0.6611328	0.2979736	
1.57	-0.5313721	0.5417175	
1.76	-0.2695313	0.7479248	
1.95	0.076355	0.8134155	
2.14	0.4030151	0.7402954	
2.33	0.6739502	0.5629272	
2.52	0.8260498	0.2807007	
2.71	0.9172974	-0.07421875	
2.9	0.8301392	-0.4093628	
3.09	0.6039429	-0.7070313	
3.28	0.3002319	-0.8543091	
3.47	-0.01641846	-0.9317627	
3.66	-0.3375854	-0.8512573	
3.85	-0.6581421	-0.6463623	
4.04	-0.8428955	-0.2845459	
4.23	-0.9124146	0.0643921	
4.42	-0.8027344	0.4161987	
4.61	-0.5796509	0.7311401	
4.8	-0.2111206	0.9281616	
4.99	0.2198486	0.9384155	
5.18	0.6286926	0.7871704	
5.37	0.947998	0.3925781	
5.56	1.045471	-0.03485107	
5.75	0.9453125	-0.3997803	
5.94	0.5800781	-0.7857056	
6.13	0.0448608	-0.9738159	
6.32	-0.4109497	-0.8756104	
6.51	-0.7539673	-0.5299683	
6.7	-0.947876	0.0128784	
6.89	0.8438721	-0.5028687	
7.08	-0.894104	0.1226196	
7.27	-0.4466553	0.7515259	
7.46	0.5617065	0.6817017	
7.65	-0.1372681	-0.9118652	
7.84	-0.8289185	0.5429077	
8.03	0.1340332	0.9087524	
8.22	0.9380493	0.1619263	
8.41	0.1563721	-0.9945068	
8.6	-0.8866882	0.2456055	
8.79	0.1447144	0.9143677	
8.98	0.8783569	0.3735962	
9.17	0.5014648	-0.8063049	
9.36	-0.7767334	-0.5474243	
9.55	-0.8893433	0.2698975	
9.74	-0.2893066	0.916748	
9.93	0.8170166	0.492981	
10.12	0.526062	-0.8551025	
10.31	-0.7566833	-0.5793457	
10.5	-0.7703857	0.526123	
10.69	-0.2363892	0.9608765	
10.88	0.4545288	0.8818359	
11.07	0.9567871	0.1939087	
11.26	0.6434937	-0.8053589	
11.45	-0.7784119	-0.2925415	
11.64	0.4652405	0.6085815	
11.83	0.8626709	0.1566772	
12.02	0.8841553	-0.1956177	
12.21	0.7329102	-0.5026245	
12.4	0.1680298	-0.8233032	
12.59	-0.2750244	0.6643677	
12.78	0.6180725	-0.4130554	
12.97	0.2132568	-0.7954102	
13.16	-0.1861572	-0.8545532	
13.35	-0.5492554	-0.701416	
13.54	-0.5038757	-0.5319824	
13.73	-0.7901917	0.496521	
13.92	-0.3315125	0.7789307	
14.11	-0.1499939	-0.7387085	
14.3	-0.5439453	0.0806885	
14.49	-0.9284668	0.3475342	
14.68	-0.795166	0.5291138	
14.87	-0.348999	0.8067932	
15.06	0.2900085	0.7900391	
15.25	0.7948303	0.3003845	
15.44	0.5797119	-0.5834351	
15.63	-0.7033386	-0.3560486	
15.82	-0.4377747	0.5678101	
16.01	0.4801331	0.8100281	
16.2	-0.3822632	-0.3475189	
16.39	0.8997498	0.1344604	
16.58	0.2301788	0.4022064	
16.77	0.8000183	-0.07998657	
16.96	0.5874329	-0.5797119	
17.15	0.6933594	-0.2832947	
17.34	0.5540161	-0.5489502	
17.53	0.2054138	-0.7895203	
17.72	-0.09255981	-0.7161255	
17.91	-0.2176514	-0.7447815	
18.1	-0.6697998	-0.8683472	
18.29	-0.9451904	-0.3324585	
18.48	-0.5324707	0.0307007	
18.67	-1.011292	-0.1484375	
18.86	-0.8912964	-0.03125	
19.05	-0.1802673	0.5412292	
19.24	-0.9216309	0.5074463	
19.43	-0.7993774	0.7615356	
19.62	-0.6593628	0.742981	
19.81	0.1297607	0.7268066	
20.0	-0.02001953	0.8557129	
