# GHz S RI R 50 
!freq	ReS11	ImS11	
1.0	-0.5789795	-0.2557373	
1.19	-0.6873779	0.0211792	
1.38	-0.6605835	0.2991333	
1.57	-0.5279846	0.5355225	
1.76	-0.2751465	0.7487183	
1.95	0.0745239	0.8136597	
2.14	0.4036865	0.7514648	
2.33	0.6738892	0.562439	
2.52	0.8249512	0.2774048	
2.71	0.9147339	-0.07293701	
2.9	0.8278198	-0.4056396	
3.09	0.6053467	-0.7036133	
3.28	0.3009644	-0.8555298	
3.47	-0.01861572	-0.9381104	
3.66	-0.3389282	-0.847229	
3.85	-0.6619263	-0.6433105	
4.04	-0.8410034	-0.2866211	
4.23	-0.9102783	0.0651855	
4.42	-0.8035889	0.409729	
4.61	-0.5759277	0.7261353	
4.8	-0.2114868	0.9204712	
4.99	0.2177734	0.9337769	
5.18	0.6271362	0.780304	
5.37	0.9473877	0.3915405	
5.56	1.045349	-0.03533936	
5.75	0.9488525	-0.3970947	
5.94	0.5824585	-0.7817383	
6.13	0.0456543	-0.9779663	
6.32	-0.4086914	-0.8690186	
6.51	-0.754425	-0.5307007	
6.7	-0.9475098	0.0133057	
6.89	0.8447266	-0.5064087	
7.08	-0.894165	0.1226196	
7.27	-0.4474487	0.7548828	
7.46	0.5657654	0.6820068	
7.65	-0.1353149	-0.9130249	
7.84	-0.826355	0.5448608	
8.03	0.1320801	0.9119873	
8.22	0.9384766	0.1618652	
8.41	0.151001	-0.9902344	
8.6	-0.8863525	0.2443848	
8.79	0.1485596	0.9159546	
8.98	0.8796387	0.3724365	
9.17	0.5059509	-0.8146362	
9.36	-0.7745667	-0.5510254	
9.55	-0.8897095	0.2701416	
9.74	-0.2897949	0.9188843	
9.93	0.8158264	0.4942932	
10.12	0.5264893	-0.8511963	
10.31	-0.7579041	-0.5765076	
10.5	-0.7705383	0.5267639	
10.69	-0.2320557	0.9507446	
10.88	0.4484863	0.8894043	
11.07	0.9554443	0.1948242	
11.26	0.6529541	-0.8052673	
11.45	-0.7778625	-0.2922363	
11.64	0.4627991	0.6079407	
11.83	0.8616333	0.1578979	
12.02	0.8861694	-0.1973877	
12.21	0.7304077	-0.4988708	
12.4	0.1591797	-0.8208008	
12.59	-0.2775269	0.6662598	
12.78	0.6214294	-0.4068909	
12.97	0.2144775	-0.8002319	
13.16	-0.1851196	-0.8619995	
13.35	-0.5527954	-0.7067261	
13.54	-0.5011292	-0.5320435	
13.73	-0.7915649	0.4959106	
13.92	-0.3223572	0.7807617	
14.11	-0.1492615	-0.7378235	
14.3	-0.5440063	0.0805664	
14.49	-0.9264221	0.3508301	
14.68	-0.7957458	0.5279846	
14.87	-0.3428345	0.8048706	
15.06	0.2920837	0.786499	
15.25	0.7926331	0.301178	
15.44	0.5779419	-0.5845337	
15.63	-0.7018738	-0.3562927	
15.82	-0.4387817	0.5675659	
16.01	0.4746399	0.8119507	
16.2	-0.3834839	-0.3443451	
16.39	0.8995972	0.1343689	
16.58	0.2282867	0.4046326	
16.77	0.8000183	-0.08047485	
16.96	0.5891113	-0.5759277	
17.15	0.6908875	-0.2857971	
17.34	0.5550537	-0.5584412	
17.53	0.2019348	-0.7835693	
17.72	-0.09741211	-0.7232666	
17.91	-0.2155151	-0.7463989	
18.1	-0.6736145	-0.8640137	
18.29	-0.9455566	-0.3306274	
18.48	-0.5325317	0.0310669	
18.67	-1.011536	-0.1483154	
18.86	-0.8914795	-0.03100586	
19.05	-0.1831055	0.5413818	
19.24	-0.9111938	0.5072021	
19.43	-0.8078003	0.7602539	
19.62	-0.6602783	0.741272	
19.81	0.1279907	0.728241	
20.0	-0.02947998	0.8547363	
