# GHz S RI R 50 
!freq	ReS11	ImS11	
1.0	-0.5784912	-0.2545776	
1.19	-0.6872559	0.0211792	
1.38	-0.6611328	0.2980957	
1.57	-0.5305176	0.5354004	
1.76	-0.2736206	0.7476807	
1.95	0.0787964	0.8179932	
2.14	0.4014893	0.7411499	
2.33	0.6757813	0.5593262	
2.52	0.8267212	0.2786255	
2.71	0.9159546	-0.07415771	
2.9	0.8330078	-0.4080811	
3.09	0.6040039	-0.706604	
3.28	0.3016968	-0.8598633	
3.47	-0.01123047	-0.9362793	
3.66	-0.3377075	-0.8444214	
3.85	-0.6607056	-0.6504517	
4.04	-0.8395386	-0.284668	
4.23	-0.9111938	0.0657349	
4.42	-0.8026733	0.413269	
4.61	-0.5794678	0.7250977	
4.8	-0.2147827	0.9177856	
4.99	0.2276001	0.9432983	
5.18	0.6304016	0.7801514	
5.37	0.9470215	0.3911133	
5.56	1.045288	-0.03619385	
5.75	0.9476929	-0.3982544	
5.94	0.5865479	-0.7827148	
6.13	0.043335	-0.9785156	
6.32	-0.4182739	-0.866333	
6.51	-0.7582397	-0.5275879	
6.7	-0.9476929	0.0133667	
6.89	0.8444824	-0.5019531	
7.08	-0.8947754	0.1220093	
7.27	-0.4518433	0.7480469	
7.46	0.5646362	0.677948	
7.65	-0.1387939	-0.9102173	
7.84	-0.8238525	0.5380859	
8.03	0.1325684	0.9119873	
8.22	0.9385986	0.1610718	
8.41	0.1411133	-0.987854	
8.6	-0.8865356	0.2433167	
8.79	0.1507568	0.916687	
8.98	0.8786011	0.3735962	
9.17	0.5075378	-0.8143005	
9.36	-0.7760315	-0.544342	
9.55	-0.8863525	0.2739258	
9.74	-0.2851563	0.9182129	
9.93	0.8160095	0.4924927	
10.12	0.515625	-0.8530884	
10.31	-0.757019	-0.5784912	
10.5	-0.7645569	0.5282593	
10.69	-0.2247314	0.9570923	
10.88	0.4578247	0.8808594	
11.07	0.9534912	0.1916504	
11.26	0.6491699	-0.8034973	
11.45	-0.7653809	-0.2903137	
11.64	0.4484253	0.5954285	
11.83	0.8496094	0.1594849	
12.02	0.8837891	-0.1901245	
12.21	0.7331848	-0.4966736	
12.4	0.1639404	-0.8314209	
12.59	-0.2817078	0.6598511	
12.78	0.6429749	-0.3877258	
12.97	0.2195435	-0.8049316	
13.16	-0.1872559	-0.8623657	
13.35	-0.5449219	-0.7061768	
13.54	-0.5063477	-0.5317993	
13.73	-0.7886963	0.4979553	
13.92	-0.3257141	0.7771912	
14.11	-0.1664124	-0.7418213	
14.3	-0.5296326	0.063385	
14.49	-0.9305725	0.354187	
14.68	-0.8002014	0.5350342	
14.87	-0.3453979	0.8070374	
15.06	0.290741	0.785553	
15.25	0.7950134	0.2983093	
15.44	0.5756836	-0.5915222	
15.63	-0.7104797	-0.3387451	
15.82	-0.4356079	0.5698547	
16.01	0.4790649	0.8066101	
16.2	-0.3769836	-0.3327026	
16.39	0.897644	0.1305847	
16.58	0.2293549	0.3865967	
16.77	0.7903748	-0.08117676	
16.96	0.5869751	-0.5757446	
17.15	0.678009	-0.2796631	
17.34	0.545166	-0.5455322	
17.53	0.2128296	-0.7692566	
17.72	-0.09661865	-0.722168	
17.91	-0.2238464	-0.7705688	
18.1	-0.6714172	-0.8625183	
18.29	-0.9325562	-0.3291626	
18.48	-0.5465698	-0.01071167	
18.67	-1.010132	-0.1478882	
18.86	-0.8879395	-0.0223999	
19.05	-0.1826477	0.5487976	
19.24	-0.9118652	0.5088501	
19.43	-0.8024902	0.7599487	
19.62	-0.6508789	0.7446289	
19.81	0.1187439	0.7325134	
20.0	-0.02716064	0.8534546	
