# GHz S RI R 50 
!freq	ReS11	ImS11	
1.0	-0.5791016	-0.2549438	
1.19	-0.6875	0.0206299	
1.38	-0.661377	0.3012085	
1.57	-0.5308838	0.5390015	
1.76	-0.2679443	0.7550659	
1.95	0.076355	0.8140259	
2.14	0.4021606	0.7491455	
2.33	0.6733398	0.5612793	
2.52	0.8259888	0.2794189	
2.71	0.9171143	-0.07342529	
2.9	0.8314819	-0.4041748	
3.09	0.607605	-0.7138062	
3.28	0.3004761	-0.8587036	
3.47	-0.007629395	-0.9331055	
3.66	-0.3339233	-0.8496704	
3.85	-0.6612549	-0.6495972	
4.04	-0.8413696	-0.286499	
4.23	-0.9108887	0.065918	
4.42	-0.8005371	0.4091797	
4.61	-0.5765991	0.7337646	
4.8	-0.2140503	0.9160767	
4.99	0.2145386	0.9541626	
5.18	0.626709	0.786377	
5.37	0.9463501	0.3913574	
5.56	1.045105	-0.03527832	
5.75	0.9438477	-0.3984375	
5.94	0.5786133	-0.7852783	
6.13	0.0396729	-0.9750977	
6.32	-0.4115601	-0.8678589	
6.51	-0.7574463	-0.5302124	
6.7	-0.9475708	0.0129395	
6.89	0.8467407	-0.5048218	
7.08	-0.8954468	0.1220703	
7.27	-0.4483032	0.7563477	
7.46	0.5575256	0.6779175	
7.65	-0.1394653	-0.918396	
7.84	-0.8240356	0.5420532	
8.03	0.1384277	0.9047852	
8.22	0.9384155	0.1622314	
8.41	0.1546631	-0.992981	
8.6	-0.8876648	0.2443542	
8.79	0.1517334	0.914917	
8.98	0.8789673	0.3729858	
9.17	0.5104065	-0.8173828	
9.36	-0.7801819	-0.5494995	
9.55	-0.8880005	0.2709351	
9.74	-0.2919312	0.9190063	
9.93	0.8154602	0.4932556	
10.12	0.5246582	-0.8539429	
10.31	-0.7628174	-0.5768738	
10.5	-0.7695313	0.5230713	
10.69	-0.2302856	0.9539795	
10.88	0.4501343	0.878418	
11.07	0.9553223	0.1951904	
11.26	0.6463013	-0.7941284	
11.45	-0.7753296	-0.2918091	
11.64	0.4654541	0.6044006	
11.83	0.8618164	0.1572876	
12.02	0.8873291	-0.1974487	
12.21	0.7325134	-0.5042725	
12.4	0.1592407	-0.8235474	
12.59	-0.278717	0.6620178	
12.78	0.6228027	-0.4086914	
12.97	0.2147217	-0.7905273	
13.16	-0.1869507	-0.8555298	
13.35	-0.5510254	-0.6994019	
13.54	-0.5027161	-0.5332947	
13.73	-0.7880249	0.4979553	
13.92	-0.3251038	0.7862854	
14.11	-0.1555786	-0.7379761	
14.3	-0.5445862	0.0820313	
14.49	-0.9298706	0.3494873	
14.68	-0.8013916	0.5258484	
14.87	-0.3468323	0.8096008	
15.06	0.2931824	0.7929077	
15.25	0.7939758	0.3037109	
15.44	0.5792236	-0.5877991	
15.63	-0.7029724	-0.3570251	
15.82	-0.4431458	0.567627	
16.01	0.4727478	0.8148193	
16.2	-0.3844604	-0.3510437	
16.39	0.9002075	0.1342468	
16.58	0.2256165	0.4031525	
16.77	0.8004456	-0.07958984	
16.96	0.5901489	-0.5748596	
17.15	0.6918335	-0.2868347	
17.34	0.5560303	-0.5492554	
17.53	0.2093201	-0.7798462	
17.72	-0.09835815	-0.7169495	
17.91	-0.219574	-0.7452087	
18.1	-0.6692505	-0.8693542	
18.29	-0.9434204	-0.3300781	
18.48	-0.5323792	0.0300293	
18.67	-1.011292	-0.1489258	
18.86	-0.8917236	-0.03167725	
19.05	-0.1811523	0.5368958	
19.24	-0.9182129	0.5058594	
19.43	-0.8051758	0.7576294	
19.62	-0.6568604	0.7427979	
19.81	0.1273193	0.7221069	
20.0	-0.02490234	0.8373413	
