# GHz S RI R 50 
!freq	ReS11	ImS11	
1.0	-0.5792847	-0.255127	
1.19	-0.687439	0.020752	
1.38	-0.6594238	0.2983398	
1.57	-0.5303345	0.5348511	
1.76	-0.2717285	0.749939	
1.95	0.074585	0.8132324	
2.14	0.402771	0.7460938	
2.33	0.6738281	0.5592041	
2.52	0.8252563	0.2797241	
2.71	0.9159546	-0.07305908	
2.9	0.8330078	-0.4069214	
3.09	0.6065674	-0.7020264	
3.28	0.3007202	-0.8519897	
3.47	-0.01538086	-0.9359741	
3.66	-0.3394775	-0.8483887	
3.85	-0.6587524	-0.6525879	
4.04	-0.8431396	-0.2858276	
4.23	-0.9105835	0.0644531	
4.42	-0.805542	0.4100342	
4.61	-0.5819702	0.7252197	
4.8	-0.2167969	0.9159546	
4.99	0.21875	0.9523315	
5.18	0.6192322	0.790741	
5.37	0.9453735	0.3895264	
5.56	1.045593	-0.03485107	
5.75	0.9455566	-0.3971558	
5.94	0.5733643	-0.7824707	
6.13	0.0424805	-0.9743652	
6.32	-0.4096069	-0.8724976	
6.51	-0.7526245	-0.531189	
6.7	-0.947998	0.0130615	
6.89	0.8444214	-0.5061035	
7.08	-0.8945313	0.1227417	
7.27	-0.4494019	0.7507324	
7.46	0.5658569	0.685791	
7.65	-0.1384277	-0.9137573	
7.84	-0.8296509	0.5392456	
8.03	0.1383057	0.9067993	
8.22	0.9384766	0.1615601	
8.41	0.152771	-0.9940186	
8.6	-0.8874817	0.2437134	
8.79	0.1414185	0.9194946	
8.98	0.8800659	0.3723755	
9.17	0.5044861	-0.816925	
9.36	-0.7767944	-0.5504456	
9.55	-0.8909912	0.2714233	
9.74	-0.2914429	0.9243164	
9.93	0.8140564	0.4935303	
10.12	0.5251465	-0.8607178	
10.31	-0.7606201	-0.5795288	
10.5	-0.7669678	0.5237732	
10.69	-0.2265625	0.9560547	
10.88	0.4596558	0.880249	
11.07	0.954834	0.1947021	
11.26	0.6417236	-0.8051758	
11.45	-0.7782898	-0.2929688	
11.64	0.4648438	0.6123962	
11.83	0.8625488	0.1576538	
12.02	0.8861694	-0.1976929	
12.21	0.7329407	-0.5011597	
12.4	0.1652222	-0.8256226	
12.59	-0.2728271	0.6627197	
12.78	0.6190796	-0.40802	
12.97	0.21521	-0.7983398	
13.16	-0.1895142	-0.8550415	
13.35	-0.552124	-0.7008057	
13.54	-0.5079346	-0.5338135	
13.73	-0.7914124	0.4967346	
13.92	-0.3320923	0.7832336	
14.11	-0.1487732	-0.7395325	
14.3	-0.5450134	0.0825195	
14.49	-0.9283752	0.3506165	
14.68	-0.8008118	0.5270081	
14.87	-0.3485718	0.8086853	
15.06	0.2907104	0.7898254	
15.25	0.7944946	0.3023376	
15.44	0.5820007	-0.5892944	
15.63	-0.7014465	-0.3547363	
15.82	-0.4421692	0.5681458	
16.01	0.4775085	0.8137512	
16.2	-0.3825684	-0.3490143	
16.39	0.9000854	0.1346436	
16.58	0.2280273	0.4010468	
16.77	0.7996826	-0.08071899	
16.96	0.5923157	-0.5751648	
17.15	0.6932678	-0.2862244	
17.34	0.5544128	-0.5553284	
17.53	0.2018127	-0.7857056	
17.72	-0.0916748	-0.7220154	
17.91	-0.2165527	-0.7495728	
18.1	-0.671936	-0.8669434	
18.29	-0.9464722	-0.3309937	
18.48	-0.5328674	0.0299377	
18.67	-1.010925	-0.1488037	
18.86	-0.8913574	-0.03161621	
19.05	-0.1788635	0.5427551	
19.24	-0.9147339	0.5064697	
19.43	-0.8067627	0.7679443	
19.62	-0.6575317	0.7506104	
19.81	0.127655	0.7262573	
20.0	-0.01934814	0.8518066	
