# GHz S RI R 50 
!freq	ReS11	ImS11	
1.0	-0.5786133	-0.2536011	
1.19	-0.687439	0.0206299	
1.38	-0.6630859	0.2987671	
1.57	-0.5297852	0.536438	
1.76	-0.2718506	0.75	
1.95	0.0737915	0.815918	
2.14	0.3977051	0.7460938	
2.33	0.6751709	0.5619507	
2.52	0.8264771	0.2788696	
2.71	0.9174805	-0.07318115	
2.9	0.8319092	-0.4085693	
3.09	0.6053467	-0.7041626	
3.28	0.2992554	-0.8590698	
3.47	-0.01196289	-0.9389648	
3.66	-0.3341675	-0.8480835	
3.85	-0.6575317	-0.6500244	
4.04	-0.8409424	-0.2872925	
4.23	-0.9100342	0.0665894	
4.42	-0.7999268	0.4144897	
4.61	-0.578064	0.7259521	
4.8	-0.2183838	0.918335	
4.99	0.218811	0.9484253	
5.18	0.6250916	0.7837219	
5.37	0.9501953	0.3930664	
5.56	1.04541	-0.03631592	
5.75	0.9484863	-0.3944702	
5.94	0.5770874	-0.7793579	
6.13	0.0466309	-0.9702148	
6.32	-0.4102783	-0.8612061	
6.51	-0.7582397	-0.5307007	
6.7	-0.947876	0.0144653	
6.89	0.8445435	-0.5021362	
7.08	-0.8938599	0.1219482	
7.27	-0.444519	0.7492676	
7.46	0.5625916	0.6801147	
7.65	-0.1373901	-0.9127808	
7.84	-0.8270264	0.5436401	
8.03	0.1344604	0.9072876	
8.22	0.9380493	0.1620483	
8.41	0.1564941	-0.992981	
8.6	-0.888092	0.243042	
8.79	0.145813	0.9172974	
8.98	0.8780518	0.3738098	
9.17	0.5092163	-0.8146667	
9.36	-0.7820129	-0.5498962	
9.55	-0.8875122	0.2723999	
9.74	-0.2892456	0.9146118	
9.93	0.8132629	0.4946289	
10.12	0.5266113	-0.8526611	
10.31	-0.7601318	-0.5766907	
10.5	-0.7726746	0.5289307	
10.69	-0.2250366	0.9564209	
10.88	0.4482422	0.8813477	
11.07	0.9559937	0.1947021	
11.26	0.6330566	-0.8011169	
11.45	-0.7782593	-0.2892456	
11.64	0.4625854	0.608429	
11.83	0.8618164	0.1568604	
12.02	0.8863525	-0.1965332	
12.21	0.7324219	-0.4998779	
12.4	0.1583862	-0.8260498	
12.59	-0.2783203	0.6672974	
12.78	0.620697	-0.4086914	
12.97	0.2125854	-0.7901611	
13.16	-0.1820068	-0.8613281	
13.35	-0.5460815	-0.7020874	
13.54	-0.5024414	-0.5299072	
13.73	-0.7927856	0.4963379	
13.92	-0.3303223	0.7796936	
14.11	-0.1474304	-0.7362366	
14.3	-0.5449829	0.0815125	
14.49	-0.9275208	0.3503723	
14.68	-0.8000183	0.5306702	
14.87	-0.3494873	0.8087463	
15.06	0.2905884	0.7879333	
15.25	0.7956848	0.3013916	
15.44	0.5842896	-0.5887451	
15.63	-0.7054443	-0.3557739	
15.82	-0.4388733	0.5638733	
16.01	0.4730225	0.8145447	
16.2	-0.383316	-0.3478241	
16.39	0.900238	0.1344299	
16.58	0.22995	0.4004517	
16.77	0.7996521	-0.08050537	
16.96	0.5891113	-0.5753479	
17.15	0.6932983	-0.2867432	
17.34	0.5553894	-0.5534363	
17.53	0.2062073	-0.7876282	
17.72	-0.103363	-0.7159729	
17.91	-0.2190247	-0.7458191	
18.1	-0.6702271	-0.8710938	
18.29	-0.9447021	-0.3322144	
18.48	-0.5321045	0.0305481	
18.67	-1.01123	-0.1487427	
18.86	-0.8916626	-0.03100586	
19.05	-0.1799316	0.5444641	
19.24	-0.9164429	0.5119019	
19.43	-0.8045654	0.7600708	
19.62	-0.6585999	0.7434387	
19.81	0.1349487	0.726532	
20.0	-0.02703857	0.8502808	
