# GHz S RI R 50 
!freq	ReS11	ImS11	
1.0	-0.5776978	-0.253479	
1.19	-0.6880493	0.0206299	
1.38	-0.6596069	0.2960205	
1.57	-0.5299072	0.5403442	
1.76	-0.2669067	0.7443848	
1.95	0.0770874	0.8144531	
2.14	0.4012451	0.7512817	
2.33	0.675293	0.5595703	
2.52	0.8272095	0.2791748	
2.71	0.9161377	-0.07324219	
2.9	0.8266602	-0.4042358	
3.09	0.6073914	-0.7032776	
3.28	0.3016968	-0.8560181	
3.47	-0.01647949	-0.9320679	
3.66	-0.3416138	-0.847229	
3.85	-0.663269	-0.6519165	
4.04	-0.8427734	-0.2854614	
4.23	-0.9113159	0.0646973	
4.42	-0.8014526	0.4152832	
4.61	-0.5748901	0.7191772	
4.8	-0.2130127	0.9225464	
4.99	0.2145386	0.9403687	
5.18	0.6237793	0.786499	
5.37	0.9467773	0.3934326	
5.56	1.045654	-0.03515625	
5.75	0.9482422	-0.3928833	
5.94	0.5778198	-0.7810059	
6.13	0.0462646	-0.9726563	
6.32	-0.4144897	-0.8666382	
6.51	-0.7521362	-0.5286255	
6.7	-0.9473267	0.0131836	
6.89	0.8450317	-0.5031128	
7.08	-0.8949585	0.1213989	
7.27	-0.4469604	0.7478027	
7.46	0.5639954	0.6818542	
7.65	-0.1384888	-0.9142456	
7.84	-0.8273926	0.5436401	
8.03	0.1383057	0.9087524	
8.22	0.9389648	0.1616821	
8.41	0.1555786	-0.9858398	
8.6	-0.8877563	0.2438354	
8.79	0.1430054	0.9165039	
8.98	0.8782654	0.3724976	
9.17	0.5100098	-0.8129883	
9.36	-0.775116	-0.5472412	
9.55	-0.8909302	0.2717285	
9.74	-0.2962646	0.9216309	
9.93	0.8139954	0.4922485	
10.12	0.5266113	-0.8522949	
10.31	-0.7575989	-0.5819397	
10.5	-0.7694397	0.527771	
10.69	-0.2290039	0.9644775	
10.88	0.4515381	0.885437	
11.07	0.9559326	0.1946411	
11.26	0.6468506	-0.8014832	
11.45	-0.7785034	-0.2913513	
11.64	0.4629211	0.6091614	
11.83	0.8619385	0.1571045	
12.02	0.8875122	-0.1966553	
12.21	0.7322998	-0.5027771	
12.4	0.1585693	-0.8306885	
12.59	-0.2684631	0.6690063	
12.78	0.6227112	-0.4114685	
12.97	0.2151489	-0.7952881	
13.16	-0.1898193	-0.8543091	
13.35	-0.5551758	-0.7012329	
13.54	-0.5053101	-0.536438	
13.73	-0.7958679	0.4980469	
13.92	-0.3322144	0.7771912	
14.11	-0.150177	-0.7378845	
14.3	-0.5444031	0.0800781	
14.49	-0.9291382	0.3490295	
14.68	-0.8010254	0.5250549	
14.87	-0.344574	0.8084717	
15.06	0.2962952	0.7922058	
15.25	0.7939758	0.3031616	
15.44	0.5799255	-0.5871582	
15.63	-0.7019653	-0.35672	
15.82	-0.4394836	0.5639954	
16.01	0.4789124	0.8122559	
16.2	-0.383255	-0.3490906	
16.39	0.9001465	0.1347046	
16.58	0.2250977	0.4027557	
16.77	0.8004761	-0.08029175	
16.96	0.5842285	-0.5736084	
17.15	0.690155	-0.2859497	
17.34	0.5563354	-0.5575562	
17.53	0.2028503	-0.7792969	
17.72	-0.09643555	-0.7210388	
17.91	-0.217926	-0.7431946	
18.1	-0.6653748	-0.866333	
18.29	-0.9433594	-0.3307495	
18.48	-0.5328369	0.0306396	
18.67	-1.010986	-0.1494751	
18.86	-0.8916626	-0.03179932	
19.05	-0.1819153	0.5417786	
19.24	-0.9191284	0.5057373	
19.43	-0.8046265	0.762085	
19.62	-0.6671143	0.7424927	
19.81	0.1304016	0.723877	
20.0	-0.02282715	0.8464355	
