# GHz S RI R 50 
!freq	ReS11	ImS11	
1.0	-0.5773315	-0.2536011	
1.19	-0.6876831	0.020752	
1.38	-0.6624146	0.2965088	
1.57	-0.531311	0.5363159	
1.76	-0.2678833	0.7505493	
1.95	0.0743408	0.8119507	
2.14	0.4024658	0.7509766	
2.33	0.6727295	0.5598145	
2.52	0.828064	0.2785034	
2.71	0.9158325	-0.07403564	
2.9	0.8318481	-0.4077148	
3.09	0.6087646	-0.6994019	
3.28	0.3021851	-0.8566284	
3.47	-0.007385254	-0.9331665	
3.66	-0.342041	-0.8505249	
3.85	-0.6593018	-0.6506348	
4.04	-0.8424072	-0.2845459	
4.23	-0.9104004	0.0657959	
4.42	-0.8024902	0.411377	
4.61	-0.5802612	0.7207642	
4.8	-0.2146606	0.9125366	
4.99	0.2230835	0.9367676	
5.18	0.6246338	0.7831726	
5.37	0.9488525	0.3910522	
5.56	1.044617	-0.03540039	
5.75	0.9487915	-0.4008179	
5.94	0.5789795	-0.7804565	
6.13	0.0454102	-0.9796753	
6.32	-0.414856	-0.8701172	
6.51	-0.7568665	-0.5298157	
6.7	-0.9473267	0.013855	
6.89	0.8457642	-0.5042114	
7.08	-0.8938599	0.1236572	
7.27	-0.4477539	0.758606	
7.46	0.5644226	0.6808777	
7.65	-0.1327515	-0.9109497	
7.84	-0.8231812	0.5387573	
8.03	0.144165	0.9147339	
8.22	0.9382324	0.1613159	
8.41	0.1480713	-0.9937744	
8.6	-0.8863831	0.2406921	
8.79	0.1422119	0.9136353	
8.98	0.8771362	0.3735657	
9.17	0.5081787	-0.8144226	
9.36	-0.776123	-0.5434265	
9.55	-0.8900757	0.270752	
9.74	-0.2885132	0.9089966	
9.93	0.813446	0.4919434	
10.12	0.5205078	-0.8505249	
10.31	-0.7616577	-0.5783691	
10.5	-0.7700195	0.5247192	
10.69	-0.2349854	0.9633179	
10.88	0.4570313	0.8829346	
11.07	0.9555664	0.194397	
11.26	0.644104	-0.8023987	
11.45	-0.7763977	-0.2918091	
11.64	0.4618225	0.6048584	
11.83	0.8597412	0.1576538	
12.02	0.8863525	-0.196167	
12.21	0.7292786	-0.5004883	
12.4	0.1564941	-0.8245239	
12.59	-0.2758484	0.6651611	
12.78	0.6261292	-0.401123	
12.97	0.2131348	-0.7960815	
13.16	-0.1818237	-0.8631592	
13.35	-0.550293	-0.7020874	
13.54	-0.5058594	-0.5325317	
13.73	-0.7923279	0.5016174	
13.92	-0.328186	0.7747803	
14.11	-0.148468	-0.7411194	
14.3	-0.5422058	0.0767822	
14.49	-0.9274292	0.3462524	
14.68	-0.8003845	0.5279541	
14.87	-0.3398438	0.8094482	
15.06	0.2905884	0.7899475	
15.25	0.7952576	0.299408	
15.44	0.5782776	-0.5886841	
15.63	-0.703949	-0.3529663	
15.82	-0.4402161	0.5619812	
16.01	0.473175	0.8132935	
16.2	-0.3799896	-0.3453674	
16.39	0.8997192	0.1333618	
16.58	0.2292786	0.4011536	
16.77	0.7988281	-0.08132935	
16.96	0.5802307	-0.5759888	
17.15	0.6905212	-0.2845154	
17.34	0.5502319	-0.5503235	
17.53	0.2063904	-0.7881775	
17.72	-0.09872437	-0.7160034	
17.91	-0.2182617	-0.7477722	
18.1	-0.6681824	-0.8665771	
18.29	-0.9433594	-0.3323975	
18.48	-0.5345764	0.021759	
18.67	-1.011047	-0.1477051	
18.86	-0.8907471	-0.02929688	
19.05	-0.1779785	0.5408325	
19.24	-0.9141235	0.5066528	
19.43	-0.8027954	0.7595215	
19.62	-0.6593628	0.7466736	
19.81	0.1299744	0.7281189	
20.0	-0.02307129	0.8461914	
