# GHz S RI R 50 
!freq	ReS11	ImS11	
1.0	-0.5785522	-0.2557373	
1.19	-0.6876221	0.020813	
1.38	-0.6593628	0.3010864	
1.57	-0.5308838	0.5350342	
1.76	-0.272583	0.74646	
1.95	0.0695801	0.8151245	
2.14	0.4059448	0.7502441	
2.33	0.6737061	0.5620117	
2.52	0.8267822	0.2794189	
2.71	0.9169922	-0.07263184	
2.9	0.8317871	-0.4072266	
3.09	0.6030884	-0.6994019	
3.28	0.2944946	-0.855835	
3.47	-0.01245117	-0.9296265	
3.66	-0.3406982	-0.8461914	
3.85	-0.6607056	-0.6533813	
4.04	-0.8408813	-0.2860107	
4.23	-0.9110718	0.0640869	
4.42	-0.8035278	0.4129639	
4.61	-0.5813599	0.7224731	
4.8	-0.2226563	0.9153442	
4.99	0.2329102	0.9450684	
5.18	0.625061	0.7865906	
5.37	0.9487305	0.3920898	
5.56	1.045654	-0.03601074	
5.75	0.9484863	-0.3999634	
5.94	0.5808716	-0.7816162	
6.13	0.0452271	-0.970459	
6.32	-0.4075928	-0.8709717	
6.51	-0.7598267	-0.5289307	
6.7	-0.9468994	0.0133057	
6.89	0.8451538	-0.5045166	
7.08	-0.8956299	0.12323	
7.27	-0.4494629	0.7548218	
7.46	0.5660706	0.6795959	
7.65	-0.1293335	-0.9098511	
7.84	-0.8244019	0.5376587	
8.03	0.1422119	0.90979	
8.22	0.9387207	0.1619263	
8.41	0.1517334	-0.9799805	
8.6	-0.8881531	0.2423401	
8.79	0.1452026	0.9196777	
8.98	0.8765869	0.3730469	
9.17	0.5077515	-0.8110046	
9.36	-0.7774963	-0.5487366	
9.55	-0.8893433	0.2720947	
9.74	-0.2835693	0.9235229	
9.93	0.8162842	0.4917603	
10.12	0.5305786	-0.8568115	
10.31	-0.7582397	-0.5772705	
10.5	-0.7687988	0.5228577	
10.69	-0.229248	0.9625244	
10.88	0.4577637	0.8820801	
11.07	0.9561157	0.1946411	
11.26	0.6390076	-0.8074036	
11.45	-0.778717	-0.2918091	
11.64	0.4618225	0.6038818	
11.83	0.8615112	0.1582031	
12.02	0.8865356	-0.1985474	
12.21	0.7339172	-0.5023804	
12.4	0.1629028	-0.8268433	
12.59	-0.2727966	0.6674805	
12.78	0.6214905	-0.4111023	
12.97	0.2094116	-0.7911987	
13.16	-0.1901855	-0.8522949	
13.35	-0.5510254	-0.7047119	
13.54	-0.5019226	-0.5327454	
13.73	-0.7904968	0.4986572	
13.92	-0.3266602	0.7835083	
14.11	-0.1557922	-0.7367554	
14.3	-0.5440063	0.0798035	
14.49	-0.9280396	0.3499756	
14.68	-0.798645	0.5281372	
14.87	-0.3469543	0.8125916	
15.06	0.289093	0.7910767	
15.25	0.7937012	0.3019714	
15.44	0.5809021	-0.5922852	
15.63	-0.7060242	-0.3576355	
15.82	-0.4393311	0.566864	
16.01	0.4768677	0.8120728	
16.2	-0.3792267	-0.3464355	
16.39	0.9000854	0.1343384	
16.58	0.2294922	0.40242	
16.77	0.7990112	-0.081604	
16.96	0.5880737	-0.5759888	
17.15	0.6917114	-0.2863159	
17.34	0.5531616	-0.5487976	
17.53	0.1976318	-0.7810364	
17.72	-0.0944519	-0.7157288	
17.91	-0.2217102	-0.746521	
18.1	-0.6731873	-0.8641968	
18.29	-0.9454346	-0.3326416	
18.48	-0.5325317	0.0303345	
18.67	-1.01178	-0.1484985	
18.86	-0.8917236	-0.03137207	
19.05	-0.1817322	0.5392456	
19.24	-0.918457	0.5067749	
19.43	-0.8074951	0.7626953	
19.62	-0.6578979	0.7444458	
19.81	0.1313171	0.7250366	
20.0	-0.02166748	0.8476563	
