# GHz S RI R 50 
!freq	ReS11	ImS11	
1.0	-0.5762939	-0.2542114	
1.19	-0.6877441	0.020752	
1.38	-0.661438	0.3001099	
1.57	-0.5324097	0.5368042	
1.76	-0.2719727	0.7493286	
1.95	0.0765991	0.8122559	
2.14	0.402832	0.7432251	
2.33	0.6758423	0.5635986	
2.52	0.8267212	0.2793579	
2.71	0.9158325	-0.07348633	
2.9	0.8294678	-0.4066162	
3.09	0.6082764	-0.7028809	
3.28	0.2977295	-0.8544922	
3.47	-0.01647949	-0.9384155	
3.66	-0.3419189	-0.8378296	
3.85	-0.65802	-0.6461182	
4.04	-0.8414917	-0.2844849	
4.23	-0.9107666	0.0651855	
4.42	-0.8052979	0.4154663	
4.61	-0.5820923	0.7272339	
4.8	-0.2156982	0.9234619	
4.99	0.2203369	0.9389038	
5.18	0.6326294	0.7835388	
5.37	0.9489136	0.3895264	
5.56	1.044922	-0.03601074	
5.75	0.9451294	-0.4001465	
5.94	0.5793457	-0.7821045	
6.13	0.0450439	-0.9749756	
6.32	-0.4130249	-0.8684082	
6.51	-0.7557373	-0.5287476	
6.7	-0.9481201	0.0125732	
6.89	0.8432007	-0.5040283	
7.08	-0.8947754	0.123291	
7.27	-0.4489746	0.7561035	
7.46	0.5631104	0.6793213	
7.65	-0.1386108	-0.9141235	
7.84	-0.8261108	0.5425415	
8.03	0.1373291	0.9081421	
8.22	0.9387817	0.1616211	
8.41	0.1541138	-0.9901123	
8.6	-0.8867798	0.2449036	
8.79	0.1509399	0.9168091	
8.98	0.8798828	0.3703613	
9.17	0.5061035	-0.8100281	
9.36	-0.7764282	-0.5509949	
9.55	-0.8887329	0.2718506	
9.74	-0.2788086	0.914856	
9.93	0.8158875	0.4944458	
10.12	0.5262451	-0.8546143	
10.31	-0.7575684	-0.5735779	
10.5	-0.7705383	0.5259399	
10.69	-0.2286987	0.956543	
10.88	0.4503784	0.8913574	
11.07	0.9542847	0.1948242	
11.26	0.6434937	-0.8001709	
11.45	-0.7752686	-0.2922668	
11.64	0.4599609	0.6091309	
11.83	0.8607788	0.1582642	
12.02	0.887085	-0.1958618	
12.21	0.7325134	-0.5014038	
12.4	0.1561279	-0.8269043	
12.59	-0.2768555	0.6677856	
12.78	0.6233215	-0.4085388	
12.97	0.213501	-0.7977295	
13.16	-0.1817017	-0.8587646	
13.35	-0.5540771	-0.6994629	
13.54	-0.5050659	-0.5274353	
13.73	-0.7908325	0.4966125	
13.92	-0.3273621	0.7819519	
14.11	-0.145874	-0.7489014	
14.3	-0.5429382	0.0780029	
14.49	-0.9285278	0.3516541	
14.68	-0.7990417	0.5261536	
14.87	-0.3438721	0.8124084	
15.06	0.2880859	0.7913513	
15.25	0.7939453	0.299408	
15.44	0.5746155	-0.5874939	
15.63	-0.7024841	-0.3519592	
15.82	-0.4389038	0.5644226	
16.01	0.4757385	0.8165588	
16.2	-0.3843689	-0.3452911	
16.39	0.9005737	0.1333008	
16.58	0.2336578	0.401123	
16.77	0.8000793	-0.08105469	
16.96	0.5869751	-0.57547	
17.15	0.6887207	-0.2897339	
17.34	0.5498047	-0.5493774	
17.53	0.2027893	-0.7871704	
17.72	-0.1038208	-0.7150879	
17.91	-0.2184753	-0.747467	
18.1	-0.6689148	-0.8655701	
18.29	-0.9438477	-0.3301392	
18.48	-0.5296936	0.03302	
18.67	-1.011047	-0.1480713	
18.86	-0.8920288	-0.03076172	
19.05	-0.1789246	0.5420532	
19.24	-0.9221191	0.5065308	
19.43	-0.8024292	0.7617798	
19.62	-0.6585083	0.7478943	
19.81	0.1311951	0.7262268	
20.0	-0.02441406	0.8474731	
