# GHz S RI R 50 
!freq	ReS11	ImS11	
1.0	-0.5772095	-0.2537842	
1.19	-0.6871948	0.0209351	
1.38	-0.6612549	0.2996826	
1.57	-0.5275269	0.5374756	
1.76	-0.2698364	0.749939	
1.95	0.0762329	0.8173218	
2.14	0.4064331	0.7455444	
2.33	0.6724243	0.5634155	
2.52	0.8259277	0.2796631	
2.71	0.9147339	-0.07385254	
2.9	0.8303833	-0.4058228	
3.09	0.6119995	-0.6992188	
3.28	0.2984619	-0.8549805	
3.47	-0.01049805	-0.9335327	
3.66	-0.3388672	-0.8529053	
3.85	-0.6577148	-0.6501465	
4.04	-0.8398438	-0.2872925	
4.23	-0.9117432	0.0649414	
4.42	-0.802124	0.4127197	
4.61	-0.5776978	0.729126	
4.8	-0.2159424	0.9207764	
4.99	0.2206421	0.9469604	
5.18	0.629425	0.7734985	
5.37	0.9473267	0.392334	
5.56	1.045532	-0.03594971	
5.75	0.944397	-0.3964844	
5.94	0.5750122	-0.7845459	
6.13	0.0391235	-0.9743042	
6.32	-0.4119263	-0.8660278	
6.51	-0.7573242	-0.5278931	
6.7	-0.9470825	0.0118408	
6.89	0.8439331	-0.5046387	
7.08	-0.8945923	0.1218872	
7.27	-0.4486084	0.7487183	
7.46	0.5632324	0.6853638	
7.65	-0.1334229	-0.9111938	
7.84	-0.8233643	0.5418091	
8.03	0.140686	0.9143066	
8.22	0.9384766	0.1618652	
8.41	0.1478271	-0.987915	
8.6	-0.8867188	0.2411194	
8.79	0.1425781	0.9207153	
8.98	0.879425	0.3738403	
9.17	0.5068054	-0.8118286	
9.36	-0.774231	-0.548584	
9.55	-0.890686	0.2713013	
9.74	-0.2903442	0.9161987	
9.93	0.8175049	0.4942932	
10.12	0.5203857	-0.8521729	
10.31	-0.7607727	-0.5773621	
10.5	-0.7696533	0.5257874	
10.69	-0.2368774	0.9484863	
10.88	0.447937	0.8883057	
11.07	0.9558105	0.1953735	
11.26	0.6466064	-0.7970276	
11.45	-0.7770691	-0.2911377	
11.64	0.46521	0.6087646	
11.83	0.8620605	0.15802	
12.02	0.8890381	-0.1974487	
12.21	0.7297974	-0.4977112	
12.4	0.1607666	-0.8255005	
12.59	-0.2746582	0.6641846	
12.78	0.6200867	-0.4116821	
12.97	0.2123413	-0.7955933	
13.16	-0.1858521	-0.8655396	
13.35	-0.5474854	-0.708252	
13.54	-0.4992981	-0.5325012	
13.73	-0.7911377	0.4971313	
13.92	-0.3270874	0.7793579	
14.11	-0.1488647	-0.742218	
14.3	-0.5448303	0.0811768	
14.49	-0.9253235	0.348114	
14.68	-0.7988892	0.5293884	
14.87	-0.3460083	0.8086548	
15.06	0.2901001	0.7859192	
15.25	0.7929382	0.302887	
15.44	0.5826416	-0.5919495	
15.63	-0.7001038	-0.3570862	
15.82	-0.4423828	0.5661011	
16.01	0.4727173	0.8120422	
16.2	-0.3810272	-0.3475037	
16.39	0.899292	0.1345215	
16.58	0.2274933	0.4031219	
16.77	0.79953	-0.08035278	
16.96	0.591095	-0.5765076	
17.15	0.6940918	-0.2846985	
17.34	0.5559082	-0.551178	
17.53	0.2020569	-0.7859802	
17.72	-0.09606934	-0.7156372	
17.91	-0.2200623	-0.7438049	
18.1	-0.6726379	-0.8739929	
18.29	-0.9430542	-0.3308105	
18.48	-0.532959	0.0314026	
18.67	-1.011108	-0.1489258	
18.86	-0.8918457	-0.03186035	
19.05	-0.1838684	0.539978	
19.24	-0.9176636	0.5031738	
19.43	-0.8081665	0.7645264	
19.62	-0.6558228	0.7437744	
19.81	0.132019	0.7278748	
20.0	-0.02832031	0.8482666	
