# GHz S RI R 50 
!freq	ReS11	ImS11	
1.0	-0.5777588	-0.2548218	
1.19	-0.6870117	0.0206299	
1.38	-0.6618652	0.3006592	
1.57	-0.5331421	0.5382385	
1.76	-0.2675781	0.7492065	
1.95	0.0797119	0.8164063	
2.14	0.4008789	0.7454834	
2.33	0.675415	0.5585938	
2.52	0.8267212	0.279541	
2.71	0.9163818	-0.07220459	
2.9	0.8339233	-0.4082031	
3.09	0.6051636	-0.7141113	
3.28	0.2972412	-0.855957	
3.47	-0.01702881	-0.9301758	
3.66	-0.3405762	-0.8478394	
3.85	-0.6605835	-0.6484985	
4.04	-0.84198	-0.2852173	
4.23	-0.911499	0.0650635	
4.42	-0.8014526	0.4133301	
4.61	-0.5827637	0.7216187	
4.8	-0.2137451	0.9173584	
4.99	0.2176514	0.9451294	
5.18	0.6293335	0.7867432	
5.37	0.9475098	0.3931274	
5.56	1.044983	-0.03601074	
5.75	0.9506836	-0.3997803	
5.94	0.5808716	-0.7814331	
6.13	0.0431519	-0.9706421	
6.32	-0.4129639	-0.8655396	
6.51	-0.7540894	-0.5284424	
6.7	-0.9474487	0.0136719	
6.89	0.8433228	-0.5073242	
7.08	-0.8954468	0.1230469	
7.27	-0.4508667	0.75354	
7.46	0.5647278	0.6810913	
7.65	-0.1338501	-0.9099121	
7.84	-0.8223877	0.5358887	
8.03	0.1467896	0.9150391	
8.22	0.9376831	0.1619873	
8.41	0.1526489	-0.9918213	
8.6	-0.8855286	0.244751	
8.79	0.1466064	0.9199219	
8.98	0.8806458	0.3735962	
9.17	0.5064392	-0.8142395	
9.36	-0.7756348	-0.5456238	
9.55	-0.8897095	0.269165	
9.74	-0.2938843	0.918396	
9.93	0.8122864	0.4959106	
10.12	0.5291748	-0.8497925	
10.31	-0.7582703	-0.5804138	
10.5	-0.76474	0.5266113	
10.69	-0.2287598	0.963562	
10.88	0.4497681	0.8815918	
11.07	0.9557495	0.1939087	
11.26	0.6355896	-0.8022156	
11.45	-0.7788696	-0.2911682	
11.64	0.4660339	0.6077576	
11.83	0.8619995	0.1575928	
12.02	0.8850708	-0.1989136	
12.21	0.7308655	-0.5009155	
12.4	0.1621704	-0.8323975	
12.59	-0.2696533	0.6672058	
12.78	0.6195984	-0.4103394	
12.97	0.2156372	-0.7957153	
13.16	-0.1917114	-0.8599854	
13.35	-0.5470581	-0.7020874	
13.54	-0.5048218	-0.5307312	
13.73	-0.7910156	0.4996338	
13.92	-0.333252	0.7755737	
14.11	-0.1530457	-0.7362366	
14.3	-0.5436096	0.0797729	
14.49	-0.9237671	0.3516541	
14.68	-0.7976379	0.5275269	
14.87	-0.3367615	0.8144836	
15.06	0.2911987	0.7864685	
15.25	0.7947388	0.3020325	
15.44	0.5760193	-0.5952148	
15.63	-0.7076111	-0.3541565	
15.82	-0.4415283	0.5671082	
16.01	0.4766541	0.8139343	
16.2	-0.3823853	-0.3479004	
16.39	0.9003296	0.1340637	
16.58	0.2280731	0.4012299	
16.77	0.8001709	-0.08154297	
16.96	0.5844116	-0.5799561	
17.15	0.6923828	-0.2865906	
17.34	0.5559387	-0.548645	
17.53	0.199646	-0.7828979	
17.72	-0.1009827	-0.7171326	
17.91	-0.215332	-0.7484436	
18.1	-0.6663818	-0.8647461	
18.29	-0.9442749	-0.3312988	
18.48	-0.5315857	0.0302124	
18.67	-1.011414	-0.1483154	
18.86	-0.8916626	-0.03100586	
19.05	-0.1798096	0.5422974	
19.24	-0.9191895	0.5056152	
19.43	-0.8031006	0.7651367	
19.62	-0.6611938	0.7441101	
19.81	0.1296692	0.7268982	
20.0	-0.02429199	0.8475342	
