# GHz S RI R 50 
!freq	ReS11	ImS11	
1.0	-0.5784912	-0.2556763	
1.19	-0.6875	0.0209351	
1.38	-0.6601563	0.3007813	
1.57	-0.5316772	0.5367432	
1.76	-0.2713623	0.74823	
1.95	0.0814819	0.810791	
2.14	0.4043579	0.7498169	
2.33	0.673584	0.5599365	
2.52	0.8260498	0.2787476	
2.71	0.9136963	-0.07366943	
2.9	0.8300171	-0.4090576	
3.09	0.6029663	-0.7045898	
3.28	0.302124	-0.8503418	
3.47	-0.02087402	-0.9369507	
3.66	-0.3399048	-0.8460693	
3.85	-0.6577759	-0.6484985	
4.04	-0.84198	-0.2849121	
4.23	-0.9102173	0.064209	
4.42	-0.8053589	0.40802	
4.61	-0.5880127	0.7201538	
4.8	-0.2174683	0.9211426	
4.99	0.2145386	0.9366455	
5.18	0.6219788	0.7836914	
5.37	0.9472046	0.392395	
5.56	1.045044	-0.03607178	
5.75	0.9452515	-0.397644	
5.94	0.5817871	-0.7836304	
6.13	0.0438232	-0.9685059	
6.32	-0.4172363	-0.8688354	
6.51	-0.7557983	-0.5284424	
6.7	-0.9470825	0.0124512	
6.89	0.8415527	-0.5057983	
7.08	-0.8947144	0.1229248	
7.27	-0.4481812	0.753479	
7.46	0.5641174	0.6809387	
7.65	-0.1359253	-0.9063721	
7.84	-0.8244019	0.539856	
8.03	0.1409912	0.9110718	
8.22	0.9379272	0.1608276	
8.41	0.1466675	-0.9942017	
8.6	-0.8879395	0.2406006	
8.79	0.1454468	0.9141235	
8.98	0.8782349	0.3711548	
9.17	0.5029907	-0.8157349	
9.36	-0.7739258	-0.5496826	
9.55	-0.8889771	0.270752	
9.74	-0.2879028	0.9178467	
9.93	0.8150024	0.4911499	
10.12	0.5261841	-0.857605	
10.31	-0.7575989	-0.5786743	
10.5	-0.7727356	0.5250549	
10.69	-0.2272339	0.9598389	
10.88	0.4489746	0.8806763	
11.07	0.9567871	0.1939697	
11.26	0.6408386	-0.8013611	
11.45	-0.7761841	-0.2913818	
11.64	0.4651184	0.6054993	
11.83	0.8609619	0.1567383	
12.02	0.8873901	-0.1975098	
12.21	0.7333984	-0.5048828	
12.4	0.1651001	-0.8200073	
12.59	-0.270874	0.6676941	
12.78	0.6256104	-0.4062805	
12.97	0.2179565	-0.793457	
13.16	-0.1913452	-0.8584595	
13.35	-0.5466919	-0.7080688	
13.54	-0.5030823	-0.530426	
13.73	-0.7902222	0.5010376	
13.92	-0.322937	0.782196	
14.11	-0.1553345	-0.7405396	
14.3	-0.5438232	0.0815735	
14.49	-0.9259033	0.3519287	
14.68	-0.8011475	0.5260925	
14.87	-0.3448792	0.8057556	
15.06	0.2947388	0.7899475	
15.25	0.7940979	0.2993164	
15.44	0.585083	-0.5867004	
15.63	-0.7015686	-0.3565063	
15.82	-0.4399414	0.5646362	
16.01	0.4715576	0.8110657	
16.2	-0.3802185	-0.3470917	
16.39	0.8999023	0.1340332	
16.58	0.2300415	0.4017487	
16.77	0.8006897	-0.08050537	
16.96	0.5911865	-0.5736694	
17.15	0.6912842	-0.2868347	
17.34	0.5583496	-0.5516968	
17.53	0.2005615	-0.7854919	
17.72	-0.100647	-0.7190247	
17.91	-0.2175293	-0.7484131	
18.1	-0.6672058	-0.8643188	
18.29	-0.944397	-0.3312378	
18.48	-0.5323792	0.0297241	
18.67	-1.01123	-0.1487427	
18.86	-0.8915405	-0.03125	
19.05	-0.1780396	0.5417786	
19.24	-0.9163208	0.5107422	
19.43	-0.7987671	0.7620239	
19.62	-0.6566467	0.7457886	
19.81	0.1273804	0.7272034	
20.0	-0.02752686	0.8466797	
