# GHz S RI R 50 
!freq	ReS11	ImS11	
1.0	-0.576416	-0.2538452	
1.19	-0.6871338	0.0200806	
1.38	-0.6608887	0.2991943	
1.57	-0.5333252	0.5366821	
1.76	-0.2757568	0.7494507	
1.95	0.0792236	0.8152466	
2.14	0.401062	0.7481689	
2.33	0.6761475	0.5623169	
2.52	0.8256836	0.2796021	
2.71	0.9160156	-0.07330322	
2.9	0.8307495	-0.4078979	
3.09	0.6102295	-0.7052002	
3.28	0.302124	-0.8597412	
3.47	-0.01202393	-0.9257202	
3.66	-0.3473511	-0.8478394	
3.85	-0.6593628	-0.6481323	
4.04	-0.8411865	-0.2850952	
4.23	-0.9102783	0.0646973	
4.42	-0.8068848	0.4161377	
4.61	-0.5826416	0.7202148	
4.8	-0.2181396	0.9243774	
4.99	0.2315674	0.9417114	
5.18	0.6288147	0.7879333	
5.37	0.947876	0.3934326	
5.56	1.045349	-0.03497314	
5.75	0.9440308	-0.3978271	
5.94	0.5734253	-0.7832642	
6.13	0.0474854	-0.9733276	
6.32	-0.4102173	-0.8660889	
6.51	-0.7541504	-0.5281982	
6.7	-0.9476929	0.0123901	
6.89	0.8427734	-0.5083008	
7.08	-0.894043	0.1228027	
7.27	-0.4504395	0.7523804	
7.46	0.5613403	0.6802063	
7.65	-0.1350098	-0.9105225	
7.84	-0.8264771	0.5452271	
8.03	0.1330566	0.9120483	
8.22	0.9375	0.1625977	
8.41	0.1548462	-0.9960327	
8.6	-0.8876343	0.2435913	
8.79	0.1453857	0.9123535	
8.98	0.8787537	0.3727722	
9.17	0.5097656	-0.8088379	
9.36	-0.7757874	-0.5478516	
9.55	-0.887085	0.2705688	
9.74	-0.2803955	0.9198608	
9.93	0.8157959	0.4955139	
10.12	0.531189	-0.852356	
10.31	-0.7590332	-0.5809326	
10.5	-0.770752	0.5244141	
10.69	-0.2312622	0.9586792	
10.88	0.4554443	0.8825684	
11.07	0.9561157	0.1948853	
11.26	0.6377258	-0.7948608	
11.45	-0.7799683	-0.2888184	
11.64	0.4662476	0.609436	
11.83	0.8619995	0.1569214	
12.02	0.8872681	-0.1969604	
12.21	0.730957	-0.5014038	
12.4	0.1638184	-0.8291016	
12.59	-0.2734375	0.6618652	
12.78	0.6210938	-0.413147	
12.97	0.211731	-0.7927246	
13.16	-0.1885986	-0.8577881	
13.35	-0.5460815	-0.7062378	
13.54	-0.5018311	-0.5308838	
13.73	-0.794281	0.4961548	
13.92	-0.3276367	0.7774048	
14.11	-0.1517029	-0.7352905	
14.3	-0.5444336	0.0814819	
14.49	-0.9273376	0.3534241	
14.68	-0.8016968	0.5328369	
14.87	-0.3434448	0.8083496	
15.06	0.2895508	0.79599	
15.25	0.7952576	0.302063	
15.44	0.5785522	-0.5854492	
15.63	-0.7049255	-0.3569336	
15.82	-0.4401855	0.5651245	
16.01	0.4766541	0.8132019	
16.2	-0.3844452	-0.348999	
16.39	0.8991699	0.1340332	
16.58	0.2281494	0.4033356	
16.77	0.8007507	-0.07949829	
16.96	0.585968	-0.5787964	
17.15	0.6933594	-0.28302	
17.34	0.5578308	-0.550415	
17.53	0.2026978	-0.7847595	
17.72	-0.09124756	-0.7188721	
17.91	-0.2210999	-0.7456665	
18.1	-0.6711121	-0.8629761	
18.29	-0.9459839	-0.333252	
18.48	-0.5326233	0.0304871	
18.67	-1.011475	-0.149292	
18.86	-0.8914795	-0.03143311	
19.05	-0.1784363	0.5474243	
19.24	-0.9214478	0.506897	
19.43	-0.803894	0.7615967	
19.62	-0.6618042	0.7417908	
19.81	0.1288757	0.7237244	
20.0	-0.0279541	0.8466187	
