# GHz S RI R 50 
!freq	ReS11	ImS11	
1.0	-0.5765381	-0.2548218	
1.19	-0.687439	0.020874	
1.38	-0.6590576	0.2961426	
1.57	-0.5326538	0.5384521	
1.76	-0.2689819	0.7494507	
1.95	0.0737305	0.8120117	
2.14	0.4033813	0.7491455	
2.33	0.6759644	0.5613403	
2.52	0.8266602	0.2794189	
2.71	0.9156494	-0.07470703	
2.9	0.8287964	-0.4071045	
3.09	0.607666	-0.704895	
3.28	0.2998657	-0.8608398	
3.47	-0.01330566	-0.9303589	
3.66	-0.3386841	-0.8481445	
3.85	-0.6638794	-0.6480103	
4.04	-0.8414917	-0.2850342	
4.23	-0.9118652	0.0645142	
4.42	-0.8022461	0.4107056	
4.61	-0.578186	0.7244873	
4.8	-0.2162476	0.920105	
4.99	0.2200317	0.9487305	
5.18	0.6301575	0.7843628	
5.37	0.9507446	0.3931274	
5.56	1.044922	-0.0355835	
5.75	0.9451294	-0.3968506	
5.94	0.5738525	-0.7849731	
6.13	0.0431519	-0.9713745	
6.32	-0.4107666	-0.8668213	
6.51	-0.7578125	-0.5286255	
6.7	-0.9470215	0.0137939	
6.89	0.84552	-0.5038452	
7.08	-0.8945923	0.1231079	
7.27	-0.4533081	0.7549438	
7.46	0.5671692	0.6790771	
7.65	-0.1356812	-0.9174194	
7.84	-0.8240356	0.5411377	
8.03	0.1375122	0.9084473	
8.22	0.9381714	0.1620483	
8.41	0.1550903	-0.9907227	
8.6	-0.8863525	0.2424622	
8.79	0.1500854	0.9140625	
8.98	0.8811035	0.3743286	
9.17	0.5032349	-0.809021	
9.36	-0.7783203	-0.5504761	
9.55	-0.8895264	0.272583	
9.74	-0.2938843	0.9049072	
9.93	0.8158569	0.4958801	
10.12	0.5269165	-0.8509521	
10.31	-0.7602234	-0.5772095	
10.5	-0.7684326	0.5275574	
10.69	-0.2289429	0.9631348	
10.88	0.4556274	0.8848877	
11.07	0.9561157	0.1953735	
11.26	0.6418762	-0.809021	
11.45	-0.7780762	-0.2903748	
11.64	0.4639587	0.6046753	
11.83	0.8609009	0.1572266	
12.02	0.887146	-0.1984863	
12.21	0.7298889	-0.5029297	
12.4	0.1616821	-0.8158569	
12.59	-0.2750549	0.6665039	
12.78	0.6230469	-0.4138184	
12.97	0.2086182	-0.7947388	
13.16	-0.1851196	-0.8583984	
13.35	-0.5492554	-0.7060547	
13.54	-0.5013123	-0.5303955	
13.73	-0.7889099	0.4963684	
13.92	-0.3315125	0.7742004	
14.11	-0.1495056	-0.7358704	
14.3	-0.5445251	0.0811462	
14.49	-0.9235229	0.3500671	
14.68	-0.8011169	0.5287781	
14.87	-0.3518066	0.8104248	
15.06	0.2937622	0.7860413	
15.25	0.7941589	0.3008118	
15.44	0.5786133	-0.5869446	
15.63	-0.7030945	-0.3571777	
15.82	-0.4373474	0.5663147	
16.01	0.4748535	0.8124695	
16.2	-0.3835602	-0.346756	
16.39	0.8997803	0.1345215	
16.58	0.227356	0.4030609	
16.77	0.8000183	-0.0793457	
16.96	0.5929565	-0.5750122	
17.15	0.6934509	-0.2875977	
17.34	0.5521851	-0.5512695	
17.53	0.2034302	-0.7792969	
17.72	-0.09085083	-0.7153625	
17.91	-0.2172241	-0.7459717	
18.1	-0.6696167	-0.8652344	
18.29	-0.9451294	-0.3308716	
18.48	-0.5326233	0.0288086	
18.67	-1.011963	-0.1494751	
18.86	-0.8919678	-0.03118896	
19.05	-0.1769104	0.5393982	
19.24	-0.9168701	0.5045776	
19.43	-0.8017578	0.7612915	
19.62	-0.65448	0.7540283	
19.81	0.1335449	0.7252808	
20.0	-0.02325439	0.847229	
