# GHz S RI R 50 
!freq	ReS11	ImS11	
1.0	-0.578064	-0.2556152	
1.19	-0.6871338	0.0206299	
1.38	-0.6620483	0.2994995	
1.57	-0.5285034	0.5374146	
1.76	-0.2717285	0.7478027	
1.95	0.0808105	0.8166504	
2.14	0.4019775	0.7452393	
2.33	0.6745605	0.56073	
2.52	0.8261108	0.2786865	
2.71	0.9176025	-0.0737915	
2.9	0.8320923	-0.4090576	
3.09	0.6086426	-0.7057495	
3.28	0.3065796	-0.8565674	
3.47	-0.01422119	-0.9321899	
3.66	-0.3352051	-0.8483276	
3.85	-0.6612549	-0.6505737	
4.04	-0.8415527	-0.2843628	
4.23	-0.9102783	0.0647583	
4.42	-0.8027344	0.406311	
4.61	-0.581604	0.7172241	
4.8	-0.2196045	0.9125977	
4.99	0.2196655	0.9486084	
5.18	0.6239929	0.7872009	
5.37	0.9484863	0.394104	
5.56	1.045532	-0.03564453	
5.75	0.9487915	-0.4018555	
5.94	0.5820923	-0.7841187	
6.13	0.0400391	-0.9734497	
6.32	-0.4113159	-0.8639526	
6.51	-0.7576294	-0.5275879	
6.7	-0.9471436	0.0123291	
6.89	0.8448486	-0.5042725	
7.08	-0.894043	0.1236572	
7.27	-0.4467773	0.7493896	
7.46	0.5644836	0.6809082	
7.65	-0.1385498	-0.9108276	
7.84	-0.8277588	0.5441284	
8.03	0.1328735	0.918335	
8.22	0.9385376	0.1622925	
8.41	0.157959	-1.00238	
8.6	-0.8849487	0.2431335	
8.79	0.1404419	0.9165649	
8.98	0.8763428	0.3731079	
9.17	0.5076599	-0.8130493	
9.36	-0.7787781	-0.550415	
9.55	-0.888916	0.2745972	
9.74	-0.2880249	0.9110718	
9.93	0.8149719	0.4953918	
10.12	0.5289917	-0.8571777	
10.31	-0.7601929	-0.5744629	
10.5	-0.7670898	0.5273132	
10.69	-0.2281494	0.9537964	
10.88	0.4500122	0.8859253	
11.07	0.9558716	0.1939697	
11.26	0.6361389	-0.7934265	
11.45	-0.7772827	-0.2913513	
11.64	0.4641724	0.6096497	
11.83	0.8602905	0.1578369	
12.02	0.8876343	-0.1976929	
12.21	0.7313232	-0.4963989	
12.4	0.1616821	-0.8182373	
12.59	-0.2767944	0.6675415	
12.78	0.6287231	-0.4077148	
12.97	0.21521	-0.795105	
13.16	-0.1862793	-0.8601685	
13.35	-0.5491333	-0.7029419	
13.54	-0.5053406	-0.5327148	
13.73	-0.7945862	0.49646	
13.92	-0.32724	0.7798462	
14.11	-0.1551208	-0.7446289	
14.3	-0.5434265	0.0792542	
14.49	-0.9286499	0.3470154	
14.68	-0.7985229	0.5289917	
14.87	-0.3466492	0.8034668	
15.06	0.2943115	0.7909546	
15.25	0.7937622	0.3004761	
15.44	0.585083	-0.5883789	
15.63	-0.7008667	-0.3551331	
15.82	-0.4430847	0.5644226	
16.01	0.4725647	0.8100281	
16.2	-0.3824158	-0.3448639	
16.39	0.899292	0.1339111	
16.58	0.2312622	0.4033203	
16.77	0.7994385	-0.08105469	
16.96	0.5891113	-0.5803833	
17.15	0.6932068	-0.2849121	
17.34	0.5576477	-0.5560913	
17.53	0.2036438	-0.7852783	
17.72	-0.1022339	-0.716095	
17.91	-0.2152405	-0.7457886	
18.1	-0.6748352	-0.8621521	
18.29	-0.9459839	-0.3314819	
18.48	-0.5318604	0.0306396	
18.67	-1.011475	-0.1489258	
18.86	-0.8915405	-0.03088379	
19.05	-0.1792908	0.541748	
19.24	-0.9093628	0.5067139	
19.43	-0.7964478	0.7590332	
19.62	-0.6616516	0.7471008	
19.81	0.1349792	0.7261658	
20.0	-0.02648926	0.8463745	
