# GHz S RI R 50 
!freq	ReS11	ImS11	
1.0	-0.5791016	-0.2540283	
1.19	-0.6876221	0.0206909	
1.38	-0.6598511	0.2998657	
1.57	-0.5273438	0.5383301	
1.76	-0.2714844	0.7502441	
1.95	0.0748901	0.8132324	
2.14	0.3999023	0.744873	
2.33	0.6746216	0.5612183	
2.52	0.8269043	0.2797241	
2.71	0.9176025	-0.07312012	
2.9	0.8341064	-0.4057007	
3.09	0.6085815	-0.7057495	
3.28	0.3014526	-0.8580322	
3.47	-0.009338379	-0.9330444	
3.66	-0.3414917	-0.8490601	
3.85	-0.6578979	-0.6485596	
4.04	-0.8407593	-0.2845459	
4.23	-0.911438	0.0657349	
4.42	-0.8093262	0.4162598	
4.61	-0.5786743	0.7207031	
4.8	-0.2250977	0.9199829	
4.99	0.2211304	0.9420166	
5.18	0.6271057	0.786377	
5.37	0.9467163	0.3908691	
5.56	1.045105	-0.03479004	
5.75	0.9503784	-0.3991699	
5.94	0.5752563	-0.7877808	
6.13	0.0408325	-0.9727783	
6.32	-0.4055786	-0.8726807	
6.51	-0.7546997	-0.5299683	
6.7	-0.9476318	0.0133057	
6.89	0.8452759	-0.5027466	
7.08	-0.8947754	0.1226196	
7.27	-0.4537354	0.7574463	
7.46	0.5603333	0.6817932	
7.65	-0.1335449	-0.9072876	
7.84	-0.8289185	0.5460815	
8.03	0.1361694	0.9140625	
8.22	0.9385376	0.1627808	
8.41	0.1561279	-0.9912109	
8.6	-0.8871765	0.2433167	
8.79	0.1451416	0.9174805	
8.98	0.8800659	0.3736572	
9.17	0.5076904	-0.8201904	
9.36	-0.7807922	-0.5501099	
9.55	-0.888855	0.2738037	
9.74	-0.2887573	0.913208	
9.93	0.8164978	0.4978027	
10.12	0.5270386	-0.8529053	
10.31	-0.7601929	-0.579895	
10.5	-0.7712097	0.5231628	
10.69	-0.2335815	0.9560547	
10.88	0.4527588	0.8848267	
11.07	0.9561157	0.1942139	
11.26	0.6382446	-0.7984619	
11.45	-0.777832	-0.2915344	
11.64	0.4625854	0.6036377	
11.83	0.8620605	0.1573486	
12.02	0.8882446	-0.1948853	
12.21	0.7345581	-0.5015259	
12.4	0.1601563	-0.8278809	
12.59	-0.2707214	0.6648865	
12.78	0.6209106	-0.4081421	
12.97	0.2155151	-0.795105	
13.16	-0.1845093	-0.8528442	
13.35	-0.5494995	-0.6991577	
13.54	-0.5043335	-0.5317993	
13.73	-0.7914124	0.4968567	
13.92	-0.3334045	0.7793579	
14.11	-0.1508179	-0.7393799	
14.3	-0.5437317	0.0812073	
14.49	-0.9273987	0.3474121	
14.68	-0.7958069	0.5320435	
14.87	-0.3412476	0.8079834	
15.06	0.2881165	0.7929688	
15.25	0.7933044	0.303772	
15.44	0.5795593	-0.5840454	
15.63	-0.7041321	-0.3590698	
15.82	-0.4405518	0.5638428	
16.01	0.4738464	0.8077087	
16.2	-0.3840637	-0.3501587	
16.39	0.8999634	0.1345825	
16.58	0.2233276	0.4004517	
16.77	0.8003845	-0.08035278	
16.96	0.5879517	-0.5777893	
17.15	0.6916199	-0.2858887	
17.34	0.5567627	-0.551239	
17.53	0.2013245	-0.7926025	
17.72	-0.1044617	-0.7167053	
17.91	-0.2206116	-0.7460632	
18.1	-0.6763	-0.8647461	
18.29	-0.9442749	-0.3325806	
18.48	-0.5325623	0.0308838	
18.67	-1.010925	-0.1488647	
18.86	-0.8912964	-0.03161621	
19.05	-0.1808167	0.5413513	
19.24	-0.9169922	0.5055542	
19.43	-0.803894	0.7663574	
19.62	-0.6646729	0.7464905	
19.81	0.1218567	0.729187	
20.0	-0.02478027	0.8453979	
