# GHz S RI R 50 
!freq	ReS11	ImS11	
1.0	-0.5795288	-0.2548828	
1.19	-0.6872559	0.020813	
1.38	-0.6608276	0.2976685	
1.57	-0.5285645	0.5357666	
1.76	-0.2704468	0.7557983	
1.95	0.0740356	0.817688	
2.14	0.4013062	0.7442627	
2.33	0.6735229	0.5603638	
2.52	0.8266602	0.2811279	
2.71	0.9152222	-0.07312012	
2.9	0.8280029	-0.4057617	
3.09	0.6062012	-0.7051392	
3.28	0.2971191	-0.854248	
3.47	-0.007629395	-0.927124	
3.66	-0.3389282	-0.8474121	
3.85	-0.6572876	-0.6511841	
4.04	-0.8411865	-0.2857666	
4.23	-0.9099731	0.06427	
4.42	-0.8025513	0.4125977	
4.61	-0.572937	0.7235107	
4.8	-0.2189941	0.9161377	
4.99	0.2223511	0.9478149	
5.18	0.6284485	0.7857971	
5.37	0.9478149	0.3910522	
5.56	1.045532	-0.0357666	
5.75	0.9456787	-0.3961182	
5.94	0.5762939	-0.7836914	
6.13	0.0471802	-0.9743042	
6.32	-0.4100952	-0.8656616	
6.51	-0.7565918	-0.5317383	
6.7	-0.9486694	0.0139771	
6.89	0.8443604	-0.5036621	
7.08	-0.8948975	0.1229248	
7.27	-0.4421997	0.7478027	
7.46	0.5628662	0.6809998	
7.65	-0.1323242	-0.9182129	
7.84	-0.8295898	0.541687	
8.03	0.1401978	0.9052124	
8.22	0.9379883	0.1621704	
8.41	0.1517944	-0.9950562	
8.6	-0.8863525	0.2424011	
8.79	0.140625	0.9194336	
8.98	0.8790894	0.3744507	
9.17	0.507782	-0.8075867	
9.36	-0.7741089	-0.5466003	
9.55	-0.8886108	0.2700195	
9.74	-0.289978	0.9223633	
9.93	0.8162842	0.4902954	
10.12	0.5244751	-0.8482666	
10.31	-0.7575989	-0.5751038	
10.5	-0.770813	0.5273743	
10.69	-0.2333374	0.9678955	
10.88	0.4491577	0.8898315	
11.07	0.9562988	0.1949463	
11.26	0.6411743	-0.7966919	
11.45	-0.7752075	-0.2897949	
11.64	0.46521	0.6087646	
11.83	0.8623047	0.1578979	
12.02	0.8852539	-0.196167	
12.21	0.730896	-0.5025024	
12.4	0.1621704	-0.8255005	
12.59	-0.276062	0.6663818	
12.78	0.6243896	-0.4091187	
12.97	0.2141724	-0.7919922	
13.16	-0.1828003	-0.8599854	
13.35	-0.5474854	-0.7092285	
13.54	-0.5054932	-0.5302124	
13.73	-0.7910156	0.500824	
13.92	-0.329834	0.7802124	
14.11	-0.1482849	-0.7432251	
14.3	-0.5441589	0.0803223	
14.49	-0.9284973	0.3490906	
14.68	-0.8016357	0.5311279	
14.87	-0.3400574	0.8093262	
15.06	0.2963257	0.7867737	
15.25	0.7923279	0.3011169	
15.44	0.57901	-0.5854187	
15.63	-0.7026367	-0.3568115	
15.82	-0.4372864	0.5707703	
16.01	0.4755554	0.8095703	
16.2	-0.3810883	-0.3508301	
16.39	0.8999634	0.1340332	
16.58	0.2274933	0.399704	
16.77	0.7987671	-0.08108521	
16.96	0.5911865	-0.5766602	
17.15	0.6925049	-0.2862244	
17.34	0.5577393	-0.5535583	
17.53	0.2029724	-0.7837219	
17.72	-0.09991455	-0.7172241	
17.91	-0.2163391	-0.7511292	
18.1	-0.6729126	-0.8664551	
18.29	-0.9437256	-0.3317261	
18.48	-0.5323486	0.0302429	
18.67	-1.011475	-0.1484985	
18.86	-0.8915405	-0.03118896	
19.05	-0.1761169	0.5411377	
19.24	-0.9152222	0.5108643	
19.43	-0.8033447	0.7612915	
19.62	-0.6591797	0.7463074	
19.81	0.1298828	0.728302	
20.0	-0.02697754	0.8496704	
