# GHz S RI R 50 
!freq	ReS11	ImS11	
1.0	-0.5753784	-0.2531128	
1.19	-0.6871948	0.020813	
1.38	-0.6599731	0.2987061	
1.57	-0.5297241	0.5391235	
1.76	-0.2741089	0.746582	
1.95	0.0823975	0.8206787	
2.14	0.4046631	0.7460938	
2.33	0.6749878	0.565979	
2.52	0.8267822	0.2791748	
2.71	0.916687	-0.07373047	
2.9	0.8294067	-0.4042969	
3.09	0.6047974	-0.7035522	
3.28	0.2960205	-0.8579102	
3.47	-0.015625	-0.9360352	
3.66	-0.3395386	-0.850769	
3.85	-0.663147	-0.6486206	
4.04	-0.8433228	-0.2844849	
4.23	-0.9110718	0.0653076	
4.42	-0.8057861	0.411499	
4.61	-0.5863037	0.7164917	
4.8	-0.2113037	0.9151611	
4.99	0.2128906	0.9411011	
5.18	0.6246338	0.7835083	
5.37	0.9469604	0.3904419	
5.56	1.045349	-0.03503418	
5.75	0.9464111	-0.3985596	
5.94	0.5783691	-0.7820435	
6.13	0.0393677	-0.9758301	
6.32	-0.4100342	-0.8705444	
6.51	-0.7571411	-0.5306396	
6.7	-0.9468994	0.0130005	
6.89	0.84198	-0.5073853	
7.08	-0.8955688	0.1225586	
7.27	-0.4500122	0.7510376	
7.46	0.5697632	0.6838989	
7.65	-0.1494141	-0.909668	
7.84	-0.8244019	0.5386963	
8.03	0.1399536	0.9177246	
8.22	0.9378662	0.161438	
8.41	0.1518555	-0.9890137	
8.6	-0.8851013	0.2452698	
8.79	0.1444092	0.9143066	
8.98	0.8794556	0.3726807	
9.17	0.509491	-0.8158569	
9.36	-0.7784424	-0.5489502	
9.55	-0.8881226	0.2688599	
9.74	-0.2875366	0.9146118	
9.93	0.8162842	0.4972229	
10.12	0.5314941	-0.8499756	
10.31	-0.7556458	-0.5791016	
10.5	-0.7657166	0.5248718	
10.69	-0.2313843	0.9613647	
10.88	0.4537354	0.8817139	
11.07	0.956604	0.1948242	
11.26	0.6392212	-0.8096924	
11.45	-0.7767334	-0.2914734	
11.64	0.4639893	0.6075745	
11.83	0.8612061	0.1577759	
12.02	0.8865356	-0.1968994	
12.21	0.7287903	-0.4991455	
12.4	0.1608887	-0.8302002	
12.59	-0.2737427	0.660614	
12.78	0.621521	-0.4065247	
12.97	0.2091675	-0.7974243	
13.16	-0.1934204	-0.8540649	
13.35	-0.5483398	-0.7037354	
13.54	-0.500885	-0.5386963	
13.73	-0.7888794	0.497345	
13.92	-0.3278198	0.7811584	
14.11	-0.1502686	-0.7380981	
14.3	-0.5436401	0.0802002	
14.49	-0.9303894	0.3464355	
14.68	-0.8033752	0.5296326	
14.87	-0.3485413	0.8121643	
15.06	0.2909546	0.7868042	
15.25	0.7928467	0.3016663	
15.44	0.5786133	-0.5924377	
15.63	-0.7030945	-0.3553467	
15.82	-0.4378967	0.5634766	
16.01	0.4735107	0.8077393	
16.2	-0.383606	-0.346817	
16.39	0.8998413	0.1339722	
16.58	0.2279205	0.4000854	
16.77	0.7988892	-0.08047485	
16.96	0.5881042	-0.57724	
17.15	0.6931152	-0.2859192	
17.34	0.5566101	-0.5556335	
17.53	0.2019653	-0.787384	
17.72	-0.1004639	-0.7181702	
17.91	-0.2159119	-0.7455444	
18.1	-0.6715698	-0.8666382	
18.29	-0.9431763	-0.3319092	
18.48	-0.5317993	0.0300598	
18.67	-1.010925	-0.1482544	
18.86	-0.8914795	-0.03100586	
19.05	-0.1777649	0.5428772	
19.24	-0.913269	0.5093994	
19.43	-0.798645	0.760498	
19.62	-0.6551514	0.7495422	
19.81	0.1296387	0.7252197	
20.0	-0.02484131	0.8494873	
