# GHz S RI R 50 
!freq	ReS11	ImS11	
1.0	-0.5786133	-0.2559204	
1.19	-0.6875	0.0212402	
1.38	-0.6618042	0.2994385	
1.57	-0.531311	0.5369263	
1.76	-0.2757568	0.7508545	
1.95	0.0776978	0.8123779	
2.14	0.4000244	0.7474365	
2.33	0.6768799	0.5618896	
2.52	0.826355	0.2792358	
2.71	0.9157715	-0.07299805	
2.9	0.8313599	-0.4067383	
3.09	0.605896	-0.7053833	
3.28	0.296814	-0.8618164	
3.47	-0.01959229	-0.9333496	
3.66	-0.3458252	-0.8491211	
3.85	-0.6627197	-0.6522217	
4.04	-0.8411255	-0.2850342	
4.23	-0.9103394	0.0653687	
4.42	-0.8016357	0.4105225	
4.61	-0.5777588	0.7228394	
4.8	-0.2160645	0.9248047	
4.99	0.220459	0.9458618	
5.18	0.6295166	0.7854004	
5.37	0.9452515	0.3919067	
5.56	1.045898	-0.03564453	
5.75	0.9498901	-0.3934326	
5.94	0.5800171	-0.7836304	
6.13	0.0480347	-0.970459	
6.32	-0.4110107	-0.8653564	
6.51	-0.7536621	-0.5308838	
6.7	-0.9476929	0.0136719	
6.89	0.8440552	-0.508606	
7.08	-0.8973389	0.1229248	
7.27	-0.4490967	0.7468262	
7.46	0.5662842	0.6793518	
7.65	-0.1365356	-0.9175415	
7.84	-0.8244019	0.5409546	
8.03	0.1429443	0.9168091	
8.22	0.9381714	0.1618652	
8.41	0.1526489	-0.9863281	
8.6	-0.8856506	0.2427368	
8.79	0.1463623	0.9124146	
8.98	0.8793945	0.3743591	
9.17	0.508606	-0.8099365	
9.36	-0.7802429	-0.5460205	
9.55	-0.885376	0.2721558	
9.74	-0.2859497	0.9208374	
9.93	0.8124695	0.4962158	
10.12	0.5311279	-0.8622437	
10.31	-0.7597961	-0.5795898	
10.5	-0.7714233	0.5244446	
10.69	-0.229248	0.96875	
10.88	0.4546509	0.8850708	
11.07	0.9556274	0.1943359	
11.26	0.6411133	-0.7980042	
11.45	-0.7774658	-0.2901917	
11.64	0.4601135	0.6035461	
11.83	0.8613892	0.1575317	
12.02	0.8905029	-0.197876	
12.21	0.7333374	-0.5046692	
12.4	0.1642456	-0.8278198	
12.59	-0.2790833	0.6625671	
12.78	0.6230774	-0.4091797	
12.97	0.2120972	-0.8032837	
13.16	-0.1873169	-0.8671875	
13.35	-0.5515747	-0.7055664	
13.54	-0.5008545	-0.5310669	
13.73	-0.7906189	0.4987183	
13.92	-0.3268738	0.7802124	
14.11	-0.1577148	-0.7399292	
14.3	-0.5445251	0.07901	
14.49	-0.9280701	0.3500061	
14.68	-0.8023987	0.5275269	
14.87	-0.3485413	0.8060303	
15.06	0.2940979	0.7885437	
15.25	0.7934875	0.3013	
15.44	0.5861816	-0.5875244	
15.63	-0.704071	-0.3559875	
15.82	-0.4408264	0.5688782	
16.01	0.4737244	0.8110657	
16.2	-0.3821869	-0.3466492	
16.39	0.9003601	0.1344604	
16.58	0.2260742	0.404541	
16.77	0.79953	-0.08068848	
16.96	0.5861206	-0.5704041	
17.15	0.6910706	-0.286499	
17.34	0.5536194	-0.5557861	
17.53	0.2016296	-0.7862854	
17.72	-0.1081848	-0.7228394	
17.91	-0.2172546	-0.7496033	
18.1	-0.6728516	-0.8672791	
18.29	-0.9445801	-0.3309326	
18.48	-0.5313721	0.030365	
18.67	-1.011108	-0.1488037	
18.86	-0.8915405	-0.03106689	
19.05	-0.1804504	0.5389404	
19.24	-0.9248047	0.5095215	
19.43	-0.8023682	0.7631226	
19.62	-0.6636963	0.7462769	
19.81	0.1265259	0.7265625	
20.0	-0.02227783	0.8457642	
