# GHz S RI R 50 
!freq	ReS11	ImS11	
1.0	-0.578125	-0.2557373	
1.19	-0.687439	0.0205688	
1.38	-0.6617432	0.2998047	
1.57	-0.5294189	0.5354004	
1.76	-0.272522	0.7514038	
1.95	0.0755005	0.814209	
2.14	0.4024658	0.7460938	
2.33	0.6737671	0.5580444	
2.52	0.8275146	0.2791138	
2.71	0.9158936	-0.07324219	
2.9	0.833313	-0.4053955	
3.09	0.6044922	-0.6992188	
3.28	0.2944336	-0.8533936	
3.47	-0.01202393	-0.9324341	
3.66	-0.3341675	-0.8480835	
3.85	-0.6574707	-0.6513672	
4.04	-0.8403931	-0.2855225	
4.23	-0.9102783	0.0654907	
4.42	-0.8002319	0.4111328	
4.61	-0.5789795	0.7232666	
4.8	-0.213501	0.9182129	
4.99	0.2208862	0.9480591	
5.18	0.6271362	0.7847595	
5.37	0.9478149	0.3910522	
5.56	1.045044	-0.03540039	
5.75	0.946228	-0.392395	
5.94	0.5866089	-0.781311	
6.13	0.0443726	-0.9765625	
6.32	-0.4124756	-0.8655396	
6.51	-0.7556763	-0.5285645	
6.7	-0.947937	0.0133667	
6.89	0.8442383	-0.5030518	
7.08	-0.8956909	0.1231079	
7.27	-0.4527588	0.7498779	
7.46	0.5611877	0.6812744	
7.65	-0.1338501	-0.9070435	
7.84	-0.8317261	0.5437012	
8.03	0.1452637	0.9086914	
8.22	0.9383545	0.1620483	
8.41	0.157959	-0.9885864	
8.6	-0.8887939	0.2454834	
8.79	0.1518555	0.9189453	
8.98	0.8786011	0.3738098	
9.17	0.505249	-0.8105469	
9.36	-0.7762146	-0.5492859	
9.55	-0.8875732	0.2683716	
9.74	-0.2978516	0.918396	
9.93	0.8159485	0.4945679	
10.12	0.5286255	-0.8551025	
10.31	-0.7571716	-0.5802612	
10.5	-0.7691345	0.5265198	
10.69	-0.2228394	0.9674683	
10.88	0.4490356	0.8850098	
11.07	0.956665	0.1959229	
11.26	0.6383972	-0.8002319	
11.45	-0.778717	-0.2932434	
11.64	0.470459	0.6098022	
11.83	0.8619995	0.1574707	
12.02	0.8878784	-0.1980591	
12.21	0.7302551	-0.5026245	
12.4	0.1644287	-0.8269653	
12.59	-0.2710571	0.6627808	
12.78	0.6188965	-0.4135742	
12.97	0.2105713	-0.7918701	
13.16	-0.1848755	-0.8569336	
13.35	-0.546814	-0.7037354	
13.54	-0.5050964	-0.5306396	
13.73	-0.793396	0.4959412	
13.92	-0.3323669	0.7830505	
14.11	-0.1500244	-0.7432556	
14.3	-0.5448608	0.0813599	
14.49	-0.928833	0.3458252	
14.68	-0.7991943	0.5267029	
14.87	-0.3464661	0.813385	
15.06	0.2879639	0.7952576	
15.25	0.7929077	0.3021851	
15.44	0.5749817	-0.5879822	
15.63	-0.7019348	-0.3548279	
15.82	-0.4432983	0.5648193	
16.01	0.4703674	0.8107605	
16.2	-0.3811035	-0.3499146	
16.39	0.8997192	0.1347046	
16.58	0.2252045	0.4052734	
16.77	0.7993469	-0.07977295	
16.96	0.5909729	-0.5770264	
17.15	0.6919556	-0.2857666	
17.34	0.5576172	-0.5513916	
17.53	0.208313	-0.7839966	
17.72	-0.09118652	-0.7177734	
17.91	-0.2207336	-0.7451172	
18.1	-0.6695557	-0.8633118	
18.29	-0.9442139	-0.3323975	
18.48	-0.5329895	0.0301514	
18.67	-1.010925	-0.1491699	
18.86	-0.8916626	-0.0324707	
19.05	-0.1862183	0.5435181	
19.24	-0.9174805	0.5036621	
19.43	-0.8042603	0.7620239	
19.62	-0.6599121	0.7423401	
19.81	0.1328125	0.7246094	
20.0	-0.02716064	0.8516846	
