# GHz S RI R 50 
!freq	ReS11	ImS11	
1.0	-0.5765991	-0.2562256	
1.19	-0.687439	0.0206299	
1.38	-0.6620483	0.300354	
1.57	-0.5308228	0.5350952	
1.76	-0.2717896	0.7471313	
1.95	0.0765991	0.8153687	
2.14	0.4017944	0.7457275	
2.33	0.6722412	0.5615845	
2.52	0.8267212	0.27948	
2.71	0.9169922	-0.07366943	
2.9	0.8308716	-0.4093018	
3.09	0.6101074	-0.7088013	
3.28	0.3018799	-0.8601074	
3.47	-0.01580811	-0.9346924	
3.66	-0.3383179	-0.8491211	
3.85	-0.6602783	-0.6491699	
4.04	-0.8407593	-0.284729	
4.23	-0.9103394	0.0651855	
4.42	-0.8028564	0.4094849	
4.61	-0.5790405	0.7180786	
4.8	-0.2133789	0.9240723	
4.99	0.2225342	0.9383545	
5.18	0.6291504	0.7822266	
5.37	0.9453735	0.3914185	
5.56	1.045654	-0.03564453	
5.75	0.9480591	-0.3980103	
5.94	0.5792847	-0.7769165	
6.13	0.0457764	-0.9675293	
6.32	-0.4133911	-0.8727417	
6.51	-0.7553101	-0.5281372	
6.7	-0.9468994	0.0129395	
6.89	0.8450928	-0.5056152	
7.08	-0.894165	0.1227417	
7.27	-0.4476929	0.7523193	
7.46	0.5628052	0.6806335	
7.65	-0.1329346	-0.9120483	
7.84	-0.828125	0.5386353	
8.03	0.1398926	0.9072876	
8.22	0.9380493	0.1617432	
8.41	0.1574097	-0.9934692	
8.6	-0.8885803	0.2438049	
8.79	0.1498413	0.9173584	
8.98	0.8803711	0.3760681	
9.17	0.5041199	-0.8184204	
9.36	-0.7771301	-0.547699	
9.55	-0.8939819	0.2717896	
9.74	-0.2966309	0.9226074	
9.93	0.8148499	0.4937744	
10.12	0.517334	-0.8543701	
10.31	-0.7595825	-0.5801697	
10.5	-0.7716675	0.5278931	
10.69	-0.2322998	0.9586792	
10.88	0.4568481	0.885376	
11.07	0.9558105	0.1949463	
11.26	0.6386108	-0.8002014	
11.45	-0.7776794	-0.2915039	
11.64	0.4636841	0.6107178	
11.83	0.8620605	0.1572266	
12.02	0.8866577	-0.1970215	
12.21	0.7324524	-0.5024719	
12.4	0.1624146	-0.8204346	
12.59	-0.2752991	0.6650696	
12.78	0.6218872	-0.4086914	
12.97	0.210022	-0.7962646	
13.16	-0.1871948	-0.8592529	
13.35	-0.5524292	-0.7075806	
13.54	-0.5019226	-0.5339355	
13.73	-0.7911377	0.4996338	
13.92	-0.3239136	0.7836914	
14.11	-0.1533203	-0.7392273	
14.3	-0.5440063	0.0815125	
14.49	-0.9268799	0.349762	
14.68	-0.7985535	0.5306396	
14.87	-0.349762	0.8052368	
15.06	0.2914734	0.7852478	
15.25	0.7940369	0.302063	
15.44	0.5784607	-0.5823364	
15.63	-0.7028198	-0.3554993	
15.82	-0.4409485	0.5653687	
16.01	0.4806519	0.8084106	
16.2	-0.3841858	-0.3481293	
16.39	0.8997803	0.1342773	
16.58	0.2268677	0.4044189	
16.77	0.7991638	-0.08026123	
16.96	0.5834351	-0.5749817	
17.15	0.6933289	-0.2872925	
17.34	0.5531616	-0.550293	
17.53	0.2069092	-0.7869263	
17.72	-0.09967041	-0.7247314	
17.91	-0.2242737	-0.7402954	
18.1	-0.6708679	-0.8631897	
18.29	-0.9433594	-0.3325195	
18.48	-0.532135	0.0281067	
18.67	-1.011108	-0.1481323	
18.86	-0.8915405	-0.03118896	
19.05	-0.1846924	0.5405884	
19.24	-0.9161987	0.5048218	
19.43	-0.8040771	0.7687988	
19.62	-0.6604614	0.7455444	
19.81	0.1242981	0.7286682	
20.0	-0.02453613	0.8449707	
