# GHz S RI R 50 
!freq	ReS11	ImS11	
1.0	-0.5779419	-0.2536011	
1.19	-0.6869507	0.0203857	
1.38	-0.661438	0.2994995	
1.57	-0.5298767	0.5352478	
1.76	-0.2719727	0.7530518	
1.95	0.0730591	0.8123169	
2.14	0.4022827	0.7471313	
2.33	0.675415	0.5630493	
2.52	0.8259277	0.2808838	
2.71	0.9151001	-0.0725708	
2.9	0.8276978	-0.4074707	
3.09	0.6040649	-0.7075806	
3.28	0.302124	-0.8528442	
3.47	-0.004211426	-0.9324951	
3.66	-0.338623	-0.8521729	
3.85	-0.6574707	-0.6536865	
4.04	-0.8408813	-0.2868042	
4.23	-0.9108887	0.0651855	
4.42	-0.8012695	0.4119263	
4.61	-0.5858765	0.7251587	
4.8	-0.2111206	0.9193726	
4.99	0.2169189	0.9439087	
5.18	0.6288452	0.785553	
5.37	0.9487915	0.3931885	
5.56	1.045105	-0.03552246	
5.75	0.9476318	-0.3967896	
5.94	0.5789185	-0.7819824	
6.13	0.0428467	-0.9713135	
6.32	-0.4145508	-0.8690796	
6.51	-0.7579346	-0.5311279	
6.7	-0.9476929	0.0137329	
6.89	0.8447266	-0.5033569	
7.08	-0.8948975	0.1221313	
7.27	-0.4522095	0.7506104	
7.46	0.5623779	0.6821899	
7.65	-0.1330566	-0.9117432	
7.84	-0.8258667	0.5397949	
8.03	0.1411743	0.9174805	
8.22	0.9384155	0.161377	
8.41	0.1577759	-0.9890137	
8.6	-0.8876648	0.2445679	
8.79	0.1521606	0.918457	
8.98	0.8789063	0.3727417	
9.17	0.5039673	-0.8190918	
9.36	-0.7773743	-0.5476685	
9.55	-0.8889771	0.270813	
9.74	-0.2889404	0.9126587	
9.93	0.8143616	0.4914856	
10.12	0.5274658	-0.8522339	
10.31	-0.7598572	-0.5763245	
10.5	-0.7688293	0.5245972	
10.69	-0.2324219	0.9574585	
10.88	0.4507446	0.8805542	
11.07	0.9562988	0.1952515	
11.26	0.6431274	-0.8052063	
11.45	-0.7792358	-0.2927246	
11.64	0.466095	0.608551	
11.83	0.8625488	0.1572266	
12.02	0.8865356	-0.197998	
12.21	0.7329407	-0.503418	
12.4	0.1604614	-0.8345337	
12.59	-0.2714844	0.6690979	
12.78	0.6213379	-0.4129028	
12.97	0.2132568	-0.7956543	
13.16	-0.1824951	-0.8560791	
13.35	-0.5449829	-0.6968384	
13.54	-0.5025635	-0.5321655	
13.73	-0.7922668	0.5005188	
13.92	-0.3308411	0.7817993	
14.11	-0.1532898	-0.7391052	
14.3	-0.5446472	0.0813293	
14.49	-0.9281921	0.3502197	
14.68	-0.802063	0.5234985	
14.87	-0.3513184	0.8119812	
15.06	0.292572	0.7920227	
15.25	0.7938843	0.3016663	
15.44	0.5831909	-0.5918274	
15.63	-0.7060547	-0.359436	
15.82	-0.441803	0.5653687	
16.01	0.4726563	0.8090515	
16.2	-0.3822479	-0.3513794	
16.39	0.8996582	0.1347656	
16.58	0.2254791	0.4055176	
16.77	0.799469	-0.07974243	
16.96	0.5870972	-0.5753174	
17.15	0.6921997	-0.2854004	
17.34	0.5531616	-0.5500488	
17.53	0.2025452	-0.7876892	
17.72	-0.1012573	-0.717041	
17.91	-0.2199097	-0.7478333	
18.1	-0.6714172	-0.8640442	
18.29	-0.9430542	-0.3309937	
18.48	-0.5332031	0.0305786	
18.67	-1.010864	-0.1490479	
18.86	-0.8917236	-0.03234863	
19.05	-0.1773987	0.5411987	
19.24	-0.9122314	0.5015869	
19.43	-0.805603	0.7536621	
19.62	-0.6576233	0.7406616	
19.81	0.1268005	0.7246704	
20.0	-0.02490234	0.852478	
