# GHz S RI R 50 
!freq	ReS11	ImS11	
1.0	-0.5786133	-0.2538452	
1.19	-0.6873169	0.0206299	
1.38	-0.6599121	0.3010254	
1.57	-0.5262146	0.5369568	
1.76	-0.2679443	0.7528076	
1.95	0.0796509	0.8098145	
2.14	0.4014893	0.7449341	
2.33	0.6727905	0.5588989	
2.52	0.8267822	0.2808838	
2.71	0.9154053	-0.07397461	
2.9	0.8318481	-0.4104004	
3.09	0.6043091	-0.7008057	
3.28	0.305542	-0.8538208	
3.47	-0.02026367	-0.9328613	
3.66	-0.3412476	-0.8531494	
3.85	-0.6621094	-0.6514893	
4.04	-0.8421021	-0.2857666	
4.23	-0.9108887	0.0648193	
4.42	-0.8026123	0.411377	
4.61	-0.578186	0.727356	
4.8	-0.2143555	0.9224854	
4.99	0.2224121	0.9525146	
5.18	0.6280518	0.7814026	
5.37	0.9470215	0.3934326	
5.56	1.045898	-0.03588867	
5.75	0.9470215	-0.3988647	
5.94	0.5857544	-0.7846069	
6.13	0.0406494	-0.9713135	
6.32	-0.409729	-0.8683472	
6.51	-0.7545166	-0.5340576	
6.7	-0.9468994	0.0132446	
6.89	0.84021	-0.5012817	
7.08	-0.8955078	0.1238403	
7.27	-0.4466553	0.7495728	
7.46	0.566803	0.6798401	
7.65	-0.1315918	-0.916687	
7.84	-0.8270264	0.5421753	
8.03	0.1367798	0.9107666	
8.22	0.9385986	0.1620483	
8.41	0.1530762	-0.9943237	
8.6	-0.8858032	0.2427368	
8.79	0.1464844	0.9194336	
8.98	0.8792725	0.3742676	
9.17	0.5083008	-0.8171692	
9.36	-0.7792358	-0.5458984	
9.55	-0.8894043	0.2703247	
9.74	-0.2912598	0.9216309	
9.93	0.8121033	0.4968567	
10.12	0.5293579	-0.8592529	
10.31	-0.7619019	-0.5801697	
10.5	-0.7724304	0.525238	
10.69	-0.2338867	0.9559326	
10.88	0.4524536	0.8794556	
11.07	0.9558105	0.1952515	
11.26	0.6435242	-0.802063	
11.45	-0.7775574	-0.2918396	
11.64	0.4641113	0.6079102	
11.83	0.8620605	0.1572266	
12.02	0.8881836	-0.1989746	
12.21	0.7320557	-0.4964905	
12.4	0.1633911	-0.8276978	
12.59	-0.2753906	0.6722412	
12.78	0.6221924	-0.4079285	
12.97	0.2108154	-0.796814	
13.16	-0.1800537	-0.8621216	
13.35	-0.5477295	-0.7016602	
13.54	-0.5008545	-0.5302734	
13.73	-0.7918701	0.4940186	
13.92	-0.3298645	0.7802124	
14.11	-0.1505432	-0.7397156	
14.3	-0.5449524	0.0820923	
14.49	-0.9272766	0.3500061	
14.68	-0.8037109	0.5313416	
14.87	-0.3394165	0.8096619	
15.06	0.2852783	0.7859497	
15.25	0.7920837	0.3044739	
15.44	0.5817261	-0.587616	
15.63	-0.7027893	-0.357666	
15.82	-0.4418335	0.567627	
16.01	0.4773865	0.8112793	
16.2	-0.3828125	-0.3489532	
16.39	0.9003906	0.1344299	
16.58	0.2268677	0.4047546	
16.77	0.7996826	-0.07952881	
16.96	0.5878296	-0.5758972	
17.15	0.6923523	-0.2860413	
17.34	0.5581055	-0.5492249	
17.53	0.205719	-0.7841492	
17.72	-0.1032104	-0.7191162	
17.91	-0.2207642	-0.7497559	
18.1	-0.6732788	-0.8642578	
18.29	-0.9439697	-0.3312988	
18.48	-0.5326843	0.0306396	
18.67	-1.011353	-0.1488647	
18.86	-0.8913574	-0.03167725	
19.05	-0.1824646	0.5421448	
19.24	-0.9143677	0.5054932	
19.43	-0.8032227	0.7603149	
19.62	-0.6608582	0.745575	
19.81	0.1335144	0.7270203	
20.0	-0.02716064	0.8468628	
