# GHz S RI R 50 
!freq	ReS11	ImS11	
1.0	-0.5780029	-0.253479	
1.19	-0.6873169	0.0211182	
1.38	-0.6619263	0.2982178	
1.57	-0.5302124	0.5369873	
1.76	-0.2718506	0.74646	
1.95	0.0696411	0.815979	
2.14	0.4025269	0.7468262	
2.33	0.6740723	0.5619507	
2.52	0.8245239	0.27948	
2.71	0.9161987	-0.07409668	
2.9	0.8292236	-0.407959	
3.09	0.6027222	-0.7056274	
3.28	0.2941895	-0.8560181	
3.47	-0.019104	-0.9309692	
3.66	-0.335022	-0.8533936	
3.85	-0.661377	-0.6516724	
4.04	-0.8430786	-0.2859497	
4.23	-0.9104004	0.0651245	
4.42	-0.8035889	0.4106445	
4.61	-0.5836182	0.7243652	
4.8	-0.2180786	0.9165649	
4.99	0.2210693	0.9489136	
5.18	0.623291	0.7846069	
5.37	0.9467773	0.3910522	
5.56	1.046448	-0.03466797	
5.75	0.9439697	-0.3991089	
5.94	0.582489	-0.7907715	
6.13	0.0469971	-0.9747314	
6.32	-0.4110718	-0.8652954	
6.51	-0.7575073	-0.5281372	
6.7	-0.9475098	0.0134277	
6.89	0.8430786	-0.5060425	
7.08	-0.8945313	0.1223145	
7.27	-0.4529419	0.7497559	
7.46	0.5675659	0.6791382	
7.65	-0.1376343	-0.9105225	
7.84	-0.8230591	0.5472412	
8.03	0.1366577	0.9143677	
8.22	0.9373169	0.1625366	
8.41	0.1516113	-0.989502	
8.6	-0.8853149	0.243042	
8.79	0.1443481	0.9154663	
8.98	0.8796997	0.3729248	
9.17	0.5095215	-0.8131104	
9.36	-0.7767029	-0.5480652	
9.55	-0.8903809	0.2730103	
9.74	-0.2922363	0.9120483	
9.93	0.8154907	0.4930725	
10.12	0.5305786	-0.852356	
10.31	-0.7579956	-0.5770264	
10.5	-0.7727966	0.5267944	
10.69	-0.2294922	0.961731	
10.88	0.4477539	0.8787842	
11.07	0.9562988	0.1951294	
11.26	0.6405945	-0.8004761	
11.45	-0.7778015	-0.291687	
11.64	0.4651184	0.605835	
11.83	0.8624878	0.1563721	
12.02	0.8876343	-0.1980591	
12.21	0.7328796	-0.5011902	
12.4	0.1644287	-0.8265991	
12.59	-0.2739563	0.6656799	
12.78	0.6206665	-0.4114075	
12.97	0.2144165	-0.7931519	
13.16	-0.1856689	-0.8583984	
13.35	-0.5473022	-0.6987305	
13.54	-0.5021973	-0.5305786	
13.73	-0.791748	0.4990845	
13.92	-0.3312073	0.7800598	
14.11	-0.1481934	-0.7312012	
14.3	-0.5446167	0.0805969	
14.49	-0.9261475	0.3510132	
14.68	-0.7970276	0.5294189	
14.87	-0.3462219	0.8103943	
15.06	0.2875671	0.7876892	
15.25	0.792572	0.3024292	
15.44	0.5845337	-0.5818176	
15.63	-0.7019043	-0.3572388	
15.82	-0.4356995	0.5662842	
16.01	0.4733887	0.8088074	
16.2	-0.3813629	-0.3478546	
16.39	0.8997803	0.1348267	
16.58	0.2260895	0.4032288	
16.77	0.799408	-0.08044434	
16.96	0.5828552	-0.5743103	
17.15	0.6919861	-0.2854919	
17.34	0.5560303	-0.5509033	
17.53	0.2041321	-0.7797546	
17.72	-0.1008911	-0.7168274	
17.91	-0.2165833	-0.7443237	
18.1	-0.6668396	-0.8707886	
18.29	-0.9428101	-0.3303833	
18.48	-0.5324707	0.0301819	
18.67	-1.01178	-0.1487427	
18.86	-0.8911743	-0.03143311	
19.05	-0.1841125	0.5423279	
19.24	-0.9163818	0.5075073	
19.43	-0.8009033	0.7623901	
19.62	-0.6635132	0.7440491	
19.81	0.1314087	0.7281799	
20.0	-0.02478027	0.8508301	
