# GHz S RI R 50 
!freq	ReS11	ImS11	
1.0	-0.5783081	-0.256958	
1.19	-0.6871948	0.0209961	
1.38	-0.6616821	0.2974243	
1.57	-0.5294189	0.5386353	
1.76	-0.2729492	0.7459106	
1.95	0.0804443	0.8153687	
2.14	0.4024048	0.7456055	
2.33	0.677063	0.5602417	
2.52	0.8265991	0.2799072	
2.71	0.9160156	-0.07330322	
2.9	0.8294067	-0.4046631	
3.09	0.6071167	-0.7081909	
3.28	0.2972412	-0.8546143	
3.47	-0.01165771	-0.9329224	
3.66	-0.3463135	-0.8552856	
3.85	-0.6621094	-0.6480713	
4.04	-0.8435059	-0.2851563	
4.23	-0.9106445	0.0644531	
4.42	-0.803894	0.4110107	
4.61	-0.5809326	0.7175293	
4.8	-0.218689	0.9182129	
4.99	0.218689	0.9469604	
5.18	0.6265259	0.7866211	
5.37	0.9473877	0.3925171	
5.56	1.045837	-0.0357666	
5.75	0.9464111	-0.395813	
5.94	0.5767822	-0.7822266	
6.13	0.0488281	-0.973999	
6.32	-0.4108887	-0.8691406	
6.51	-0.7560425	-0.5269165	
6.7	-0.9476929	0.0117798	
6.89	0.8433838	-0.5023804	
7.08	-0.8938599	0.1210938	
7.27	-0.4472656	0.7544556	
7.46	0.5660706	0.6808472	
7.65	-0.1334839	-0.9163818	
7.84	-0.8248291	0.5412598	
8.03	0.1348267	0.9123535	
8.22	0.9384155	0.1618652	
8.41	0.1520996	-0.9984131	
8.6	-0.8869019	0.2430725	
8.79	0.149231	0.9168091	
8.98	0.8796387	0.3743896	
9.17	0.5052185	-0.8171387	
9.36	-0.7756653	-0.5474854	
9.55	-0.8882446	0.2684326	
9.74	-0.2871704	0.920166	
9.93	0.8160095	0.4950562	
10.12	0.5247192	-0.8569336	
10.31	-0.7582092	-0.5808105	
10.5	-0.7730408	0.5276184	
10.69	-0.2323608	0.9597168	
10.88	0.4489136	0.885376	
11.07	0.9570313	0.1952515	
11.26	0.6433716	-0.8046875	
11.45	-0.7783203	-0.2919006	
11.64	0.4612122	0.6110229	
11.83	0.8612671	0.1570435	
12.02	0.8870239	-0.1986084	
12.21	0.7316589	-0.5031128	
12.4	0.1538086	-0.8204346	
12.59	-0.2726746	0.6665039	
12.78	0.6180115	-0.4059753	
12.97	0.2123413	-0.796875	
13.16	-0.1872559	-0.8590698	
13.35	-0.5493774	-0.704834	
13.54	-0.5013428	-0.5303345	
13.73	-0.7899475	0.4975586	
13.92	-0.3331604	0.7802429	
14.11	-0.1505127	-0.7355957	
14.3	-0.5443726	0.0815735	
14.49	-0.9328003	0.3465271	
14.68	-0.7980652	0.5249329	
14.87	-0.3492737	0.8049622	
15.06	0.2930908	0.790741	
15.25	0.7938232	0.3020325	
15.44	0.5790405	-0.5874634	
15.63	-0.7045898	-0.3593445	
15.82	-0.4424133	0.5620728	
16.01	0.4723206	0.8146667	
16.2	-0.3823547	-0.3489532	
16.39	0.8999329	0.1345825	
16.58	0.2248383	0.4018707	
16.77	0.7992859	-0.0791626	
16.96	0.5880432	-0.5783386	
17.15	0.6943665	-0.2861938	
17.34	0.5552063	-0.5513306	
17.53	0.2086182	-0.7862549	
17.72	-0.09667969	-0.7169189	
17.91	-0.2251587	-0.7427368	
18.1	-0.6701965	-0.8636475	
18.29	-0.9431763	-0.3305664	
18.48	-0.5326538	0.0306702	
18.67	-1.011475	-0.149231	
18.86	-0.8916626	-0.03161621	
19.05	-0.1869507	0.5443115	
19.24	-0.9178467	0.5074463	
19.43	-0.7989502	0.7615967	
19.62	-0.6589966	0.7417603	
19.81	0.1315918	0.7311707	
20.0	-0.02233887	0.8522339	
