# GHz S RI R 50 
!freq	ReS11	ImS11	
1.0	-0.5773315	-0.2531738	
1.19	-0.6871948	0.0206909	
1.38	-0.6599121	0.2987061	
1.57	-0.5286865	0.5394287	
1.76	-0.2680664	0.7504883	
1.95	0.0772705	0.8110352	
2.14	0.4082642	0.7495117	
2.33	0.6722412	0.5615845	
2.52	0.8264771	0.2784424	
2.71	0.9171753	-0.07287598	
2.9	0.829895	-0.4077148	
3.09	0.6044922	-0.6998901	
3.28	0.2941895	-0.8549194	
3.47	-0.01269531	-0.9280396	
3.66	-0.3438721	-0.8514404	
3.85	-0.6583862	-0.6471558	
4.04	-0.8413086	-0.2849121	
4.23	-0.9105225	0.0644531	
4.42	-0.8066406	0.4129028	
4.61	-0.5809937	0.722229	
4.8	-0.213501	0.9223633	
4.99	0.2202148	0.9470825	
5.18	0.6271362	0.7868042	
5.37	0.9465332	0.3934937	
5.56	1.045471	-0.03570557	
5.75	0.9449463	-0.3963013	
5.94	0.5825806	-0.7868652	
6.13	0.0474243	-0.9764404	
6.32	-0.4151001	-0.875061	
6.51	-0.7580566	-0.5294189	
6.7	-0.9476318	0.0130005	
6.89	0.8422241	-0.5042725	
7.08	-0.8937378	0.1218872	
7.27	-0.4511108	0.7562256	
7.46	0.5638428	0.6807556	
7.65	-0.1488647	-0.9082031	
7.84	-0.8300781	0.5424194	
8.03	0.1358032	0.9173584	
8.22	0.9378662	0.1619263	
8.41	0.1497192	-0.9882202	
8.6	-0.8881531	0.2408142	
8.79	0.1452637	0.9197998	
8.98	0.8803711	0.3733521	
9.17	0.5104675	-0.8106689	
9.36	-0.7774658	-0.546875	
9.55	-0.8897705	0.2722168	
9.74	-0.284668	0.9212646	
9.93	0.8152466	0.4924927	
10.12	0.5261841	-0.8617554	
10.31	-0.7575378	-0.5814209	
10.5	-0.7676697	0.5245361	
10.69	-0.2250977	0.9526978	
10.88	0.4459839	0.8792725	
11.07	0.9558716	0.1935425	
11.26	0.643219	-0.79953	
11.45	-0.7782593	-0.2914124	
11.64	0.4612122	0.610199	
11.83	0.8621216	0.1577759	
12.02	0.8863525	-0.1967773	
12.21	0.727356	-0.4983215	
12.4	0.1617432	-0.8308105	
12.59	-0.2668457	0.6669006	
12.78	0.620575	-0.4063721	
12.97	0.2155151	-0.7957764	
13.16	-0.1875	-0.8535767	
13.35	-0.5515747	-0.7019043	
13.54	-0.4985046	-0.5324402	
13.73	-0.7921143	0.4936523	
13.92	-0.329071	0.7762146	
14.11	-0.1534424	-0.7380066	
14.3	-0.5443115	0.0807495	
14.49	-0.9257507	0.347229	
14.68	-0.8004761	0.5322266	
14.87	-0.3494873	0.8029175	
15.06	0.2851868	0.7825623	
15.25	0.795105	0.3022766	
15.44	0.5838623	-0.5918579	
15.63	-0.7020874	-0.3565063	
15.82	-0.4398804	0.5629578	
16.01	0.4730225	0.8078308	
16.2	-0.3835449	-0.3469696	
16.39	0.8999634	0.1347046	
16.58	0.2255554	0.4036102	
16.77	0.7995605	-0.08053589	
16.96	0.5895386	-0.5780945	
17.15	0.6921692	-0.2860413	
17.34	0.555542	-0.5489197	
17.53	0.203125	-0.7905884	
17.72	-0.09906006	-0.7099304	
17.91	-0.2203369	-0.7473755	
18.1	-0.6661377	-0.8613892	
18.29	-0.9437866	-0.3310547	
18.48	-0.5323486	0.0296631	
18.67	-1.010986	-0.1480713	
18.86	-0.8917236	-0.03131104	
19.05	-0.1793823	0.543335	
19.24	-0.9140015	0.5054932	
19.43	-0.8067017	0.7636108	
19.62	-0.6568909	0.7468262	
19.81	0.1330566	0.725647	
20.0	-0.02832031	0.8468628	
