# GHz S RI R 50 
!freq	ReS11	ImS11	
1.0	-0.5779419	-0.2540894	
1.19	-0.6873779	0.020874	
1.38	-0.6618042	0.2989502	
1.57	-0.5274658	0.5353394	
1.76	-0.274231	0.7531128	
1.95	0.0787964	0.8154907	
2.14	0.4042358	0.7470093	
2.33	0.6763916	0.5619507	
2.52	0.8261719	0.2792969	
2.71	0.9163818	-0.07318115	
2.9	0.8335571	-0.4096069	
3.09	0.6092529	-0.7049561	
3.28	0.3065186	-0.8569336	
3.47	-0.004821777	-0.9274902	
3.66	-0.3419189	-0.8470459	
3.85	-0.6606445	-0.6524658	
4.04	-0.8405762	-0.286499	
4.23	-0.9111328	0.0648804	
4.42	-0.8024902	0.413147	
4.61	-0.5826416	0.7235107	
4.8	-0.2120972	0.914917	
4.99	0.2163086	0.9397583	
5.18	0.6292419	0.7819824	
5.37	0.9450073	0.3898315	
5.56	1.045776	-0.03582764	
5.75	0.9424438	-0.3939209	
5.94	0.5778809	-0.7900391	
6.13	0.0481567	-0.9685669	
6.32	-0.4146729	-0.864624	
6.51	-0.7539063	-0.5287476	
6.7	-0.947998	0.0130005	
6.89	0.8413086	-0.505249	
7.08	-0.8949585	0.1218262	
7.27	-0.4486084	0.7528076	
7.46	0.56604	0.6820068	
7.65	-0.1361694	-0.9098511	
7.84	-0.8253784	0.538147	
8.03	0.1382446	0.9100342	
8.22	0.9380493	0.161377	
8.41	0.1524658	-0.987793	
8.6	-0.8867493	0.2423096	
8.79	0.1420288	0.9202271	
8.98	0.8795166	0.3730164	
9.17	0.5083618	-0.8090515	
9.36	-0.7728577	-0.5465393	
9.55	-0.8896484	0.2710571	
9.74	-0.2822266	0.9182129	
9.93	0.8163147	0.4949646	
10.12	0.5247192	-0.8529663	
10.31	-0.7625122	-0.5769043	
10.5	-0.769104	0.5289612	
10.69	-0.2279663	0.9694214	
10.88	0.4555664	0.8793945	
11.07	0.9559937	0.1948853	
11.26	0.6391907	-0.8011475	
11.45	-0.7780151	-0.2913208	
11.64	0.4667969	0.606842	
11.83	0.8616943	0.1572266	
12.02	0.8861694	-0.196228	
12.21	0.7330933	-0.50354	
12.4	0.161377	-0.8192749	
12.59	-0.2750244	0.6670532	
12.78	0.6220093	-0.411499	
12.97	0.2199097	-0.7958984	
13.16	-0.1784668	-0.8538818	
13.35	-0.5459595	-0.7020264	
13.54	-0.5048828	-0.5283203	
13.73	-0.7918396	0.4968262	
13.92	-0.3284607	0.7861633	
14.11	-0.1516113	-0.7389832	
14.3	-0.5445251	0.0803528	
14.49	-0.9277649	0.3490906	
14.68	-0.8016052	0.5275574	
14.87	-0.3470459	0.8128052	
15.06	0.289917	0.7899475	
15.25	0.7948914	0.3027039	
15.44	0.581543	-0.5927124	
15.63	-0.7038879	-0.3565674	
15.82	-0.4377441	0.5654297	
16.01	0.4799805	0.8105469	
16.2	-0.3813019	-0.3462372	
16.39	0.9002075	0.1341553	
16.58	0.2297974	0.4043579	
16.77	0.7989502	-0.08065796	
16.96	0.5842285	-0.5732117	
17.15	0.6935425	-0.2866211	
17.34	0.5558167	-0.5541382	
17.53	0.2001343	-0.783783	
17.72	-0.1018982	-0.7250977	
17.91	-0.219574	-0.7421875	
18.1	-0.6716309	-0.8677368	
18.29	-0.9456177	-0.3321533	
18.48	-0.5328064	0.02948	
18.67	-1.010864	-0.1485596	
18.86	-0.8914795	-0.03082275	
19.05	-0.1790771	0.5399475	
19.24	-0.9147949	0.5100098	
19.43	-0.8028564	0.763916	
19.62	-0.6582031	0.7446899	
19.81	0.1330566	0.727356	
20.0	-0.02374268	0.8474121	
