# GHz S RI R 50 
!freq	ReS11	ImS11	
1.0	-0.5770264	-0.2555542	
1.19	-0.6881714	0.0204468	
1.38	-0.659668	0.2994995	
1.57	-0.5302124	0.5375977	
1.76	-0.2706909	0.7478027	
1.95	0.0794067	0.8143311	
2.14	0.4035034	0.7476196	
2.33	0.6740723	0.5598755	
2.52	0.8250122	0.2801514	
2.71	0.9154663	-0.07531738	
2.9	0.8301392	-0.4088135	
3.09	0.6068115	-0.7069702	
3.28	0.2998047	-0.8573608	
3.47	-0.007324219	-0.9355469	
3.66	-0.3425293	-0.8537598	
3.85	-0.6612549	-0.6478271	
4.04	-0.8432007	-0.2843628	
4.23	-0.9096069	0.0651245	
4.42	-0.8046265	0.4141846	
4.61	-0.5828247	0.7219238	
4.8	-0.2182617	0.9138794	
4.99	0.2098999	0.9407959	
5.18	0.6261292	0.7809448	
5.37	0.9482422	0.3926392	
5.56	1.045532	-0.03509521	
5.75	0.9491577	-0.3952637	
5.94	0.5756836	-0.7833252	
6.13	0.046936	-0.9734497	
6.32	-0.4134521	-0.8652344	
6.51	-0.7532349	-0.5300293	
6.7	-0.9484253	0.0134277	
6.89	0.8457031	-0.5040894	
7.08	-0.8953247	0.1217041	
7.27	-0.4432373	0.7508545	
7.46	0.5609436	0.6842957	
7.65	-0.1415405	-0.9124146	
7.84	-0.8275757	0.541687	
8.03	0.1329956	0.9065552	
8.22	0.9382324	0.1620483	
8.41	0.1508789	-0.9908447	
8.6	-0.8876343	0.2442017	
8.79	0.1444702	0.9238281	
8.98	0.880249	0.3700562	
9.17	0.5036011	-0.8127747	
9.36	-0.7771301	-0.549408	
9.55	-0.8889771	0.2728271	
9.74	-0.288208	0.9170532	
9.93	0.8140564	0.4960022	
10.12	0.5229492	-0.8549805	
10.31	-0.7594604	-0.5805359	
10.5	-0.769043	0.5242615	
10.69	-0.2313232	0.9577637	
10.88	0.4552612	0.883667	
11.07	0.9553833	0.1935425	
11.26	0.6372986	-0.8034973	
11.45	-0.7781982	-0.2911987	
11.64	0.4614868	0.6126404	
11.83	0.8619385	0.1569214	
12.02	0.8852539	-0.1973877	
12.21	0.731781	-0.5024719	
12.4	0.1553955	-0.8239136	
12.59	-0.2749023	0.6672058	
12.78	0.6233826	-0.4085083	
12.97	0.2146606	-0.7973022	
13.16	-0.1868896	-0.8562012	
13.35	-0.5488281	-0.7017212	
13.54	-0.5004883	-0.5319519	
13.73	-0.7879944	0.499115	
13.92	-0.3390808	0.777832	
14.11	-0.1525574	-0.7394104	
14.3	-0.5447998	0.0805969	
14.49	-0.9277039	0.3464966	
14.68	-0.79599	0.5284424	
14.87	-0.3454895	0.8114929	
15.06	0.2896729	0.7901611	
15.25	0.79422	0.3019409	
15.44	0.5799561	-0.588623	
15.63	-0.7025757	-0.3547668	
15.82	-0.4390869	0.5632629	
16.01	0.4745178	0.8103638	
16.2	-0.3838501	-0.3484802	
16.39	0.9001465	0.1340942	
16.58	0.2266388	0.4049683	
16.77	0.8002625	-0.07894897	
16.96	0.5910339	-0.5794067	
17.15	0.6932373	-0.2850037	
17.34	0.5559387	-0.5544739	
17.53	0.2084656	-0.7848206	
17.72	-0.1020508	-0.7150879	
17.91	-0.2205811	-0.7450562	
18.1	-0.6658936	-0.8688354	
18.29	-0.9434204	-0.3322754	
18.48	-0.5322571	0.0305786	
18.67	-1.011353	-0.1484985	
18.86	-0.8914795	-0.03125	
19.05	-0.1760559	0.5429077	
19.24	-0.9163818	0.5101929	
19.43	-0.7980347	0.7651367	
19.62	-0.65979	0.750885	
19.81	0.1348572	0.7239685	
20.0	-0.02264404	0.8482666	
