# GHz S RI R 50 
!freq	ReS11	ImS11	
1.0	-0.5769043	-0.2519531	
1.19	-0.6876831	0.020813	
1.38	-0.6610107	0.2965698	
1.57	-0.5281372	0.5372314	
1.76	-0.2723389	0.7504883	
1.95	0.0769043	0.8128662	
2.14	0.3997803	0.7506104	
2.33	0.6745605	0.5620117	
2.52	0.8266602	0.2801514	
2.71	0.916687	-0.07214355	
2.9	0.8328247	-0.4041748	
3.09	0.6083374	-0.7072144	
3.28	0.2987671	-0.857605	
3.47	-0.01123047	-0.9367065	
3.66	-0.3423462	-0.8504639	
3.85	-0.6630859	-0.6480103	
4.04	-0.8407593	-0.2851563	
4.23	-0.9111328	0.0648804	
4.42	-0.8016968	0.4105225	
4.61	-0.5787964	0.7254028	
4.8	-0.2198486	0.9177246	
4.99	0.2181396	0.9441528	
5.18	0.6269836	0.7859802	
5.37	0.9468994	0.3909912	
5.56	1.045715	-0.03582764	
5.75	0.949646	-0.4000244	
5.94	0.581543	-0.777771	
6.13	0.0476685	-0.9750366	
6.32	-0.4124756	-0.864563	
6.51	-0.7554321	-0.5307617	
6.7	-0.9470825	0.0136719	
6.89	0.8413696	-0.5018311	
7.08	-0.8946533	0.123291	
7.27	-0.4495239	0.7540283	
7.46	0.5628052	0.679657	
7.65	-0.1347656	-0.9100342	
7.84	-0.826416	0.5379639	
8.03	0.1439819	0.901001	
8.22	0.9389038	0.1613159	
8.41	0.1585083	-0.9969482	
8.6	-0.8869934	0.2432861	
8.79	0.1484375	0.9111328	
8.98	0.8785095	0.3754883	
9.17	0.5044861	-0.8136292	
9.36	-0.7786255	-0.5443115	
9.55	-0.8878784	0.2699585	
9.74	-0.2888794	0.9160767	
9.93	0.8161011	0.4943848	
10.12	0.5254517	-0.8477783	
10.31	-0.7618408	-0.5797424	
10.5	-0.7721558	0.5272522	
10.69	-0.225647	0.9665527	
10.88	0.4500122	0.8789063	
11.07	0.9558105	0.1954956	
11.26	0.640686	-0.8045044	
11.45	-0.7773438	-0.2911072	
11.64	0.4609375	0.6036987	
11.83	0.8610229	0.1570435	
12.02	0.8875732	-0.1963501	
12.21	0.7305603	-0.5022888	
12.4	0.1626587	-0.8253174	
12.59	-0.2745667	0.6667175	
12.78	0.619873	-0.4118652	
12.97	0.2126465	-0.7877197	
13.16	-0.1888428	-0.855835	
13.35	-0.5508423	-0.7026978	
13.54	-0.4987488	-0.5340576	
13.73	-0.7900085	0.4957581	
13.92	-0.3283691	0.7805786	
14.11	-0.1521301	-0.7381287	
14.3	-0.5441284	0.0805359	
14.49	-0.927002	0.3500977	
14.68	-0.7967224	0.5282898	
14.87	-0.3470459	0.8105469	
15.06	0.2890015	0.7824097	
15.25	0.7942505	0.3014526	
15.44	0.5761414	-0.5897217	
15.63	-0.7041321	-0.3564453	
15.82	-0.4385681	0.5682983	
16.01	0.4785767	0.8198853	
16.2	-0.3837433	-0.3497314	
16.39	0.8999634	0.1339111	
16.58	0.2306213	0.4014893	
16.77	0.7985535	-0.08087158	
16.96	0.5890503	-0.5770874	
17.15	0.6918945	-0.2859192	
17.34	0.5568542	-0.5503235	
17.53	0.2062073	-0.7810364	
17.72	-0.09463501	-0.717926	
17.91	-0.2166138	-0.7434082	
18.1	-0.6706238	-0.8663025	
18.29	-0.9437866	-0.3299561	
18.48	-0.5317383	0.0299988	
18.67	-1.010437	-0.1478271	
18.86	-0.8916016	-0.03118896	
19.05	-0.1839905	0.5449829	
19.24	-0.920105	0.505127	
19.43	-0.8045044	0.7627563	
19.62	-0.6608276	0.744751	
19.81	0.1331177	0.7288208	
20.0	-0.01959229	0.8514404	
