# GHz S RI R 50 
!freq	ReS11	ImS11	
1.0	-0.5770874	-0.2560425	
1.19	-0.6873169	0.0206909	
1.38	-0.6615601	0.2982178	
1.57	-0.5309143	0.5404968	
1.76	-0.2712402	0.7485962	
1.95	0.0726318	0.8171387	
2.14	0.4014893	0.7426147	
2.33	0.6730957	0.5606079	
2.52	0.826416	0.2798462	
2.71	0.9169312	-0.0736084	
2.9	0.8345337	-0.4050903	
3.09	0.6109619	-0.710022	
3.28	0.3012085	-0.8528442	
3.47	-0.008300781	-0.9309082	
3.66	-0.3406372	-0.8412476	
3.85	-0.6594849	-0.6466675	
4.04	-0.8403931	-0.2832031	
4.23	-0.9104004	0.0640869	
4.42	-0.8046265	0.4121704	
4.61	-0.5834351	0.7200317	
4.8	-0.2175903	0.9230347	
4.99	0.2224121	0.9534302	
5.18	0.6281738	0.7874451	
5.37	0.9466553	0.390625	
5.56	1.04541	-0.03533936	
5.75	0.9501343	-0.3964844	
5.94	0.5856323	-0.78302	
6.13	0.0452881	-0.9733887	
6.32	-0.4110718	-0.8707886	
6.51	-0.7554626	-0.5323486	
6.7	-0.9470215	0.013916	
6.89	0.8434448	-0.5049438	
7.08	-0.8956299	0.1227417	
7.27	-0.4525146	0.7495728	
7.46	0.5610962	0.6802979	
7.65	-0.1311035	-0.9071655	
7.84	-0.8225708	0.5422974	
8.03	0.1442261	0.9100952	
8.22	0.9384766	0.1618652	
8.41	0.1486816	-0.9856567	
8.6	-0.8865662	0.245697	
8.79	0.145752	0.9141846	
8.98	0.87854	0.3727417	
9.17	0.4996338	-0.8105164	
9.36	-0.7749329	-0.5485535	
9.55	-0.8884888	0.2680664	
9.74	-0.2938232	0.9158936	
9.93	0.8192444	0.4919434	
10.12	0.5233154	-0.8553467	
10.31	-0.7620544	-0.5805054	
10.5	-0.7722778	0.5249329	
10.69	-0.2337036	0.9611816	
10.88	0.4546509	0.8862915	
11.07	0.9558105	0.1949463	
11.26	0.646698	-0.8008423	
11.45	-0.7795105	-0.2931824	
11.64	0.4630432	0.6055603	
11.83	0.8619995	0.1572266	
12.02	0.8887939	-0.1986694	
12.21	0.730835	-0.5002136	
12.4	0.1576538	-0.8158569	
12.59	-0.2783508	0.6669006	
12.78	0.6242065	-0.4089966	
12.97	0.2129517	-0.7952271	
13.16	-0.1851196	-0.8639526	
13.35	-0.545166	-0.7033691	
13.54	-0.5040283	-0.5310974	
13.73	-0.7916565	0.4935303	
13.92	-0.3252258	0.7789612	
14.11	-0.1486816	-0.7399902	
14.3	-0.5445557	0.0819092	
14.49	-0.9309387	0.3490906	
14.68	-0.8009949	0.5252075	
14.87	-0.3527527	0.809082	
15.06	0.2910461	0.7937927	
15.25	0.791748	0.3037415	
15.44	0.5836792	-0.5831604	
15.63	-0.7018738	-0.3560486	
15.82	-0.436615	0.5632019	
16.01	0.4700928	0.8110657	
16.2	-0.3816986	-0.34729	
16.39	0.8996277	0.1347046	
16.58	0.2265015	0.4041748	
16.77	0.7987671	-0.08074951	
16.96	0.5863037	-0.5761719	
17.15	0.6925354	-0.285614	
17.34	0.5571594	-0.5484314	
17.53	0.2005615	-0.7821655	
17.72	-0.09732056	-0.7184448	
17.91	-0.2134399	-0.744873	
18.1	-0.6680603	-0.8632507	
18.29	-0.9454346	-0.3327637	
18.48	-0.532135	0.0302429	
18.67	-1.01062	-0.1483154	
18.86	-0.8917847	-0.03204346	
19.05	-0.1821594	0.5460205	
19.24	-0.9171143	0.5046387	
19.43	-0.8009644	0.7619629	
19.62	-0.6576538	0.7498169	
19.81	0.1291199	0.7269897	
20.0	-0.02398682	0.8508301	
