# GHz S RI R 50 
!freq	ReS11	ImS11	
1.0	-0.5789795	-0.2528076	
1.19	-0.6871948	0.0202026	
1.38	-0.6600952	0.2961426	
1.57	-0.5327759	0.5377808	
1.76	-0.2722168	0.751709	
1.95	0.0773315	0.814209	
2.14	0.4020386	0.7467651	
2.33	0.6723633	0.5593262	
2.52	0.8258667	0.2785034	
2.71	0.914856	-0.07391357	
2.9	0.8318481	-0.4048462	
3.09	0.604187	-0.7018433	
3.28	0.2973022	-0.8546143	
3.47	-0.01416016	-0.9342041	
3.66	-0.336853	-0.8482666	
3.85	-0.6580811	-0.6472778	
4.04	-0.8413696	-0.2857056	
4.23	-0.911438	0.0644531	
4.42	-0.8060913	0.4161987	
4.61	-0.5789185	0.7284546	
4.8	-0.2106934	0.9093628	
4.99	0.2162476	0.9498901	
5.18	0.62323	0.7836914	
5.37	0.9505615	0.3942871	
5.56	1.044983	-0.03485107	
5.75	0.9501343	-0.3964233	
5.94	0.5848999	-0.7786255	
6.13	0.053833	-0.96875	
6.32	-0.4085083	-0.8674927	
6.51	-0.7561646	-0.5292358	
6.7	-0.9475708	0.0134277	
6.89	0.8446655	-0.50354	
7.08	-0.8955688	0.1224365	
7.27	-0.4550171	0.7593384	
7.46	0.5591736	0.6801758	
7.65	-0.1360474	-0.9154663	
7.84	-0.8258057	0.546875	
8.03	0.1357422	0.9041138	
8.22	0.9384766	0.1621094	
8.41	0.1539917	-0.9924316	
8.6	-0.8890686	0.2455139	
8.79	0.1469116	0.9160767	
8.98	0.8787231	0.3746338	
9.17	0.5064697	-0.8117676	
9.36	-0.7770386	-0.5474854	
9.55	-0.8873291	0.2716064	
9.74	-0.2903442	0.9151611	
9.93	0.8153687	0.4944763	
10.12	0.522644	-0.8513184	
10.31	-0.7622681	-0.5810852	
10.5	-0.7713013	0.5278015	
10.69	-0.2280884	0.9544067	
10.88	0.4515991	0.8866577	
11.07	0.9553223	0.1951904	
11.26	0.6469727	-0.7998962	
11.45	-0.7785034	-0.2909546	
11.64	0.4623108	0.6070557	
11.83	0.8619385	0.1575928	
12.02	0.8877563	-0.1978149	
12.21	0.732605	-0.4994507	
12.4	0.1609497	-0.8257446	
12.59	-0.2750549	0.6682129	
12.78	0.6190491	-0.412323	
12.97	0.21521	-0.7910767	
13.16	-0.1863403	-0.8604736	
13.35	-0.5478516	-0.7080078	
13.54	-0.4996033	-0.5323792	
13.73	-0.7922974	0.5005798	
13.92	-0.3268433	0.7759705	
14.11	-0.1531677	-0.743103	
14.3	-0.5443115	0.0813293	
14.49	-0.9277039	0.3508301	
14.68	-0.7996216	0.5291748	
14.87	-0.3451843	0.808075	
15.06	0.2932129	0.7864685	
15.25	0.7934265	0.3013611	
15.44	0.585968	-0.5909424	
15.63	-0.7020569	-0.3600464	
15.82	-0.4424133	0.5635071	
16.01	0.4749756	0.8153687	
16.2	-0.383316	-0.3481445	
16.39	0.8998413	0.1343994	
16.58	0.2276611	0.4057465	
16.77	0.799408	-0.07943726	
16.96	0.5863953	-0.577179	
17.15	0.6920471	-0.2849426	
17.34	0.5503845	-0.5475464	
17.53	0.1993408	-0.7867432	
17.72	-0.1004639	-0.7167053	
17.91	-0.2198486	-0.7474976	
18.1	-0.6680298	-0.8666382	
18.29	-0.9430542	-0.3328247	
18.48	-0.5329895	0.0298157	
18.67	-1.01062	-0.1502075	
18.86	-0.8914185	-0.03210449	
19.05	-0.1775208	0.5450439	
19.24	-0.9145508	0.5107422	
19.43	-0.8040161	0.762085	
19.62	-0.6607056	0.7451477	
19.81	0.1312866	0.7271729	
20.0	-0.02349854	0.8432007	
