# GHz S RI R 50 
!freq	ReS11	ImS11	
1.0	-0.576416	-0.2554321	
1.19	-0.6875	0.020813	
1.38	-0.661377	0.2998657	
1.57	-0.5284424	0.5391846	
1.76	-0.2736206	0.750061	
1.95	0.0756226	0.8208618	
2.14	0.4050293	0.7457886	
2.33	0.6748657	0.560791	
2.52	0.8269653	0.2787476	
2.71	0.9174194	-0.07403564	
2.9	0.8323364	-0.4089355	
3.09	0.6096802	-0.7062378	
3.28	0.3035278	-0.8579102	
3.47	-0.0133667	-0.9307861	
3.66	-0.3394165	-0.8464966	
3.85	-0.6650391	-0.6524658	
4.04	-0.8417358	-0.28479	
4.23	-0.9109497	0.0656128	
4.42	-0.8016968	0.4105835	
4.61	-0.5795898	0.7254028	
4.8	-0.2194214	0.9117432	
4.99	0.2219238	0.9534302	
5.18	0.6330872	0.7903442	
5.37	0.9485474	0.3916626	
5.56	1.045532	-0.03546143	
5.75	0.9502563	-0.3943481	
5.94	0.5802612	-0.7745361	
6.13	0.0446777	-0.9708252	
6.32	-0.4130859	-0.8651733	
6.51	-0.7539063	-0.527771	
6.7	-0.9473267	0.0127563	
6.89	0.8421021	-0.5015259	
7.08	-0.8944702	0.1226196	
7.27	-0.4476929	0.75177	
7.46	0.5623169	0.6798706	
7.65	-0.1334229	-0.9119873	
7.84	-0.8288574	0.5396729	
8.03	0.1445923	0.9050903	
8.22	0.9390259	0.1619263	
8.41	0.15802	-0.993103	
8.6	-0.885498	0.2431641	
8.79	0.1463013	0.9127197	
8.98	0.8812866	0.3728027	
9.17	0.5063782	-0.8208923	
9.36	-0.7773438	-0.5525208	
9.55	-0.8895874	0.2731323	
9.74	-0.2942505	0.9295044	
9.93	0.8137207	0.4923401	
10.12	0.5265503	-0.8486938	
10.31	-0.7602539	-0.5763855	
10.5	-0.7728882	0.5235291	
10.69	-0.2307739	0.9576416	
10.88	0.4498901	0.8853149	
11.07	0.9552612	0.1954956	
11.26	0.6433105	-0.8075256	
11.45	-0.7795715	-0.2928772	
11.64	0.4631653	0.6058655	
11.83	0.8618164	0.1573486	
12.02	0.8856201	-0.1981201	
12.21	0.7315674	-0.5045166	
12.4	0.168396	-0.8255615	
12.59	-0.2713928	0.6635437	
12.78	0.624176	-0.4110413	
12.97	0.211731	-0.7967529	
13.16	-0.1888428	-0.8640747	
13.35	-0.5471191	-0.7059326	
13.54	-0.5038452	-0.5270386	
13.73	-0.795105	0.4981995	
13.92	-0.3265076	0.7814331	
14.11	-0.1502686	-0.7343445	
14.3	-0.5447998	0.0820313	
14.49	-0.9289856	0.3457947	
14.68	-0.7992859	0.5306396	
14.87	-0.350769	0.8142395	
15.06	0.2865906	0.7927856	
15.25	0.7940369	0.3016357	
15.44	0.5805664	-0.5840149	
15.63	-0.7047424	-0.3570557	
15.82	-0.4410706	0.5632935	
16.01	0.4752197	0.815155	
16.2	-0.3805847	-0.3484192	
16.39	0.8997803	0.1340332	
16.58	0.2281952	0.4055939	
16.77	0.7996521	-0.07989502	
16.96	0.5887146	-0.5761719	
17.15	0.6904297	-0.2845764	
17.34	0.5536499	-0.5520935	
17.53	0.2021179	-0.7836609	
17.72	-0.09713745	-0.7127686	
17.91	-0.2120667	-0.7450562	
18.1	-0.6708679	-0.8681335	
18.29	-0.946228	-0.3319702	
18.48	-0.5328064	0.0297852	
18.67	-1.01123	-0.149292	
18.86	-0.8914795	-0.03131104	
19.05	-0.1791992	0.5369568	
19.24	-0.9168091	0.5123901	
19.43	-0.8031006	0.7576294	
19.62	-0.6627808	0.7470093	
19.81	0.1353149	0.7221985	
20.0	-0.02612305	0.8513794	
