# GHz S RI R 50 
!freq	ReS11	ImS11	
1.0	-0.5775146	-0.2550659	
1.19	-0.6873169	0.0209351	
1.38	-0.6613159	0.3004761	
1.57	-0.5298462	0.5344238	
1.76	-0.269104	0.7487183	
1.95	0.0742188	0.8096313	
2.14	0.4053345	0.7487793	
2.33	0.6726074	0.5626831	
2.52	0.8271484	0.2787476	
2.71	0.916626	-0.07281494	
2.9	0.8326416	-0.4064941	
3.09	0.6052246	-0.7034302	
3.28	0.3007813	-0.8546753	
3.47	-0.008911133	-0.9318237	
3.66	-0.3359375	-0.8519897	
3.85	-0.6621094	-0.6505127	
4.04	-0.8408203	-0.2858276	
4.23	-0.9102173	0.0646362	
4.42	-0.8044434	0.4151001	
4.61	-0.5814819	0.7282104	
4.8	-0.213562	0.914856	
4.99	0.2225342	0.9473877	
5.18	0.6278381	0.7819519	
5.37	0.9448853	0.3927612	
5.56	1.046326	-0.03582764	
5.75	0.9488525	-0.3986816	
5.94	0.5753784	-0.7874146	
6.13	0.0413818	-0.9730225	
6.32	-0.4165039	-0.8629761	
6.51	-0.756958	-0.5291748	
6.7	-0.947876	0.0130615	
6.89	0.8432007	-0.5026855	
7.08	-0.8937988	0.1224976	
7.27	-0.4505005	0.7575684	
7.46	0.5637207	0.6814575	
7.65	-0.1361084	-0.9140625	
7.84	-0.8283081	0.5356445	
8.03	0.1384277	0.9067993	
8.22	0.9379272	0.1611938	
8.41	0.1530151	-0.9960938	
8.6	-0.8885803	0.2450562	
8.79	0.1430054	0.9178467	
8.98	0.8787842	0.3737183	
9.17	0.5080566	-0.816803	
9.36	-0.7826233	-0.5493164	
9.55	-0.8890381	0.272522	
9.74	-0.2866211	0.9173584	
9.93	0.8189697	0.4928284	
10.12	0.5262451	-0.8492432	
10.31	-0.759552	-0.5803223	
10.5	-0.771759	0.5312805	
10.69	-0.2236938	0.9575806	
10.88	0.4516602	0.8804321	
11.07	0.956604	0.1947021	
11.26	0.6412048	-0.8064575	
11.45	-0.7770386	-0.2917786	
11.64	0.4615479	0.6049194	
11.83	0.8619385	0.1573486	
12.02	0.8884277	-0.1975708	
12.21	0.7325439	-0.4995728	
12.4	0.1606445	-0.8269653	
12.59	-0.2775269	0.6660156	
12.78	0.6232605	-0.4087524	
12.97	0.2158203	-0.7967529	
13.16	-0.1825562	-0.8630981	
13.35	-0.5472412	-0.6990356	
13.54	-0.5057983	-0.5305481	
13.73	-0.7920227	0.4962158	
13.92	-0.3288574	0.7749939	
14.11	-0.151001	-0.7350159	
14.3	-0.5446472	0.0809631	
14.49	-0.9263611	0.3514709	
14.68	-0.8017578	0.5292358	
14.87	-0.3470459	0.8089905	
15.06	0.2972412	0.7932739	
15.25	0.7926941	0.3045349	
15.44	0.581604	-0.589325	
15.63	-0.7024231	-0.3579407	
15.82	-0.4427185	0.5668945	
16.01	0.4758606	0.815033	
16.2	-0.381134	-0.3504791	
16.39	0.9000244	0.1342163	
16.58	0.2272339	0.4018555	
16.77	0.7993774	-0.08023071	
16.96	0.5887146	-0.5767822	
17.15	0.6926575	-0.2859192	
17.34	0.5521851	-0.5549622	
17.53	0.2052002	-0.7922363	
17.72	-0.1011353	-0.719696	
17.91	-0.2181091	-0.7449646	
18.1	-0.6783447	-0.8633423	
18.29	-0.9441528	-0.3325806	
18.48	-0.5327759	0.0296021	
18.67	-1.01123	-0.1489868	
18.86	-0.8917236	-0.03131104	
19.05	-0.178833	0.5396423	
19.24	-0.9152222	0.508667	
19.43	-0.8057251	0.7610474	
19.62	-0.6575012	0.7418213	
19.81	0.138031	0.7267761	
20.0	-0.02960205	0.8475952	
