# GHz S RI R 50 
!freq	ReS11	ImS11	
1.0	-0.5776978	-0.2523804	
1.19	-0.687561	0.0206299	
1.38	-0.6625366	0.2991943	
1.57	-0.5300293	0.5372925	
1.76	-0.2688599	0.7466431	
1.95	0.0880127	0.8151245	
2.14	0.4055176	0.7467041	
2.33	0.6751709	0.5604248	
2.52	0.8258057	0.2794189	
2.71	0.9172974	-0.07183838	
2.9	0.8278198	-0.4064331	
3.09	0.6032104	-0.7025146	
3.28	0.3007813	-0.8566895	
3.47	-0.01257324	-0.9285278	
3.66	-0.3366089	-0.8482666	
3.85	-0.6553955	-0.6491089	
4.04	-0.8409424	-0.2849121	
4.23	-0.9117432	0.06427	
4.42	-0.8016968	0.4130859	
4.61	-0.5803833	0.7260132	
4.8	-0.2165527	0.9169922	
4.99	0.2210693	0.9525146	
5.18	0.6271973	0.7830505	
5.37	0.9477539	0.3920288	
5.56	1.044922	-0.03533936	
5.75	0.9494019	-0.3956909	
5.94	0.5825806	-0.7799072	
6.13	0.0425415	-0.9685669	
6.32	-0.4113159	-0.8657227	
6.51	-0.7545166	-0.5276489	
6.7	-0.9473267	0.0131226	
6.89	0.8421631	-0.5023193	
7.08	-0.8935547	0.1218262	
7.27	-0.4447021	0.7595825	
7.46	0.5652466	0.6843567	
7.65	-0.1329956	-0.9138184	
7.84	-0.8253174	0.5384521	
8.03	0.1351929	0.9122314	
8.22	0.9384766	0.1619873	
8.41	0.1553345	-0.9973755	
8.6	-0.8868713	0.242157	
8.79	0.1481934	0.9187622	
8.98	0.880249	0.3728638	
9.17	0.5093384	-0.8161621	
9.36	-0.7752686	-0.5522156	
9.55	-0.8900757	0.2729492	
9.74	-0.2838135	0.9155273	
9.93	0.8137817	0.4942322	
10.12	0.5256348	-0.8568115	
10.31	-0.7610474	-0.5759277	
10.5	-0.7685852	0.5281067	
10.69	-0.2252808	0.9564209	
10.88	0.447876	0.8779297	
11.07	0.9567871	0.1951294	
11.26	0.6366577	-0.7967834	
11.45	-0.7785645	-0.290741	
11.64	0.4635315	0.6094971	
11.83	0.8621826	0.1572876	
12.02	0.8873291	-0.196228	
12.21	0.7304688	-0.5023499	
12.4	0.1547241	-0.8237305	
12.59	-0.2741699	0.6688232	
12.78	0.6221008	-0.4101563	
12.97	0.2095947	-0.7944336	
13.16	-0.1864624	-0.8550415	
13.35	-0.5519409	-0.696106	
13.54	-0.5058899	-0.5292358	
13.73	-0.7947693	0.4975891	
13.92	-0.3323059	0.7821655	
14.11	-0.1494446	-0.7350464	
14.3	-0.5441589	0.0822144	
14.49	-0.9281006	0.3479309	
14.68	-0.802002	0.5274658	
14.87	-0.3518982	0.8055115	
15.06	0.2904663	0.7857971	
15.25	0.7937927	0.3023682	
15.44	0.5816956	-0.582489	
15.63	-0.7010193	-0.3571472	
15.82	-0.4398499	0.5637207	
16.01	0.4699707	0.8125916	
16.2	-0.3836365	-0.3484955	
16.39	0.8994141	0.1345215	
16.58	0.2267456	0.4059753	
16.77	0.8000488	-0.08007813	
16.96	0.5897827	-0.5742798	
17.15	0.6917419	-0.2848511	
17.34	0.5533447	-0.549469	
17.53	0.2106934	-0.7930298	
17.72	-0.09759521	-0.7175903	
17.91	-0.218689	-0.7450867	
18.1	-0.6749878	-0.8662415	
18.29	-0.9439087	-0.3328247	
18.48	-0.532959	0.0294495	
18.67	-1.010864	-0.1495361	
18.86	-0.8916626	-0.03155518	
19.05	-0.1790466	0.541687	
19.24	-0.9174194	0.5102539	
19.43	-0.8035889	0.7574463	
19.62	-0.662384	0.7469482	
19.81	0.1340332	0.730011	
20.0	-0.02337646	0.8464966	
