# GHz S RI R 50 
!freq	ReS11	ImS11	
1.0	-0.5773926	-0.2556152	
1.19	-0.6876831	0.0209351	
1.38	-0.6625977	0.2985229	
1.57	-0.5308228	0.5359497	
1.76	-0.2717285	0.7492065	
1.95	0.0778809	0.8068237	
2.14	0.4041138	0.7456665	
2.33	0.6759033	0.5632935	
2.52	0.8255615	0.2800903	
2.71	0.9176025	-0.0723877	
2.9	0.8319092	-0.4050903	
3.09	0.6096802	-0.7091064	
3.28	0.3000488	-0.8568115	
3.47	-0.00793457	-0.9376221	
3.66	-0.3310547	-0.8482056	
3.85	-0.6586914	-0.6480713	
4.04	-0.8405762	-0.2853394	
4.23	-0.9127808	0.0655518	
4.42	-0.8052368	0.4187622	
4.61	-0.5825806	0.7295532	
4.8	-0.2164307	0.9136353	
4.99	0.2210693	0.9525146	
5.18	0.6246948	0.7794189	
5.37	0.9466553	0.3914795	
5.56	1.045593	-0.03533936	
5.75	0.9450073	-0.3979492	
5.94	0.5764771	-0.7855225	
6.13	0.0392456	-0.9634399	
6.32	-0.4144287	-0.8670654	
6.51	-0.7540588	-0.530426	
6.7	-0.9472656	0.0133667	
6.89	0.8433228	-0.5077515	
7.08	-0.8960571	0.1222534	
7.27	-0.4536133	0.7553711	
7.46	0.5610962	0.6835022	
7.65	-0.1323853	-0.9038696	
7.84	-0.8283691	0.538269	
8.03	0.140564	0.9087524	
8.22	0.9384155	0.161377	
8.41	0.1494751	-0.9864502	
8.6	-0.8865967	0.2445984	
8.79	0.1424561	0.9196777	
8.98	0.8768311	0.3723755	
9.17	0.5171509	-0.8054504	
9.36	-0.7774658	-0.5462341	
9.55	-0.8876953	0.2733154	
9.74	-0.2891846	0.9165649	
9.93	0.8165283	0.4928894	
10.12	0.5245361	-0.850708	
10.31	-0.7575989	-0.5827637	
10.5	-0.7676392	0.5264587	
10.69	-0.225647	0.9606934	
10.88	0.4571533	0.8824463	
11.07	0.9553223	0.1936035	
11.26	0.6453552	-0.8031616	
11.45	-0.7760925	-0.2903137	
11.64	0.4597168	0.6051331	
11.83	0.8596802	0.1581421	
12.02	0.8865967	-0.1959839	
12.21	0.7332764	-0.5033569	
12.4	0.1564331	-0.8270874	
12.59	-0.2765198	0.6677551	
12.78	0.6273193	-0.4050598	
12.97	0.2145386	-0.7988281	
13.16	-0.1872559	-0.8590698	
13.35	-0.5466919	-0.7029419	
13.54	-0.5000916	-0.5338135	
13.73	-0.7894287	0.5004272	
13.92	-0.3305664	0.781311	
14.11	-0.1561279	-0.7372131	
14.3	-0.5431824	0.0766296	
14.49	-0.9241638	0.3483276	
14.68	-0.7967224	0.5325928	
14.87	-0.342041	0.8087158	
15.06	0.2925415	0.7889099	
15.25	0.7953796	0.3018188	
15.44	0.5760498	-0.5915833	
15.63	-0.7050171	-0.3527832	
15.82	-0.4425049	0.562439	
16.01	0.4773254	0.8114624	
16.2	-0.3805084	-0.3458099	
16.39	0.8998413	0.1335449	
16.58	0.2285919	0.4032288	
16.77	0.7998352	-0.08093262	
16.96	0.5856323	-0.5775757	
17.15	0.6893921	-0.2849731	
17.34	0.5552063	-0.5496216	
17.53	0.2042236	-0.7789917	
17.72	-0.09317017	-0.7211609	
17.91	-0.2110596	-0.7528992	
18.1	-0.6710205	-0.8695984	
18.29	-0.9412842	-0.3322144	
18.48	-0.5346985	0.021759	
18.67	-1.011353	-0.1486816	
18.86	-0.8905029	-0.02947998	
19.05	-0.1824646	0.5393677	
19.24	-0.9130859	0.5109253	
19.43	-0.8052979	0.7626343	
19.62	-0.6582642	0.7502747	
19.81	0.1301575	0.7279358	
20.0	-0.0269165	0.8459473	
