# GHz S RI R 50 
!freq	ReS11	ImS11	
1.0	-0.5773315	-0.2532349	
1.19	-0.6873779	0.0213013	
1.38	-0.65979	0.3012085	
1.57	-0.5338745	0.5366821	
1.76	-0.2713013	0.7542725	
1.95	0.0774536	0.8099365	
2.14	0.4039917	0.7438965	
2.33	0.6746826	0.5557861	
2.52	0.8267822	0.2787476	
2.71	0.9150391	-0.07330322	
2.9	0.8289185	-0.4067383	
3.09	0.6004333	-0.7084045	
3.28	0.2976074	-0.8563843	
3.47	-0.02154541	-0.9388428	
3.66	-0.3391724	-0.8410645	
3.85	-0.6575317	-0.6442871	
4.04	-0.8414917	-0.2855835	
4.23	-0.9105835	0.0640869	
4.42	-0.800293	0.4171753	
4.61	-0.5783081	0.7313843	
4.8	-0.2122192	0.9139404	
4.99	0.2150269	0.9508667	
5.18	0.6315308	0.7832031	
5.37	0.9468994	0.3916016	
5.56	1.045776	-0.03588867	
5.75	0.9450073	-0.3938599	
5.94	0.5759277	-0.7836304	
6.13	0.0421143	-0.9677124	
6.32	-0.4110718	-0.8699341	
6.51	-0.7573242	-0.5296631	
6.7	-0.947937	0.0128174	
6.89	0.843689	-0.5033569	
7.08	-0.8961792	0.1225586	
7.27	-0.4450073	0.7492676	
7.46	0.5644531	0.682373	
7.65	-0.1362915	-0.9122314	
7.84	-0.8244019	0.5396729	
8.03	0.1410522	0.9095459	
8.22	0.9376831	0.1622314	
8.41	0.1502075	-0.994812	
8.6	-0.8875427	0.2448425	
8.79	0.1453857	0.9119873	
8.98	0.8781128	0.3747559	
9.17	0.5099487	-0.8112793	
9.36	-0.7775879	-0.5453186	
9.55	-0.8870239	0.2706909	
9.74	-0.2822266	0.918335	
9.93	0.8156738	0.4947815	
10.12	0.5217896	-0.8527222	
10.31	-0.7598267	-0.5795288	
10.5	-0.7728577	0.5276794	
10.69	-0.2254028	0.9584961	
10.88	0.4528198	0.8804932	
11.07	0.9570313	0.1942139	
11.26	0.638031	-0.7975769	
11.45	-0.7785034	-0.2923279	
11.64	0.460907	0.6044922	
11.83	0.8615112	0.1570435	
12.02	0.8866577	-0.1976929	
12.21	0.7339478	-0.4994507	
12.4	0.1618042	-0.8241577	
12.59	-0.2752686	0.6626587	
12.78	0.62323	-0.4090881	
12.97	0.2157593	-0.7952271	
13.16	-0.1871338	-0.8609009	
13.35	-0.548584	-0.6922607	
13.54	-0.5088501	-0.5317688	
13.73	-0.788208	0.4957275	
13.92	-0.332489	0.7843323	
14.11	-0.1516418	-0.7393799	
14.3	-0.5437927	0.0814514	
14.49	-0.9254761	0.3493652	
14.68	-0.8027344	0.5266724	
14.87	-0.3483276	0.8123169	
15.06	0.2910156	0.7877808	
15.25	0.7934875	0.3012085	
15.44	0.5799255	-0.5954895	
15.63	-0.7059937	-0.3534851	
15.82	-0.4378357	0.5675354	
16.01	0.4717712	0.8081055	
16.2	-0.3816986	-0.3489685	
16.39	0.9000854	0.133728	
16.58	0.2274017	0.3994904	
16.77	0.800415	-0.08041382	
16.96	0.5875854	-0.5717773	
17.15	0.6915588	-0.2857056	
17.34	0.5513	-0.54953	
17.53	0.2032471	-0.7862549	
17.72	-0.1014709	-0.7150574	
17.91	-0.2159729	-0.7481384	
18.1	-0.6734619	-0.8669434	
18.29	-0.9449463	-0.3307495	
18.48	-0.5324707	0.0310669	
18.67	-1.011963	-0.1472778	
18.86	-0.8914185	-0.03082275	
19.05	-0.1793823	0.5428162	
19.24	-0.9182129	0.5057373	
19.43	-0.8057251	0.7636719	
19.62	-0.6592102	0.7414856	
19.81	0.1299438	0.7319031	
20.0	-0.02270508	0.8514404	
