# GHz S RI R 50 
!freq	ReS11	ImS11	
1.0	-0.5791016	-0.2563477	
1.19	-0.6876831	0.020813	
1.38	-0.6615601	0.2977295	
1.57	-0.5299683	0.5342407	
1.76	-0.2697754	0.7474976	
1.95	0.0739136	0.8138428	
2.14	0.4054565	0.7426758	
2.33	0.6782227	0.5615845	
2.52	0.8252563	0.2790527	
2.71	0.9157104	-0.07171631	
2.9	0.8329468	-0.4038696	
3.09	0.6083374	-0.7143555	
3.28	0.2988892	-0.8588257	
3.47	-0.01123047	-0.9313965	
3.66	-0.3384399	-0.8500977	
3.85	-0.6560669	-0.6525269	
4.04	-0.8418579	-0.2872925	
4.23	-0.9111938	0.0645142	
4.42	-0.8019409	0.4138184	
4.61	-0.5808105	0.7244873	
4.8	-0.2151489	0.9232788	
4.99	0.2265625	0.9522705	
5.18	0.6261597	0.7861938	
5.37	0.9464111	0.394043	
5.56	1.044739	-0.03515625	
5.75	0.9462891	-0.3933716	
5.94	0.5814209	-0.788269	
6.13	0.0481567	-0.9759521	
6.32	-0.4053955	-0.8726807	
6.51	-0.7544556	-0.5304565	
6.7	-0.9473267	0.0133057	
6.89	0.8474121	-0.5043335	
7.08	-0.8952026	0.1229248	
7.27	-0.4508667	0.7536011	
7.46	0.5627441	0.6824646	
7.65	-0.1392822	-0.9090576	
7.84	-0.821106	0.5437622	
8.03	0.137146	0.9094238	
8.22	0.9378052	0.1625366	
8.41	0.1557007	-0.9868774	
8.6	-0.8890991	0.2440491	
8.79	0.1409302	0.9158325	
8.98	0.8787231	0.3735962	
9.17	0.5105286	-0.8059387	
9.36	-0.7788696	-0.5453796	
9.55	-0.885376	0.272522	
9.74	-0.2888794	0.9136353	
9.93	0.8165588	0.4921265	
10.12	0.5318604	-0.8526611	
10.31	-0.759613	-0.581604	
10.5	-0.769043	0.525116	
10.69	-0.2310181	0.9639893	
10.88	0.4552002	0.8780518	
11.07	0.9561157	0.1954346	
11.26	0.6388245	-0.8033142	
11.45	-0.7792053	-0.2918091	
11.64	0.4654846	0.6083679	
11.83	0.8632202	0.1573486	
12.02	0.8869019	-0.2004395	
12.21	0.7313232	-0.5050354	
12.4	0.1602783	-0.821106	
12.59	-0.2754517	0.6655579	
12.78	0.6234741	-0.4082947	
12.97	0.215271	-0.7906494	
13.16	-0.1789551	-0.8564453	
13.35	-0.5553589	-0.7012329	
13.54	-0.5017395	-0.532135	
13.73	-0.7885132	0.4939575	
13.92	-0.3356934	0.7791443	
14.11	-0.1547852	-0.7337952	
14.3	-0.5446777	0.0818176	
14.49	-0.9286194	0.3486633	
14.68	-0.79953	0.5267029	
14.87	-0.3484802	0.8086548	
15.06	0.2887878	0.793335	
15.25	0.7935181	0.3025818	
15.44	0.5760803	-0.5908813	
15.63	-0.6987305	-0.3587036	
15.82	-0.4413452	0.5644531	
16.01	0.4729004	0.8104248	
16.2	-0.3821411	-0.3501434	
16.39	0.8999023	0.1348877	
16.58	0.2265625	0.4055328	
16.77	0.7989807	-0.07983398	
16.96	0.5865784	-0.5736694	
17.15	0.693634	-0.285614	
17.34	0.5564575	-0.5506897	
17.53	0.2046509	-0.7774353	
17.72	-0.09326172	-0.7120667	
17.91	-0.2167664	-0.7496338	
18.1	-0.6665039	-0.8693848	
18.29	-0.9448853	-0.3325806	
18.48	-0.53302	0.0299072	
18.67	-1.011414	-0.1502075	
18.86	-0.8914185	-0.03210449	
19.05	-0.1777954	0.5414429	
19.24	-0.9147949	0.5080566	
19.43	-0.8021851	0.7655029	
19.62	-0.6584778	0.7463989	
19.81	0.1286011	0.7298889	
20.0	-0.02374268	0.8401489	
