# GHz S RI R 50 
!freq	ReS11	ImS11	
1.0	-0.579895	-0.2544556	
1.19	-0.6876221	0.020874	
1.38	-0.6613159	0.2994995	
1.57	-0.5276489	0.5336914	
1.76	-0.2752686	0.7527466	
1.95	0.0789185	0.8080444	
2.14	0.4056396	0.7457275	
2.33	0.6725464	0.5595093	
2.52	0.8275146	0.2786255	
2.71	0.9157715	-0.07415771	
2.9	0.8319702	-0.40802	
3.09	0.6098022	-0.708252	
3.28	0.2988892	-0.859436	
3.47	-0.01025391	-0.9358521	
3.66	-0.3411865	-0.8483276	
3.85	-0.663208	-0.6472168	
4.04	-0.8413086	-0.2843628	
4.23	-0.9111938	0.0638428	
4.42	-0.7982178	0.414856	
4.61	-0.5786743	0.7254639	
4.8	-0.2160034	0.9187622	
4.99	0.2183228	0.9454346	
5.18	0.6308899	0.7802734	
5.37	0.9486694	0.3915405	
5.56	1.045227	-0.03625488	
5.75	0.9455566	-0.3994141	
5.94	0.581543	-0.7849121	
6.13	0.0504761	-0.9707031	
6.32	-0.4109497	-0.8676758	
6.51	-0.7567749	-0.5305786	
6.7	-0.9473267	0.0134277	
6.89	0.8411865	-0.5059204	
7.08	-0.8948364	0.1229248	
7.27	-0.4520874	0.7561035	
7.46	0.5617676	0.6792603	
7.65	-0.1339111	-0.913269	
7.84	-0.822876	0.5392456	
8.03	0.1386108	0.9129639	
8.22	0.9385986	0.1615601	
8.41	0.1539307	-0.9904785	
8.6	-0.8897095	0.2437134	
8.79	0.1404419	0.925354	
8.98	0.8775635	0.375	
9.17	0.5131226	-0.8074036	
9.36	-0.7735291	-0.5501709	
9.55	-0.8908691	0.2722778	
9.74	-0.2921753	0.9238892	
9.93	0.816925	0.4936523	
10.12	0.5269165	-0.8526001	
10.31	-0.7622986	-0.5772095	
10.5	-0.7724609	0.5257568	
10.69	-0.2283936	0.954834	
10.88	0.4523315	0.8877563	
11.07	0.9570923	0.194519	
11.26	0.6364746	-0.8059082	
11.45	-0.778595	-0.2912598	
11.64	0.4647827	0.6074829	
11.83	0.8609009	0.1574097	
12.02	0.8866577	-0.1972046	
12.21	0.7312317	-0.5036316	
12.4	0.1604004	-0.8262939	
12.59	-0.2751465	0.665741	
12.78	0.6278687	-0.4098511	
12.97	0.2111816	-0.7938232	
13.16	-0.1860352	-0.8603516	
13.35	-0.5481567	-0.6980591	
13.54	-0.502594	-0.5359497	
13.73	-0.7913513	0.4993591	
13.92	-0.3291931	0.7797241	
14.11	-0.1513367	-0.734314	
14.3	-0.5436707	0.0806885	
14.49	-0.9257507	0.351593	
14.68	-0.8007507	0.5271606	
14.87	-0.3442383	0.8116455	
15.06	0.2901917	0.7904663	
15.25	0.7930908	0.301239	
15.44	0.5791016	-0.5847168	
15.63	-0.7059021	-0.35672	
15.82	-0.4396973	0.5674744	
16.01	0.4791565	0.809845	
16.2	-0.3811951	-0.3476563	
16.39	0.8997192	0.133667	
16.58	0.2286987	0.4013214	
16.77	0.7997131	-0.0802002	
16.96	0.5891418	-0.576416	
17.15	0.6929321	-0.2874146	
17.34	0.5585632	-0.5494995	
17.53	0.2057495	-0.7811584	
17.72	-0.09933472	-0.71875	
17.91	-0.2191772	-0.7457886	
18.1	-0.6703796	-0.8634949	
18.29	-0.9453735	-0.3300781	
18.48	-0.5319519	0.0308533	
18.67	-1.011169	-0.1481323	
18.86	-0.8914795	-0.03100586	
19.05	-0.1795349	0.5420837	
19.24	-0.9196167	0.5073853	
19.43	-0.8060913	0.7606201	
19.62	-0.6617737	0.7447205	
19.81	0.1317139	0.7254028	
20.0	-0.02252197	0.8494263	
