# GHz S RI R 50 
!freq	ReS11	ImS11	
1.0	-0.5772705	-0.2546997	
1.19	-0.6873779	0.020813	
1.38	-0.6601563	0.298584	
1.57	-0.5303955	0.5380859	
1.76	-0.2746582	0.7487183	
1.95	0.0767212	0.8180542	
2.14	0.4049683	0.7468262	
2.33	0.6764526	0.5620117	
2.52	0.8267822	0.2785645	
2.71	0.9169312	-0.07305908	
2.9	0.8336182	-0.4081421	
3.09	0.605957	-0.7077637	
3.28	0.2984619	-0.8635864	
3.47	-0.005737305	-0.9350586	
3.66	-0.3419189	-0.8466187	
3.85	-0.6617432	-0.6508789	
4.04	-0.8405151	-0.2854004	
4.23	-0.9103394	0.0656128	
4.42	-0.7995605	0.4146729	
4.61	-0.5773315	0.7285767	
4.8	-0.2164307	0.9224854	
4.99	0.2281494	0.9414063	
5.18	0.6307068	0.7838135	
5.37	0.947998	0.3925171	
5.56	1.046082	-0.03643799	
5.75	0.9451904	-0.3999634	
5.94	0.5787354	-0.789917	
6.13	0.0460205	-0.9678955	
6.32	-0.4138794	-0.866333	
6.51	-0.7583008	-0.5300293	
6.7	-0.9474487	0.0142822	
6.89	0.8413086	-0.5024414	
7.08	-0.8954468	0.1237793	
7.27	-0.4507446	0.7520752	
7.46	0.5634155	0.6808777	
7.65	-0.1357422	-0.9141846	
7.84	-0.8286743	0.541687	
8.03	0.1335449	0.9085083	
8.22	0.9382935	0.1613159	
8.41	0.1539307	-0.9906616	
8.6	-0.8871765	0.2435303	
8.79	0.1477661	0.9207153	
8.98	0.880188	0.373291	
9.17	0.5091553	-0.8068237	
9.36	-0.7748718	-0.5491943	
9.55	-0.8880005	0.2727051	
9.74	-0.2935791	0.9179688	
9.93	0.8150635	0.4933472	
10.12	0.5255737	-0.8554688	
10.31	-0.7633667	-0.5779724	
10.5	-0.7703247	0.5234985	
10.69	-0.2321777	0.9593506	
10.88	0.4567261	0.8848267	
11.07	0.954895	0.1945801	
11.26	0.6429443	-0.796814	
11.45	-0.7764587	-0.2918396	
11.64	0.4604187	0.6054688	
11.83	0.8610229	0.1576538	
12.02	0.8877563	-0.1974487	
12.21	0.7316284	-0.4986267	
12.4	0.1587524	-0.8196411	
12.59	-0.2765503	0.6661072	
12.78	0.6244507	-0.4115906	
12.97	0.2107544	-0.7966309	
13.16	-0.1895142	-0.8582153	
13.35	-0.5509644	-0.7002563	
13.54	-0.5042114	-0.5355835	
13.73	-0.7913513	0.496521	
13.92	-0.3283386	0.7806396	
14.11	-0.15271	-0.7397461	
14.3	-0.5437317	0.0803528	
14.49	-0.9274902	0.3528442	
14.68	-0.7965698	0.5307617	
14.87	-0.3435059	0.8183899	
15.06	0.292511	0.788269	
15.25	0.7927246	0.2994385	
15.44	0.5765076	-0.5875854	
15.63	-0.7001648	-0.355896	
15.82	-0.4387512	0.566864	
16.01	0.4762878	0.8144531	
16.2	-0.3825378	-0.3449097	
16.39	0.8994751	0.1337891	
16.58	0.2301483	0.4047394	
16.77	0.8000488	-0.08065796	
16.96	0.5852966	-0.5714417	
17.15	0.6936646	-0.2843323	
17.34	0.5570984	-0.5510559	
17.53	0.2046509	-0.7813416	
17.72	-0.08676147	-0.7220459	
17.91	-0.2175598	-0.7438049	
18.1	-0.6669006	-0.8628845	
18.29	-0.9445801	-0.3320313	
18.48	-0.5319824	0.0302734	
18.67	-1.011047	-0.1478271	
18.86	-0.8912964	-0.03076172	
19.05	-0.180481	0.5427551	
19.24	-0.9198608	0.5084839	
19.43	-0.800293	0.760376	
19.62	-0.6597595	0.7442017	
19.81	0.1323242	0.7243958	
20.0	-0.02276611	0.8521118	
