# GHz S RI R 50 
!freq	ReS11	ImS11	
1.0	-0.5762329	-0.255127	
1.19	-0.6872559	0.020752	
1.38	-0.6625366	0.2973633	
1.57	-0.529541	0.5361328	
1.76	-0.2766113	0.7512207	
1.95	0.0778809	0.8119507	
2.14	0.4053955	0.7462158	
2.33	0.6755981	0.5608521	
2.52	0.8276978	0.2791748	
2.71	0.9155884	-0.07287598	
2.9	0.8303833	-0.4099121	
3.09	0.609375	-0.7058105	
3.28	0.2949219	-0.8567505	
3.47	-0.01776123	-0.9310913	
3.66	-0.3417969	-0.8491211	
3.85	-0.6582031	-0.6445313	
4.04	-0.8411865	-0.2837524	
4.23	-0.9101563	0.0661011	
4.42	-0.8018799	0.4089966	
4.61	-0.5786743	0.7221069	
4.8	-0.2127075	0.914917	
4.99	0.2139893	0.9397583	
5.18	0.6254883	0.7836914	
5.37	0.9470215	0.3924561	
5.56	1.0448	-0.03570557	
5.75	0.9439697	-0.3956909	
5.94	0.5785522	-0.7850342	
6.13	0.0356445	-0.9612427	
6.32	-0.4047241	-0.8686523	
6.51	-0.7531738	-0.5275269	
6.7	-0.9478149	0.0133667	
6.89	0.8450317	-0.5029297	
7.08	-0.8944702	0.1228638	
7.27	-0.4506836	0.7589722	
7.46	0.5657043	0.6818542	
7.65	-0.1299438	-0.9117432	
7.84	-0.8259277	0.5387573	
8.03	0.1382446	0.9094849	
8.22	0.9382324	0.1622925	
8.41	0.1479492	-0.9910278	
8.6	-0.8904419	0.2411804	
8.79	0.1469116	0.9263306	
8.98	0.8787842	0.3731079	
9.17	0.5178223	-0.8110657	
9.36	-0.7771301	-0.5449524	
9.55	-0.8895874	0.274231	
9.74	-0.2900391	0.9213867	
9.93	0.8186035	0.4938965	
10.12	0.5280151	-0.8505249	
10.31	-0.7573853	-0.581543	
10.5	-0.7712097	0.5266724	
10.69	-0.2285767	0.9636841	
10.88	0.4556274	0.8929443	
11.07	0.9561768	0.1951904	
11.26	0.6414795	-0.8078003	
11.45	-0.7804565	-0.2922363	
11.64	0.4646606	0.6079102	
11.83	0.8621216	0.1572266	
12.02	0.8855591	-0.1986084	
12.21	0.7319946	-0.5007324	
12.4	0.1607056	-0.8222656	
12.59	-0.2743835	0.6639709	
12.78	0.6217041	-0.4105225	
12.97	0.2176514	-0.7954712	
13.16	-0.1878052	-0.8562012	
13.35	-0.5556641	-0.6986694	
13.54	-0.5021057	-0.5340881	
13.73	-0.7874756	0.4993896	
13.92	-0.331543	0.7820129	
14.11	-0.1490784	-0.7346497	
14.3	-0.5444336	0.081543	
14.49	-0.9274902	0.3531189	
14.68	-0.7987671	0.5299683	
14.87	-0.3434448	0.8048096	
15.06	0.2935181	0.7935791	
15.25	0.7961121	0.3007507	
15.44	0.5832214	-0.5888367	
15.63	-0.7022095	-0.3579102	
15.82	-0.4432373	0.564209	
16.01	0.4709778	0.8101807	
16.2	-0.3813477	-0.3484039	
16.39	0.899231	0.1352234	
16.58	0.2268982	0.4038239	
16.77	0.7998352	-0.08099365	
16.96	0.5837708	-0.5768433	
17.15	0.692627	-0.2848206	
17.34	0.5535889	-0.553772	
17.53	0.2021484	-0.7805786	
17.72	-0.09881592	-0.7155457	
17.91	-0.2159729	-0.7434692	
18.1	-0.6712646	-0.867157	
18.29	-0.9436646	-0.3329468	
18.48	-0.5322876	0.0310669	
18.67	-1.011292	-0.1484375	
18.86	-0.8916626	-0.03186035	
19.05	-0.1772461	0.5412598	
19.24	-0.9181519	0.5079956	
19.43	-0.8026123	0.7644653	
19.62	-0.6567993	0.7452393	
19.81	0.1348267	0.7256775	
20.0	-0.02166748	0.8479004	
