# GHz S RI R 50 
!freq	ReS11	ImS11	
1.0	-0.5776978	-0.2529297	
1.19	-0.6875	0.0205078	
1.38	-0.6610107	0.2972412	
1.57	-0.5302734	0.5357056	
1.76	-0.2698975	0.7495728	
1.95	0.0734253	0.8143311	
2.14	0.4032593	0.7453003	
2.33	0.6751099	0.5612793	
2.52	0.8261719	0.2786865	
2.71	0.9162598	-0.07397461	
2.9	0.829834	-0.4099731	
3.09	0.6046143	-0.7011719	
3.28	0.3016968	-0.854248	
3.47	-0.01531982	-0.9310913	
3.66	-0.3417358	-0.8488159	
3.85	-0.6588745	-0.6491699	
4.04	-0.8413696	-0.2854004	
4.23	-0.9115601	0.0646973	
4.42	-0.8041992	0.4116821	
4.61	-0.5755615	0.7231445	
4.8	-0.2134399	0.921936	
4.99	0.2158203	0.9412231	
5.18	0.6249084	0.7843628	
5.37	0.9459839	0.3920898	
5.56	1.045044	-0.03588867	
5.75	0.949646	-0.3966675	
5.94	0.5791016	-0.7836304	
6.13	0.0443726	-0.9746094	
6.32	-0.4141235	-0.867981	
6.51	-0.7559814	-0.529541	
6.7	-0.9476929	0.0134277	
6.89	0.8499756	-0.5078735	
7.08	-0.8950195	0.1226807	
7.27	-0.4569092	0.7508545	
7.46	0.5627747	0.6846924	
7.65	-0.1325073	-0.9085083	
7.84	-0.8198242	0.5405273	
8.03	0.1438599	0.9191895	
8.22	0.9381714	0.1622925	
8.41	0.1529541	-0.9926758	
8.6	-0.8859558	0.2452087	
8.79	0.1431274	0.9117432	
8.98	0.8786621	0.3726807	
9.17	0.5073242	-0.8127747	
9.36	-0.7752686	-0.550293	
9.55	-0.8894653	0.2695923	
9.74	-0.2857666	0.9154663	
9.93	0.81604	0.4963684	
10.12	0.527832	-0.8537598	
10.31	-0.7579041	-0.584259	
10.5	-0.7683716	0.5300598	
10.69	-0.2325439	0.9639282	
10.88	0.4530029	0.8792114	
11.07	0.9557495	0.1952515	
11.26	0.6398621	-0.8095703	
11.45	-0.7783508	-0.2906494	
11.64	0.4635925	0.6098328	
11.83	0.8616333	0.1582642	
12.02	0.8862305	-0.1971436	
12.21	0.7316895	-0.5013123	
12.4	0.1536865	-0.8242188	
12.59	-0.2710266	0.660675	
12.78	0.6213989	-0.412384	
12.97	0.2131348	-0.7927856	
13.16	-0.1879883	-0.855957	
13.35	-0.5484009	-0.6995239	
13.54	-0.5007935	-0.5362854	
13.73	-0.7876587	0.5020447	
13.92	-0.3289795	0.780365	
14.11	-0.1550903	-0.7362976	
14.3	-0.5440674	0.0821533	
14.49	-0.9240417	0.3493652	
14.68	-0.7999878	0.5332947	
14.87	-0.3513184	0.8103638	
15.06	0.2896423	0.7853394	
15.25	0.7940979	0.3025208	
15.44	0.5823059	-0.5851746	
15.63	-0.7038879	-0.3579407	
15.82	-0.4376831	0.5632935	
16.01	0.4753418	0.8139038	
16.2	-0.3804779	-0.3486633	
16.39	0.9000244	0.1342163	
16.58	0.2273407	0.4021759	
16.77	0.7987976	-0.07949829	
16.96	0.5823669	-0.5772705	
17.15	0.6926575	-0.2847595	
17.34	0.553009	-0.5482788	
17.53	0.198761	-0.7879944	
17.72	-0.1012268	-0.7175598	
17.91	-0.2149658	-0.7465515	
18.1	-0.670166	-0.867218	
18.29	-0.9450073	-0.3305054	
18.48	-0.5324402	0.0297546	
18.67	-1.011414	-0.1490479	
18.86	-0.8914185	-0.03186035	
19.05	-0.1820374	0.539856	
19.24	-0.9178467	0.5058594	
19.43	-0.8021851	0.7589111	
19.62	-0.6583862	0.7478027	
19.81	0.1307068	0.7213745	
20.0	-0.02618408	0.847229	
