# GHz S RI R 50 
!freq	ReS11	ImS11	
1.0	-0.5800171	-0.2545776	
1.19	-0.6878662	0.020813	
1.38	-0.6596069	0.2994385	
1.57	-0.5324097	0.5328369	
1.76	-0.269104	0.7520142	
1.95	0.0742188	0.8103027	
2.14	0.4036255	0.746582	
2.33	0.6774292	0.5648804	
2.52	0.8261108	0.2792969	
2.71	0.9173584	-0.07305908	
2.9	0.8303223	-0.4075317	
3.09	0.6063232	-0.7092896	
3.28	0.2941895	-0.861145	
3.47	-0.01599121	-0.9277344	
3.66	-0.3405151	-0.8470459	
3.85	-0.6590576	-0.6500854	
4.04	-0.8421021	-0.2853394	
4.23	-0.9110107	0.0653076	
4.42	-0.8070679	0.4140015	
4.61	-0.5841675	0.7305908	
4.8	-0.2124023	0.9130859	
4.99	0.2179565	0.9492798	
5.18	0.6246338	0.7801819	
5.37	0.9466553	0.3912354	
5.56	1.045593	-0.03570557	
5.75	0.9477539	-0.3978882	
5.94	0.5737915	-0.7839355	
6.13	0.0421143	-0.9642944	
6.32	-0.4176025	-0.8700562	
6.51	-0.756897	-0.5291138	
6.7	-0.947937	0.0131226	
6.89	0.8426514	-0.4994507	
7.08	-0.8931885	0.1240234	
7.27	-0.4518433	0.7516479	
7.46	0.5625	0.6820984	
7.65	-0.132019	-0.9099121	
7.84	-0.8256226	0.5408325	
8.03	0.1417847	0.9165649	
8.22	0.9378662	0.1615601	
8.41	0.1473389	-0.9921265	
8.6	-0.885437	0.2424927	
8.79	0.1503906	0.909668	
8.98	0.8804321	0.3726196	
9.17	0.5090637	-0.8136902	
9.36	-0.7798767	-0.5491943	
9.55	-0.8890381	0.2681274	
9.74	-0.2941284	0.916748	
9.93	0.8165894	0.4944153	
10.12	0.5300293	-0.8510742	
10.31	-0.7597656	-0.5770569	
10.5	-0.770752	0.5246582	
10.69	-0.225708	0.9668579	
10.88	0.4517212	0.8805542	
11.07	0.9570313	0.1938477	
11.26	0.6414185	-0.8037415	
11.45	-0.7783508	-0.2901611	
11.64	0.4730225	0.6116028	
11.83	0.8621826	0.1569214	
12.02	0.8864136	-0.1986694	
12.21	0.7298279	-0.5005493	
12.4	0.1575928	-0.8286133	
12.59	-0.2759705	0.6700134	
12.78	0.6225586	-0.4108887	
12.97	0.2095947	-0.7936401	
13.16	-0.1901245	-0.8552856	
13.35	-0.5582275	-0.7067261	
13.54	-0.5025024	-0.5328979	
13.73	-0.7878113	0.4984436	
13.92	-0.3294067	0.7789001	
14.11	-0.1498413	-0.7325439	
14.3	-0.545166	0.0819397	
14.49	-0.9276733	0.3495483	
14.68	-0.7979736	0.5279541	
14.87	-0.3457642	0.8111572	
15.06	0.2895203	0.7888184	
15.25	0.7940674	0.3040771	
15.44	0.579895	-0.5934753	
15.63	-0.7045288	-0.355896	
15.82	-0.4371033	0.5622253	
16.01	0.4766541	0.8047485	
16.2	-0.3840485	-0.348587	
16.39	0.8997803	0.1343384	
16.58	0.2271576	0.4024658	
16.77	0.7993164	-0.07971191	
16.96	0.589325	-0.5749207	
17.15	0.6916809	-0.2853394	
17.34	0.5596313	-0.5505371	
17.53	0.2033997	-0.787323	
17.72	-0.1038818	-0.7138672	
17.91	-0.2183228	-0.7429199	
18.1	-0.6694336	-0.863739	
18.29	-0.942688	-0.3302002	
18.48	-0.5321655	0.0310364	
18.67	-1.011292	-0.1488647	
18.86	-0.8912964	-0.03155518	
19.05	-0.1776733	0.5400085	
19.24	-0.9140015	0.5141602	
19.43	-0.800293	0.7557983	
19.62	-0.6567383	0.746521	
19.81	0.1328125	0.7254028	
20.0	-0.02783203	0.8487549	
