# GHz S RI R 50 
!freq	ReS11	ImS11	
1.0	-0.5769653	-0.2537842	
1.19	-0.6876831	0.0206909	
1.38	-0.6593018	0.2999878	
1.57	-0.52948	0.5374146	
1.76	-0.270874	0.7434082	
1.95	0.0765381	0.81427	
2.14	0.4082642	0.7476196	
2.33	0.6756592	0.5604858	
2.52	0.8253174	0.27948	
2.71	0.9158936	-0.07348633	
2.9	0.8309937	-0.4050293	
3.09	0.6051636	-0.7062988	
3.28	0.3011475	-0.8535767	
3.47	-0.01190186	-0.935791	
3.66	-0.3366089	-0.8487549	
3.85	-0.6593628	-0.6472168	
4.04	-0.842041	-0.2844849	
4.23	-0.9109497	0.0650635	
4.42	-0.8065186	0.4115601	
4.61	-0.5843506	0.7206421	
4.8	-0.2113647	0.9215698	
4.99	0.2141113	0.946228	
5.18	0.6248779	0.7904358	
5.37	0.9468384	0.3893433	
5.56	1.045715	-0.03552246	
5.75	0.9463501	-0.3971558	
5.94	0.5813599	-0.7874146	
6.13	0.0409546	-0.96698	
6.32	-0.4101563	-0.8646851	
6.51	-0.756897	-0.5264893	
6.7	-0.9475708	0.0127563	
6.89	0.8447266	-0.503418	
7.08	-0.8956909	0.1234131	
7.27	-0.4486694	0.7474976	
7.46	0.5664978	0.6827087	
7.65	-0.1379395	-0.9071045	
7.84	-0.8276978	0.541626	
8.03	0.1383057	0.9156494	
8.22	0.9390869	0.1616821	
8.41	0.1571655	-0.9910278	
8.6	-0.8871155	0.2428894	
8.79	0.1466064	0.9223022	
8.98	0.8798523	0.3747559	
9.17	0.5039063	-0.8112793	
9.36	-0.7780762	-0.546936	
9.55	-0.8894653	0.2713623	
9.74	-0.2875977	0.9202271	
9.93	0.8162231	0.4953613	
10.12	0.522583	-0.8501587	
10.31	-0.7591858	-0.5795593	
10.5	-0.7733765	0.526825	
10.69	-0.2316895	0.9610596	
10.88	0.4490356	0.8817139	
11.07	0.9561157	0.1943359	
11.26	0.6410522	-0.8079224	
11.45	-0.7770996	-0.2954712	
11.64	0.4652405	0.6111145	
11.83	0.8619385	0.1573486	
12.02	0.8867798	-0.1976929	
12.21	0.7359009	-0.5046082	
12.4	0.1580811	-0.8296509	
12.59	-0.2763672	0.666748	
12.78	0.62323	-0.4116516	
12.97	0.2163086	-0.7974243	
13.16	-0.1807861	-0.8638306	
13.35	-0.5510864	-0.7050781	
13.54	-0.5040588	-0.5328064	
13.73	-0.7895813	0.4947205	
13.92	-0.3231506	0.7791443	
14.11	-0.1541443	-0.7417603	
14.3	-0.5439453	0.08078	
14.49	-0.9262695	0.3500977	
14.68	-0.8030396	0.525116	
14.87	-0.3464966	0.8085327	
15.06	0.2893677	0.7849731	
15.25	0.7971191	0.3032532	
15.44	0.5791931	-0.5855713	
15.63	-0.7041016	-0.3555298	
15.82	-0.440033	0.5613708	
16.01	0.4814148	0.8143311	
16.2	-0.3822479	-0.3475494	
16.39	0.8998413	0.1344299	
16.58	0.2289429	0.4024506	
16.77	0.8005676	-0.08175659	
16.96	0.5891418	-0.5752869	
17.15	0.6923218	-0.285675	
17.34	0.5532532	-0.5484314	
17.53	0.2089539	-0.7851563	
17.72	-0.1033325	-0.7139282	
17.91	-0.2174072	-0.7488708	
18.1	-0.6712341	-0.8645935	
18.29	-0.9447021	-0.3318481	
18.48	-0.532135	0.0293884	
18.67	-1.011047	-0.1485596	
18.86	-0.8920288	-0.03118896	
19.05	-0.1808167	0.541626	
19.24	-0.9179077	0.510437	
19.43	-0.8071899	0.7583008	
19.62	-0.6598511	0.7420654	
19.81	0.131073	0.7254028	
20.0	-0.02270508	0.8504639	
