# GHz S RI R 50 
!freq	ReS11	ImS11	
1.0	-0.5756226	-0.2536011	
1.19	-0.6877441	0.0205688	
1.38	-0.6624756	0.2979736	
1.57	-0.5319824	0.5358887	
1.76	-0.2705688	0.7508545	
1.95	0.0753784	0.8123779	
2.14	0.3977661	0.7489624	
2.33	0.6760864	0.5632935	
2.52	0.8253174	0.2792358	
2.71	0.9161987	-0.07275391	
2.9	0.8291016	-0.4060059	
3.09	0.6065674	-0.704834	
3.28	0.3009033	-0.8515625	
3.47	-0.01348877	-0.9286499	
3.66	-0.3359375	-0.84021	
3.85	-0.6612549	-0.6483154	
4.04	-0.840332	-0.2848511	
4.23	-0.911499	0.0643921	
4.42	-0.8032837	0.4143677	
4.61	-0.5806274	0.7260742	
4.8	-0.211853	0.9161987	
4.99	0.225708	0.9441528	
5.18	0.6218872	0.7895508	
5.37	0.9469604	0.3921509	
5.56	1.044983	-0.03540039	
5.75	0.944458	-0.397644	
5.94	0.5820923	-0.7828979	
6.13	0.0473633	-0.9666138	
6.32	-0.4142456	-0.8673706	
6.51	-0.757019	-0.5290527	
6.7	-0.9475098	0.0126343	
6.89	0.8446045	-0.5025635	
7.08	-0.8944092	0.1222534	
7.27	-0.4456787	0.7518921	
7.46	0.5639038	0.6841125	
7.65	-0.1330566	-0.9174194	
7.84	-0.828064	0.5368042	
8.03	0.1429443	0.9118652	
8.22	0.9384766	0.1626587	
8.41	0.1541138	-0.9874268	
8.6	-0.8865662	0.2424316	
8.79	0.1483154	0.9094849	
8.98	0.8797607	0.3737793	
9.17	0.5079346	-0.8147888	
9.36	-0.7747803	-0.5512695	
9.55	-0.8904419	0.2724609	
9.74	-0.281189	0.9208984	
9.93	0.8146667	0.4935303	
10.12	0.5320435	-0.850769	
10.31	-0.7598267	-0.5779419	
10.5	-0.7720032	0.5259705	
10.69	-0.2392578	0.9619751	
10.88	0.4562988	0.8842163	
11.07	0.9559937	0.1949463	
11.26	0.6419983	-0.8078308	
11.45	-0.7797852	-0.2922974	
11.64	0.4674683	0.609436	
11.83	0.8619385	0.1578369	
12.02	0.8884277	-0.1983032	
12.21	0.7327576	-0.501709	
12.4	0.1583862	-0.8148193	
12.59	-0.2766113	0.6655884	
12.78	0.6203308	-0.4093323	
12.97	0.2133789	-0.7913818	
13.16	-0.1911621	-0.861145	
13.35	-0.548645	-0.703186	
13.54	-0.5042725	-0.53479	
13.73	-0.7868347	0.4964905	
13.92	-0.3283081	0.7771301	
14.11	-0.1531372	-0.735199	
14.3	-0.5447693	0.0812988	
14.49	-0.9287415	0.3466492	
14.68	-0.7988892	0.5283508	
14.87	-0.3509216	0.8106689	
15.06	0.2869873	0.7899475	
15.25	0.792511	0.3009949	
15.44	0.5776367	-0.5910034	
15.63	-0.7013245	-0.3596802	
15.82	-0.4394836	0.5614014	
16.01	0.4721069	0.8131104	
16.2	-0.3799591	-0.3496094	
16.39	0.8999023	0.1356201	
16.58	0.2268677	0.4064178	
16.77	0.79953	-0.0798645	
16.96	0.5910339	-0.572998	
17.15	0.692688	-0.2845154	
17.34	0.5539856	-0.5519104	
17.53	0.2024536	-0.7818909	
17.72	-0.1053467	-0.7179565	
17.91	-0.2166138	-0.7446594	
18.1	-0.6690063	-0.8665161	
18.29	-0.9448853	-0.333252	
18.48	-0.5323792	0.0305176	
18.67	-1.011353	-0.1489258	
18.86	-0.8916016	-0.03198242	
19.05	-0.1773987	0.5407715	
19.24	-0.9179688	0.5048828	
19.43	-0.8011475	0.7608032	
19.62	-0.6588745	0.7446899	
19.81	0.1315002	0.720459	
20.0	-0.02166748	0.8493652	
