# GHz S RI R 50 
!freq	ReS11	ImS11	
1.0	-0.5770264	-0.251709	
1.19	-0.6868896	0.0211792	
1.38	-0.6625366	0.2991943	
1.57	-0.5317993	0.5342407	
1.76	-0.2706299	0.751709	
1.95	0.0725708	0.8110352	
2.14	0.4030151	0.7480469	
2.33	0.6729126	0.5569458	
2.52	0.8269653	0.2791748	
2.71	0.9155884	-0.07342529	
2.9	0.8314209	-0.4119873	
3.09	0.6011963	-0.7069092	
3.28	0.2943115	-0.8522339	
3.47	-0.01593018	-0.9251099	
3.66	-0.3364868	-0.8429565	
3.85	-0.6550903	-0.6478882	
4.04	-0.8408203	-0.2850952	
4.23	-0.9105225	0.0647583	
4.42	-0.8059082	0.4175415	
4.61	-0.5811768	0.7265015	
4.8	-0.2180176	0.9256592	
4.99	0.2268066	0.9416504	
5.18	0.6233826	0.7866516	
5.37	0.9477539	0.3895264	
5.56	1.046143	-0.03485107	
5.75	0.9489746	-0.3967285	
5.94	0.5787964	-0.7810059	
6.13	0.0438843	-0.9761353	
6.32	-0.4110107	-0.8713989	
6.51	-0.7562256	-0.5274658	
6.7	-0.9476318	0.0134277	
6.89	0.847168	-0.5001831	
7.08	-0.8952637	0.1224976	
7.27	-0.4498291	0.7471924	
7.46	0.5606689	0.6821899	
7.65	-0.1358032	-0.9126587	
7.84	-0.8285522	0.5424194	
8.03	0.1373901	0.918396	
8.22	0.937561	0.1624756	
8.41	0.1559448	-0.9907837	
8.6	-0.8847351	0.2414246	
8.79	0.1456299	0.914917	
8.98	0.878479	0.3729248	
9.17	0.5042419	-0.8168335	
9.36	-0.7757263	-0.5496826	
9.55	-0.890625	0.2704468	
9.74	-0.2926025	0.9177856	
9.93	0.8146973	0.4947815	
10.12	0.5278931	-0.8530884	
10.31	-0.7604675	-0.576355	
10.5	-0.771759	0.5245056	
10.69	-0.2315063	0.9647827	
10.88	0.4453735	0.8833618	
11.07	0.9553223	0.1945801	
11.26	0.6412048	-0.8044128	
11.45	-0.7795105	-0.2914429	
11.64	0.4647217	0.6098328	
11.83	0.8623657	0.1573486	
12.02	0.8881836	-0.1950684	
12.21	0.7279968	-0.4977417	
12.4	0.1629639	-0.8261719	
12.59	-0.2738342	0.6624146	
12.78	0.6229248	-0.410614	
12.97	0.2136841	-0.7919922	
13.16	-0.1845093	-0.8587036	
13.35	-0.5418701	-0.7020264	
13.54	-0.5031433	-0.5309753	
13.73	-0.7941589	0.4941711	
13.92	-0.327301	0.7831116	
14.11	-0.1481934	-0.7372437	
14.3	-0.545166	0.0817566	
14.49	-0.9284973	0.3493042	
14.68	-0.8061218	0.5293579	
14.87	-0.3502808	0.813446	
15.06	0.29776	0.7843018	
15.25	0.7929993	0.3034058	
15.44	0.5777283	-0.5823975	
15.63	-0.7018433	-0.355896	
15.82	-0.4406738	0.5673218	
16.01	0.474762	0.8145752	
16.2	-0.3817902	-0.3525543	
16.39	0.8997803	0.1348877	
16.58	0.2270966	0.4028931	
16.77	0.7997437	-0.08062744	
16.96	0.5866394	-0.5747375	
17.15	0.6905823	-0.2840576	
17.34	0.5568848	-0.5504456	
17.53	0.2011414	-0.7815552	
17.72	-0.09997559	-0.7188721	
17.91	-0.2197266	-0.7471008	
18.1	-0.6698608	-0.8642273	
18.29	-0.9436035	-0.3319702	
18.48	-0.5333252	0.0297852	
18.67	-1.011047	-0.1494751	
18.86	-0.8915405	-0.03173828	
19.05	-0.1797791	0.5428467	
19.24	-0.9122925	0.5079956	
19.43	-0.8018799	0.7627563	
19.62	-0.6612854	0.7451172	
19.81	0.127655	0.7257996	
20.0	-0.02862549	0.843689	
