!Created with mwavepy.
# GHz S RI R 50.0 
!freq	ReS11	ImS11	
500.0	-0.521299500656	0.783514254038	
! Port Impedance	50.00000000000000	0.00000000000000	
501.25	-0.462783414614	0.87076664464	
! Port Impedance	50.00000000000000	0.00000000000000	
502.5	-0.455982474316	0.866683083859	
! Port Impedance	50.00000000000000	0.00000000000000	
503.75	-0.458983683312	0.883266835819	
! Port Impedance	50.00000000000000	0.00000000000000	
505.0	-0.451685515281	0.884097523313	
! Port Impedance	50.00000000000000	0.00000000000000	
506.25	-0.434481711503	0.881500448973	
! Port Impedance	50.00000000000000	0.00000000000000	
507.5	-0.430528330806	0.886070487285	
! Port Impedance	50.00000000000000	0.00000000000000	
508.75	-0.434163861977	0.897128525822	
! Port Impedance	50.00000000000000	0.00000000000000	
510.0	-0.406912758548	0.883551188321	
! Port Impedance	50.00000000000000	0.00000000000000	
511.25	-0.409878910607	0.880231871927	
! Port Impedance	50.00000000000000	0.00000000000000	
512.5	-0.391878128615	0.879575944557	
! Port Impedance	50.00000000000000	0.00000000000000	
513.75	-0.377259145669	0.883191573676	
! Port Impedance	50.00000000000000	0.00000000000000	
515.0	-0.40306819802	0.900871331771	
! Port Impedance	50.00000000000000	0.00000000000000	
516.25	-0.391019852423	0.922916082769	
! Port Impedance	50.00000000000000	0.00000000000000	
517.5	-0.372622722048	0.926563911642	
! Port Impedance	50.00000000000000	0.00000000000000	
518.75	-0.369413964994	0.915893713767	
! Port Impedance	50.00000000000000	0.00000000000000	
520.0	-0.36233557786	0.913934113774	
! Port Impedance	50.00000000000000	0.00000000000000	
521.25	-0.340637840641	0.919750416636	
! Port Impedance	50.00000000000000	0.00000000000000	
522.5	-0.34561216656	0.911458581319	
! Port Impedance	50.00000000000000	0.00000000000000	
523.75	-0.345782803515	0.906237220527	
! Port Impedance	50.00000000000000	0.00000000000000	
525.0	-0.347408318304	0.912529491133	
! Port Impedance	50.00000000000000	0.00000000000000	
526.25	-0.337985742743	0.919248935156	
! Port Impedance	50.00000000000000	0.00000000000000	
527.5	-0.331107079464	0.926048641711	
! Port Impedance	50.00000000000000	0.00000000000000	
528.75	-0.322985370134	0.927881362275	
! Port Impedance	50.00000000000000	0.00000000000000	
530.0	-0.317329561685	0.925463828378	
! Port Impedance	50.00000000000000	0.00000000000000	
531.25	-0.31493593548	0.923020661924	
! Port Impedance	50.00000000000000	0.00000000000000	
532.5	-0.31201686702	0.929719331816	
! Port Impedance	50.00000000000000	0.00000000000000	
533.75	-0.302830182988	0.937102281809	
! Port Impedance	50.00000000000000	0.00000000000000	
535.0	-0.294011119841	0.934494555747	
! Port Impedance	50.00000000000000	0.00000000000000	
536.25	-0.286907308998	0.93677226032	
! Port Impedance	50.00000000000000	0.00000000000000	
537.5	-0.280440234994	0.938658837435	
! Port Impedance	50.00000000000000	0.00000000000000	
538.75	-0.278187080389	0.944779497175	
! Port Impedance	50.00000000000000	0.00000000000000	
540.0	-0.270178905125	0.947423666176	
! Port Impedance	50.00000000000000	0.00000000000000	
541.25	-0.263896733234	0.950844472388	
! Port Impedance	50.00000000000000	0.00000000000000	
542.5	-0.252862138591	0.951187008386	
! Port Impedance	50.00000000000000	0.00000000000000	
543.75	-0.248266114155	0.944498270843	
! Port Impedance	50.00000000000000	0.00000000000000	
545.0	-0.240697732823	0.948502325813	
! Port Impedance	50.00000000000000	0.00000000000000	
546.25	-0.237613294818	0.94738169304	
! Port Impedance	50.00000000000000	0.00000000000000	
547.5	-0.228237686934	0.951724298781	
! Port Impedance	50.00000000000000	0.00000000000000	
548.75	-0.225524824688	0.946780495104	
! Port Impedance	50.00000000000000	0.00000000000000	
550.0	-0.223990478887	0.951934167254	
! Port Impedance	50.00000000000000	0.00000000000000	
551.25	-0.223970584138	0.958742357031	
! Port Impedance	50.00000000000000	0.00000000000000	
552.5	-0.205545156172	0.969617198449	
! Port Impedance	50.00000000000000	0.00000000000000	
553.75	-0.196653294428	0.964234989463	
! Port Impedance	50.00000000000000	0.00000000000000	
555.0	-0.188004569796	0.958395041243	
! Port Impedance	50.00000000000000	0.00000000000000	
556.25	-0.186560169886	0.953692164086	
! Port Impedance	50.00000000000000	0.00000000000000	
557.5	-0.183379292092	0.958290182705	
! Port Impedance	50.00000000000000	0.00000000000000	
558.75	-0.180189309043	0.958979205805	
! Port Impedance	50.00000000000000	0.00000000000000	
560.0	-0.171069054959	0.961854646454	
! Port Impedance	50.00000000000000	0.00000000000000	
561.25	-0.171697936504	0.959845668607	
! Port Impedance	50.00000000000000	0.00000000000000	
562.5	-0.164208714569	0.963395092725	
! Port Impedance	50.00000000000000	0.00000000000000	
563.75	-0.16213168868	0.968562536111	
! Port Impedance	50.00000000000000	0.00000000000000	
565.0	-0.149836219118	0.966296695633	
! Port Impedance	50.00000000000000	0.00000000000000	
566.25	-0.145185682143	0.970605214568	
! Port Impedance	50.00000000000000	0.00000000000000	
567.5	-0.140121722834	0.969688019609	
! Port Impedance	50.00000000000000	0.00000000000000	
568.75	-0.130453514065	0.974894435223	
! Port Impedance	50.00000000000000	0.00000000000000	
570.0	-0.122028903928	0.975415374356	
! Port Impedance	50.00000000000000	0.00000000000000	
571.25	-0.117034135341	0.971795250705	
! Port Impedance	50.00000000000000	0.00000000000000	
572.5	-0.11136068645	0.971362397343	
! Port Impedance	50.00000000000000	0.00000000000000	
573.75	-0.106749704741	0.971982156744	
! Port Impedance	50.00000000000000	0.00000000000000	
575.0	-0.104093048527	0.97492396642	
! Port Impedance	50.00000000000000	0.00000000000000	
576.25	-0.0922596707097	0.971200445636	
! Port Impedance	50.00000000000000	0.00000000000000	
577.5	-0.0952960417986	0.976784743703	
! Port Impedance	50.00000000000000	0.00000000000000	
578.75	-0.0848653217793	0.980210222103	
! Port Impedance	50.00000000000000	0.00000000000000	
580.0	-0.0765954497148	0.983014303476	
! Port Impedance	50.00000000000000	0.00000000000000	
581.25	-0.0673459513382	0.975903029766	
! Port Impedance	50.00000000000000	0.00000000000000	
582.5	-0.0598461210734	0.978049325883	
! Port Impedance	50.00000000000000	0.00000000000000	
583.75	-0.0637499697928	0.977444500258	
! Port Impedance	50.00000000000000	0.00000000000000	
585.0	-0.051858723913	0.97525216908	
! Port Impedance	50.00000000000000	0.00000000000000	
586.25	-0.0558345775939	0.982162867022	
! Port Impedance	50.00000000000000	0.00000000000000	
587.5	-0.0508130593837	0.983748134369	
! Port Impedance	50.00000000000000	0.00000000000000	
588.75	-0.0391585178752	0.996455490319	
! Port Impedance	50.00000000000000	0.00000000000000	
590.0	-0.0189269532712	0.993466391447	
! Port Impedance	50.00000000000000	0.00000000000000	
591.25	-0.00166432325639	0.977869601243	
! Port Impedance	50.00000000000000	0.00000000000000	
592.5	-0.0130559240027	0.971426661435	
! Port Impedance	50.00000000000000	0.00000000000000	
593.75	-0.0106077140772	0.969404500258	
! Port Impedance	50.00000000000000	0.00000000000000	
595.0	-0.0100856093079	0.976541068734	
! Port Impedance	50.00000000000000	0.00000000000000	
596.25	-0.00423220517963	0.974290176349	
! Port Impedance	50.00000000000000	0.00000000000000	
597.5	0.00441041721982	0.983424801684	
! Port Impedance	50.00000000000000	0.00000000000000	
598.75	0.00768378301646	0.97857162674	
! Port Impedance	50.00000000000000	0.00000000000000	
600.0	0.014866927717	0.973382288774	
! Port Impedance	50.00000000000000	0.00000000000000	
601.25	0.016170641359	0.982106963725	
! Port Impedance	50.00000000000000	0.00000000000000	
602.5	0.0192793105427	0.985646343244	
! Port Impedance	50.00000000000000	0.00000000000000	
603.75	0.0311551671435	0.990328915865	
! Port Impedance	50.00000000000000	0.00000000000000	
605.0	0.0365527667934	0.98934740225	
! Port Impedance	50.00000000000000	0.00000000000000	
606.25	0.0493960694831	0.981276749969	
! Port Impedance	50.00000000000000	0.00000000000000	
607.5	0.0605987602428	0.982030557787	
! Port Impedance	50.00000000000000	0.00000000000000	
608.75	0.0569063336473	0.975380907478	
! Port Impedance	50.00000000000000	0.00000000000000	
610.0	0.0652119129705	0.977282024175	
! Port Impedance	50.00000000000000	0.00000000000000	
611.25	0.0699175158645	0.983772607539	
! Port Impedance	50.00000000000000	0.00000000000000	
612.5	0.078827258701	0.980759857488	
! Port Impedance	50.00000000000000	0.00000000000000	
613.75	0.0859289390748	0.981649223644	
! Port Impedance	50.00000000000000	0.00000000000000	
615.0	0.0863469447442	0.97772336732	
! Port Impedance	50.00000000000000	0.00000000000000	
616.25	0.0970175273227	0.971732732204	
! Port Impedance	50.00000000000000	0.00000000000000	
617.5	0.101880726861	0.976309994879	
! Port Impedance	50.00000000000000	0.00000000000000	
618.75	0.102457168148	0.978539748724	
! Port Impedance	50.00000000000000	0.00000000000000	
620.0	0.113718538301	0.973044998032	
! Port Impedance	50.00000000000000	0.00000000000000	
621.25	0.123078175674	0.970453454287	
! Port Impedance	50.00000000000000	0.00000000000000	
622.5	0.115257962132	0.965238710453	
! Port Impedance	50.00000000000000	0.00000000000000	
623.75	0.124296094706	0.970591473648	
! Port Impedance	50.00000000000000	0.00000000000000	
625.0	0.130177519273	0.980498808784	
! Port Impedance	50.00000000000000	0.00000000000000	
626.25	0.143603072765	0.975119989588	
! Port Impedance	50.00000000000000	0.00000000000000	
627.5	0.160645803779	0.97211787378	
! Port Impedance	50.00000000000000	0.00000000000000	
628.75	0.160579236838	0.959052591083	
! Port Impedance	50.00000000000000	0.00000000000000	
630.0	0.144764350422	0.950120430593	
! Port Impedance	50.00000000000000	0.00000000000000	
631.25	0.148582010261	0.960750251885	
! Port Impedance	50.00000000000000	0.00000000000000	
632.5	0.151952921835	0.971935750587	
! Port Impedance	50.00000000000000	0.00000000000000	
633.75	0.165399978532	0.968549016787	
! Port Impedance	50.00000000000000	0.00000000000000	
635.0	0.181589902469	0.969852634739	
! Port Impedance	50.00000000000000	0.00000000000000	
636.25	0.178437013913	0.971086390734	
! Port Impedance	50.00000000000000	0.00000000000000	
637.5	0.185289422244	0.959682864352	
! Port Impedance	50.00000000000000	0.00000000000000	
638.75	0.202907539059	0.968603816065	
! Port Impedance	50.00000000000000	0.00000000000000	
640.0	0.204584554204	0.968872406094	
! Port Impedance	50.00000000000000	0.00000000000000	
641.25	0.214760222716	0.955030375726	
! Port Impedance	50.00000000000000	0.00000000000000	
642.5	0.222189016387	0.959003684343	
! Port Impedance	50.00000000000000	0.00000000000000	
643.75	0.216879842664	0.959315507927	
! Port Impedance	50.00000000000000	0.00000000000000	
645.0	0.227024607017	0.95134571648	
! Port Impedance	50.00000000000000	0.00000000000000	
646.25	0.229851684383	0.949133439421	
! Port Impedance	50.00000000000000	0.00000000000000	
647.5	0.231795620914	0.951247287777	
! Port Impedance	50.00000000000000	0.00000000000000	
648.75	0.234759633287	0.945423080122	
! Port Impedance	50.00000000000000	0.00000000000000	
650.0	0.244715830178	0.94569645753	
! Port Impedance	50.00000000000000	0.00000000000000	
651.25	0.24779353978	0.95275599804	
! Port Impedance	50.00000000000000	0.00000000000000	
652.5	0.257222490325	0.945712647192	
! Port Impedance	50.00000000000000	0.00000000000000	
653.75	0.27085497838	0.939810625065	
! Port Impedance	50.00000000000000	0.00000000000000	
655.0	0.268944070935	0.944205576254	
! Port Impedance	50.00000000000000	0.00000000000000	
656.25	0.263036658407	0.940395161169	
! Port Impedance	50.00000000000000	0.00000000000000	
657.5	0.280590646851	0.936653284578	
! Port Impedance	50.00000000000000	0.00000000000000	
658.75	0.285334182459	0.949291959344	
! Port Impedance	50.00000000000000	0.00000000000000	
660.0	0.282956380942	0.936780986746	
! Port Impedance	50.00000000000000	0.00000000000000	
661.25	0.291244490318	0.93157270955	
! Port Impedance	50.00000000000000	0.00000000000000	
662.5	0.301984808588	0.946468507023	
! Port Impedance	50.00000000000000	0.00000000000000	
663.75	0.306460101863	0.942614283133	
! Port Impedance	50.00000000000000	0.00000000000000	
665.0	0.319643912275	0.92503962579	
! Port Impedance	50.00000000000000	0.00000000000000	
666.25	0.321581157249	0.919950534459	
! Port Impedance	50.00000000000000	0.00000000000000	
667.5	0.310243516903	0.91975071813	
! Port Impedance	50.00000000000000	0.00000000000000	
668.75	0.307173760301	0.92232884586	
! Port Impedance	50.00000000000000	0.00000000000000	
670.0	0.318330811225	0.932807862632	
! Port Impedance	50.00000000000000	0.00000000000000	
671.25	0.332176065667	0.941383287412	
! Port Impedance	50.00000000000000	0.00000000000000	
672.5	0.338364897065	0.929722607593	
! Port Impedance	50.00000000000000	0.00000000000000	
673.75	0.354397528608	0.917458440307	
! Port Impedance	50.00000000000000	0.00000000000000	
675.0	0.363999004269	0.925200616685	
! Port Impedance	50.00000000000000	0.00000000000000	
676.25	0.360901492223	0.91958066527	
! Port Impedance	50.00000000000000	0.00000000000000	
677.5	0.370529668668	0.901634472056	
! Port Impedance	50.00000000000000	0.00000000000000	
678.75	0.376879542172	0.903533626153	
! Port Impedance	50.00000000000000	0.00000000000000	
680.0	0.370131022786	0.911013049071	
! Port Impedance	50.00000000000000	0.00000000000000	
681.25	0.375057909439	0.904112724611	
! Port Impedance	50.00000000000000	0.00000000000000	
682.5	0.392155531694	0.900923566638	
! Port Impedance	50.00000000000000	0.00000000000000	
683.75	0.394248352636	0.907324149034	
! Port Impedance	50.00000000000000	0.00000000000000	
685.0	0.382307970002	0.902000345169	
! Port Impedance	50.00000000000000	0.00000000000000	
686.25	0.395538126332	0.896619954019	
! Port Impedance	50.00000000000000	0.00000000000000	
687.5	0.409318930924	0.902925904352	
! Port Impedance	50.00000000000000	0.00000000000000	
688.75	0.408443976224	0.898734834804	
! Port Impedance	50.00000000000000	0.00000000000000	
690.0	0.408818175812	0.883217433525	
! Port Impedance	50.00000000000000	0.00000000000000	
691.25	0.419237048955	0.882673427504	
! Port Impedance	50.00000000000000	0.00000000000000	
692.5	0.421695872713	0.895319257222	
! Port Impedance	50.00000000000000	0.00000000000000	
693.75	0.41610552691	0.896583491349	
! Port Impedance	50.00000000000000	0.00000000000000	
695.0	0.430364811629	0.877144177753	
! Port Impedance	50.00000000000000	0.00000000000000	
696.25	0.442084196076	0.875970539473	
! Port Impedance	50.00000000000000	0.00000000000000	
697.5	0.438128245007	0.885176064772	
! Port Impedance	50.00000000000000	0.00000000000000	
698.75	0.437994675296	0.882277384772	
! Port Impedance	50.00000000000000	0.00000000000000	
700.0	0.454609899121	0.873768956539	
! Port Impedance	50.00000000000000	0.00000000000000	
701.25	0.468301557748	0.873176671059	
! Port Impedance	50.00000000000000	0.00000000000000	
702.5	0.461405908339	0.874774418005	
! Port Impedance	50.00000000000000	0.00000000000000	
703.75	0.463143851281	0.864050301314	
! Port Impedance	50.00000000000000	0.00000000000000	
705.0	0.472850599398	0.856255146983	
! Port Impedance	50.00000000000000	0.00000000000000	
706.25	0.474538670759	0.869728125322	
! Port Impedance	50.00000000000000	0.00000000000000	
707.5	0.478399784703	0.880998825046	
! Port Impedance	50.00000000000000	0.00000000000000	
708.75	0.499813316144	0.866680125256	
! Port Impedance	50.00000000000000	0.00000000000000	
710.0	0.518807289163	0.849816775045	
! Port Impedance	50.00000000000000	0.00000000000000	
711.25	0.51573884878	0.849496605692	
! Port Impedance	50.00000000000000	0.00000000000000	
712.5	0.502739227116	0.844174484393	
! Port Impedance	50.00000000000000	0.00000000000000	
713.75	0.50812410267	0.834141917851	
! Port Impedance	50.00000000000000	0.00000000000000	
715.0	0.519396107511	0.83991924764	
! Port Impedance	50.00000000000000	0.00000000000000	
716.25	0.520690155079	0.840669006614	
! Port Impedance	50.00000000000000	0.00000000000000	
717.5	0.513433288799	0.833708193081	
! Port Impedance	50.00000000000000	0.00000000000000	
718.75	0.518706007406	0.824348127106	
! Port Impedance	50.00000000000000	0.00000000000000	
720.0	0.537723531648	0.830197574722	
! Port Impedance	50.00000000000000	0.00000000000000	
721.25	0.536516332058	0.836423349535	
! Port Impedance	50.00000000000000	0.00000000000000	
722.5	0.538638887585	0.826161795278	
! Port Impedance	50.00000000000000	0.00000000000000	
723.75	0.543100462425	0.818809082499	
! Port Impedance	50.00000000000000	0.00000000000000	
725.0	0.555986413434	0.823080351422	
! Port Impedance	50.00000000000000	0.00000000000000	
726.25	0.5655400039	0.820249272736	
! Port Impedance	50.00000000000000	0.00000000000000	
727.5	0.563516074834	0.813439388017	
! Port Impedance	50.00000000000000	0.00000000000000	
728.75	0.567653591982	0.803928666716	
! Port Impedance	50.00000000000000	0.00000000000000	
730.0	0.572502198084	0.807481823513	
! Port Impedance	50.00000000000000	0.00000000000000	
731.25	0.578238307923	0.813489013141	
! Port Impedance	50.00000000000000	0.00000000000000	
732.5	0.579241991737	0.800000818991	
! Port Impedance	50.00000000000000	0.00000000000000	
733.75	0.585519724506	0.790891431266	
! Port Impedance	50.00000000000000	0.00000000000000	
735.0	0.593427570665	0.8029184375	
! Port Impedance	50.00000000000000	0.00000000000000	
736.25	0.602538624945	0.796430494571	
! Port Impedance	50.00000000000000	0.00000000000000	
737.5	0.605293193695	0.786914160217	
! Port Impedance	50.00000000000000	0.00000000000000	
738.75	0.606336733948	0.777845228491	
! Port Impedance	50.00000000000000	0.00000000000000	
740.0	0.616619387691	0.773458472921	
! Port Impedance	50.00000000000000	0.00000000000000	
741.25	0.6179835544	0.772669901747	
! Port Impedance	50.00000000000000	0.00000000000000	
742.5	0.613237780906	0.767297882508	
! Port Impedance	50.00000000000000	0.00000000000000	
743.75	0.613473443204	0.760296444315	
! Port Impedance	50.00000000000000	0.00000000000000	
745.0	0.626559678398	0.778668212007	
! Port Impedance	50.00000000000000	0.00000000000000	
746.25	0.655542785098	0.772729264583	
! Port Impedance	50.00000000000000	0.00000000000000	
747.5	0.650117825349	0.748499575045	
! Port Impedance	50.00000000000000	0.00000000000000	
748.75	0.636170762368	0.739879972548	
! Port Impedance	50.00000000000000	0.00000000000000	
750.0	0.637700416264	0.741118691904	
! Port Impedance	50.00000000000000	0.00000000000000	
