!Created with mwavepy.
# GHz S RI R 50.0 
!freq	ReS11	ImS11	
500.0	-0.490094568882	0.775737912714	
! Port Impedance	50.00000000000000	0.00000000000000	
501.25	-0.45033210442	0.873262088488	
! Port Impedance	50.00000000000000	0.00000000000000	
502.5	-0.436380162762	0.88213057891	
! Port Impedance	50.00000000000000	0.00000000000000	
503.75	-0.437959895884	0.875199875155	
! Port Impedance	50.00000000000000	0.00000000000000	
505.0	-0.424676691027	0.890905584497	
! Port Impedance	50.00000000000000	0.00000000000000	
506.25	-0.414589153257	0.893941446967	
! Port Impedance	50.00000000000000	0.00000000000000	
507.5	-0.414857141537	0.878359957272	
! Port Impedance	50.00000000000000	0.00000000000000	
508.75	-0.409248343148	0.897836883083	
! Port Impedance	50.00000000000000	0.00000000000000	
510.0	-0.401945809932	0.888854631821	
! Port Impedance	50.00000000000000	0.00000000000000	
511.25	-0.406953966602	0.897942967907	
! Port Impedance	50.00000000000000	0.00000000000000	
512.5	-0.379233194421	0.899550698129	
! Port Impedance	50.00000000000000	0.00000000000000	
513.75	-0.398909973326	0.895685918528	
! Port Impedance	50.00000000000000	0.00000000000000	
515.0	-0.376386068143	0.903565528554	
! Port Impedance	50.00000000000000	0.00000000000000	
516.25	-0.369055792736	0.91011384771	
! Port Impedance	50.00000000000000	0.00000000000000	
517.5	-0.372935401025	0.929124100306	
! Port Impedance	50.00000000000000	0.00000000000000	
518.75	-0.361000430641	0.917243277946	
! Port Impedance	50.00000000000000	0.00000000000000	
520.0	-0.34990085029	0.919011377721	
! Port Impedance	50.00000000000000	0.00000000000000	
521.25	-0.332132450952	0.937073141863	
! Port Impedance	50.00000000000000	0.00000000000000	
522.5	-0.336598139899	0.919602815682	
! Port Impedance	50.00000000000000	0.00000000000000	
523.75	-0.319169649987	0.918873061784	
! Port Impedance	50.00000000000000	0.00000000000000	
525.0	-0.333712314837	0.930284440947	
! Port Impedance	50.00000000000000	0.00000000000000	
526.25	-0.323931944358	0.927470287148	
! Port Impedance	50.00000000000000	0.00000000000000	
527.5	-0.316809212751	0.931301030069	
! Port Impedance	50.00000000000000	0.00000000000000	
528.75	-0.308692460083	0.935146889134	
! Port Impedance	50.00000000000000	0.00000000000000	
530.0	-0.302717266683	0.931227094119	
! Port Impedance	50.00000000000000	0.00000000000000	
531.25	-0.299702237422	0.933644674933	
! Port Impedance	50.00000000000000	0.00000000000000	
532.5	-0.294958048672	0.93549123271	
! Port Impedance	50.00000000000000	0.00000000000000	
533.75	-0.288473080421	0.946691555416	
! Port Impedance	50.00000000000000	0.00000000000000	
535.0	-0.280280834587	0.940557479203	
! Port Impedance	50.00000000000000	0.00000000000000	
536.25	-0.271950699896	0.943112981151	
! Port Impedance	50.00000000000000	0.00000000000000	
537.5	-0.266908466963	0.944735706019	
! Port Impedance	50.00000000000000	0.00000000000000	
538.75	-0.262340352248	0.950764058865	
! Port Impedance	50.00000000000000	0.00000000000000	
540.0	-0.253635925617	0.953559883278	
! Port Impedance	50.00000000000000	0.00000000000000	
541.25	-0.248046687431	0.957035843702	
! Port Impedance	50.00000000000000	0.00000000000000	
542.5	-0.237781003349	0.958896482214	
! Port Impedance	50.00000000000000	0.00000000000000	
543.75	-0.232736664635	0.953145058855	
! Port Impedance	50.00000000000000	0.00000000000000	
545.0	-0.226112809435	0.955240300048	
! Port Impedance	50.00000000000000	0.00000000000000	
546.25	-0.221085233721	0.953590552951	
! Port Impedance	50.00000000000000	0.00000000000000	
547.5	-0.212532564775	0.95787715602	
! Port Impedance	50.00000000000000	0.00000000000000	
548.75	-0.209760719845	0.952678515621	
! Port Impedance	50.00000000000000	0.00000000000000	
550.0	-0.208705248461	0.958981908905	
! Port Impedance	50.00000000000000	0.00000000000000	
551.25	-0.209249397117	0.965750114271	
! Port Impedance	50.00000000000000	0.00000000000000	
552.5	-0.190150177219	0.975352393988	
! Port Impedance	50.00000000000000	0.00000000000000	
553.75	-0.180770607163	0.972163164805	
! Port Impedance	50.00000000000000	0.00000000000000	
555.0	-0.171688240819	0.967610438344	
! Port Impedance	50.00000000000000	0.00000000000000	
556.25	-0.170247971399	0.965022320519	
! Port Impedance	50.00000000000000	0.00000000000000	
557.5	-0.163615015228	0.970272045123	
! Port Impedance	50.00000000000000	0.00000000000000	
558.75	-0.157237510831	0.970743574267	
! Port Impedance	50.00000000000000	0.00000000000000	
560.0	-0.147103823991	0.972853367099	
! Port Impedance	50.00000000000000	0.00000000000000	
561.25	-0.147718887774	0.96949473529	
! Port Impedance	50.00000000000000	0.00000000000000	
562.5	-0.139001380654	0.970856607804	
! Port Impedance	50.00000000000000	0.00000000000000	
563.75	-0.13727443886	0.975061048173	
! Port Impedance	50.00000000000000	0.00000000000000	
565.0	-0.126479346753	0.972923189531	
! Port Impedance	50.00000000000000	0.00000000000000	
566.25	-0.12067730344	0.976747469062	
! Port Impedance	50.00000000000000	0.00000000000000	
567.5	-0.116460316914	0.975555757273	
! Port Impedance	50.00000000000000	0.00000000000000	
568.75	-0.106894855279	0.980517399985	
! Port Impedance	50.00000000000000	0.00000000000000	
570.0	-0.097056496628	0.980248379898	
! Port Impedance	50.00000000000000	0.00000000000000	
571.25	-0.0918212404084	0.977017719029	
! Port Impedance	50.00000000000000	0.00000000000000	
572.5	-0.0863792291685	0.975928173263	
! Port Impedance	50.00000000000000	0.00000000000000	
573.75	-0.0824337121476	0.977004275772	
! Port Impedance	50.00000000000000	0.00000000000000	
575.0	-0.0783040895306	0.977718052446	
! Port Impedance	50.00000000000000	0.00000000000000	
576.25	-0.0668781540228	0.976564455614	
! Port Impedance	50.00000000000000	0.00000000000000	
577.5	-0.0682705331194	0.981314091979	
! Port Impedance	50.00000000000000	0.00000000000000	
578.75	-0.0583741111323	0.983343006842	
! Port Impedance	50.00000000000000	0.00000000000000	
580.0	-0.0504386075409	0.985077910679	
! Port Impedance	50.00000000000000	0.00000000000000	
581.25	-0.0396475876486	0.978715407436	
! Port Impedance	50.00000000000000	0.00000000000000	
582.5	-0.0328245760577	0.98001538823	
! Port Impedance	50.00000000000000	0.00000000000000	
583.75	-0.0365890591629	0.980149019251	
! Port Impedance	50.00000000000000	0.00000000000000	
585.0	-0.0260017523385	0.978285543668	
! Port Impedance	50.00000000000000	0.00000000000000	
586.25	-0.0272106125665	0.984783142566	
! Port Impedance	50.00000000000000	0.00000000000000	
587.5	-0.0230801508371	0.985547416446	
! Port Impedance	50.00000000000000	0.00000000000000	
588.75	-0.0094727459537	0.997257115694	
! Port Impedance	50.00000000000000	0.00000000000000	
590.0	0.0103347880429	0.994738912145	
! Port Impedance	50.00000000000000	0.00000000000000	
591.25	0.0264096710658	0.978586963759	
! Port Impedance	50.00000000000000	0.00000000000000	
592.5	0.0169293420558	0.972717402888	
! Port Impedance	50.00000000000000	0.00000000000000	
593.75	0.0190384433972	0.970401953072	
! Port Impedance	50.00000000000000	0.00000000000000	
595.0	0.0201983500016	0.978137730993	
! Port Impedance	50.00000000000000	0.00000000000000	
596.25	0.027950891382	0.975838039618	
! Port Impedance	50.00000000000000	0.00000000000000	
597.5	0.0342116934223	0.983272617396	
! Port Impedance	50.00000000000000	0.00000000000000	
598.75	0.0395850095208	0.979381380771	
! Port Impedance	50.00000000000000	0.00000000000000	
600.0	0.0454460805468	0.973341601953	
! Port Impedance	50.00000000000000	0.00000000000000	
601.25	0.0463800233665	0.982805650362	
! Port Impedance	50.00000000000000	0.00000000000000	
602.5	0.0508224855606	0.985950883286	
! Port Impedance	50.00000000000000	0.00000000000000	
603.75	0.06355667302	0.98897597097	
! Port Impedance	50.00000000000000	0.00000000000000	
605.0	0.0690749598764	0.988249812319	
! Port Impedance	50.00000000000000	0.00000000000000	
606.25	0.0806023219174	0.979570139106	
! Port Impedance	50.00000000000000	0.00000000000000	
607.5	0.0928749020205	0.980718499951	
! Port Impedance	50.00000000000000	0.00000000000000	
608.75	0.0896575687278	0.973363888257	
! Port Impedance	50.00000000000000	0.00000000000000	
610.0	0.0974978671142	0.976167738567	
! Port Impedance	50.00000000000000	0.00000000000000	
611.25	0.105280162406	0.981791046832	
! Port Impedance	50.00000000000000	0.00000000000000	
612.5	0.114338247116	0.97942574567	
! Port Impedance	50.00000000000000	0.00000000000000	
613.75	0.118467799311	0.979328484809	
! Port Impedance	50.00000000000000	0.00000000000000	
615.0	0.120605159661	0.975348797916	
! Port Impedance	50.00000000000000	0.00000000000000	
616.25	0.131312993898	0.969103306648	
! Port Impedance	50.00000000000000	0.00000000000000	
617.5	0.136477643684	0.972327421203	
! Port Impedance	50.00000000000000	0.00000000000000	
618.75	0.13805624728	0.974023121788	
! Port Impedance	50.00000000000000	0.00000000000000	
620.0	0.148726865413	0.969297530546	
! Port Impedance	50.00000000000000	0.00000000000000	
621.25	0.158922062081	0.967247558903	
! Port Impedance	50.00000000000000	0.00000000000000	
622.5	0.150518143697	0.961164765317	
! Port Impedance	50.00000000000000	0.00000000000000	
623.75	0.160819269165	0.966263491937	
! Port Impedance	50.00000000000000	0.00000000000000	
625.0	0.168060762645	0.975107734573	
! Port Impedance	50.00000000000000	0.00000000000000	
626.25	0.180765395361	0.969033014313	
! Port Impedance	50.00000000000000	0.00000000000000	
627.5	0.197951438536	0.96681312542	
! Port Impedance	50.00000000000000	0.00000000000000	
628.75	0.198059725535	0.953881010972	
! Port Impedance	50.00000000000000	0.00000000000000	
630.0	0.180964904811	0.943962733636	
! Port Impedance	50.00000000000000	0.00000000000000	
631.25	0.18574216885	0.954995579207	
! Port Impedance	50.00000000000000	0.00000000000000	
632.5	0.19144376188	0.965491126411	
! Port Impedance	50.00000000000000	0.00000000000000	
633.75	0.204972400725	0.962386012098	
! Port Impedance	50.00000000000000	0.00000000000000	
635.0	0.222979862063	0.962490617386	
! Port Impedance	50.00000000000000	0.00000000000000	
636.25	0.219035547272	0.963194275994	
! Port Impedance	50.00000000000000	0.00000000000000	
637.5	0.226061816156	0.952360991337	
! Port Impedance	50.00000000000000	0.00000000000000	
638.75	0.24357568893	0.959821474867	
! Port Impedance	50.00000000000000	0.00000000000000	
640.0	0.244698038442	0.95974644868	
! Port Impedance	50.00000000000000	0.00000000000000	
641.25	0.256465915994	0.945511592198	
! Port Impedance	50.00000000000000	0.00000000000000	
642.5	0.263557658603	0.949740521878	
! Port Impedance	50.00000000000000	0.00000000000000	
643.75	0.25998269736	0.950934678794	
! Port Impedance	50.00000000000000	0.00000000000000	
645.0	0.269601632347	0.940368650508	
! Port Impedance	50.00000000000000	0.00000000000000	
646.25	0.273394256784	0.938653405244	
! Port Impedance	50.00000000000000	0.00000000000000	
647.5	0.275351890263	0.940300893448	
! Port Impedance	50.00000000000000	0.00000000000000	
648.75	0.278580716504	0.935480385894	
! Port Impedance	50.00000000000000	0.00000000000000	
650.0	0.288868647939	0.93354087342	
! Port Impedance	50.00000000000000	0.00000000000000	
651.25	0.291403079047	0.940895037908	
! Port Impedance	50.00000000000000	0.00000000000000	
652.5	0.301823504479	0.934383595871	
! Port Impedance	50.00000000000000	0.00000000000000	
653.75	0.315440563572	0.927517782489	
! Port Impedance	50.00000000000000	0.00000000000000	
655.0	0.316219345757	0.930744530833	
! Port Impedance	50.00000000000000	0.00000000000000	
656.25	0.309775311539	0.926406173049	
! Port Impedance	50.00000000000000	0.00000000000000	
657.5	0.32722239931	0.9226860492	
! Port Impedance	50.00000000000000	0.00000000000000	
658.75	0.332663002167	0.935330936675	
! Port Impedance	50.00000000000000	0.00000000000000	
660.0	0.329491307269	0.922325118011	
! Port Impedance	50.00000000000000	0.00000000000000	
661.25	0.338850771779	0.91760898976	
! Port Impedance	50.00000000000000	0.00000000000000	
662.5	0.349302033686	0.929980543033	
! Port Impedance	50.00000000000000	0.00000000000000	
663.75	0.354448795763	0.9261053272	
! Port Impedance	50.00000000000000	0.00000000000000	
665.0	0.368442076365	0.90911755105	
! Port Impedance	50.00000000000000	0.00000000000000	
666.25	0.370192587537	0.903227948212	
! Port Impedance	50.00000000000000	0.00000000000000	
667.5	0.3588068649	0.903577094897	
! Port Impedance	50.00000000000000	0.00000000000000	
668.75	0.355511444711	0.906163506842	
! Port Impedance	50.00000000000000	0.00000000000000	
670.0	0.367460551162	0.914714221799	
! Port Impedance	50.00000000000000	0.00000000000000	
671.25	0.382226593441	0.922870963177	
! Port Impedance	50.00000000000000	0.00000000000000	
672.5	0.388459866336	0.911134617369	
! Port Impedance	50.00000000000000	0.00000000000000	
673.75	0.404081858543	0.89860642033	
! Port Impedance	50.00000000000000	0.00000000000000	
675.0	0.414832223134	0.905133008059	
! Port Impedance	50.00000000000000	0.00000000000000	
676.25	0.412726422492	0.89811052365	
! Port Impedance	50.00000000000000	0.00000000000000	
677.5	0.422075912928	0.880638916281	
! Port Impedance	50.00000000000000	0.00000000000000	
678.75	0.427888089815	0.883799727665	
! Port Impedance	50.00000000000000	0.00000000000000	
680.0	0.423074178835	0.889481687158	
! Port Impedance	50.00000000000000	0.00000000000000	
681.25	0.427369333272	0.882314351086	
! Port Impedance	50.00000000000000	0.00000000000000	
682.5	0.444848074839	0.879810613673	
! Port Impedance	50.00000000000000	0.00000000000000	
683.75	0.447632210345	0.883773312556	
! Port Impedance	50.00000000000000	0.00000000000000	
685.0	0.438601476794	0.878202681788	
! Port Impedance	50.00000000000000	0.00000000000000	
686.25	0.448677261141	0.872261667921	
! Port Impedance	50.00000000000000	0.00000000000000	
687.5	0.464117417452	0.877435459331	
! Port Impedance	50.00000000000000	0.00000000000000	
688.75	0.464181082131	0.872699029697	
! Port Impedance	50.00000000000000	0.00000000000000	
690.0	0.464259023438	0.857849795875	
! Port Impedance	50.00000000000000	0.00000000000000	
691.25	0.473695809384	0.855614149488	
! Port Impedance	50.00000000000000	0.00000000000000	
692.5	0.478757953921	0.867349765582	
! Port Impedance	50.00000000000000	0.00000000000000	
693.75	0.473414041274	0.868049445138	
! Port Impedance	50.00000000000000	0.00000000000000	
695.0	0.488134253617	0.849340451512	
! Port Impedance	50.00000000000000	0.00000000000000	
696.25	0.499422321288	0.846069463091	
! Port Impedance	50.00000000000000	0.00000000000000	
697.5	0.496060255791	0.854918720263	
! Port Impedance	50.00000000000000	0.00000000000000	
698.75	0.494726357743	0.853388903405	
! Port Impedance	50.00000000000000	0.00000000000000	
700.0	0.510512307634	0.841566738976	
! Port Impedance	50.00000000000000	0.00000000000000	
701.25	0.526017141414	0.840528842649	
! Port Impedance	50.00000000000000	0.00000000000000	
702.5	0.519751098248	0.843412802364	
! Port Impedance	50.00000000000000	0.00000000000000	
703.75	0.522784102229	0.831087022326	
! Port Impedance	50.00000000000000	0.00000000000000	
705.0	0.531403252528	0.822056484594	
! Port Impedance	50.00000000000000	0.00000000000000	
706.25	0.535498052861	0.834984593125	
! Port Impedance	50.00000000000000	0.00000000000000	
707.5	0.538432383234	0.844406059282	
! Port Impedance	50.00000000000000	0.00000000000000	
708.75	0.55991607151	0.828740297819	
! Port Impedance	50.00000000000000	0.00000000000000	
710.0	0.578307175144	0.810399036082	
! Port Impedance	50.00000000000000	0.00000000000000	
711.25	0.576128275763	0.809972471734	
! Port Impedance	50.00000000000000	0.00000000000000	
712.5	0.563443780496	0.804942342797	
! Port Impedance	50.00000000000000	0.00000000000000	
713.75	0.568103669831	0.795304010474	
! Port Impedance	50.00000000000000	0.00000000000000	
715.0	0.580630565892	0.798652261226	
! Port Impedance	50.00000000000000	0.00000000000000	
716.25	0.581512810772	0.799470365713	
! Port Impedance	50.00000000000000	0.00000000000000	
717.5	0.574440509064	0.792614643766	
! Port Impedance	50.00000000000000	0.00000000000000	
718.75	0.580372160826	0.781429340331	
! Port Impedance	50.00000000000000	0.00000000000000	
720.0	0.597744263032	0.785912845356	
! Port Impedance	50.00000000000000	0.00000000000000	
721.25	0.599137750791	0.792847770525	
! Port Impedance	50.00000000000000	0.00000000000000	
722.5	0.602598039196	0.779967407577	
! Port Impedance	50.00000000000000	0.00000000000000	
723.75	0.605411582342	0.773856106819	
! Port Impedance	50.00000000000000	0.00000000000000	
725.0	0.618413162398	0.776255407396	
! Port Impedance	50.00000000000000	0.00000000000000	
726.25	0.629433120645	0.771888957405	
! Port Impedance	50.00000000000000	0.00000000000000	
727.5	0.626992929906	0.764496689813	
! Port Impedance	50.00000000000000	0.00000000000000	
728.75	0.628686369663	0.755756458107	
! Port Impedance	50.00000000000000	0.00000000000000	
730.0	0.635966743557	0.757792826931	
! Port Impedance	50.00000000000000	0.00000000000000	
731.25	0.642148859309	0.762237235479	
! Port Impedance	50.00000000000000	0.00000000000000	
732.5	0.643292202599	0.748254207629	
! Port Impedance	50.00000000000000	0.00000000000000	
733.75	0.648811789846	0.739506272788	
! Port Impedance	50.00000000000000	0.00000000000000	
735.0	0.656894086642	0.750227799856	
! Port Impedance	50.00000000000000	0.00000000000000	
736.25	0.666572695573	0.742023270609	
! Port Impedance	50.00000000000000	0.00000000000000	
737.5	0.669568238636	0.732874107051	
! Port Impedance	50.00000000000000	0.00000000000000	
738.75	0.670898162821	0.722235081957	
! Port Impedance	50.00000000000000	0.00000000000000	
740.0	0.679322736266	0.716352898909	
! Port Impedance	50.00000000000000	0.00000000000000	
741.25	0.683620442635	0.713757020573	
! Port Impedance	50.00000000000000	0.00000000000000	
742.5	0.678421659928	0.709965344922	
! Port Impedance	50.00000000000000	0.00000000000000	
743.75	0.679238071286	0.701909775765	
! Port Impedance	50.00000000000000	0.00000000000000	
745.0	0.691615672937	0.717533583137	
! Port Impedance	50.00000000000000	0.00000000000000	
746.25	0.722220374377	0.710223130271	
! Port Impedance	50.00000000000000	0.00000000000000	
747.5	0.713653421222	0.686180874537	
! Port Impedance	50.00000000000000	0.00000000000000	
748.75	0.701726768287	0.677695388605	
! Port Impedance	50.00000000000000	0.00000000000000	
750.0	0.704055099779	0.679878853508	
! Port Impedance	50.00000000000000	0.00000000000000	
