!Created with mwavepy.
# GHz S RI R 50.0 
!freq	ReS11	ImS11	
500.0	-0.502260522719	0.881202798141	
! Port Impedance	50.00000000000000	0.00000000000000	
501.25	-0.464571622062	0.871972617796	
! Port Impedance	50.00000000000000	0.00000000000000	
502.5	-0.454688320495	0.869568033537	
! Port Impedance	50.00000000000000	0.00000000000000	
503.75	-0.439094339958	0.866003691332	
! Port Impedance	50.00000000000000	0.00000000000000	
505.0	-0.43361542401	0.890411867203	
! Port Impedance	50.00000000000000	0.00000000000000	
506.25	-0.425529222799	0.874496974371	
! Port Impedance	50.00000000000000	0.00000000000000	
507.5	-0.421336772312	0.883997502635	
! Port Impedance	50.00000000000000	0.00000000000000	
508.75	-0.442095662837	0.871719264134	
! Port Impedance	50.00000000000000	0.00000000000000	
510.0	-0.430288621573	0.880369207193	
! Port Impedance	50.00000000000000	0.00000000000000	
511.25	-0.424447164795	0.901237353585	
! Port Impedance	50.00000000000000	0.00000000000000	
512.5	-0.41413809076	0.897870560689	
! Port Impedance	50.00000000000000	0.00000000000000	
513.75	-0.407014361522	0.881949609997	
! Port Impedance	50.00000000000000	0.00000000000000	
515.0	-0.429329637436	0.887734462917	
! Port Impedance	50.00000000000000	0.00000000000000	
516.25	-0.427254561967	0.902810996031	
! Port Impedance	50.00000000000000	0.00000000000000	
517.5	-0.391570733646	0.896775024296	
! Port Impedance	50.00000000000000	0.00000000000000	
518.75	-0.343249901329	0.929136304031	
! Port Impedance	50.00000000000000	0.00000000000000	
520.0	-0.360314503924	0.912410165077	
! Port Impedance	50.00000000000000	0.00000000000000	
521.25	-0.353622522424	0.913041936059	
! Port Impedance	50.00000000000000	0.00000000000000	
522.5	-0.358086256039	0.899576278813	
! Port Impedance	50.00000000000000	0.00000000000000	
523.75	-0.355195504477	0.910076097134	
! Port Impedance	50.00000000000000	0.00000000000000	
525.0	-0.365709487111	0.903640878868	
! Port Impedance	50.00000000000000	0.00000000000000	
526.25	-0.349894403699	0.912004850504	
! Port Impedance	50.00000000000000	0.00000000000000	
527.5	-0.344200900408	0.915508329147	
! Port Impedance	50.00000000000000	0.00000000000000	
528.75	-0.340257146036	0.912955180001	
! Port Impedance	50.00000000000000	0.00000000000000	
530.0	-0.33193104737	0.913012099479	
! Port Impedance	50.00000000000000	0.00000000000000	
531.25	-0.336081505969	0.913251639329	
! Port Impedance	50.00000000000000	0.00000000000000	
532.5	-0.33732129702	0.914895336715	
! Port Impedance	50.00000000000000	0.00000000000000	
533.75	-0.317929642799	0.9346339716	
! Port Impedance	50.00000000000000	0.00000000000000	
535.0	-0.311366412518	0.929687425722	
! Port Impedance	50.00000000000000	0.00000000000000	
536.25	-0.299697880606	0.932401092824	
! Port Impedance	50.00000000000000	0.00000000000000	
537.5	-0.305995714831	0.929973361883	
! Port Impedance	50.00000000000000	0.00000000000000	
538.75	-0.299107263133	0.940904811117	
! Port Impedance	50.00000000000000	0.00000000000000	
540.0	-0.288266226708	0.945564965431	
! Port Impedance	50.00000000000000	0.00000000000000	
541.25	-0.274464733037	0.946171071124	
! Port Impedance	50.00000000000000	0.00000000000000	
542.5	-0.260738897505	0.945369377508	
! Port Impedance	50.00000000000000	0.00000000000000	
543.75	-0.277290782531	0.925232274677	
! Port Impedance	50.00000000000000	0.00000000000000	
545.0	-0.27894234025	0.93213094257	
! Port Impedance	50.00000000000000	0.00000000000000	
546.25	-0.274990842443	0.934863508232	
! Port Impedance	50.00000000000000	0.00000000000000	
547.5	-0.262099607115	0.937834661567	
! Port Impedance	50.00000000000000	0.00000000000000	
548.75	-0.251873717288	0.935717546427	
! Port Impedance	50.00000000000000	0.00000000000000	
550.0	-0.260783510692	0.94478062586	
! Port Impedance	50.00000000000000	0.00000000000000	
551.25	-0.264150066619	0.955852928178	
! Port Impedance	50.00000000000000	0.00000000000000	
552.5	-0.226639568386	0.973590641528	
! Port Impedance	50.00000000000000	0.00000000000000	
553.75	-0.219084774704	0.967766627148	
! Port Impedance	50.00000000000000	0.00000000000000	
555.0	-0.250675259477	0.955996110296	
! Port Impedance	50.00000000000000	0.00000000000000	
556.25	-0.221836485964	0.954191915707	
! Port Impedance	50.00000000000000	0.00000000000000	
557.5	-0.213798338065	0.95901183152	
! Port Impedance	50.00000000000000	0.00000000000000	
558.75	-0.202607384826	0.950037745636	
! Port Impedance	50.00000000000000	0.00000000000000	
560.0	-0.186668351707	0.95357307765	
! Port Impedance	50.00000000000000	0.00000000000000	
561.25	-0.199329270032	0.953855356722	
! Port Impedance	50.00000000000000	0.00000000000000	
562.5	-0.177700321041	0.964720414454	
! Port Impedance	50.00000000000000	0.00000000000000	
563.75	-0.185916607909	0.967184525385	
! Port Impedance	50.00000000000000	0.00000000000000	
565.0	-0.224304019777	0.947435728005	
! Port Impedance	50.00000000000000	0.00000000000000	
566.25	-0.151579932224	0.971209297153	
! Port Impedance	50.00000000000000	0.00000000000000	
567.5	-0.164682402926	0.971099448532	
! Port Impedance	50.00000000000000	0.00000000000000	
568.75	-0.132348981672	0.973035240236	
! Port Impedance	50.00000000000000	0.00000000000000	
570.0	-0.120660437927	0.971171977529	
! Port Impedance	50.00000000000000	0.00000000000000	
571.25	-0.178027809233	0.95497325545	
! Port Impedance	50.00000000000000	0.00000000000000	
572.5	-0.111320341832	0.972024274911	
! Port Impedance	50.00000000000000	0.00000000000000	
573.75	-0.0983907235362	0.975252527031	
! Port Impedance	50.00000000000000	0.00000000000000	
575.0	-0.0967665886404	0.975826331679	
! Port Impedance	50.00000000000000	0.00000000000000	
576.25	-0.0734185932308	0.975343722323	
! Port Impedance	50.00000000000000	0.00000000000000	
577.5	-0.06985439641	0.979825329295	
! Port Impedance	50.00000000000000	0.00000000000000	
578.75	-0.0594188701344	0.982488618313	
! Port Impedance	50.00000000000000	0.00000000000000	
580.0	-0.0535955530626	0.984095551627	
! Port Impedance	50.00000000000000	0.00000000000000	
581.25	-0.0416886439168	0.977330752021	
! Port Impedance	50.00000000000000	0.00000000000000	
582.5	-0.0368147733521	0.980273062716	
! Port Impedance	50.00000000000000	0.00000000000000	
583.75	-0.0388455691461	0.979461671429	
! Port Impedance	50.00000000000000	0.00000000000000	
585.0	-0.0275618009285	0.977760574997	
! Port Impedance	50.00000000000000	0.00000000000000	
586.25	-0.0299269239831	0.98277416239	
! Port Impedance	50.00000000000000	0.00000000000000	
587.5	-0.0368311213319	0.986267368244	
! Port Impedance	50.00000000000000	0.00000000000000	
588.75	0.0012621908838	0.995859314566	
! Port Impedance	50.00000000000000	0.00000000000000	
590.0	0.01699978653	0.992789262015	
! Port Impedance	50.00000000000000	0.00000000000000	
591.25	0.0197628413122	0.977662899974	
! Port Impedance	50.00000000000000	0.00000000000000	
592.5	0.0154730986495	0.972208385002	
! Port Impedance	50.00000000000000	0.00000000000000	
593.75	0.0175433218586	0.969148129663	
! Port Impedance	50.00000000000000	0.00000000000000	
595.0	0.0183340076767	0.976674028794	
! Port Impedance	50.00000000000000	0.00000000000000	
596.25	0.0225449863909	0.974960486015	
! Port Impedance	50.00000000000000	0.00000000000000	
597.5	0.0332785125117	0.98115400514	
! Port Impedance	50.00000000000000	0.00000000000000	
598.75	0.0359858234297	0.977342972745	
! Port Impedance	50.00000000000000	0.00000000000000	
600.0	0.0425013448343	0.972060227266	
! Port Impedance	50.00000000000000	0.00000000000000	
601.25	0.0237487568402	0.986847877896	
! Port Impedance	50.00000000000000	0.00000000000000	
602.5	0.0471023596254	0.984345207668	
! Port Impedance	50.00000000000000	0.00000000000000	
603.75	0.0621495477751	0.986900567925	
! Port Impedance	50.00000000000000	0.00000000000000	
605.0	0.068388665051	0.986781568624	
! Port Impedance	50.00000000000000	0.00000000000000	
606.25	0.0807604463942	0.976869720142	
! Port Impedance	50.00000000000000	0.00000000000000	
607.5	0.0923550251944	0.979120201088	
! Port Impedance	50.00000000000000	0.00000000000000	
608.75	0.0872022671049	0.970801774929	
! Port Impedance	50.00000000000000	0.00000000000000	
610.0	0.0972862178607	0.974174356052	
! Port Impedance	50.00000000000000	0.00000000000000	
611.25	0.11317816991	0.977304864634	
! Port Impedance	50.00000000000000	0.00000000000000	
612.5	0.147383478822	0.974997056098	
! Port Impedance	50.00000000000000	0.00000000000000	
613.75	0.112027569137	0.977700272694	
! Port Impedance	50.00000000000000	0.00000000000000	
615.0	0.108930886913	0.974755481855	
! Port Impedance	50.00000000000000	0.00000000000000	
616.25	0.128555451352	0.967884140925	
! Port Impedance	50.00000000000000	0.00000000000000	
617.5	0.134856510885	0.970082316332	
! Port Impedance	50.00000000000000	0.00000000000000	
618.75	0.136185002784	0.972201386476	
! Port Impedance	50.00000000000000	0.00000000000000	
620.0	0.148401328578	0.96634426425	
! Port Impedance	50.00000000000000	0.00000000000000	
621.25	0.156883683018	0.963772222707	
! Port Impedance	50.00000000000000	0.00000000000000	
622.5	0.149375966757	0.959566077441	
! Port Impedance	50.00000000000000	0.00000000000000	
623.75	0.150980302143	0.967254876836	
! Port Impedance	50.00000000000000	0.00000000000000	
625.0	0.169076785386	0.972534224604	
! Port Impedance	50.00000000000000	0.00000000000000	
626.25	0.18105958294	0.966206237368	
! Port Impedance	50.00000000000000	0.00000000000000	
627.5	0.180667814376	0.964372108754	
! Port Impedance	50.00000000000000	0.00000000000000	
628.75	0.20974461349	0.949975028268	
! Port Impedance	50.00000000000000	0.00000000000000	
630.0	0.154424032156	0.949124619288	
! Port Impedance	50.00000000000000	0.00000000000000	
631.25	0.186240729196	0.953290804075	
! Port Impedance	50.00000000000000	0.00000000000000	
632.5	0.199324352124	0.961086893135	
! Port Impedance	50.00000000000000	0.00000000000000	
633.75	0.21015571076	0.958318890221	
! Port Impedance	50.00000000000000	0.00000000000000	
635.0	0.230562393331	0.957855656455	
! Port Impedance	50.00000000000000	0.00000000000000	
636.25	0.223631247542	0.958928680167	
! Port Impedance	50.00000000000000	0.00000000000000	
637.5	0.225364986619	0.950422400292	
! Port Impedance	50.00000000000000	0.00000000000000	
638.75	0.241634824384	0.957458775872	
! Port Impedance	50.00000000000000	0.00000000000000	
640.0	0.243734103554	0.956771988366	
! Port Impedance	50.00000000000000	0.00000000000000	
641.25	0.253625482399	0.943574671605	
! Port Impedance	50.00000000000000	0.00000000000000	
642.5	0.260650051299	0.946509703077	
! Port Impedance	50.00000000000000	0.00000000000000	
643.75	0.258496900677	0.947157287037	
! Port Impedance	50.00000000000000	0.00000000000000	
645.0	0.267139925717	0.937572834557	
! Port Impedance	50.00000000000000	0.00000000000000	
646.25	0.2716204021	0.935835158347	
! Port Impedance	50.00000000000000	0.00000000000000	
647.5	0.273223673121	0.93619717869	
! Port Impedance	50.00000000000000	0.00000000000000	
648.75	0.276352939138	0.932230527998	
! Port Impedance	50.00000000000000	0.00000000000000	
650.0	0.286375830302	0.931062149336	
! Port Impedance	50.00000000000000	0.00000000000000	
651.25	0.289793938465	0.937415340852	
! Port Impedance	50.00000000000000	0.00000000000000	
652.5	0.29993094484	0.930027695853	
! Port Impedance	50.00000000000000	0.00000000000000	
653.75	0.325849361445	0.920891814879	
! Port Impedance	50.00000000000000	0.00000000000000	
655.0	0.367416994318	0.903927297298	
! Port Impedance	50.00000000000000	0.00000000000000	
656.25	0.331714132094	0.911211395741	
! Port Impedance	50.00000000000000	0.00000000000000	
657.5	0.32285498706	0.9201181771	
! Port Impedance	50.00000000000000	0.00000000000000	
658.75	0.327639574372	0.930554361137	
! Port Impedance	50.00000000000000	0.00000000000000	
660.0	0.326844201117	0.918402503188	
! Port Impedance	50.00000000000000	0.00000000000000	
661.25	0.334973100294	0.913143501902	
! Port Impedance	50.00000000000000	0.00000000000000	
662.5	0.346962353554	0.925998218287	
! Port Impedance	50.00000000000000	0.00000000000000	
663.75	0.351489844035	0.922918810237	
! Port Impedance	50.00000000000000	0.00000000000000	
665.0	0.363224600862	0.905203741584	
! Port Impedance	50.00000000000000	0.00000000000000	
666.25	0.366242287389	0.898415178526	
! Port Impedance	50.00000000000000	0.00000000000000	
667.5	0.354236132269	0.900076872953	
! Port Impedance	50.00000000000000	0.00000000000000	
668.75	0.352235350861	0.901437048298	
! Port Impedance	50.00000000000000	0.00000000000000	
670.0	0.363529480791	0.910151685417	
! Port Impedance	50.00000000000000	0.00000000000000	
671.25	0.377401918524	0.918063224304	
! Port Impedance	50.00000000000000	0.00000000000000	
672.5	0.384060974016	0.905999246794	
! Port Impedance	50.00000000000000	0.00000000000000	
673.75	0.399445607594	0.893007593625	
! Port Impedance	50.00000000000000	0.00000000000000	
675.0	0.410625821168	0.900179945525	
! Port Impedance	50.00000000000000	0.00000000000000	
676.25	0.412395081355	0.891943241105	
! Port Impedance	50.00000000000000	0.00000000000000	
677.5	0.436740424474	0.868259656574	
! Port Impedance	50.00000000000000	0.00000000000000	
678.75	0.436668158324	0.871060880545	
! Port Impedance	50.00000000000000	0.00000000000000	
680.0	0.416169363109	0.886165301032	
! Port Impedance	50.00000000000000	0.00000000000000	
681.25	0.421473698801	0.877739188635	
! Port Impedance	50.00000000000000	0.00000000000000	
682.5	0.440659059333	0.873970951904	
! Port Impedance	50.00000000000000	0.00000000000000	
683.75	0.449129330138	0.87595677438	
! Port Impedance	50.00000000000000	0.00000000000000	
685.0	0.430514578833	0.876470056517	
! Port Impedance	50.00000000000000	0.00000000000000	
686.25	0.44323733928	0.868316703097	
! Port Impedance	50.00000000000000	0.00000000000000	
687.5	0.45784311852	0.874293144674	
! Port Impedance	50.00000000000000	0.00000000000000	
688.75	0.456540200422	0.868430487217	
! Port Impedance	50.00000000000000	0.00000000000000	
690.0	0.457474557288	0.853806977449	
! Port Impedance	50.00000000000000	0.00000000000000	
691.25	0.467215654744	0.852308246137	
! Port Impedance	50.00000000000000	0.00000000000000	
692.5	0.495709441513	0.849265733298	
! Port Impedance	50.00000000000000	0.00000000000000	
693.75	0.518009928275	0.834627987186	
! Port Impedance	50.00000000000000	0.00000000000000	
695.0	0.531684900096	0.8172347427	
! Port Impedance	50.00000000000000	0.00000000000000	
696.25	0.547323342792	0.808385570211	
! Port Impedance	50.00000000000000	0.00000000000000	
697.5	0.510450246012	0.837209192502	
! Port Impedance	50.00000000000000	0.00000000000000	
698.75	0.497814322057	0.843152841822	
! Port Impedance	50.00000000000000	0.00000000000000	
700.0	0.50704712	0.836281211841	
! Port Impedance	50.00000000000000	0.00000000000000	
701.25	0.519825147342	0.836405963961	
! Port Impedance	50.00000000000000	0.00000000000000	
702.5	0.51653028326	0.838405195694	
! Port Impedance	50.00000000000000	0.00000000000000	
703.75	0.531603178614	0.816564154637	
! Port Impedance	50.00000000000000	0.00000000000000	
705.0	0.538681538939	0.808388770754	
! Port Impedance	50.00000000000000	0.00000000000000	
706.25	0.525749665588	0.831018916445	
! Port Impedance	50.00000000000000	0.00000000000000	
707.5	0.530021887155	0.841729841931	
! Port Impedance	50.00000000000000	0.00000000000000	
708.75	0.550963924141	0.826374667846	
! Port Impedance	50.00000000000000	0.00000000000000	
710.0	0.568506093495	0.808526404558	
! Port Impedance	50.00000000000000	0.00000000000000	
711.25	0.566890230284	0.807182699656	
! Port Impedance	50.00000000000000	0.00000000000000	
712.5	0.554521911496	0.802268266602	
! Port Impedance	50.00000000000000	0.00000000000000	
713.75	0.558447170271	0.792723883629	
! Port Impedance	50.00000000000000	0.00000000000000	
715.0	0.603254630835	0.772959406539	
! Port Impedance	50.00000000000000	0.00000000000000	
716.25	0.61095562259	0.772042053905	
! Port Impedance	50.00000000000000	0.00000000000000	
717.5	0.580138701653	0.778828925808	
! Port Impedance	50.00000000000000	0.00000000000000	
718.75	0.581146641481	0.770146400277	
! Port Impedance	50.00000000000000	0.00000000000000	
720.0	0.590560794524	0.782175606077	
! Port Impedance	50.00000000000000	0.00000000000000	
721.25	0.601283178991	0.782213023004	
! Port Impedance	50.00000000000000	0.00000000000000	
722.5	0.612711587345	0.760501637808	
! Port Impedance	50.00000000000000	0.00000000000000	
723.75	0.607497816184	0.755435963694	
! Port Impedance	50.00000000000000	0.00000000000000	
725.0	0.622156692242	0.761481519089	
! Port Impedance	50.00000000000000	0.00000000000000	
726.25	0.653777528144	0.74444960749	
! Port Impedance	50.00000000000000	0.00000000000000	
727.5	0.633452379876	0.748122037577	
! Port Impedance	50.00000000000000	0.00000000000000	
728.75	0.636991326467	0.735103423167	
! Port Impedance	50.00000000000000	0.00000000000000	
730.0	0.637717231138	0.74183103022	
! Port Impedance	50.00000000000000	0.00000000000000	
731.25	0.648933616482	0.746881811705	
! Port Impedance	50.00000000000000	0.00000000000000	
732.5	0.654890109365	0.730516146085	
! Port Impedance	50.00000000000000	0.00000000000000	
733.75	0.644781626833	0.72901813418	
! Port Impedance	50.00000000000000	0.00000000000000	
735.0	0.648510736201	0.745307991036	
! Port Impedance	50.00000000000000	0.00000000000000	
736.25	0.657763269585	0.738152895661	
! Port Impedance	50.00000000000000	0.00000000000000	
737.5	0.660299571197	0.728480834198	
! Port Impedance	50.00000000000000	0.00000000000000	
738.75	0.675874981565	0.702743107771	
! Port Impedance	50.00000000000000	0.00000000000000	
740.0	0.674102730599	0.708431557546	
! Port Impedance	50.00000000000000	0.00000000000000	
741.25	0.669240089281	0.715491838412	
! Port Impedance	50.00000000000000	0.00000000000000	
742.5	0.665423601331	0.708828732003	
! Port Impedance	50.00000000000000	0.00000000000000	
743.75	0.665661448076	0.70372694538	
! Port Impedance	50.00000000000000	0.00000000000000	
745.0	0.681182998534	0.71880221571	
! Port Impedance	50.00000000000000	0.00000000000000	
746.25	0.707696394683	0.709142062599	
! Port Impedance	50.00000000000000	0.00000000000000	
747.5	0.700610416223	0.687953625292	
! Port Impedance	50.00000000000000	0.00000000000000	
748.75	0.685788885258	0.679022521446	
! Port Impedance	50.00000000000000	0.00000000000000	
750.0	0.688733020088	0.680430219961	
! Port Impedance	50.00000000000000	0.00000000000000	
