!Created with mwavepy.
# GHz S RI R 50.0 
!freq	ReS11	ImS11	
500.0	-0.0545256668605	0.0347848388395	
! Port Impedance	50.00000000000000	0.00000000000000	
501.25	-0.0110645821258	0.070494058542	
! Port Impedance	50.00000000000000	0.00000000000000	
502.5	-0.01584602467	0.0256879440585	
! Port Impedance	50.00000000000000	0.00000000000000	
503.75	-0.0518981275264	0.0334504317518	
! Port Impedance	50.00000000000000	0.00000000000000	
505.0	-0.0244117337538	0.0643355331685	
! Port Impedance	50.00000000000000	0.00000000000000	
506.25	-0.00565894673072	0.0375818558526	
! Port Impedance	50.00000000000000	0.00000000000000	
507.5	-0.03441164983	0.0268728830993	
! Port Impedance	50.00000000000000	0.00000000000000	
508.75	-0.028904835611	0.0564871521392	
! Port Impedance	50.00000000000000	0.00000000000000	
510.0	-0.000524565776199	0.0395791410003	
! Port Impedance	50.00000000000000	0.00000000000000	
511.25	-0.0132315638536	0.0163318922107	
! Port Impedance	50.00000000000000	0.00000000000000	
512.5	-0.0342309537629	0.0390925560863	
! Port Impedance	50.00000000000000	0.00000000000000	
513.75	-0.0236698985568	0.039997205009	
! Port Impedance	50.00000000000000	0.00000000000000	
515.0	-0.028141126244	0.0353691766204	
! Port Impedance	50.00000000000000	0.00000000000000	
516.25	-0.0376522716267	0.0512548046711	
! Port Impedance	50.00000000000000	0.00000000000000	
517.5	-0.0194225935153	0.0572013702288	
! Port Impedance	50.00000000000000	0.00000000000000	
518.75	-0.0138586295103	0.0431088654745	
! Port Impedance	50.00000000000000	0.00000000000000	
520.0	-0.0231156483908	0.0451151927448	
! Port Impedance	50.00000000000000	0.00000000000000	
521.25	-0.0150376422203	0.0488390532131	
! Port Impedance	50.00000000000000	0.00000000000000	
522.5	-0.0160340965725	0.0386067574279	
! Port Impedance	50.00000000000000	0.00000000000000	
523.75	-0.022696710856	0.0462182988874	
! Port Impedance	50.00000000000000	0.00000000000000	
525.0	-0.0116765796812	0.047926410373	
! Port Impedance	50.00000000000000	0.00000000000000	
526.25	-0.0101768926288	0.0314572981996	
! Port Impedance	50.00000000000000	0.00000000000000	
527.5	-0.028137369934	0.0320264370821	
! Port Impedance	50.00000000000000	0.00000000000000	
528.75	-0.025692797206	0.0508537467824	
! Port Impedance	50.00000000000000	0.00000000000000	
530.0	-0.0086987173469	0.0420599202708	
! Port Impedance	50.00000000000000	0.00000000000000	
531.25	-0.0183828014984	0.02717816227	
! Port Impedance	50.00000000000000	0.00000000000000	
532.5	-0.028184782849	0.0394509576137	
! Port Impedance	50.00000000000000	0.00000000000000	
533.75	-0.0155410907385	0.0433297423539	
! Port Impedance	50.00000000000000	0.00000000000000	
535.0	-0.0170572025425	0.0275279984309	
! Port Impedance	50.00000000000000	0.00000000000000	
536.25	-0.0340793992322	0.0334977950074	
! Port Impedance	50.00000000000000	0.00000000000000	
537.5	-0.0251947538961	0.0533868322662	
! Port Impedance	50.00000000000000	0.00000000000000	
538.75	-0.00743995453211	0.0426391534733	
! Port Impedance	50.00000000000000	0.00000000000000	
540.0	-0.0200186680645	0.026743826777	
! Port Impedance	50.00000000000000	0.00000000000000	
541.25	-0.0333098463195	0.03744123664	
! Port Impedance	50.00000000000000	0.00000000000000	
542.5	-0.0233111142858	0.0476659768462	
! Port Impedance	50.00000000000000	0.00000000000000	
543.75	-0.0154989012265	0.0383567100169	
! Port Impedance	50.00000000000000	0.00000000000000	
545.0	-0.0258231585257	0.0353416279139	
! Port Impedance	50.00000000000000	0.00000000000000	
546.25	-0.0219666932912	0.0451590267712	
! Port Impedance	50.00000000000000	0.00000000000000	
547.5	-0.0152729405474	0.0393657139097	
! Port Impedance	50.00000000000000	0.00000000000000	
548.75	-0.0223622261549	0.03151662869	
! Port Impedance	50.00000000000000	0.00000000000000	
550.0	-0.031719622403	0.0400388280144	
! Port Impedance	50.00000000000000	0.00000000000000	
551.25	-0.0247041644493	0.0506861018645	
! Port Impedance	50.00000000000000	0.00000000000000	
552.5	-0.0203583688788	0.0498785104045	
! Port Impedance	50.00000000000000	0.00000000000000	
553.75	-0.0153845499962	0.0503924468245	
! Port Impedance	50.00000000000000	0.00000000000000	
555.0	-0.00667893872379	0.0471324362921	
! Port Impedance	50.00000000000000	0.00000000000000	
556.25	-0.00475060309568	0.0375116152039	
! Port Impedance	50.00000000000000	0.00000000000000	
557.5	-0.0149368791939	0.0347126459991	
! Port Impedance	50.00000000000000	0.00000000000000	
558.75	-0.0161520428448	0.0439562812914	
! Port Impedance	50.00000000000000	0.00000000000000	
560.0	-0.00531417911084	0.0412427573934	
! Port Impedance	50.00000000000000	0.00000000000000	
561.25	-0.00772087592263	0.0233642928813	
! Port Impedance	50.00000000000000	0.00000000000000	
562.5	-0.0281502007858	0.028035174618	
! Port Impedance	50.00000000000000	0.00000000000000	
563.75	-0.0225778062755	0.0478411496386	
! Port Impedance	50.00000000000000	0.00000000000000	
565.0	-0.00120497747029	0.0403192354407	
! Port Impedance	50.00000000000000	0.00000000000000	
566.25	-0.0175992208383	0.0190638041769	
! Port Impedance	50.00000000000000	0.00000000000000	
567.5	-0.0375457984421	0.0388927776986	
! Port Impedance	50.00000000000000	0.00000000000000	
568.75	-0.0149718178559	0.0579233767553	
! Port Impedance	50.00000000000000	0.00000000000000	
570.0	0.0024169928264	0.0342734257524	
! Port Impedance	50.00000000000000	0.00000000000000	
571.25	-0.0235220624299	0.0176934649625	
! Port Impedance	50.00000000000000	0.00000000000000	
572.5	-0.0398717461546	0.0496835403555	
! Port Impedance	50.00000000000000	0.00000000000000	
573.75	-0.00815021904202	0.0604357026742	
! Port Impedance	50.00000000000000	0.00000000000000	
575.0	0.00379033782029	0.0232717212638	
! Port Impedance	50.00000000000000	0.00000000000000	
576.25	-0.0359603441146	0.0163140670903	
! Port Impedance	50.00000000000000	0.00000000000000	
577.5	-0.0404376365967	0.05619829319	
! Port Impedance	50.00000000000000	0.00000000000000	
578.75	-0.00108455818532	0.0596644394465	
! Port Impedance	50.00000000000000	0.00000000000000	
580.0	-0.00247635996696	0.0194777901971	
! Port Impedance	50.00000000000000	0.00000000000000	
581.25	-0.0409630797976	0.0293830024445	
! Port Impedance	50.00000000000000	0.00000000000000	
582.5	-0.028006421108	0.0682451307545	
! Port Impedance	50.00000000000000	0.00000000000000	
583.75	0.0121800125552	0.0532005743549	
! Port Impedance	50.00000000000000	0.00000000000000	
585.0	-0.00459961644543	0.0148921236485	
! Port Impedance	50.00000000000000	0.00000000000000	
586.25	-0.039691617266	0.0337619494877	
! Port Impedance	50.00000000000000	0.00000000000000	
587.5	-0.0211054057869	0.0691615799275	
! Port Impedance	50.00000000000000	0.00000000000000	
588.75	0.0130425611737	0.0483344985389	
! Port Impedance	50.00000000000000	0.00000000000000	
590.0	-0.00255167005459	0.022721313833	
! Port Impedance	50.00000000000000	0.00000000000000	
591.25	-0.0230279952172	0.0397657220757	
! Port Impedance	50.00000000000000	0.00000000000000	
592.5	0.00416298557528	0.0559081186354	
! Port Impedance	50.00000000000000	0.00000000000000	
593.75	0.0206952196545	0.0220154929201	
! Port Impedance	50.00000000000000	0.00000000000000	
595.0	-0.0142499149189	-0.00245222284339	
! Port Impedance	50.00000000000000	0.00000000000000	
596.25	-0.0368442442439	0.0318410560914	
! Port Impedance	50.00000000000000	0.00000000000000	
597.5	-0.0103994113215	0.0508083189277	
! Port Impedance	50.00000000000000	0.00000000000000	
598.75	0.0036185305702	0.0215472627886	
! Port Impedance	50.00000000000000	0.00000000000000	
600.0	-0.0297090661652	0.0129190382939	
! Port Impedance	50.00000000000000	0.00000000000000	
601.25	-0.0360718540319	0.0455368181793	
! Port Impedance	50.00000000000000	0.00000000000000	
602.5	-0.00556124501228	0.0532670378616	
! Port Impedance	50.00000000000000	0.00000000000000	
603.75	-0.00310230095827	0.0232268064207	
! Port Impedance	50.00000000000000	0.00000000000000	
605.0	-0.0268937590102	0.0223149035779	
! Port Impedance	50.00000000000000	0.00000000000000	
606.25	-0.0243812753443	0.0465640845319	
! Port Impedance	50.00000000000000	0.00000000000000	
607.5	-0.00422326525961	0.039134227793	
! Port Impedance	50.00000000000000	0.00000000000000	
608.75	-0.0155543895869	0.0195783323805	
! Port Impedance	50.00000000000000	0.00000000000000	
610.0	-0.0367160521758	0.0377268790512	
! Port Impedance	50.00000000000000	0.00000000000000	
611.25	-0.0155703702749	0.0600571327046	
! Port Impedance	50.00000000000000	0.00000000000000	
612.5	0.00660737957214	0.0402699975845	
! Port Impedance	50.00000000000000	0.00000000000000	
613.75	-0.0160642019382	0.0182811248986	
! Port Impedance	50.00000000000000	0.00000000000000	
615.0	-0.0340439832045	0.04200418427	
! Port Impedance	50.00000000000000	0.00000000000000	
616.25	-0.00585242482878	0.0635487862135	
! Port Impedance	50.00000000000000	0.00000000000000	
617.5	0.0144933796382	0.0341751475865	
! Port Impedance	50.00000000000000	0.00000000000000	
618.75	-0.0109523331603	0.0155026268916	
! Port Impedance	50.00000000000000	0.00000000000000	
620.0	-0.0280956402075	0.0435293344373	
! Port Impedance	50.00000000000000	0.00000000000000	
621.25	0.00524593904791	0.0573915818016	
! Port Impedance	50.00000000000000	0.00000000000000	
622.5	0.0233291775322	0.0219095344413	
! Port Impedance	50.00000000000000	0.00000000000000	
623.75	-0.012735198711	-0.000747219720673	
! Port Impedance	50.00000000000000	0.00000000000000	
625.0	-0.0349462178941	0.0291293042344	
! Port Impedance	50.00000000000000	0.00000000000000	
626.25	-0.00581124345455	0.0509870999103	
! Port Impedance	50.00000000000000	0.00000000000000	
627.5	0.0128008344581	0.0251962999864	
! Port Impedance	50.00000000000000	0.00000000000000	
628.75	-0.0111323205356	0.00150353831186	
! Port Impedance	50.00000000000000	0.00000000000000	
630.0	-0.033092554883	0.0248430147146	
! Port Impedance	50.00000000000000	0.00000000000000	
631.25	-0.0168055394649	0.0405645183185	
! Port Impedance	50.00000000000000	0.00000000000000	
632.5	-0.00777106816154	0.0198611562091	
! Port Impedance	50.00000000000000	0.00000000000000	
633.75	-0.0323769045005	0.0148789780322	
! Port Impedance	50.00000000000000	0.00000000000000	
635.0	-0.0422518337224	0.0425959747552	
! Port Impedance	50.00000000000000	0.00000000000000	
636.25	-0.016419036938	0.0560177222352	
! Port Impedance	50.00000000000000	0.00000000000000	
637.5	-0.00275453851384	0.0360521360913	
! Port Impedance	50.00000000000000	0.00000000000000	
638.75	-0.0197750025012	0.0276430194129	
! Port Impedance	50.00000000000000	0.00000000000000	
640.0	-0.0247120205714	0.0470664902794	
! Port Impedance	50.00000000000000	0.00000000000000	
641.25	-0.00316067518638	0.0537061443636	
! Port Impedance	50.00000000000000	0.00000000000000	
642.5	0.00476649283541	0.0322802008361	
! Port Impedance	50.00000000000000	0.00000000000000	
643.75	-0.0136328541971	0.0236151813582	
! Port Impedance	50.00000000000000	0.00000000000000	
645.0	-0.0200304443073	0.0404701169155	
! Port Impedance	50.00000000000000	0.00000000000000	
646.25	-0.00746682175549	0.0442747204757	
! Port Impedance	50.00000000000000	0.00000000000000	
647.5	-0.00221577121026	0.0316759565589	
! Port Impedance	50.00000000000000	0.00000000000000	
648.75	-0.0147111379593	0.0336001047282	
! Port Impedance	50.00000000000000	0.00000000000000	
650.0	-0.0133013602172	0.0461288892482	
! Port Impedance	50.00000000000000	0.00000000000000	
651.25	0.00446342461483	0.044465709444	
! Port Impedance	50.00000000000000	0.00000000000000	
652.5	0.00614385929803	0.0291776734257	
! Port Impedance	50.00000000000000	0.00000000000000	
653.75	-0.00942612785391	0.0262571673475	
! Port Impedance	50.00000000000000	0.00000000000000	
655.0	-0.00928766105726	0.0370377836106	
! Port Impedance	50.00000000000000	0.00000000000000	
656.25	0.00550235682956	0.0324379035807	
! Port Impedance	50.00000000000000	0.00000000000000	
657.5	0.0001343461745	0.0142461439576	
! Port Impedance	50.00000000000000	0.00000000000000	
658.75	-0.0204233406327	0.0174812395081	
! Port Impedance	50.00000000000000	0.00000000000000	
660.0	-0.0227053644531	0.0363403894824	
! Port Impedance	50.00000000000000	0.00000000000000	
661.25	-0.00637421172833	0.0398917115637	
! Port Impedance	50.00000000000000	0.00000000000000	
662.5	-0.00380770289589	0.0259608254683	
! Port Impedance	50.00000000000000	0.00000000000000	
663.75	-0.0174756504935	0.0278151925633	
! Port Impedance	50.00000000000000	0.00000000000000	
665.0	-0.014997263977	0.0436789720928	
! Port Impedance	50.00000000000000	0.00000000000000	
666.25	0.00318517176117	0.0406039527322	
! Port Impedance	50.00000000000000	0.00000000000000	
667.5	0.00171729007038	0.020629171186	
! Port Impedance	50.00000000000000	0.00000000000000	
668.75	-0.0225015078313	0.0204259947277	
! Port Impedance	50.00000000000000	0.00000000000000	
670.0	-0.0285637190217	0.0414652973795	
! Port Impedance	50.00000000000000	0.00000000000000	
671.25	-0.00865337548477	0.0493574136551	
! Port Impedance	50.00000000000000	0.00000000000000	
672.5	0.000546060953015	0.0357134453435	
! Port Impedance	50.00000000000000	0.00000000000000	
673.75	-0.0131992895393	0.027173052423	
! Port Impedance	50.00000000000000	0.00000000000000	
675.0	-0.0198309818178	0.0429891573573	
! Port Impedance	50.00000000000000	0.00000000000000	
676.25	-0.00236199832172	0.0552368740833	
! Port Impedance	50.00000000000000	0.00000000000000	
677.5	0.012480173299	0.0410229991552	
! Port Impedance	50.00000000000000	0.00000000000000	
678.75	0.00502224444662	0.0224586574205	
! Port Impedance	50.00000000000000	0.00000000000000	
680.0	-0.00872515866511	0.0261909960235	
! Port Impedance	50.00000000000000	0.00000000000000	
681.25	-0.00453053821183	0.0412331236964	
! Port Impedance	50.00000000000000	0.00000000000000	
682.5	0.0102373556029	0.0365230398058	
! Port Impedance	50.00000000000000	0.00000000000000	
683.75	0.00682704452619	0.019956033824	
! Port Impedance	50.00000000000000	0.00000000000000	
685.0	-0.00767632661686	0.019248265313	
! Port Impedance	50.00000000000000	0.00000000000000	
686.25	-0.0101274616642	0.0309283069112	
! Port Impedance	50.00000000000000	0.00000000000000	
687.5	-0.00170817973629	0.0309415847275	
! Port Impedance	50.00000000000000	0.00000000000000	
688.75	-0.00052369007427	0.018258981769	
! Port Impedance	50.00000000000000	0.00000000000000	
690.0	-0.0144881031049	0.0158071395141	
! Port Impedance	50.00000000000000	0.00000000000000	
691.25	-0.0222938301835	0.0301227429021	
! Port Impedance	50.00000000000000	0.00000000000000	
692.5	-0.0123746001946	0.037709826585	
! Port Impedance	50.00000000000000	0.00000000000000	
693.75	-0.00818994553338	0.0282221106785	
! Port Impedance	50.00000000000000	0.00000000000000	
695.0	-0.0133256941285	0.0213933700147	
! Port Impedance	50.00000000000000	0.00000000000000	
696.25	-0.0219623751609	0.0300600786292	
! Port Impedance	50.00000000000000	0.00000000000000	
697.5	-0.0178351063748	0.0408540099909	
! Port Impedance	50.00000000000000	0.00000000000000	
698.75	-0.00954604554747	0.0397897731105	
! Port Impedance	50.00000000000000	0.00000000000000	
700.0	-0.00997126746984	0.0358287530739	
! Port Impedance	50.00000000000000	0.00000000000000	
701.25	-0.00938805965938	0.040628310435	
! Port Impedance	50.00000000000000	0.00000000000000	
702.5	-0.000929636512142	0.0453123550245	
! Port Impedance	50.00000000000000	0.00000000000000	
703.75	0.00600323021969	0.0338098813162	
! Port Impedance	50.00000000000000	0.00000000000000	
705.0	-0.00032018143875	0.0219661404524	
! Port Impedance	50.00000000000000	0.00000000000000	
706.25	-0.016126094648	0.0292072190513	
! Port Impedance	50.00000000000000	0.00000000000000	
707.5	-0.0147796700259	0.0498496239376	
! Port Impedance	50.00000000000000	0.00000000000000	
708.75	0.00608619186244	0.0517134231121	
! Port Impedance	50.00000000000000	0.00000000000000	
710.0	0.0150264696143	0.0357692063621	
! Port Impedance	50.00000000000000	0.00000000000000	
711.25	0.00836562365106	0.0280905936729	
! Port Impedance	50.00000000000000	0.00000000000000	
712.5	0.00251315454354	0.0323328938146	
! Port Impedance	50.00000000000000	0.00000000000000	
713.75	0.00809202116303	0.0332353076449	
! Port Impedance	50.00000000000000	0.00000000000000	
715.0	0.0112231901623	0.0240690905646	
! Port Impedance	50.00000000000000	0.00000000000000	
716.25	0.00572929725569	0.0142147704386	
! Port Impedance	50.00000000000000	0.00000000000000	
717.5	-0.00357479797282	0.0124448754309	
! Port Impedance	50.00000000000000	0.00000000000000	
718.75	-0.00912088292532	0.0141655758513	
! Port Impedance	50.00000000000000	0.00000000000000	
720.0	-0.0111192479881	0.0154446235314	
! Port Impedance	50.00000000000000	0.00000000000000	
721.25	-0.0152077641224	0.0211902578192	
! Port Impedance	50.00000000000000	0.00000000000000	
722.5	-0.0175563483295	0.0293678784187	
! Port Impedance	50.00000000000000	0.00000000000000	
723.75	-0.0120740841102	0.0331836263442	
! Port Impedance	50.00000000000000	0.00000000000000	
725.0	-0.00808354981471	0.0304865163175	
! Port Impedance	50.00000000000000	0.00000000000000	
726.25	-0.0119199821725	0.0306449361627	
! Port Impedance	50.00000000000000	0.00000000000000	
727.5	-0.0113823519233	0.0361280401732	
! Port Impedance	50.00000000000000	0.00000000000000	
728.75	-0.00795856806675	0.0380449709619	
! Port Impedance	50.00000000000000	0.00000000000000	
730.0	-0.00406118823647	0.0316681677053	
! Port Impedance	50.00000000000000	0.00000000000000	
731.25	-0.00616800687498	0.0315988882014	
! Port Impedance	50.00000000000000	0.00000000000000	
732.5	-0.00855942049716	0.0364787655035	
! Port Impedance	50.00000000000000	0.00000000000000	
733.75	-0.0031480381624	0.0392164180839	
! Port Impedance	50.00000000000000	0.00000000000000	
735.0	0.00174876039992	0.0350972674731	
! Port Impedance	50.00000000000000	0.00000000000000	
736.25	-0.00150617743109	0.0294587476343	
! Port Impedance	50.00000000000000	0.00000000000000	
737.5	-0.00574840139108	0.0344270081833	
! Port Impedance	50.00000000000000	0.00000000000000	
738.75	-0.00353223049412	0.0399932755205	
! Port Impedance	50.00000000000000	0.00000000000000	
740.0	0.00492007940616	0.0382166055875	
! Port Impedance	50.00000000000000	0.00000000000000	
741.25	0.00958957147992	0.032142486915	
! Port Impedance	50.00000000000000	0.00000000000000	
742.5	0.00497936015246	0.0307350737761	
! Port Impedance	50.00000000000000	0.00000000000000	
743.75	0.00253517173428	0.0325967141016	
! Port Impedance	50.00000000000000	0.00000000000000	
745.0	0.00553109210632	0.0357554821007	
! Port Impedance	50.00000000000000	0.00000000000000	
746.25	0.0144949049076	0.0324883426777	
! Port Impedance	50.00000000000000	0.00000000000000	
747.5	0.0111986408765	0.0240532005032	
! Port Impedance	50.00000000000000	0.00000000000000	
748.75	0.0061348193508	0.0230637377451	
! Port Impedance	50.00000000000000	0.00000000000000	
750.0	0.00478164774278	0.0216179985369	
! Port Impedance	50.00000000000000	0.00000000000000	
