!Created with mwavepy.
# GHz S RI R 50.0 
!freq	ReS11	ImS11	
500.0	-0.040649657638	0.0232996120468	
! Port Impedance	50.00000000000000	0.00000000000000	
501.25	-0.0133575748185	0.0631347505161	
! Port Impedance	50.00000000000000	0.00000000000000	
502.5	-0.012684560021	0.0263054440553	
! Port Impedance	50.00000000000000	0.00000000000000	
503.75	-0.0531214848747	0.0318926567297	
! Port Impedance	50.00000000000000	0.00000000000000	
505.0	-0.0243490238798	0.0617764880413	
! Port Impedance	50.00000000000000	0.00000000000000	
506.25	-0.00103873189093	0.0306298363714	
! Port Impedance	50.00000000000000	0.00000000000000	
507.5	-0.0356377293102	0.0261216867201	
! Port Impedance	50.00000000000000	0.00000000000000	
508.75	-0.0285138187126	0.0560387151828	
! Port Impedance	50.00000000000000	0.00000000000000	
510.0	0.00120144388528	0.0394340943178	
! Port Impedance	50.00000000000000	0.00000000000000	
511.25	-0.0208109317187	0.0124398263127	
! Port Impedance	50.00000000000000	0.00000000000000	
512.5	-0.0413835657152	0.0438056189933	
! Port Impedance	50.00000000000000	0.00000000000000	
513.75	-0.0234842857175	0.0415657793605	
! Port Impedance	50.00000000000000	0.00000000000000	
515.0	-0.0289831395867	0.0357772936126	
! Port Impedance	50.00000000000000	0.00000000000000	
516.25	-0.0351226556428	0.0495770526615	
! Port Impedance	50.00000000000000	0.00000000000000	
517.5	-0.016793677531	0.0570985972562	
! Port Impedance	50.00000000000000	0.00000000000000	
518.75	-0.013414898768	0.0408363767616	
! Port Impedance	50.00000000000000	0.00000000000000	
520.0	-0.0225863627557	0.0436413346071	
! Port Impedance	50.00000000000000	0.00000000000000	
521.25	-0.0135663637183	0.0447342754914	
! Port Impedance	50.00000000000000	0.00000000000000	
522.5	-0.0142832434748	0.0365587140969	
! Port Impedance	50.00000000000000	0.00000000000000	
523.75	-0.0213411984278	0.0433298439304	
! Port Impedance	50.00000000000000	0.00000000000000	
525.0	-0.0123540255803	0.0464894704011	
! Port Impedance	50.00000000000000	0.00000000000000	
526.25	-0.0100579390022	0.0298874486521	
! Port Impedance	50.00000000000000	0.00000000000000	
527.5	-0.0282282331695	0.031495115131	
! Port Impedance	50.00000000000000	0.00000000000000	
528.75	-0.0255119769844	0.0506738033753	
! Port Impedance	50.00000000000000	0.00000000000000	
530.0	-0.00835967891865	0.0410800609149	
! Port Impedance	50.00000000000000	0.00000000000000	
531.25	-0.0191745597837	0.0266393939836	
! Port Impedance	50.00000000000000	0.00000000000000	
532.5	-0.028725913804	0.0379862763312	
! Port Impedance	50.00000000000000	0.00000000000000	
533.75	-0.0149787886731	0.0418878508643	
! Port Impedance	50.00000000000000	0.00000000000000	
535.0	-0.0171849289469	0.0261031753041	
! Port Impedance	50.00000000000000	0.00000000000000	
536.25	-0.0337713603212	0.0325720285898	
! Port Impedance	50.00000000000000	0.00000000000000	
537.5	-0.0249782145338	0.0520808667827	
! Port Impedance	50.00000000000000	0.00000000000000	
538.75	-0.00746983485312	0.0410264179432	
! Port Impedance	50.00000000000000	0.00000000000000	
540.0	-0.0204553416323	0.0252977095305	
! Port Impedance	50.00000000000000	0.00000000000000	
541.25	-0.0337302369808	0.0365449420655	
! Port Impedance	50.00000000000000	0.00000000000000	
542.5	-0.0233224002213	0.0467903903226	
! Port Impedance	50.00000000000000	0.00000000000000	
543.75	-0.0151698330747	0.0379671259713	
! Port Impedance	50.00000000000000	0.00000000000000	
545.0	-0.0252230901212	0.034925504115	
! Port Impedance	50.00000000000000	0.00000000000000	
546.25	-0.0210709444626	0.0443900596338	
! Port Impedance	50.00000000000000	0.00000000000000	
547.5	-0.0145348200692	0.0383744556195	
! Port Impedance	50.00000000000000	0.00000000000000	
548.75	-0.0218388046414	0.0302993394486	
! Port Impedance	50.00000000000000	0.00000000000000	
550.0	-0.0309527660662	0.0385261170588	
! Port Impedance	50.00000000000000	0.00000000000000	
551.25	-0.0236725431469	0.0486120032838	
! Port Impedance	50.00000000000000	0.00000000000000	
552.5	-0.0195647899723	0.0478813111132	
! Port Impedance	50.00000000000000	0.00000000000000	
553.75	-0.0152463128813	0.0480989645155	
! Port Impedance	50.00000000000000	0.00000000000000	
555.0	-0.00625506650092	0.0438268030072	
! Port Impedance	50.00000000000000	0.00000000000000	
556.25	-0.00454389948927	0.0350864702284	
! Port Impedance	50.00000000000000	0.00000000000000	
557.5	-0.016365675542	0.0332193763392	
! Port Impedance	50.00000000000000	0.00000000000000	
558.75	-0.0174088219445	0.042397634204	
! Port Impedance	50.00000000000000	0.00000000000000	
560.0	-0.00591152548041	0.0393472521476	
! Port Impedance	50.00000000000000	0.00000000000000	
561.25	-0.00820116514117	0.0217274868313	
! Port Impedance	50.00000000000000	0.00000000000000	
562.5	-0.0286426124803	0.0264575428978	
! Port Impedance	50.00000000000000	0.00000000000000	
563.75	-0.0231673858203	0.0461904202055	
! Port Impedance	50.00000000000000	0.00000000000000	
565.0	-0.0015579588541	0.0389212662156	
! Port Impedance	50.00000000000000	0.00000000000000	
566.25	-0.0179674588673	0.0179106394451	
! Port Impedance	50.00000000000000	0.00000000000000	
567.5	-0.037825393218	0.0378307007482	
! Port Impedance	50.00000000000000	0.00000000000000	
568.75	-0.0154990103244	0.0567101865322	
! Port Impedance	50.00000000000000	0.00000000000000	
570.0	0.00226602780478	0.0328293103514	
! Port Impedance	50.00000000000000	0.00000000000000	
571.25	-0.0238147743347	0.0163209549758	
! Port Impedance	50.00000000000000	0.00000000000000	
572.5	-0.0397295631012	0.0481901878316	
! Port Impedance	50.00000000000000	0.00000000000000	
573.75	-0.00779197368561	0.058523171299	
! Port Impedance	50.00000000000000	0.00000000000000	
575.0	0.00365947583511	0.0213658892477	
! Port Impedance	50.00000000000000	0.00000000000000	
576.25	-0.036232205602	0.0150071369256	
! Port Impedance	50.00000000000000	0.00000000000000	
577.5	-0.0406956837628	0.0549216759537	
! Port Impedance	50.00000000000000	0.00000000000000	
578.75	-0.00121691987208	0.0579675566648	
! Port Impedance	50.00000000000000	0.00000000000000	
580.0	-0.00264777208912	0.0181667037371	
! Port Impedance	50.00000000000000	0.00000000000000	
581.25	-0.0407680192727	0.0280560929341	
! Port Impedance	50.00000000000000	0.00000000000000	
582.5	-0.0277349080291	0.0664081801166	
! Port Impedance	50.00000000000000	0.00000000000000	
583.75	0.0121183587136	0.0507880225243	
! Port Impedance	50.00000000000000	0.00000000000000	
585.0	-0.0047567309116	0.0129110934383	
! Port Impedance	50.00000000000000	0.00000000000000	
586.25	-0.0398766595824	0.0317727593215	
! Port Impedance	50.00000000000000	0.00000000000000	
587.5	-0.0213188764652	0.0671313021824	
! Port Impedance	50.00000000000000	0.00000000000000	
588.75	0.0127833477788	0.0462587074878	
! Port Impedance	50.00000000000000	0.00000000000000	
590.0	-0.00298794995166	0.0211826269497	
! Port Impedance	50.00000000000000	0.00000000000000	
591.25	-0.0232214055867	0.0381478815729	
! Port Impedance	50.00000000000000	0.00000000000000	
592.5	0.00402456906837	0.0541642127736	
! Port Impedance	50.00000000000000	0.00000000000000	
593.75	0.0202760721801	0.019911405742	
! Port Impedance	50.00000000000000	0.00000000000000	
595.0	-0.0149543852439	-0.00384590654242	
! Port Impedance	50.00000000000000	0.00000000000000	
596.25	-0.0372218426826	0.0304446264721	
! Port Impedance	50.00000000000000	0.00000000000000	
597.5	-0.0102420667537	0.0495916956054	
! Port Impedance	50.00000000000000	0.00000000000000	
598.75	0.00361082239008	0.0199729546363	
! Port Impedance	50.00000000000000	0.00000000000000	
600.0	-0.0296820692429	0.0112574828102	
! Port Impedance	50.00000000000000	0.00000000000000	
601.25	-0.0358683815372	0.0435095668995	
! Port Impedance	50.00000000000000	0.00000000000000	
602.5	-0.00571417267825	0.0513918730098	
! Port Impedance	50.00000000000000	0.00000000000000	
603.75	-0.00360617503843	0.0214502114	
! Port Impedance	50.00000000000000	0.00000000000000	
605.0	-0.0273337050502	0.020848296169	
! Port Impedance	50.00000000000000	0.00000000000000	
606.25	-0.0241915676826	0.0452227061196	
! Port Impedance	50.00000000000000	0.00000000000000	
607.5	-0.0041637748599	0.0375878289822	
! Port Impedance	50.00000000000000	0.00000000000000	
608.75	-0.0155386365623	0.0177078174647	
! Port Impedance	50.00000000000000	0.00000000000000	
610.0	-0.0368202867477	0.0356630739568	
! Port Impedance	50.00000000000000	0.00000000000000	
611.25	-0.0154806338568	0.0579184911894	
! Port Impedance	50.00000000000000	0.00000000000000	
612.5	0.00654163793776	0.0381699283616	
! Port Impedance	50.00000000000000	0.00000000000000	
613.75	-0.0165878814485	0.016092974838	
! Port Impedance	50.00000000000000	0.00000000000000	
615.0	-0.0342894813026	0.0400555850819	
! Port Impedance	50.00000000000000	0.00000000000000	
616.25	-0.00548879704232	0.0613668259026	
! Port Impedance	50.00000000000000	0.00000000000000	
617.5	0.0144061924251	0.0319246129204	
! Port Impedance	50.00000000000000	0.00000000000000	
618.75	-0.0117400257259	0.0134060935881	
! Port Impedance	50.00000000000000	0.00000000000000	
620.0	-0.0287523674863	0.0416884586377	
! Port Impedance	50.00000000000000	0.00000000000000	
621.25	0.00521690378079	0.0552653376922	
! Port Impedance	50.00000000000000	0.00000000000000	
622.5	0.0227463377243	0.019373125683	
! Port Impedance	50.00000000000000	0.00000000000000	
623.75	-0.0139474127402	-0.00279638141346	
! Port Impedance	50.00000000000000	0.00000000000000	
625.0	-0.0355573770407	0.027688423177	
! Port Impedance	50.00000000000000	0.00000000000000	
626.25	-0.00608273960364	0.0493084616669	
! Port Impedance	50.00000000000000	0.00000000000000	
627.5	0.0123598371907	0.0233732361033	
! Port Impedance	50.00000000000000	0.00000000000000	
628.75	-0.0114324856205	0.000104873728009	
! Port Impedance	50.00000000000000	0.00000000000000	
630.0	-0.0332539056107	0.0232325720686	
! Port Impedance	50.00000000000000	0.00000000000000	
631.25	-0.0168671250481	0.0385073658424	
! Port Impedance	50.00000000000000	0.00000000000000	
632.5	-0.00865924355666	0.0177204799954	
! Port Impedance	50.00000000000000	0.00000000000000	
633.75	-0.0328406423887	0.0132278467393	
! Port Impedance	50.00000000000000	0.00000000000000	
635.0	-0.0422836911791	0.0409515311633	
! Port Impedance	50.00000000000000	0.00000000000000	
636.25	-0.0160875494474	0.054179934882	
! Port Impedance	50.00000000000000	0.00000000000000	
637.5	-0.00295001444737	0.0340180107052	
! Port Impedance	50.00000000000000	0.00000000000000	
638.75	-0.0201586750186	0.0253524072504	
! Port Impedance	50.00000000000000	0.00000000000000	
640.0	-0.0249857632487	0.0451767826227	
! Port Impedance	50.00000000000000	0.00000000000000	
641.25	-0.00310950149698	0.0518237090866	
! Port Impedance	50.00000000000000	0.00000000000000	
642.5	0.00463474122362	0.029777002908	
! Port Impedance	50.00000000000000	0.00000000000000	
643.75	-0.013795575535	0.0212055748731	
! Port Impedance	50.00000000000000	0.00000000000000	
645.0	-0.0200941754904	0.0385106001828	
! Port Impedance	50.00000000000000	0.00000000000000	
646.25	-0.007559971005	0.0420432802013	
! Port Impedance	50.00000000000000	0.00000000000000	
647.5	-0.00245733877632	0.0291698518579	
! Port Impedance	50.00000000000000	0.00000000000000	
648.75	-0.0149368850761	0.0309491944621	
! Port Impedance	50.00000000000000	0.00000000000000	
650.0	-0.013456082436	0.0437120996777	
! Port Impedance	50.00000000000000	0.00000000000000	
651.25	0.00354033085924	0.0417821441239	
! Port Impedance	50.00000000000000	0.00000000000000	
652.5	0.00537187449981	0.0271488574481	
! Port Impedance	50.00000000000000	0.00000000000000	
653.75	-0.00962692202599	0.0243175661232	
! Port Impedance	50.00000000000000	0.00000000000000	
655.0	-0.0102407039172	0.0353567898118	
! Port Impedance	50.00000000000000	0.00000000000000	
656.25	0.00500624001805	0.0299741479214	
! Port Impedance	50.00000000000000	0.00000000000000	
657.5	-0.000858249372056	0.012132534945	
! Port Impedance	50.00000000000000	0.00000000000000	
658.75	-0.0211220730903	0.0156965699883	
! Port Impedance	50.00000000000000	0.00000000000000	
660.0	-0.0225885600586	0.034967219827	
! Port Impedance	50.00000000000000	0.00000000000000	
661.25	-0.00644265027413	0.0375985192964	
! Port Impedance	50.00000000000000	0.00000000000000	
662.5	-0.00408315189849	0.0233508659735	
! Port Impedance	50.00000000000000	0.00000000000000	
663.75	-0.018095810485	0.0257756763397	
! Port Impedance	50.00000000000000	0.00000000000000	
665.0	-0.015593944789	0.04180386363	
! Port Impedance	50.00000000000000	0.00000000000000	
666.25	0.0031729666945	0.0382940375435	
! Port Impedance	50.00000000000000	0.00000000000000	
667.5	0.00144973100127	0.0180913153534	
! Port Impedance	50.00000000000000	0.00000000000000	
668.75	-0.0228333271631	0.0179041707424	
! Port Impedance	50.00000000000000	0.00000000000000	
670.0	-0.0290242743968	0.0392506555524	
! Port Impedance	50.00000000000000	0.00000000000000	
671.25	-0.00896675151083	0.0471272527072	
! Port Impedance	50.00000000000000	0.00000000000000	
672.5	0.000466558103397	0.0329787205242	
! Port Impedance	50.00000000000000	0.00000000000000	
673.75	-0.0135953746322	0.0245103412419	
! Port Impedance	50.00000000000000	0.00000000000000	
675.0	-0.0203500376309	0.0406978710856	
! Port Impedance	50.00000000000000	0.00000000000000	
676.25	-0.00283028395292	0.0527421704169	
! Port Impedance	50.00000000000000	0.00000000000000	
677.5	0.012416417639	0.0385460658353	
! Port Impedance	50.00000000000000	0.00000000000000	
678.75	0.00449472519117	0.0198125334089	
! Port Impedance	50.00000000000000	0.00000000000000	
680.0	-0.00957764583937	0.0236389327535	
! Port Impedance	50.00000000000000	0.00000000000000	
681.25	-0.00498185048847	0.0386583669687	
! Port Impedance	50.00000000000000	0.00000000000000	
682.5	0.00965628214317	0.033981726416	
! Port Impedance	50.00000000000000	0.00000000000000	
683.75	0.00600832143041	0.0172181674255	
! Port Impedance	50.00000000000000	0.00000000000000	
685.0	-0.00874689024897	0.0167337524209	
! Port Impedance	50.00000000000000	0.00000000000000	
686.25	-0.0110343656178	0.0283834979229	
! Port Impedance	50.00000000000000	0.00000000000000	
687.5	-0.0026794704104	0.0288750844295	
! Port Impedance	50.00000000000000	0.00000000000000	
688.75	-0.00100226661605	0.0164373983518	
! Port Impedance	50.00000000000000	0.00000000000000	
690.0	-0.0149848143863	0.0136815386821	
! Port Impedance	50.00000000000000	0.00000000000000	
691.25	-0.0228837797762	0.0278580669887	
! Port Impedance	50.00000000000000	0.00000000000000	
692.5	-0.0127581299388	0.0352993476599	
! Port Impedance	50.00000000000000	0.00000000000000	
693.75	-0.0086221704395	0.0259597583804	
! Port Impedance	50.00000000000000	0.00000000000000	
695.0	-0.0138111617765	0.0190350685748	
! Port Impedance	50.00000000000000	0.00000000000000	
696.25	-0.0221470268202	0.0276807133033	
! Port Impedance	50.00000000000000	0.00000000000000	
697.5	-0.0181968124012	0.0384713861116	
! Port Impedance	50.00000000000000	0.00000000000000	
698.75	-0.0097726676996	0.0375672179664	
! Port Impedance	50.00000000000000	0.00000000000000	
700.0	-0.00977053471081	0.0335367778145	
! Port Impedance	50.00000000000000	0.00000000000000	
701.25	-0.00961026455394	0.0378124686078	
! Port Impedance	50.00000000000000	0.00000000000000	
702.5	-0.00134430167763	0.0427771281344	
! Port Impedance	50.00000000000000	0.00000000000000	
703.75	0.00560542378408	0.0310842186173	
! Port Impedance	50.00000000000000	0.00000000000000	
705.0	-0.000654233572954	0.019219028162	
! Port Impedance	50.00000000000000	0.00000000000000	
706.25	-0.016603545828	0.0263060613639	
! Port Impedance	50.00000000000000	0.00000000000000	
707.5	-0.0152235067828	0.0469982698534	
! Port Impedance	50.00000000000000	0.00000000000000	
708.75	0.00539377233212	0.0486658696098	
! Port Impedance	50.00000000000000	0.00000000000000	
710.0	0.0141721831153	0.0328408894769	
! Port Impedance	50.00000000000000	0.00000000000000	
711.25	0.00757585646436	0.0248311455073	
! Port Impedance	50.00000000000000	0.00000000000000	
712.5	0.00137328209638	0.0291135797875	
! Port Impedance	50.00000000000000	0.00000000000000	
713.75	0.00693529983564	0.0303958170052	
! Port Impedance	50.00000000000000	0.00000000000000	
715.0	0.010231199671	0.0215706269343	
! Port Impedance	50.00000000000000	0.00000000000000	
716.25	0.00470341703865	0.0115908609703	
! Port Impedance	50.00000000000000	0.00000000000000	
717.5	-0.00451593751487	0.00989660576988	
! Port Impedance	50.00000000000000	0.00000000000000	
718.75	-0.0100020034942	0.0114425230893	
! Port Impedance	50.00000000000000	0.00000000000000	
720.0	-0.0121619490999	0.0133661588315	
! Port Impedance	50.00000000000000	0.00000000000000	
721.25	-0.0160591622845	0.0193798827108	
! Port Impedance	50.00000000000000	0.00000000000000	
722.5	-0.0182993252107	0.0273985942866	
! Port Impedance	50.00000000000000	0.00000000000000	
723.75	-0.012300184448	0.0304305311502	
! Port Impedance	50.00000000000000	0.00000000000000	
725.0	-0.00844835884399	0.0279543574002	
! Port Impedance	50.00000000000000	0.00000000000000	
726.25	-0.0121933914551	0.0281148018803	
! Port Impedance	50.00000000000000	0.00000000000000	
727.5	-0.0118276371711	0.0336306677295	
! Port Impedance	50.00000000000000	0.00000000000000	
728.75	-0.00789205883032	0.0353158407086	
! Port Impedance	50.00000000000000	0.00000000000000	
730.0	-0.00474379442023	0.0293118355503	
! Port Impedance	50.00000000000000	0.00000000000000	
731.25	-0.00712408685983	0.0288942312189	
! Port Impedance	50.00000000000000	0.00000000000000	
732.5	-0.00863051836753	0.0335640006719	
! Port Impedance	50.00000000000000	0.00000000000000	
733.75	-0.00347344771817	0.0362062838416	
! Port Impedance	50.00000000000000	0.00000000000000	
735.0	0.0012540027673	0.0324836329312	
! Port Impedance	50.00000000000000	0.00000000000000	
736.25	-0.00207698395392	0.026915378814	
! Port Impedance	50.00000000000000	0.00000000000000	
737.5	-0.00619375474282	0.0310821381266	
! Port Impedance	50.00000000000000	0.00000000000000	
738.75	-0.00384737007244	0.0370373682629	
! Port Impedance	50.00000000000000	0.00000000000000	
740.0	0.00476199091895	0.0351095092801	
! Port Impedance	50.00000000000000	0.00000000000000	
741.25	0.00907364020901	0.0292646620546	
! Port Impedance	50.00000000000000	0.00000000000000	
742.5	0.00475237744282	0.0271125627329	
! Port Impedance	50.00000000000000	0.00000000000000	
743.75	0.00230259573126	0.0278757997613	
! Port Impedance	50.00000000000000	0.00000000000000	
745.0	0.00552404675574	0.032330260176	
! Port Impedance	50.00000000000000	0.00000000000000	
746.25	0.0136305590039	0.0301978100771	
! Port Impedance	50.00000000000000	0.00000000000000	
747.5	0.00962239679199	0.0207910535585	
! Port Impedance	50.00000000000000	0.00000000000000	
748.75	0.00476956810149	0.0193616604824	
! Port Impedance	50.00000000000000	0.00000000000000	
750.0	0.00367039822223	0.0180521075572	
! Port Impedance	50.00000000000000	0.00000000000000	
