!Created with mwavepy.
# GHz S RI R 50.0 
!freq	ReS11	ImS11	
500.0	-0.0500782532959	0.0475852233338	
! Port Impedance	50.00000000000000	0.00000000000000	
501.25	-0.00765789547204	0.0708299527895	
! Port Impedance	50.00000000000000	0.00000000000000	
502.5	-0.0199319894344	0.016641944863	
! Port Impedance	50.00000000000000	0.00000000000000	
503.75	-0.0537329562217	0.0405928267944	
! Port Impedance	50.00000000000000	0.00000000000000	
505.0	-0.0254156558991	0.0690514385346	
! Port Impedance	50.00000000000000	0.00000000000000	
506.25	-0.00713601042539	0.0453358842714	
! Port Impedance	50.00000000000000	0.00000000000000	
507.5	-0.0362885300246	0.0327136410835	
! Port Impedance	50.00000000000000	0.00000000000000	
508.75	-0.0324960039945	0.0628198372036	
! Port Impedance	50.00000000000000	0.00000000000000	
510.0	-0.00367286484387	0.047045943968	
! Port Impedance	50.00000000000000	0.00000000000000	
511.25	-0.0248598392296	0.0251684819472	
! Port Impedance	50.00000000000000	0.00000000000000	
512.5	-0.036498472761	0.0481321278096	
! Port Impedance	50.00000000000000	0.00000000000000	
513.75	-0.0281290503276	0.0481419352528	
! Port Impedance	50.00000000000000	0.00000000000000	
515.0	-0.0354710959074	0.0403720287261	
! Port Impedance	50.00000000000000	0.00000000000000	
516.25	-0.0453813049964	0.0548620402547	
! Port Impedance	50.00000000000000	0.00000000000000	
517.5	-0.0215712303471	0.0619230003758	
! Port Impedance	50.00000000000000	0.00000000000000	
518.75	-0.0195891978072	0.04607593176	
! Port Impedance	50.00000000000000	0.00000000000000	
520.0	-0.0271323402272	0.0504447538832	
! Port Impedance	50.00000000000000	0.00000000000000	
521.25	-0.0203785064256	0.0527037098038	
! Port Impedance	50.00000000000000	0.00000000000000	
522.5	-0.0192670573342	0.0448270048947	
! Port Impedance	50.00000000000000	0.00000000000000	
523.75	-0.0294376718209	0.0475883278342	
! Port Impedance	50.00000000000000	0.00000000000000	
525.0	-0.0173960239988	0.053513631252	
! Port Impedance	50.00000000000000	0.00000000000000	
526.25	-0.0152952852775	0.0380296614815	
! Port Impedance	50.00000000000000	0.00000000000000	
527.5	-0.0328607272325	0.0392584984378	
! Port Impedance	50.00000000000000	0.00000000000000	
528.75	-0.0304442341352	0.0583416054411	
! Port Impedance	50.00000000000000	0.00000000000000	
530.0	-0.0120175970958	0.0488894461626	
! Port Impedance	50.00000000000000	0.00000000000000	
531.25	-0.0221208201501	0.0341556639298	
! Port Impedance	50.00000000000000	0.00000000000000	
532.5	-0.0315582878276	0.0461363163901	
! Port Impedance	50.00000000000000	0.00000000000000	
533.75	-0.0179042255865	0.0495003237465	
! Port Impedance	50.00000000000000	0.00000000000000	
535.0	-0.019812770689	0.0329756977613	
! Port Impedance	50.00000000000000	0.00000000000000	
536.25	-0.036392947708	0.0389289871492	
! Port Impedance	50.00000000000000	0.00000000000000	
537.5	-0.0276001851376	0.058374257716	
! Port Impedance	50.00000000000000	0.00000000000000	
538.75	-0.0103773414621	0.0472878236782	
! Port Impedance	50.00000000000000	0.00000000000000	
540.0	-0.0231546600789	0.0311824302391	
! Port Impedance	50.00000000000000	0.00000000000000	
541.25	-0.0364738920596	0.0417333431214	
! Port Impedance	50.00000000000000	0.00000000000000	
542.5	-0.0266545568361	0.0514756789271	
! Port Impedance	50.00000000000000	0.00000000000000	
543.75	-0.0189483210251	0.0435777324188	
! Port Impedance	50.00000000000000	0.00000000000000	
545.0	-0.0289922506704	0.0399610328685	
! Port Impedance	50.00000000000000	0.00000000000000	
546.25	-0.0249187025807	0.0497368856125	
! Port Impedance	50.00000000000000	0.00000000000000	
547.5	-0.0188291870371	0.0441475488518	
! Port Impedance	50.00000000000000	0.00000000000000	
548.75	-0.0261950710368	0.0360229572334	
! Port Impedance	50.00000000000000	0.00000000000000	
550.0	-0.0352725723404	0.0440096377839	
! Port Impedance	50.00000000000000	0.00000000000000	
551.25	-0.0281825945471	0.054777181081	
! Port Impedance	50.00000000000000	0.00000000000000	
552.5	-0.0251034850036	0.0545648747562	
! Port Impedance	50.00000000000000	0.00000000000000	
553.75	-0.0202530142752	0.053399721438	
! Port Impedance	50.00000000000000	0.00000000000000	
555.0	-0.00997251599628	0.0499529076076	
! Port Impedance	50.00000000000000	0.00000000000000	
556.25	-0.00878254438996	0.0417726924032	
! Port Impedance	50.00000000000000	0.00000000000000	
557.5	-0.0222409171405	0.0388091475699	
! Port Impedance	50.00000000000000	0.00000000000000	
558.75	-0.0220972772129	0.0498240097064	
! Port Impedance	50.00000000000000	0.00000000000000	
560.0	-0.00947474662648	0.0475517457422	
! Port Impedance	50.00000000000000	0.00000000000000	
561.25	-0.0108656624516	0.0297275393877	
! Port Impedance	50.00000000000000	0.00000000000000	
562.5	-0.0309024113621	0.0334516421239	
! Port Impedance	50.00000000000000	0.00000000000000	
563.75	-0.0250085188429	0.0527431881303	
! Port Impedance	50.00000000000000	0.00000000000000	
565.0	-0.00306108513192	0.0455645267499	
! Port Impedance	50.00000000000000	0.00000000000000	
566.25	-0.0198587612763	0.0231315126178	
! Port Impedance	50.00000000000000	0.00000000000000	
567.5	-0.0401147694833	0.0421864315472	
! Port Impedance	50.00000000000000	0.00000000000000	
568.75	-0.018032544716	0.0615234212236	
! Port Impedance	50.00000000000000	0.00000000000000	
570.0	-0.000795246610063	0.0374706334954	
! Port Impedance	50.00000000000000	0.00000000000000	
571.25	-0.0254505663776	0.02191673827	
! Port Impedance	50.00000000000000	0.00000000000000	
572.5	-0.0432689984874	0.0528690370634	
! Port Impedance	50.00000000000000	0.00000000000000	
573.75	-0.011638648612	0.0632752517944	
! Port Impedance	50.00000000000000	0.00000000000000	
575.0	5.04274555735e-06	0.0263241408258	
! Port Impedance	50.00000000000000	0.00000000000000	
576.25	-0.039537017039	0.0193588772961	
! Port Impedance	50.00000000000000	0.00000000000000	
577.5	-0.0440133363422	0.0588874788967	
! Port Impedance	50.00000000000000	0.00000000000000	
578.75	-0.00512702362371	0.0619079321182	
! Port Impedance	50.00000000000000	0.00000000000000	
580.0	-0.0069688730029	0.0219312328219	
! Port Impedance	50.00000000000000	0.00000000000000	
581.25	-0.0456662556011	0.0317015964562	
! Port Impedance	50.00000000000000	0.00000000000000	
582.5	-0.0329417082739	0.0711632243116	
! Port Impedance	50.00000000000000	0.00000000000000	
583.75	0.00738028464403	0.0560095791837	
! Port Impedance	50.00000000000000	0.00000000000000	
585.0	-0.00964412745985	0.0182615129066	
! Port Impedance	50.00000000000000	0.00000000000000	
586.25	-0.044760376132	0.0375178057439	
! Port Impedance	50.00000000000000	0.00000000000000	
587.5	-0.0256422816574	0.0730239476633	
! Port Impedance	50.00000000000000	0.00000000000000	
588.75	0.00872295444956	0.0518287810418	
! Port Impedance	50.00000000000000	0.00000000000000	
590.0	-0.00731395376154	0.0273114353755	
! Port Impedance	50.00000000000000	0.00000000000000	
591.25	-0.0272831766892	0.0447346538573	
! Port Impedance	50.00000000000000	0.00000000000000	
592.5	0.0012417217778	0.0604452112406	
! Port Impedance	50.00000000000000	0.00000000000000	
593.75	0.0181439459165	0.0258703534848	
! Port Impedance	50.00000000000000	0.00000000000000	
595.0	-0.016615608823	0.00146198046343	
! Port Impedance	50.00000000000000	0.00000000000000	
596.25	-0.0391108596862	0.0349739398856	
! Port Impedance	50.00000000000000	0.00000000000000	
597.5	-0.0126410453818	0.0536356768045	
! Port Impedance	50.00000000000000	0.00000000000000	
598.75	0.00113137595701	0.0242118922157	
! Port Impedance	50.00000000000000	0.00000000000000	
600.0	-0.0325223584049	0.0152490545264	
! Port Impedance	50.00000000000000	0.00000000000000	
601.25	-0.0386917978433	0.0473597727164	
! Port Impedance	50.00000000000000	0.00000000000000	
602.5	-0.00817611647376	0.0553156904304	
! Port Impedance	50.00000000000000	0.00000000000000	
603.75	-0.00625199042193	0.0246521074463	
! Port Impedance	50.00000000000000	0.00000000000000	
605.0	-0.0304738826687	0.0237398537149	
! Port Impedance	50.00000000000000	0.00000000000000	
606.25	-0.0278263577835	0.0479652413693	
! Port Impedance	50.00000000000000	0.00000000000000	
607.5	-0.00834946945306	0.0408480657577	
! Port Impedance	50.00000000000000	0.00000000000000	
608.75	-0.019646640167	0.0210357979306	
! Port Impedance	50.00000000000000	0.00000000000000	
610.0	-0.0407301756518	0.0390159384389	
! Port Impedance	50.00000000000000	0.00000000000000	
611.25	-0.0197896531891	0.0612150530155	
! Port Impedance	50.00000000000000	0.00000000000000	
612.5	0.0018436921935	0.0413744080568	
! Port Impedance	50.00000000000000	0.00000000000000	
613.75	-0.0215889125698	0.0201515236409	
! Port Impedance	50.00000000000000	0.00000000000000	
615.0	-0.0394453282016	0.0439679469492	
! Port Impedance	50.00000000000000	0.00000000000000	
616.25	-0.0106182342546	0.0660930996174	
! Port Impedance	50.00000000000000	0.00000000000000	
617.5	0.00967204202888	0.0371406946442	
! Port Impedance	50.00000000000000	0.00000000000000	
618.75	-0.0164174754427	0.0185333163058	
! Port Impedance	50.00000000000000	0.00000000000000	
620.0	-0.0329691915257	0.0469573779268	
! Port Impedance	50.00000000000000	0.00000000000000	
621.25	0.00114263663947	0.0611947655183	
! Port Impedance	50.00000000000000	0.00000000000000	
622.5	0.0199318723888	0.0258078063889	
! Port Impedance	50.00000000000000	0.00000000000000	
623.75	-0.0158047556107	0.00267766533435	
! Port Impedance	50.00000000000000	0.00000000000000	
625.0	-0.0374087369306	0.0320066304769	
! Port Impedance	50.00000000000000	0.00000000000000	
626.25	-0.00811026142101	0.0533670629577	
! Port Impedance	50.00000000000000	0.00000000000000	
627.5	0.0102370150294	0.02752311819	
! Port Impedance	50.00000000000000	0.00000000000000	
628.75	-0.0136919315601	0.00377891875313	
! Port Impedance	50.00000000000000	0.00000000000000	
630.0	-0.0345047819841	0.0260934597355	
! Port Impedance	50.00000000000000	0.00000000000000	
631.25	-0.0192765806089	0.0413341512878	
! Port Impedance	50.00000000000000	0.00000000000000	
632.5	-0.0104125844924	0.0202505535588	
! Port Impedance	50.00000000000000	0.00000000000000	
633.75	-0.0356621218398	0.0152516938	
! Port Impedance	50.00000000000000	0.00000000000000	
635.0	-0.0453579973346	0.0431481482247	
! Port Impedance	50.00000000000000	0.00000000000000	
636.25	-0.0196002359624	0.0565757065349	
! Port Impedance	50.00000000000000	0.00000000000000	
637.5	-0.00657395822292	0.0360845935733	
! Port Impedance	50.00000000000000	0.00000000000000	
638.75	-0.0239780876295	0.0274516653491	
! Port Impedance	50.00000000000000	0.00000000000000	
640.0	-0.029051942127	0.0476784340643	
! Port Impedance	50.00000000000000	0.00000000000000	
641.25	-0.00743292085871	0.0544866880212	
! Port Impedance	50.00000000000000	0.00000000000000	
642.5	1.86409785628e-05	0.0325451740476	
! Port Impedance	50.00000000000000	0.00000000000000	
643.75	-0.0182257420626	0.0240115592347	
! Port Impedance	50.00000000000000	0.00000000000000	
645.0	-0.0248785196606	0.0416942614604	
! Port Impedance	50.00000000000000	0.00000000000000	
646.25	-0.0129425967774	0.0453634557266	
! Port Impedance	50.00000000000000	0.00000000000000	
647.5	-0.0076107251384	0.0330764054724	
! Port Impedance	50.00000000000000	0.00000000000000	
648.75	-0.0197844495645	0.0355569776377	
! Port Impedance	50.00000000000000	0.00000000000000	
650.0	-0.0181041350666	0.0487339548379	
! Port Impedance	50.00000000000000	0.00000000000000	
651.25	-0.000497332677076	0.0471731528248	
! Port Impedance	50.00000000000000	0.00000000000000	
652.5	0.00208267451402	0.0323695372274	
! Port Impedance	50.00000000000000	0.00000000000000	
653.75	-0.0121891539771	0.0290492391694	
! Port Impedance	50.00000000000000	0.00000000000000	
655.0	-0.0136646005182	0.0399518223356	
! Port Impedance	50.00000000000000	0.00000000000000	
656.25	0.00319645639893	0.0342249101239	
! Port Impedance	50.00000000000000	0.00000000000000	
657.5	-0.00260879119316	0.0152744065337	
! Port Impedance	50.00000000000000	0.00000000000000	
658.75	-0.0231675961201	0.0186560848447	
! Port Impedance	50.00000000000000	0.00000000000000	
660.0	-0.0249494250032	0.0371227339387	
! Port Impedance	50.00000000000000	0.00000000000000	
661.25	-0.00863332930133	0.0398553876473	
! Port Impedance	50.00000000000000	0.00000000000000	
662.5	-0.00641564547964	0.0254306843432	
! Port Impedance	50.00000000000000	0.00000000000000	
663.75	-0.0209913506859	0.0276538885235	
! Port Impedance	50.00000000000000	0.00000000000000	
665.0	-0.0190016642302	0.0437635783652	
! Port Impedance	50.00000000000000	0.00000000000000	
666.25	4.65706433548e-05	0.0401232839719	
! Port Impedance	50.00000000000000	0.00000000000000	
667.5	-0.0019263197336	0.0198108362182	
! Port Impedance	50.00000000000000	0.00000000000000	
668.75	-0.0267584268332	0.0196863927955	
! Port Impedance	50.00000000000000	0.00000000000000	
670.0	-0.0331266478056	0.0408833318131	
! Port Impedance	50.00000000000000	0.00000000000000	
671.25	-0.0130851164208	0.0488943525033	
! Port Impedance	50.00000000000000	0.00000000000000	
672.5	-0.00411455303864	0.0350627785107	
! Port Impedance	50.00000000000000	0.00000000000000	
673.75	-0.0184804465079	0.0266964523365	
! Port Impedance	50.00000000000000	0.00000000000000	
675.0	-0.0253143825953	0.0428600244937	
! Port Impedance	50.00000000000000	0.00000000000000	
676.25	-0.00770100068975	0.0553422964809	
! Port Impedance	50.00000000000000	0.00000000000000	
677.5	0.00696033740173	0.0414518190057	
! Port Impedance	50.00000000000000	0.00000000000000	
678.75	-0.000929493728308	0.0237133189452	
! Port Impedance	50.00000000000000	0.00000000000000	
680.0	-0.0137823559986	0.0274374788615	
! Port Impedance	50.00000000000000	0.00000000000000	
681.25	-0.00895173960101	0.0423406494147	
! Port Impedance	50.00000000000000	0.00000000000000	
682.5	0.00566305964632	0.0386878924394	
! Port Impedance	50.00000000000000	0.00000000000000	
683.75	0.00235691258917	0.0217980415201	
! Port Impedance	50.00000000000000	0.00000000000000	
685.0	-0.0110522686569	0.0209074410591	
! Port Impedance	50.00000000000000	0.00000000000000	
686.25	-0.0129387444517	0.0319613411955	
! Port Impedance	50.00000000000000	0.00000000000000	
687.5	-0.00443239640993	0.0320583417779	
! Port Impedance	50.00000000000000	0.00000000000000	
688.75	-0.0032721854583	0.0190842588795	
! Port Impedance	50.00000000000000	0.00000000000000	
690.0	-0.0172318129219	0.0157600091501	
! Port Impedance	50.00000000000000	0.00000000000000	
691.25	-0.0245719512134	0.029576345079	
! Port Impedance	50.00000000000000	0.00000000000000	
692.5	-0.0149887532948	0.0372003887657	
! Port Impedance	50.00000000000000	0.00000000000000	
693.75	-0.0111169397461	0.0266222663756	
! Port Impedance	50.00000000000000	0.00000000000000	
695.0	-0.0172970026012	0.0199553247221	
! Port Impedance	50.00000000000000	0.00000000000000	
696.25	-0.0261389918572	0.0294446544786	
! Port Impedance	50.00000000000000	0.00000000000000	
697.5	-0.0216283898235	0.0400997231631	
! Port Impedance	50.00000000000000	0.00000000000000	
698.75	-0.0136851364488	0.0385058295636	
! Port Impedance	50.00000000000000	0.00000000000000	
700.0	-0.0143701195272	0.0340619886592	
! Port Impedance	50.00000000000000	0.00000000000000	
701.25	-0.0138474426631	0.0391265852788	
! Port Impedance	50.00000000000000	0.00000000000000	
702.5	-0.0056439288566	0.0443556171761	
! Port Impedance	50.00000000000000	0.00000000000000	
703.75	0.000757495449141	0.0322886787542	
! Port Impedance	50.00000000000000	0.00000000000000	
705.0	-0.00571082919984	0.0202530175264	
! Port Impedance	50.00000000000000	0.00000000000000	
706.25	-0.0216619029048	0.0282876012644	
! Port Impedance	50.00000000000000	0.00000000000000	
707.5	-0.0204656444472	0.0497027888184	
! Port Impedance	50.00000000000000	0.00000000000000	
708.75	-0.000197487739116	0.0513001478916	
! Port Impedance	50.00000000000000	0.00000000000000	
710.0	0.00906205104017	0.0355326667147	
! Port Impedance	50.00000000000000	0.00000000000000	
711.25	0.00288299238795	0.0285946746065	
! Port Impedance	50.00000000000000	0.00000000000000	
712.5	-0.00266020932948	0.0335917873129	
! Port Impedance	50.00000000000000	0.00000000000000	
713.75	0.00298133332365	0.0344352178609	
! Port Impedance	50.00000000000000	0.00000000000000	
715.0	0.00687268634219	0.0244448194921	
! Port Impedance	50.00000000000000	0.00000000000000	
716.25	0.00145124449142	0.0149602423103	
! Port Impedance	50.00000000000000	0.00000000000000	
717.5	-0.00698306528963	0.0135793228015	
! Port Impedance	50.00000000000000	0.00000000000000	
718.75	-0.0123514420561	0.0144898026851	
! Port Impedance	50.00000000000000	0.00000000000000	
720.0	-0.0143636065305	0.0150465211266	
! Port Impedance	50.00000000000000	0.00000000000000	
721.25	-0.0181065016381	0.0203211029795	
! Port Impedance	50.00000000000000	0.00000000000000	
722.5	-0.0216490717716	0.0289212290863	
! Port Impedance	50.00000000000000	0.00000000000000	
723.75	-0.0152243298057	0.0319175304518	
! Port Impedance	50.00000000000000	0.00000000000000	
725.0	-0.0114108117308	0.0285532540978	
! Port Impedance	50.00000000000000	0.00000000000000	
726.25	-0.0155462736702	0.0284429548267	
! Port Impedance	50.00000000000000	0.00000000000000	
727.5	-0.0153149912704	0.0349249158966	
! Port Impedance	50.00000000000000	0.00000000000000	
728.75	-0.0120688192298	0.0360091942456	
! Port Impedance	50.00000000000000	0.00000000000000	
730.0	-0.0079128457235	0.0289918478708	
! Port Impedance	50.00000000000000	0.00000000000000	
731.25	-0.0108741597023	0.0289931090448	
! Port Impedance	50.00000000000000	0.00000000000000	
732.5	-0.0136492256919	0.0345611528625	
! Port Impedance	50.00000000000000	0.00000000000000	
733.75	-0.00840750387547	0.0370653552653	
! Port Impedance	50.00000000000000	0.00000000000000	
735.0	-0.00404587239621	0.0324303416078	
! Port Impedance	50.00000000000000	0.00000000000000	
736.25	-0.00720256883623	0.0273050375601	
! Port Impedance	50.00000000000000	0.00000000000000	
737.5	-0.0118784477304	0.0331837405425	
! Port Impedance	50.00000000000000	0.00000000000000	
738.75	-0.00994274307309	0.0391674277405	
! Port Impedance	50.00000000000000	0.00000000000000	
740.0	-0.000963949203614	0.0366610350263	
! Port Impedance	50.00000000000000	0.00000000000000	
741.25	0.00386543114047	0.0319508912935	
! Port Impedance	50.00000000000000	0.00000000000000	
742.5	4.38067988144e-05	0.0315503664158	
! Port Impedance	50.00000000000000	0.00000000000000	
743.75	-0.00226439049128	0.0319962848365	
! Port Impedance	50.00000000000000	0.00000000000000	
745.0	0.00165463807059	0.0346835189546	
! Port Impedance	50.00000000000000	0.00000000000000	
746.25	0.011031653333	0.0329437480154	
! Port Impedance	50.00000000000000	0.00000000000000	
747.5	0.0068203109435	0.0239415602521	
! Port Impedance	50.00000000000000	0.00000000000000	
748.75	0.00197770439739	0.0222020718237	
! Port Impedance	50.00000000000000	0.00000000000000	
750.0	0.00101816016671	0.0196666162455	
! Port Impedance	50.00000000000000	0.00000000000000	
