!Created with mwavepy.
# GHz S RI R 50.0 
!freq	ReS11	ImS11	
500.0	-0.0317335117503	0.0251380420915	
! Port Impedance	50.00000000000000	0.00000000000000	
501.25	-0.00692496380731	0.0666077039713	
! Port Impedance	50.00000000000000	0.00000000000000	
502.5	-0.00569042790764	0.0186567854156	
! Port Impedance	50.00000000000000	0.00000000000000	
503.75	-0.0506822635206	0.0321376812848	
! Port Impedance	50.00000000000000	0.00000000000000	
505.0	-0.0253954352261	0.0615123848367	
! Port Impedance	50.00000000000000	0.00000000000000	
506.25	-0.00118487772978	0.0373940094678	
! Port Impedance	50.00000000000000	0.00000000000000	
507.5	-0.0360103021625	0.0243737511872	
! Port Impedance	50.00000000000000	0.00000000000000	
508.75	-0.0313701236659	0.0541779820154	
! Port Impedance	50.00000000000000	0.00000000000000	
510.0	-0.00249087304357	0.0407848678636	
! Port Impedance	50.00000000000000	0.00000000000000	
511.25	-0.020504935927	0.0130854643248	
! Port Impedance	50.00000000000000	0.00000000000000	
512.5	-0.035294545279	0.0350921935675	
! Port Impedance	50.00000000000000	0.00000000000000	
513.75	-0.0253010600634	0.0398697640827	
! Port Impedance	50.00000000000000	0.00000000000000	
515.0	-0.0309990921325	0.0354517591727	
! Port Impedance	50.00000000000000	0.00000000000000	
516.25	-0.0434691607184	0.0491485415056	
! Port Impedance	50.00000000000000	0.00000000000000	
517.5	-0.0215128113472	0.0551955766848	
! Port Impedance	50.00000000000000	0.00000000000000	
518.75	-0.0155592638702	0.0390032624768	
! Port Impedance	50.00000000000000	0.00000000000000	
520.0	-0.0252576069968	0.0420037144778	
! Port Impedance	50.00000000000000	0.00000000000000	
521.25	-0.0160708441386	0.0441282256477	
! Port Impedance	50.00000000000000	0.00000000000000	
522.5	-0.0161088367588	0.0352914448823	
! Port Impedance	50.00000000000000	0.00000000000000	
523.75	-0.0243966575857	0.0379599855658	
! Port Impedance	50.00000000000000	0.00000000000000	
525.0	-0.0139841051037	0.0452081401692	
! Port Impedance	50.00000000000000	0.00000000000000	
526.25	-0.0115886115646	0.0297836353867	
! Port Impedance	50.00000000000000	0.00000000000000	
527.5	-0.0294121326298	0.0297985804293	
! Port Impedance	50.00000000000000	0.00000000000000	
528.75	-0.0267287904487	0.0477504536048	
! Port Impedance	50.00000000000000	0.00000000000000	
530.0	-0.00932074774824	0.0386824565023	
! Port Impedance	50.00000000000000	0.00000000000000	
531.25	-0.0199400059832	0.0248523447537	
! Port Impedance	50.00000000000000	0.00000000000000	
532.5	-0.0292824175549	0.0369816963382	
! Port Impedance	50.00000000000000	0.00000000000000	
533.75	-0.0161788870267	0.0404126970711	
! Port Impedance	50.00000000000000	0.00000000000000	
535.0	-0.0176596627915	0.024708322519	
! Port Impedance	50.00000000000000	0.00000000000000	
536.25	-0.0348018168921	0.0297852704818	
! Port Impedance	50.00000000000000	0.00000000000000	
537.5	-0.0266034615918	0.0496384558627	
! Port Impedance	50.00000000000000	0.00000000000000	
538.75	-0.00946284188545	0.0396118545291	
! Port Impedance	50.00000000000000	0.00000000000000	
540.0	-0.0216152385669	0.023712132313	
! Port Impedance	50.00000000000000	0.00000000000000	
541.25	-0.0342944048437	0.0343305585068	
! Port Impedance	50.00000000000000	0.00000000000000	
542.5	-0.0247488265527	0.0437472042128	
! Port Impedance	50.00000000000000	0.00000000000000	
543.75	-0.0174374985745	0.0354809022395	
! Port Impedance	50.00000000000000	0.00000000000000	
545.0	-0.0273621959905	0.0326592980172	
! Port Impedance	50.00000000000000	0.00000000000000	
546.25	-0.0235577477182	0.0429799063404	
! Port Impedance	50.00000000000000	0.00000000000000	
547.5	-0.0163388658731	0.0361659588695	
! Port Impedance	50.00000000000000	0.00000000000000	
548.75	-0.0239614037989	0.0282641832654	
! Port Impedance	50.00000000000000	0.00000000000000	
550.0	-0.0343289925011	0.0367812950448	
! Port Impedance	50.00000000000000	0.00000000000000	
551.25	-0.0278402594838	0.0480370232001	
! Port Impedance	50.00000000000000	0.00000000000000	
552.5	-0.0219365356936	0.0473985740129	
! Port Impedance	50.00000000000000	0.00000000000000	
553.75	-0.0169159683096	0.0477421697023	
! Port Impedance	50.00000000000000	0.00000000000000	
555.0	-0.00911647443635	0.0435271762316	
! Port Impedance	50.00000000000000	0.00000000000000	
556.25	-0.00644165217275	0.0347417816365	
! Port Impedance	50.00000000000000	0.00000000000000	
557.5	-0.0157388696067	0.0337611990509	
! Port Impedance	50.00000000000000	0.00000000000000	
558.75	-0.0165329594476	0.0415027975905	
! Port Impedance	50.00000000000000	0.00000000000000	
560.0	-0.00662182238388	0.0371252432711	
! Port Impedance	50.00000000000000	0.00000000000000	
561.25	-0.00911656332798	0.0198842326889	
! Port Impedance	50.00000000000000	0.00000000000000	
562.5	-0.0292073231802	0.0249365524893	
! Port Impedance	50.00000000000000	0.00000000000000	
563.75	-0.0237465620708	0.0445815090169	
! Port Impedance	50.00000000000000	0.00000000000000	
565.0	-0.00262953548677	0.036657768653	
! Port Impedance	50.00000000000000	0.00000000000000	
566.25	-0.0188578686025	0.0159272173057	
! Port Impedance	50.00000000000000	0.00000000000000	
567.5	-0.0387359643732	0.0358143325114	
! Port Impedance	50.00000000000000	0.00000000000000	
568.75	-0.0158359218383	0.0544958006868	
! Port Impedance	50.00000000000000	0.00000000000000	
570.0	0.00155794144639	0.0298805950247	
! Port Impedance	50.00000000000000	0.00000000000000	
571.25	-0.0257832224991	0.0135507931744	
! Port Impedance	50.00000000000000	0.00000000000000	
572.5	-0.0421033177827	0.0455038121433	
! Port Impedance	50.00000000000000	0.00000000000000	
573.75	-0.00949157898434	0.0565987862808	
! Port Impedance	50.00000000000000	0.00000000000000	
575.0	0.00226407152995	0.0201052040299	
! Port Impedance	50.00000000000000	0.00000000000000	
576.25	-0.0381175283808	0.0126316843985	
! Port Impedance	50.00000000000000	0.00000000000000	
577.5	-0.0421668128483	0.0530090050763	
! Port Impedance	50.00000000000000	0.00000000000000	
578.75	-0.00215473475045	0.0566802255331	
! Port Impedance	50.00000000000000	0.00000000000000	
580.0	-0.00328802870797	0.0158926524801	
! Port Impedance	50.00000000000000	0.00000000000000	
581.25	-0.0428238820549	0.0251423866089	
! Port Impedance	50.00000000000000	0.00000000000000	
582.5	-0.0297395289883	0.0640463884606	
! Port Impedance	50.00000000000000	0.00000000000000	
583.75	0.010666572179	0.049619489624	
! Port Impedance	50.00000000000000	0.00000000000000	
585.0	-0.00671204453804	0.0110907124033	
! Port Impedance	50.00000000000000	0.00000000000000	
586.25	-0.0419112728477	0.0300599963529	
! Port Impedance	50.00000000000000	0.00000000000000	
587.5	-0.0222796778976	0.0662347104247	
! Port Impedance	50.00000000000000	0.00000000000000	
588.75	0.0122335558204	0.0451465686931	
! Port Impedance	50.00000000000000	0.00000000000000	
590.0	-0.00371930843466	0.0188375847171	
! Port Impedance	50.00000000000000	0.00000000000000	
591.25	-0.0241586312309	0.0358405237608	
! Port Impedance	50.00000000000000	0.00000000000000	
592.5	0.00298880169132	0.0524457919197	
! Port Impedance	50.00000000000000	0.00000000000000	
593.75	0.0195289326275	0.0183668555206	
! Port Impedance	50.00000000000000	0.00000000000000	
595.0	-0.0150860223956	-0.00607180648048	
! Port Impedance	50.00000000000000	0.00000000000000	
596.25	-0.0373914676877	0.0279177007286	
! Port Impedance	50.00000000000000	0.00000000000000	
597.5	-0.0110203213807	0.0466201402062	
! Port Impedance	50.00000000000000	0.00000000000000	
598.75	0.00224423563097	0.0160961181871	
! Port Impedance	50.00000000000000	0.00000000000000	
600.0	-0.0310812453787	0.00798343528534	
! Port Impedance	50.00000000000000	0.00000000000000	
601.25	-0.0378055466025	0.0412576918692	
! Port Impedance	50.00000000000000	0.00000000000000	
602.5	-0.00735180217889	0.0492881707362	
! Port Impedance	50.00000000000000	0.00000000000000	
603.75	-0.00421196535626	0.0187121211084	
! Port Impedance	50.00000000000000	0.00000000000000	
605.0	-0.0276272658722	0.0183878665922	
! Port Impedance	50.00000000000000	0.00000000000000	
606.25	-0.0258589114872	0.0423644725288	
! Port Impedance	50.00000000000000	0.00000000000000	
607.5	-0.00591782503658	0.0341406904676	
! Port Impedance	50.00000000000000	0.00000000000000	
608.75	-0.0174284556819	0.0146184419598	
! Port Impedance	50.00000000000000	0.00000000000000	
610.0	-0.0385553390951	0.034113802471	
! Port Impedance	50.00000000000000	0.00000000000000	
611.25	-0.0174073770383	0.056513775311	
! Port Impedance	50.00000000000000	0.00000000000000	
612.5	0.00502252414062	0.0357374067857	
! Port Impedance	50.00000000000000	0.00000000000000	
613.75	-0.0167749053183	0.0132601559062	
! Port Impedance	50.00000000000000	0.00000000000000	
615.0	-0.0353290417295	0.037519538037	
! Port Impedance	50.00000000000000	0.00000000000000	
616.25	-0.00883827762368	0.0593528737899	
! Port Impedance	50.00000000000000	0.00000000000000	
617.5	0.0122324697855	0.0302821927234	
! Port Impedance	50.00000000000000	0.00000000000000	
618.75	-0.0115501421919	0.0121001121584	
! Port Impedance	50.00000000000000	0.00000000000000	
620.0	-0.02903226903	0.039210231873	
! Port Impedance	50.00000000000000	0.00000000000000	
621.25	0.00321892562244	0.0526367233373	
! Port Impedance	50.00000000000000	0.00000000000000	
622.5	0.0212170291624	0.0177764796627	
! Port Impedance	50.00000000000000	0.00000000000000	
623.75	-0.0138896075535	-0.00465244419848	
! Port Impedance	50.00000000000000	0.00000000000000	
625.0	-0.0358108744835	0.0253940426628	
! Port Impedance	50.00000000000000	0.00000000000000	
626.25	-0.00690412757509	0.0467431133419	
! Port Impedance	50.00000000000000	0.00000000000000	
627.5	0.0120970578213	0.0197082152731	
! Port Impedance	50.00000000000000	0.00000000000000	
628.75	-0.0125958375179	-0.0040069604723	
! Port Impedance	50.00000000000000	0.00000000000000	
630.0	-0.0353034592323	0.0202457901828	
! Port Impedance	50.00000000000000	0.00000000000000	
631.25	-0.0183845954625	0.0364665659791	
! Port Impedance	50.00000000000000	0.00000000000000	
632.5	-0.00839625386136	0.0150177115504	
! Port Impedance	50.00000000000000	0.00000000000000	
633.75	-0.0332426852099	0.00923278242249	
! Port Impedance	50.00000000000000	0.00000000000000	
635.0	-0.0441255158837	0.0363739555021	
! Port Impedance	50.00000000000000	0.00000000000000	
636.25	-0.0186300711116	0.0507680085513	
! Port Impedance	50.00000000000000	0.00000000000000	
637.5	-0.00509676818135	0.0320860547144	
! Port Impedance	50.00000000000000	0.00000000000000	
638.75	-0.0209354548199	0.0237169558638	
! Port Impedance	50.00000000000000	0.00000000000000	
640.0	-0.0257762670544	0.0418173720988	
! Port Impedance	50.00000000000000	0.00000000000000	
641.25	-0.00477902899225	0.0477063354415	
! Port Impedance	50.00000000000000	0.00000000000000	
642.5	0.00214278743526	0.0270792645909	
! Port Impedance	50.00000000000000	0.00000000000000	
643.75	-0.0160070806281	0.0190985935634	
! Port Impedance	50.00000000000000	0.00000000000000	
645.0	-0.0220615775574	0.0356540423982	
! Port Impedance	50.00000000000000	0.00000000000000	
646.25	-0.00868518040548	0.0392066723264	
! Port Impedance	50.00000000000000	0.00000000000000	
647.5	-0.00387838651676	0.0265166344931	
! Port Impedance	50.00000000000000	0.00000000000000	
648.75	-0.0172714516303	0.0287732950262	
! Port Impedance	50.00000000000000	0.00000000000000	
650.0	-0.0154377655538	0.0420690707922	
! Port Impedance	50.00000000000000	0.00000000000000	
651.25	0.00343292700175	0.0404329724718	
! Port Impedance	50.00000000000000	0.00000000000000	
652.5	0.00541294913061	0.0239520118056	
! Port Impedance	50.00000000000000	0.00000000000000	
653.75	-0.0110614230046	0.0206457677866	
! Port Impedance	50.00000000000000	0.00000000000000	
655.0	-0.0122757174411	0.0324513476447	
! Port Impedance	50.00000000000000	0.00000000000000	
656.25	0.00419779158017	0.0281546363442	
! Port Impedance	50.00000000000000	0.00000000000000	
657.5	-2.76985922778e-05	0.0097541202597	
! Port Impedance	50.00000000000000	0.00000000000000	
658.75	-0.0207286403688	0.0111589672481	
! Port Impedance	50.00000000000000	0.00000000000000	
660.0	-0.0243238395627	0.0297405775932	
! Port Impedance	50.00000000000000	0.00000000000000	
661.25	-0.00904123475432	0.0342475431252	
! Port Impedance	50.00000000000000	0.00000000000000	
662.5	-0.00581201395899	0.021148143907	
! Port Impedance	50.00000000000000	0.00000000000000	
663.75	-0.0181581149632	0.0224199861512	
! Port Impedance	50.00000000000000	0.00000000000000	
665.0	-0.0158824542759	0.037310641485	
! Port Impedance	50.00000000000000	0.00000000000000	
666.25	0.000398157008268	0.0339749985194	
! Port Impedance	50.00000000000000	0.00000000000000	
667.5	-0.00124808879089	0.0149421008272	
! Port Impedance	50.00000000000000	0.00000000000000	
668.75	-0.0241613112318	0.0153511054109	
! Port Impedance	50.00000000000000	0.00000000000000	
670.0	-0.0301309359377	0.0358960655124	
! Port Impedance	50.00000000000000	0.00000000000000	
671.25	-0.0105592068119	0.0431255254429	
! Port Impedance	50.00000000000000	0.00000000000000	
672.5	-0.00191700448438	0.0293645226613	
! Port Impedance	50.00000000000000	0.00000000000000	
673.75	-0.0156577458702	0.021713675103	
! Port Impedance	50.00000000000000	0.00000000000000	
675.0	-0.0216905322021	0.0379881141646	
! Port Impedance	50.00000000000000	0.00000000000000	
676.25	-0.00447577066605	0.0495541188221	
! Port Impedance	50.00000000000000	0.00000000000000	
677.5	0.00973320021991	0.0346321841914	
! Port Impedance	50.00000000000000	0.00000000000000	
678.75	0.00227431670203	0.0174118637296	
! Port Impedance	50.00000000000000	0.00000000000000	
680.0	-0.0104494668888	0.0219809139058	
! Port Impedance	50.00000000000000	0.00000000000000	
681.25	-0.00612765699412	0.0356013688829	
! Port Impedance	50.00000000000000	0.00000000000000	
682.5	0.00861387721935	0.0304409928538	
! Port Impedance	50.00000000000000	0.00000000000000	
683.75	0.00498047163818	0.0141615420003	
! Port Impedance	50.00000000000000	0.00000000000000	
685.0	-0.0100140687593	0.0144960284917	
! Port Impedance	50.00000000000000	0.00000000000000	
686.25	-0.0114918451605	0.0261575122158	
! Port Impedance	50.00000000000000	0.00000000000000	
687.5	-0.00197268238423	0.0246769782698	
! Port Impedance	50.00000000000000	0.00000000000000	
688.75	-0.00166777895936	0.0114140739351	
! Port Impedance	50.00000000000000	0.00000000000000	
690.0	-0.0165583146294	0.00978353563673	
! Port Impedance	50.00000000000000	0.00000000000000	
691.25	-0.0241619290696	0.0244840098261	
! Port Impedance	50.00000000000000	0.00000000000000	
692.5	-0.0131872119957	0.0310610837149	
! Port Impedance	50.00000000000000	0.00000000000000	
693.75	-0.00924071695792	0.0216568546128	
! Port Impedance	50.00000000000000	0.00000000000000	
695.0	-0.0155778926648	0.0151248459784	
! Port Impedance	50.00000000000000	0.00000000000000	
696.25	-0.0245538442941	0.0240965405282	
! Port Impedance	50.00000000000000	0.00000000000000	
697.5	-0.0195785942713	0.034630977608	
! Port Impedance	50.00000000000000	0.00000000000000	
698.75	-0.0109224372876	0.033023905813	
! Port Impedance	50.00000000000000	0.00000000000000	
700.0	-0.0125029305747	0.0290911095024	
! Port Impedance	50.00000000000000	0.00000000000000	
701.25	-0.0121315369202	0.0341450057721	
! Port Impedance	50.00000000000000	0.00000000000000	
702.5	-0.00287261513466	0.0391030122984	
! Port Impedance	50.00000000000000	0.00000000000000	
703.75	0.00419592087963	0.0273422529425	
! Port Impedance	50.00000000000000	0.00000000000000	
705.0	-0.0027682946281	0.0154397456616	
! Port Impedance	50.00000000000000	0.00000000000000	
706.25	-0.0192163390288	0.0225245342377	
! Port Impedance	50.00000000000000	0.00000000000000	
707.5	-0.0172834902035	0.0434284170907	
! Port Impedance	50.00000000000000	0.00000000000000	
708.75	0.00447565622798	0.0456036909064	
! Port Impedance	50.00000000000000	0.00000000000000	
710.0	0.0124381364559	0.0295012120213	
! Port Impedance	50.00000000000000	0.00000000000000	
711.25	0.00446125227452	0.0218405262799	
! Port Impedance	50.00000000000000	0.00000000000000	
712.5	0.000159276713252	0.0267641835144	
! Port Impedance	50.00000000000000	0.00000000000000	
713.75	0.0069919985825	0.0280387451192	
! Port Impedance	50.00000000000000	0.00000000000000	
715.0	0.00938714952625	0.0181056897942	
! Port Impedance	50.00000000000000	0.00000000000000	
716.25	0.00349366712659	0.0079223399791	
! Port Impedance	50.00000000000000	0.00000000000000	
717.5	-0.00511331490543	0.00646433523407	
! Port Impedance	50.00000000000000	0.00000000000000	
718.75	-0.0101349608614	0.00814738151594	
! Port Impedance	50.00000000000000	0.00000000000000	
720.0	-0.0124235295814	0.00905843276103	
! Port Impedance	50.00000000000000	0.00000000000000	
721.25	-0.0170909680066	0.013977100325	
! Port Impedance	50.00000000000000	0.00000000000000	
722.5	-0.0196961948238	0.022480470236	
! Port Impedance	50.00000000000000	0.00000000000000	
723.75	-0.0129857516184	0.0269574473533	
! Port Impedance	50.00000000000000	0.00000000000000	
725.0	-0.00937743668116	0.0234773199888	
! Port Impedance	50.00000000000000	0.00000000000000	
726.25	-0.0144266162694	0.0230633572446	
! Port Impedance	50.00000000000000	0.00000000000000	
727.5	-0.0138062023426	0.0292903476693	
! Port Impedance	50.00000000000000	0.00000000000000	
728.75	-0.00925771850245	0.031587493831	
! Port Impedance	50.00000000000000	0.00000000000000	
730.0	-0.00592210420002	0.0248168472098	
! Port Impedance	50.00000000000000	0.00000000000000	
731.25	-0.00886778760446	0.0236434117039	
! Port Impedance	50.00000000000000	0.00000000000000	
732.5	-0.0109956840263	0.0292906276664	
! Port Impedance	50.00000000000000	0.00000000000000	
733.75	-0.00543505334791	0.0328583166577	
! Port Impedance	50.00000000000000	0.00000000000000	
735.0	-0.000655849273818	0.0277290573467	
! Port Impedance	50.00000000000000	0.00000000000000	
736.25	-0.00456118700308	0.0220181341605	
! Port Impedance	50.00000000000000	0.00000000000000	
737.5	-0.00818796810621	0.0276644617817	
! Port Impedance	50.00000000000000	0.00000000000000	
738.75	-0.00532061531046	0.0338311459422	
! Port Impedance	50.00000000000000	0.00000000000000	
740.0	0.00275660087812	0.0311959143913	
! Port Impedance	50.00000000000000	0.00000000000000	
741.25	0.00725611912325	0.024803606715	
! Port Impedance	50.00000000000000	0.00000000000000	
742.5	0.00333079270544	0.0236025660526	
! Port Impedance	50.00000000000000	0.00000000000000	
743.75	0.00112339570552	0.0263599132404	
! Port Impedance	50.00000000000000	0.00000000000000	
745.0	0.00454074257772	0.0283972829529	
! Port Impedance	50.00000000000000	0.00000000000000	
746.25	0.0121832417561	0.0232710978376	
! Port Impedance	50.00000000000000	0.00000000000000	
747.5	0.0090535527908	0.017108474518	
! Port Impedance	50.00000000000000	0.00000000000000	
748.75	0.00534579248672	0.0164320003905	
! Port Impedance	50.00000000000000	0.00000000000000	
750.0	0.00303346526938	0.0133844360863	
! Port Impedance	50.00000000000000	0.00000000000000	
