!Created with mwavepy.
# GHz S RI R 50.0 
!freq	ReS11	ImS11	
500.0	0.0510038642883	-0.195774243239	
! Port Impedance	50.00000000000000	0.00000000000000	
501.25	0.0566357313109	-0.185470676214	
! Port Impedance	50.00000000000000	0.00000000000000	
502.5	0.0534041049912	-0.192983978026	
! Port Impedance	50.00000000000000	0.00000000000000	
503.75	0.0545090414482	-0.190417392817	
! Port Impedance	50.00000000000000	0.00000000000000	
505.0	0.0498233832906	-0.201974184717	
! Port Impedance	50.00000000000000	0.00000000000000	
506.25	0.0550049711932	-0.187717841099	
! Port Impedance	50.00000000000000	0.00000000000000	
507.5	0.051398887906	-0.192206981627	
! Port Impedance	50.00000000000000	0.00000000000000	
508.75	0.0523270508669	-0.192731056271	
! Port Impedance	50.00000000000000	0.00000000000000	
510.0	0.0500238349707	-0.194770772636	
! Port Impedance	50.00000000000000	0.00000000000000	
511.25	0.0598380588809	-0.192608679662	
! Port Impedance	50.00000000000000	0.00000000000000	
512.5	0.0636166686045	-0.189149707591	
! Port Impedance	50.00000000000000	0.00000000000000	
513.75	0.0559008244845	-0.194090402943	
! Port Impedance	50.00000000000000	0.00000000000000	
515.0	0.0560142544458	-0.191530209425	
! Port Impedance	50.00000000000000	0.00000000000000	
516.25	0.0565544697462	-0.190154255443	
! Port Impedance	50.00000000000000	0.00000000000000	
517.5	0.0540644027825	-0.192330998136	
! Port Impedance	50.00000000000000	0.00000000000000	
518.75	0.0544543890085	-0.193632818575	
! Port Impedance	50.00000000000000	0.00000000000000	
520.0	0.0551227229035	-0.1935816768	
! Port Impedance	50.00000000000000	0.00000000000000	
521.25	0.057546834687	-0.192783829466	
! Port Impedance	50.00000000000000	0.00000000000000	
522.5	0.0553573381868	-0.193097822543	
! Port Impedance	50.00000000000000	0.00000000000000	
523.75	0.0546054622547	-0.191933339617	
! Port Impedance	50.00000000000000	0.00000000000000	
525.0	0.0552481368845	-0.19267319298	
! Port Impedance	50.00000000000000	0.00000000000000	
526.25	0.0551283522444	-0.192577290185	
! Port Impedance	50.00000000000000	0.00000000000000	
527.5	0.0552486858785	-0.192654347555	
! Port Impedance	50.00000000000000	0.00000000000000	
528.75	0.0552454598353	-0.193326602838	
! Port Impedance	50.00000000000000	0.00000000000000	
530.0	0.0555950723252	-0.193297202478	
! Port Impedance	50.00000000000000	0.00000000000000	
531.25	0.0568653564693	-0.193170999103	
! Port Impedance	50.00000000000000	0.00000000000000	
532.5	0.0566737083198	-0.193243957083	
! Port Impedance	50.00000000000000	0.00000000000000	
533.75	0.0559976724178	-0.193969085913	
! Port Impedance	50.00000000000000	0.00000000000000	
535.0	0.0556870682396	-0.19381341338	
! Port Impedance	50.00000000000000	0.00000000000000	
536.25	0.0561100002302	-0.194603726485	
! Port Impedance	50.00000000000000	0.00000000000000	
537.5	0.0565407062749	-0.194563904174	
! Port Impedance	50.00000000000000	0.00000000000000	
538.75	0.0550892481162	-0.19505814443	
! Port Impedance	50.00000000000000	0.00000000000000	
540.0	0.0541533738501	-0.194986748467	
! Port Impedance	50.00000000000000	0.00000000000000	
541.25	0.0519634180782	-0.195288148573	
! Port Impedance	50.00000000000000	0.00000000000000	
542.5	0.0514787028189	-0.193296810784	
! Port Impedance	50.00000000000000	0.00000000000000	
543.75	0.0532964649959	-0.19371621253	
! Port Impedance	50.00000000000000	0.00000000000000	
545.0	0.0532447996789	-0.193512173566	
! Port Impedance	50.00000000000000	0.00000000000000	
546.25	0.0543242654756	-0.193922296135	
! Port Impedance	50.00000000000000	0.00000000000000	
547.5	0.0541155926111	-0.193818825951	
! Port Impedance	50.00000000000000	0.00000000000000	
548.75	0.0536134630513	-0.194235549178	
! Port Impedance	50.00000000000000	0.00000000000000	
550.0	0.0531063058274	-0.19467166054	
! Port Impedance	50.00000000000000	0.00000000000000	
551.25	0.0538200428011	-0.194226930588	
! Port Impedance	50.00000000000000	0.00000000000000	
552.5	0.0518772806405	-0.195015271822	
! Port Impedance	50.00000000000000	0.00000000000000	
553.75	0.0538880654125	-0.190914184763	
! Port Impedance	50.00000000000000	0.00000000000000	
555.0	0.0537146826405	-0.189970776868	
! Port Impedance	50.00000000000000	0.00000000000000	
556.25	0.0535237640799	-0.189946639263	
! Port Impedance	50.00000000000000	0.00000000000000	
557.5	0.0587394807597	-0.18638321387	
! Port Impedance	50.00000000000000	0.00000000000000	
558.75	0.0585294417072	-0.190107405074	
! Port Impedance	50.00000000000000	0.00000000000000	
560.0	0.0543016158947	-0.191833728896	
! Port Impedance	50.00000000000000	0.00000000000000	
561.25	0.0549577014934	-0.192588905271	
! Port Impedance	50.00000000000000	0.00000000000000	
562.5	0.0546380387913	-0.192863738745	
! Port Impedance	50.00000000000000	0.00000000000000	
563.75	0.0548905664512	-0.193428211758	
! Port Impedance	50.00000000000000	0.00000000000000	
565.0	0.0602683313483	-0.193353003631	
! Port Impedance	50.00000000000000	0.00000000000000	
566.25	0.0531037259807	-0.19399737855	
! Port Impedance	50.00000000000000	0.00000000000000	
567.5	0.0541913208764	-0.192342039858	
! Port Impedance	50.00000000000000	0.00000000000000	
568.75	0.0530827896614	-0.1935554841	
! Port Impedance	50.00000000000000	0.00000000000000	
570.0	0.0511113870493	-0.192419764498	
! Port Impedance	50.00000000000000	0.00000000000000	
571.25	0.0523351780886	-0.194156285428	
! Port Impedance	50.00000000000000	0.00000000000000	
572.5	0.0521306126535	-0.193597189746	
! Port Impedance	50.00000000000000	0.00000000000000	
573.75	0.0490987761484	-0.19670420219	
! Port Impedance	50.00000000000000	0.00000000000000	
575.0	0.0488315738238	-0.196874838269	
! Port Impedance	50.00000000000000	0.00000000000000	
576.25	0.0485885578835	-0.196434809552	
! Port Impedance	50.00000000000000	0.00000000000000	
577.5	0.0434823927024	-0.197301817201	
! Port Impedance	50.00000000000000	0.00000000000000	
578.75	0.043902797224	-0.193892912473	
! Port Impedance	50.00000000000000	0.00000000000000	
580.0	0.0463256722331	-0.192140750486	
! Port Impedance	50.00000000000000	0.00000000000000	
581.25	0.0490220838175	-0.192178533794	
! Port Impedance	50.00000000000000	0.00000000000000	
582.5	0.0488078827145	-0.19388542683	
! Port Impedance	50.00000000000000	0.00000000000000	
583.75	0.0471362142747	-0.195355137195	
! Port Impedance	50.00000000000000	0.00000000000000	
585.0	0.0474245569144	-0.194669688459	
! Port Impedance	50.00000000000000	0.00000000000000	
586.25	0.0460339446214	-0.195245244705	
! Port Impedance	50.00000000000000	0.00000000000000	
587.5	0.042096158947	-0.194701087694	
! Port Impedance	50.00000000000000	0.00000000000000	
588.75	0.042250304182	-0.192189768358	
! Port Impedance	50.00000000000000	0.00000000000000	
590.0	0.0460918214416	-0.19081560967	
! Port Impedance	50.00000000000000	0.00000000000000	
591.25	0.0466147773307	-0.193912157121	
! Port Impedance	50.00000000000000	0.00000000000000	
592.5	0.044538710165	-0.194941570515	
! Port Impedance	50.00000000000000	0.00000000000000	
593.75	0.0426976384174	-0.193990148004	
! Port Impedance	50.00000000000000	0.00000000000000	
595.0	0.0432102404136	-0.192751435073	
! Port Impedance	50.00000000000000	0.00000000000000	
596.25	0.0455347293789	-0.191747177927	
! Port Impedance	50.00000000000000	0.00000000000000	
597.5	0.0434613640051	-0.190387968446	
! Port Impedance	50.00000000000000	0.00000000000000	
598.75	0.0454167909862	-0.190647169214	
! Port Impedance	50.00000000000000	0.00000000000000	
600.0	0.045401880753	-0.193782878293	
! Port Impedance	50.00000000000000	0.00000000000000	
601.25	0.0438510180374	-0.194042162116	
! Port Impedance	50.00000000000000	0.00000000000000	
602.5	0.0388596284233	-0.193645167927	
! Port Impedance	50.00000000000000	0.00000000000000	
603.75	0.0368042616312	-0.190505351535	
! Port Impedance	50.00000000000000	0.00000000000000	
605.0	0.0399767274073	-0.190685192342	
! Port Impedance	50.00000000000000	0.00000000000000	
606.25	0.0422023449859	-0.190444018388	
! Port Impedance	50.00000000000000	0.00000000000000	
607.5	0.042663779195	-0.189360108475	
! Port Impedance	50.00000000000000	0.00000000000000	
608.75	0.0422016340266	-0.191396585628	
! Port Impedance	50.00000000000000	0.00000000000000	
610.0	0.0409653908694	-0.192366512773	
! Port Impedance	50.00000000000000	0.00000000000000	
611.25	0.0388031158669	-0.191820319714	
! Port Impedance	50.00000000000000	0.00000000000000	
612.5	0.0374611573492	-0.189402334974	
! Port Impedance	50.00000000000000	0.00000000000000	
613.75	0.039160577832	-0.19003592228	
! Port Impedance	50.00000000000000	0.00000000000000	
615.0	0.0394414348426	-0.191194866963	
! Port Impedance	50.00000000000000	0.00000000000000	
616.25	0.0397255519102	-0.190357250095	
! Port Impedance	50.00000000000000	0.00000000000000	
617.5	0.0385416002462	-0.189624002432	
! Port Impedance	50.00000000000000	0.00000000000000	
618.75	0.0380629994309	-0.189453992299	
! Port Impedance	50.00000000000000	0.00000000000000	
620.0	0.0366909669779	-0.188519768215	
! Port Impedance	50.00000000000000	0.00000000000000	
621.25	0.0402696091469	-0.18901300007	
! Port Impedance	50.00000000000000	0.00000000000000	
622.5	0.0392440541951	-0.191000708922	
! Port Impedance	50.00000000000000	0.00000000000000	
623.75	0.0348372267945	-0.191179545202	
! Port Impedance	50.00000000000000	0.00000000000000	
625.0	0.0355004686648	-0.188335593886	
! Port Impedance	50.00000000000000	0.00000000000000	
626.25	0.0373743370151	-0.186357722631	
! Port Impedance	50.00000000000000	0.00000000000000	
627.5	0.0392652993488	-0.187489135728	
! Port Impedance	50.00000000000000	0.00000000000000	
628.75	0.0380339879399	-0.188740369015	
! Port Impedance	50.00000000000000	0.00000000000000	
630.0	0.0372604686793	-0.187751639596	
! Port Impedance	50.00000000000000	0.00000000000000	
631.25	0.0347437204455	-0.188411736092	
! Port Impedance	50.00000000000000	0.00000000000000	
632.5	0.0308453124356	-0.187305914728	
! Port Impedance	50.00000000000000	0.00000000000000	
633.75	0.0344590382741	-0.185852560486	
! Port Impedance	50.00000000000000	0.00000000000000	
635.0	0.0357404915734	-0.186081435006	
! Port Impedance	50.00000000000000	0.00000000000000	
636.25	0.0355105339778	-0.1867202039	
! Port Impedance	50.00000000000000	0.00000000000000	
637.5	0.0350957395886	-0.187351151653	
! Port Impedance	50.00000000000000	0.00000000000000	
638.75	0.034996202852	-0.186434866017	
! Port Impedance	50.00000000000000	0.00000000000000	
640.0	0.0346905131909	-0.185796978586	
! Port Impedance	50.00000000000000	0.00000000000000	
641.25	0.03445032363	-0.185823357338	
! Port Impedance	50.00000000000000	0.00000000000000	
642.5	0.0335963480587	-0.186042095999	
! Port Impedance	50.00000000000000	0.00000000000000	
643.75	0.0327507809048	-0.185823947033	
! Port Impedance	50.00000000000000	0.00000000000000	
645.0	0.0331919022011	-0.184576159281	
! Port Impedance	50.00000000000000	0.00000000000000	
646.25	0.0324383186473	-0.185020314722	
! Port Impedance	50.00000000000000	0.00000000000000	
647.5	0.0331820568649	-0.185049541849	
! Port Impedance	50.00000000000000	0.00000000000000	
648.75	0.0326695870298	-0.185141640968	
! Port Impedance	50.00000000000000	0.00000000000000	
650.0	0.0309954956661	-0.184662973293	
! Port Impedance	50.00000000000000	0.00000000000000	
651.25	0.0302847242495	-0.183471436145	
! Port Impedance	50.00000000000000	0.00000000000000	
652.5	0.0320680913687	-0.182874663557	
! Port Impedance	50.00000000000000	0.00000000000000	
653.75	0.0315460003993	-0.18314137472	
! Port Impedance	50.00000000000000	0.00000000000000	
655.0	0.0299445464171	-0.186458408081	
! Port Impedance	50.00000000000000	0.00000000000000	
656.25	0.0283471057822	-0.184676875652	
! Port Impedance	50.00000000000000	0.00000000000000	
657.5	0.0305773820574	-0.182713679535	
! Port Impedance	50.00000000000000	0.00000000000000	
658.75	0.0306396509559	-0.182012074388	
! Port Impedance	50.00000000000000	0.00000000000000	
660.0	0.0298895039857	-0.181090861651	
! Port Impedance	50.00000000000000	0.00000000000000	
661.25	0.0298377893768	-0.182154322104	
! Port Impedance	50.00000000000000	0.00000000000000	
662.5	0.0293705951217	-0.181587959754	
! Port Impedance	50.00000000000000	0.00000000000000	
663.75	0.0303683007316	-0.18145651456	
! Port Impedance	50.00000000000000	0.00000000000000	
665.0	0.0308626478704	-0.181690721334	
! Port Impedance	50.00000000000000	0.00000000000000	
666.25	0.0292142398265	-0.181388381898	
! Port Impedance	50.00000000000000	0.00000000000000	
667.5	0.0287968268028	-0.180595717403	
! Port Impedance	50.00000000000000	0.00000000000000	
668.75	0.0273175438237	-0.18109597751	
! Port Impedance	50.00000000000000	0.00000000000000	
670.0	0.0259075342058	-0.18073520514	
! Port Impedance	50.00000000000000	0.00000000000000	
671.25	0.0244261828698	-0.179838921819	
! Port Impedance	50.00000000000000	0.00000000000000	
672.5	0.0255619575681	-0.179519155794	
! Port Impedance	50.00000000000000	0.00000000000000	
673.75	0.0257278138299	-0.180144702507	
! Port Impedance	50.00000000000000	0.00000000000000	
675.0	0.0257604745214	-0.179112660111	
! Port Impedance	50.00000000000000	0.00000000000000	
676.25	0.0249318025808	-0.179108789571	
! Port Impedance	50.00000000000000	0.00000000000000	
677.5	0.0249846911003	-0.177754360797	
! Port Impedance	50.00000000000000	0.00000000000000	
678.75	0.0246959745384	-0.17964127009	
! Port Impedance	50.00000000000000	0.00000000000000	
680.0	0.0250214451259	-0.178834989232	
! Port Impedance	50.00000000000000	0.00000000000000	
681.25	0.0234762267972	-0.177364233372	
! Port Impedance	50.00000000000000	0.00000000000000	
682.5	0.0246514927579	-0.176770659892	
! Port Impedance	50.00000000000000	0.00000000000000	
683.75	0.0246187190711	-0.17670153895	
! Port Impedance	50.00000000000000	0.00000000000000	
685.0	0.0249702589645	-0.177009455727	
! Port Impedance	50.00000000000000	0.00000000000000	
686.25	0.0241857625878	-0.177416825417	
! Port Impedance	50.00000000000000	0.00000000000000	
687.5	0.0222241632295	-0.176766725393	
! Port Impedance	50.00000000000000	0.00000000000000	
688.75	0.0237184450769	-0.176013286429	
! Port Impedance	50.00000000000000	0.00000000000000	
690.0	0.0238004132547	-0.17588337017	
! Port Impedance	50.00000000000000	0.00000000000000	
691.25	0.0223449990357	-0.177101598079	
! Port Impedance	50.00000000000000	0.00000000000000	
692.5	0.0171927902302	-0.175748567691	
! Port Impedance	50.00000000000000	0.00000000000000	
693.75	0.0108351186604	-0.172966847454	
! Port Impedance	50.00000000000000	0.00000000000000	
695.0	0.0190476931656	-0.174386196769	
! Port Impedance	50.00000000000000	0.00000000000000	
696.25	0.0210932150799	-0.176226894612	
! Port Impedance	50.00000000000000	0.00000000000000	
697.5	0.0180737203158	-0.176211115891	
! Port Impedance	50.00000000000000	0.00000000000000	
698.75	0.0167253517584	-0.173690532869	
! Port Impedance	50.00000000000000	0.00000000000000	
700.0	0.0193164151842	-0.172962368869	
! Port Impedance	50.00000000000000	0.00000000000000	
701.25	0.0197705786528	-0.173861966135	
! Port Impedance	50.00000000000000	0.00000000000000	
702.5	0.0184068195322	-0.173896442279	
! Port Impedance	50.00000000000000	0.00000000000000	
703.75	0.0161705197163	-0.172939410521	
! Port Impedance	50.00000000000000	0.00000000000000	
705.0	0.0186161790051	-0.173109256545	
! Port Impedance	50.00000000000000	0.00000000000000	
706.25	0.0189147198692	-0.172093226684	
! Port Impedance	50.00000000000000	0.00000000000000	
707.5	0.019417237753	-0.171347563426	
! Port Impedance	50.00000000000000	0.00000000000000	
708.75	0.0201264598365	-0.171764722777	
! Port Impedance	50.00000000000000	0.00000000000000	
710.0	0.0199731719583	-0.171073975276	
! Port Impedance	50.00000000000000	0.00000000000000	
711.25	0.0197957469171	-0.17090196916	
! Port Impedance	50.00000000000000	0.00000000000000	
712.5	0.0188212518874	-0.172071783219	
! Port Impedance	50.00000000000000	0.00000000000000	
713.75	0.0155733754459	-0.17132540023	
! Port Impedance	50.00000000000000	0.00000000000000	
715.0	0.0126998064733	-0.168081258478	
! Port Impedance	50.00000000000000	0.00000000000000	
716.25	0.0151011617246	-0.168916859627	
! Port Impedance	50.00000000000000	0.00000000000000	
717.5	0.015622320944	-0.170926100256	
! Port Impedance	50.00000000000000	0.00000000000000	
718.75	0.0142928670495	-0.17164542389	
! Port Impedance	50.00000000000000	0.00000000000000	
720.0	0.0166503910252	-0.16953404926	
! Port Impedance	50.00000000000000	0.00000000000000	
721.25	0.0166381119553	-0.168319630705	
! Port Impedance	50.00000000000000	0.00000000000000	
722.5	0.016235970779	-0.169675881042	
! Port Impedance	50.00000000000000	0.00000000000000	
723.75	0.0123698992136	-0.170309630185	
! Port Impedance	50.00000000000000	0.00000000000000	
725.0	0.0127036966333	-0.16732918323	
! Port Impedance	50.00000000000000	0.00000000000000	
726.25	0.0141460740895	-0.166128354259	
! Port Impedance	50.00000000000000	0.00000000000000	
727.5	0.014686264839	-0.167143282789	
! Port Impedance	50.00000000000000	0.00000000000000	
728.75	0.0113742894301	-0.169582892458	
! Port Impedance	50.00000000000000	0.00000000000000	
730.0	0.00916915531946	-0.168636503625	
! Port Impedance	50.00000000000000	0.00000000000000	
731.25	0.0121412927278	-0.164290656503	
! Port Impedance	50.00000000000000	0.00000000000000	
732.5	0.0144119087766	-0.165622204874	
! Port Impedance	50.00000000000000	0.00000000000000	
733.75	0.0123627053494	-0.168396817156	
! Port Impedance	50.00000000000000	0.00000000000000	
735.0	0.0101971502994	-0.164685924575	
! Port Impedance	50.00000000000000	0.00000000000000	
736.25	0.0128494530239	-0.163911650244	
! Port Impedance	50.00000000000000	0.00000000000000	
737.5	0.0131527216158	-0.16531981798	
! Port Impedance	50.00000000000000	0.00000000000000	
738.75	0.00961012153251	-0.165354492943	
! Port Impedance	50.00000000000000	0.00000000000000	
740.0	0.0102880186084	-0.164804073809	
! Port Impedance	50.00000000000000	0.00000000000000	
741.25	0.0128349143621	-0.163881250225	
! Port Impedance	50.00000000000000	0.00000000000000	
742.5	0.0130419627165	-0.16296371704	
! Port Impedance	50.00000000000000	0.00000000000000	
743.75	0.0117386807731	-0.16556511685	
! Port Impedance	50.00000000000000	0.00000000000000	
745.0	0.00973212282857	-0.162231460732	
! Port Impedance	50.00000000000000	0.00000000000000	
746.25	0.0129239470664	-0.158950262909	
! Port Impedance	50.00000000000000	0.00000000000000	
747.5	0.0121591607108	-0.162452507059	
! Port Impedance	50.00000000000000	0.00000000000000	
748.75	0.009290720001	-0.162904573422	
! Port Impedance	50.00000000000000	0.00000000000000	
750.0	0.00755317274602	-0.160820308265	
! Port Impedance	50.00000000000000	0.00000000000000	
