!Created with mwavepy.
# GHz S RI R 50.0 
!freq	ReS11	ImS11	
500.0	0.0387923177497	-0.208369783111	
! Port Impedance	50.00000000000000	0.00000000000000	
501.25	0.0429187620662	-0.202459549035	
! Port Impedance	50.00000000000000	0.00000000000000	
502.5	0.0338357016841	-0.201427788463	
! Port Impedance	50.00000000000000	0.00000000000000	
503.75	0.0447352130228	-0.204216778381	
! Port Impedance	50.00000000000000	0.00000000000000	
505.0	0.0424878546361	-0.212432052042	
! Port Impedance	50.00000000000000	0.00000000000000	
506.25	0.0479250983308	-0.20735107937	
! Port Impedance	50.00000000000000	0.00000000000000	
507.5	0.0457275794875	-0.207914606181	
! Port Impedance	50.00000000000000	0.00000000000000	
508.75	0.0435586305514	-0.210051485966	
! Port Impedance	50.00000000000000	0.00000000000000	
510.0	0.0471578870443	-0.208823332585	
! Port Impedance	50.00000000000000	0.00000000000000	
511.25	0.0488243718185	-0.211174497783	
! Port Impedance	50.00000000000000	0.00000000000000	
512.5	0.0519448410912	-0.211874410452	
! Port Impedance	50.00000000000000	0.00000000000000	
513.75	0.0425907138582	-0.204029915739	
! Port Impedance	50.00000000000000	0.00000000000000	
515.0	0.0494565279208	-0.206905024374	
! Port Impedance	50.00000000000000	0.00000000000000	
516.25	0.0503913339473	-0.205714664778	
! Port Impedance	50.00000000000000	0.00000000000000	
517.5	0.0468132186801	-0.203338918349	
! Port Impedance	50.00000000000000	0.00000000000000	
518.75	0.0478850200696	-0.205227926933	
! Port Impedance	50.00000000000000	0.00000000000000	
520.0	0.0471988933436	-0.205101389684	
! Port Impedance	50.00000000000000	0.00000000000000	
521.25	0.0459839630431	-0.195936138327	
! Port Impedance	50.00000000000000	0.00000000000000	
522.5	0.046573946034	-0.204665289187	
! Port Impedance	50.00000000000000	0.00000000000000	
523.75	0.0512571932642	-0.20038634856	
! Port Impedance	50.00000000000000	0.00000000000000	
525.0	0.044994434838	-0.20250287974	
! Port Impedance	50.00000000000000	0.00000000000000	
526.25	0.0466472646488	-0.205053984067	
! Port Impedance	50.00000000000000	0.00000000000000	
527.5	0.046628423087	-0.204590657868	
! Port Impedance	50.00000000000000	0.00000000000000	
528.75	0.045916124386	-0.203941020309	
! Port Impedance	50.00000000000000	0.00000000000000	
530.0	0.0472250824371	-0.20415383696	
! Port Impedance	50.00000000000000	0.00000000000000	
531.25	0.0489441940427	-0.204594561347	
! Port Impedance	50.00000000000000	0.00000000000000	
532.5	0.0498471387259	-0.205992352487	
! Port Impedance	50.00000000000000	0.00000000000000	
533.75	0.0482660511261	-0.208153830834	
! Port Impedance	50.00000000000000	0.00000000000000	
535.0	0.0471774229544	-0.207927144363	
! Port Impedance	50.00000000000000	0.00000000000000	
536.25	0.0478119474277	-0.207480246629	
! Port Impedance	50.00000000000000	0.00000000000000	
537.5	0.0480240398964	-0.207883392365	
! Port Impedance	50.00000000000000	0.00000000000000	
538.75	0.0467758362817	-0.209294040232	
! Port Impedance	50.00000000000000	0.00000000000000	
540.0	0.0448828151351	-0.209641155317	
! Port Impedance	50.00000000000000	0.00000000000000	
541.25	0.0418424480111	-0.208791655291	
! Port Impedance	50.00000000000000	0.00000000000000	
542.5	0.0430182200466	-0.205735989546	
! Port Impedance	50.00000000000000	0.00000000000000	
543.75	0.0433525486904	-0.203406335616	
! Port Impedance	50.00000000000000	0.00000000000000	
545.0	0.0451432758921	-0.205170980089	
! Port Impedance	50.00000000000000	0.00000000000000	
546.25	0.0462295638496	-0.206592507947	
! Port Impedance	50.00000000000000	0.00000000000000	
547.5	0.0458464475612	-0.205415420581	
! Port Impedance	50.00000000000000	0.00000000000000	
548.75	0.0461670631336	-0.205643289914	
! Port Impedance	50.00000000000000	0.00000000000000	
550.0	0.0480307590139	-0.207391823627	
! Port Impedance	50.00000000000000	0.00000000000000	
551.25	0.0488389335134	-0.209302707216	
! Port Impedance	50.00000000000000	0.00000000000000	
552.5	0.0449874083133	-0.211081060487	
! Port Impedance	50.00000000000000	0.00000000000000	
553.75	0.0436991041624	-0.209508170271	
! Port Impedance	50.00000000000000	0.00000000000000	
555.0	0.0440613937157	-0.208769085195	
! Port Impedance	50.00000000000000	0.00000000000000	
556.25	0.0437534778581	-0.207773565234	
! Port Impedance	50.00000000000000	0.00000000000000	
557.5	0.0400878293729	-0.206823946951	
! Port Impedance	50.00000000000000	0.00000000000000	
558.75	0.0423622290852	-0.205028373089	
! Port Impedance	50.00000000000000	0.00000000000000	
560.0	0.0445156655924	-0.2039088559	
! Port Impedance	50.00000000000000	0.00000000000000	
561.25	0.0458931042487	-0.206132505944	
! Port Impedance	50.00000000000000	0.00000000000000	
562.5	0.0448456775455	-0.208138788799	
! Port Impedance	50.00000000000000	0.00000000000000	
563.75	0.042887018197	-0.20901556708	
! Port Impedance	50.00000000000000	0.00000000000000	
565.0	0.0450310519637	-0.20790203897	
! Port Impedance	50.00000000000000	0.00000000000000	
566.25	0.0433529197608	-0.207882994339	
! Port Impedance	50.00000000000000	0.00000000000000	
567.5	0.0418589487912	-0.208697633424	
! Port Impedance	50.00000000000000	0.00000000000000	
568.75	0.0417602275425	-0.206583783926	
! Port Impedance	50.00000000000000	0.00000000000000	
570.0	0.0413392896283	-0.204415450221	
! Port Impedance	50.00000000000000	0.00000000000000	
571.25	0.0443988477352	-0.205413375808	
! Port Impedance	50.00000000000000	0.00000000000000	
572.5	0.0443993290102	-0.207025448957	
! Port Impedance	50.00000000000000	0.00000000000000	
573.75	0.0412198184275	-0.209701732619	
! Port Impedance	50.00000000000000	0.00000000000000	
575.0	0.0411805807988	-0.209842210112	
! Port Impedance	50.00000000000000	0.00000000000000	
576.25	0.0407862610145	-0.209493623443	
! Port Impedance	50.00000000000000	0.00000000000000	
577.5	0.0365368832709	-0.209707164197	
! Port Impedance	50.00000000000000	0.00000000000000	
578.75	0.0366972972433	-0.206520067517	
! Port Impedance	50.00000000000000	0.00000000000000	
580.0	0.0391247897807	-0.205056609334	
! Port Impedance	50.00000000000000	0.00000000000000	
581.25	0.0412611727202	-0.204734496938	
! Port Impedance	50.00000000000000	0.00000000000000	
582.5	0.0410363479445	-0.206742356124	
! Port Impedance	50.00000000000000	0.00000000000000	
583.75	0.0394157256678	-0.207983862621	
! Port Impedance	50.00000000000000	0.00000000000000	
585.0	0.0397627546967	-0.207575815834	
! Port Impedance	50.00000000000000	0.00000000000000	
586.25	0.0383339345304	-0.207816426956	
! Port Impedance	50.00000000000000	0.00000000000000	
587.5	0.0344071929477	-0.208643610624	
! Port Impedance	50.00000000000000	0.00000000000000	
588.75	0.0363349126318	-0.205560927302	
! Port Impedance	50.00000000000000	0.00000000000000	
590.0	0.0384547868209	-0.204656282726	
! Port Impedance	50.00000000000000	0.00000000000000	
591.25	0.0385607090076	-0.206255216823	
! Port Impedance	50.00000000000000	0.00000000000000	
592.5	0.0371595014337	-0.207106609064	
! Port Impedance	50.00000000000000	0.00000000000000	
593.75	0.0356319525866	-0.206561745747	
! Port Impedance	50.00000000000000	0.00000000000000	
595.0	0.0360860647499	-0.205454574634	
! Port Impedance	50.00000000000000	0.00000000000000	
596.25	0.0390064909832	-0.204754818073	
! Port Impedance	50.00000000000000	0.00000000000000	
597.5	0.0366245157078	-0.204011428581	
! Port Impedance	50.00000000000000	0.00000000000000	
598.75	0.0376285703604	-0.203630213815	
! Port Impedance	50.00000000000000	0.00000000000000	
600.0	0.0375689854885	-0.206741914395	
! Port Impedance	50.00000000000000	0.00000000000000	
601.25	0.0346624663215	-0.209564877928	
! Port Impedance	50.00000000000000	0.00000000000000	
602.5	0.0306402661208	-0.206413790171	
! Port Impedance	50.00000000000000	0.00000000000000	
603.75	0.0287478177328	-0.203353662785	
! Port Impedance	50.00000000000000	0.00000000000000	
605.0	0.0325244886336	-0.203637822888	
! Port Impedance	50.00000000000000	0.00000000000000	
606.25	0.0342030541917	-0.203292131666	
! Port Impedance	50.00000000000000	0.00000000000000	
607.5	0.0348321077721	-0.202340668788	
! Port Impedance	50.00000000000000	0.00000000000000	
608.75	0.0343966717667	-0.204228621053	
! Port Impedance	50.00000000000000	0.00000000000000	
610.0	0.0329079087832	-0.205387130153	
! Port Impedance	50.00000000000000	0.00000000000000	
611.25	0.0315743715824	-0.20445270578	
! Port Impedance	50.00000000000000	0.00000000000000	
612.5	0.0320708719911	-0.202216002326	
! Port Impedance	50.00000000000000	0.00000000000000	
613.75	0.0298833664351	-0.20262375165	
! Port Impedance	50.00000000000000	0.00000000000000	
615.0	0.0298635427783	-0.204648728754	
! Port Impedance	50.00000000000000	0.00000000000000	
616.25	0.0317405362007	-0.203166518971	
! Port Impedance	50.00000000000000	0.00000000000000	
617.5	0.0305622006046	-0.202661680569	
! Port Impedance	50.00000000000000	0.00000000000000	
618.75	0.0299210476154	-0.202367364033	
! Port Impedance	50.00000000000000	0.00000000000000	
620.0	0.0285813947834	-0.201308769251	
! Port Impedance	50.00000000000000	0.00000000000000	
621.25	0.0323158305313	-0.202042759093	
! Port Impedance	50.00000000000000	0.00000000000000	
622.5	0.0308455132446	-0.20388126891	
! Port Impedance	50.00000000000000	0.00000000000000	
623.75	0.0271068377462	-0.204137405357	
! Port Impedance	50.00000000000000	0.00000000000000	
625.0	0.027518032995	-0.201650873356	
! Port Impedance	50.00000000000000	0.00000000000000	
626.25	0.02925126799	-0.199621242116	
! Port Impedance	50.00000000000000	0.00000000000000	
627.5	0.029910056593	-0.200157813489	
! Port Impedance	50.00000000000000	0.00000000000000	
628.75	0.0300582099619	-0.200846796398	
! Port Impedance	50.00000000000000	0.00000000000000	
630.0	0.0295460501865	-0.202243258256	
! Port Impedance	50.00000000000000	0.00000000000000	
631.25	0.0264777175198	-0.20198351209	
! Port Impedance	50.00000000000000	0.00000000000000	
632.5	0.0235446717169	-0.200150090673	
! Port Impedance	50.00000000000000	0.00000000000000	
633.75	0.0271739313523	-0.198944567865	
! Port Impedance	50.00000000000000	0.00000000000000	
635.0	0.0277154313557	-0.199212592323	
! Port Impedance	50.00000000000000	0.00000000000000	
636.25	0.0276437859324	-0.199866712411	
! Port Impedance	50.00000000000000	0.00000000000000	
637.5	0.02717590007	-0.200383575309	
! Port Impedance	50.00000000000000	0.00000000000000	
638.75	0.0270539842195	-0.199345326979	
! Port Impedance	50.00000000000000	0.00000000000000	
640.0	0.0265264568555	-0.199045910513	
! Port Impedance	50.00000000000000	0.00000000000000	
641.25	0.0260916271084	-0.19836204034	
! Port Impedance	50.00000000000000	0.00000000000000	
642.5	0.0257646141878	-0.198683128535	
! Port Impedance	50.00000000000000	0.00000000000000	
643.75	0.0247590285127	-0.198450118074	
! Port Impedance	50.00000000000000	0.00000000000000	
645.0	0.0251420976471	-0.197546401987	
! Port Impedance	50.00000000000000	0.00000000000000	
646.25	0.0243389297605	-0.197920275645	
! Port Impedance	50.00000000000000	0.00000000000000	
647.5	0.0253703385851	-0.198010658593	
! Port Impedance	50.00000000000000	0.00000000000000	
648.75	0.0243711048811	-0.198003339654	
! Port Impedance	50.00000000000000	0.00000000000000	
650.0	0.0230026260018	-0.197515277172	
! Port Impedance	50.00000000000000	0.00000000000000	
651.25	0.022295471668	-0.196231529318	
! Port Impedance	50.00000000000000	0.00000000000000	
652.5	0.0237507568433	-0.195792278896	
! Port Impedance	50.00000000000000	0.00000000000000	
653.75	0.0233654494451	-0.196129319706	
! Port Impedance	50.00000000000000	0.00000000000000	
655.0	0.022747632487	-0.197353268299	
! Port Impedance	50.00000000000000	0.00000000000000	
656.25	0.0225862653579	-0.196414822421	
! Port Impedance	50.00000000000000	0.00000000000000	
657.5	0.0226467425501	-0.195645717027	
! Port Impedance	50.00000000000000	0.00000000000000	
658.75	0.0224065942677	-0.195240719578	
! Port Impedance	50.00000000000000	0.00000000000000	
660.0	0.021665879856	-0.194450447262	
! Port Impedance	50.00000000000000	0.00000000000000	
661.25	0.0218223215727	-0.19530777163	
! Port Impedance	50.00000000000000	0.00000000000000	
662.5	0.021478928682	-0.194505876159	
! Port Impedance	50.00000000000000	0.00000000000000	
663.75	0.0219554375287	-0.194434657162	
! Port Impedance	50.00000000000000	0.00000000000000	
665.0	0.022971196293	-0.194799458894	
! Port Impedance	50.00000000000000	0.00000000000000	
666.25	0.0211001696174	-0.193949116338	
! Port Impedance	50.00000000000000	0.00000000000000	
667.5	0.0210476479306	-0.193209532762	
! Port Impedance	50.00000000000000	0.00000000000000	
668.75	0.0194302310947	-0.19421444887	
! Port Impedance	50.00000000000000	0.00000000000000	
670.0	0.0173235775004	-0.19391971312	
! Port Impedance	50.00000000000000	0.00000000000000	
671.25	0.0158889856575	-0.192844015599	
! Port Impedance	50.00000000000000	0.00000000000000	
672.5	0.0169312744002	-0.192218618988	
! Port Impedance	50.00000000000000	0.00000000000000	
673.75	0.0172534647776	-0.192911204825	
! Port Impedance	50.00000000000000	0.00000000000000	
675.0	0.0176376482783	-0.19220754	
! Port Impedance	50.00000000000000	0.00000000000000	
676.25	0.0175549088552	-0.191765405837	
! Port Impedance	50.00000000000000	0.00000000000000	
677.5	0.0170560000689	-0.190750147703	
! Port Impedance	50.00000000000000	0.00000000000000	
678.75	0.0168771379809	-0.192318983676	
! Port Impedance	50.00000000000000	0.00000000000000	
680.0	0.0162105439568	-0.191642907736	
! Port Impedance	50.00000000000000	0.00000000000000	
681.25	0.0155842135146	-0.190530562349	
! Port Impedance	50.00000000000000	0.00000000000000	
682.5	0.0162540721084	-0.189749671844	
! Port Impedance	50.00000000000000	0.00000000000000	
683.75	0.0162918601144	-0.189636894998	
! Port Impedance	50.00000000000000	0.00000000000000	
685.0	0.0165821607486	-0.190359810353	
! Port Impedance	50.00000000000000	0.00000000000000	
686.25	0.0159788362635	-0.190713978352	
! Port Impedance	50.00000000000000	0.00000000000000	
687.5	0.0138814086695	-0.189607806225	
! Port Impedance	50.00000000000000	0.00000000000000	
688.75	0.0152543165271	-0.188766803368	
! Port Impedance	50.00000000000000	0.00000000000000	
690.0	0.0155841488693	-0.18897856813	
! Port Impedance	50.00000000000000	0.00000000000000	
691.25	0.0138731154156	-0.190187793311	
! Port Impedance	50.00000000000000	0.00000000000000	
692.5	0.0110938381615	-0.188453360582	
! Port Impedance	50.00000000000000	0.00000000000000	
693.75	0.00861388292278	-0.187239965868	
! Port Impedance	50.00000000000000	0.00000000000000	
695.0	0.0127284172528	-0.187541174511	
! Port Impedance	50.00000000000000	0.00000000000000	
696.25	0.0136295452573	-0.187932666165	
! Port Impedance	50.00000000000000	0.00000000000000	
697.5	0.011479229238	-0.188466248049	
! Port Impedance	50.00000000000000	0.00000000000000	
698.75	0.00922871275971	-0.187237355824	
! Port Impedance	50.00000000000000	0.00000000000000	
700.0	0.0108569084398	-0.185957139127	
! Port Impedance	50.00000000000000	0.00000000000000	
701.25	0.0114436928358	-0.186888649087	
! Port Impedance	50.00000000000000	0.00000000000000	
702.5	0.0101375418045	-0.186753858539	
! Port Impedance	50.00000000000000	0.00000000000000	
703.75	0.00928632011533	-0.185434715328	
! Port Impedance	50.00000000000000	0.00000000000000	
705.0	0.0112557661075	-0.185718784725	
! Port Impedance	50.00000000000000	0.00000000000000	
706.25	0.0109762270483	-0.18573744881	
! Port Impedance	50.00000000000000	0.00000000000000	
707.5	0.0102949306609	-0.185051223774	
! Port Impedance	50.00000000000000	0.00000000000000	
708.75	0.0108234361045	-0.184807099653	
! Port Impedance	50.00000000000000	0.00000000000000	
710.0	0.0112088623082	-0.184005751847	
! Port Impedance	50.00000000000000	0.00000000000000	
711.25	0.0111578954679	-0.183782865918	
! Port Impedance	50.00000000000000	0.00000000000000	
712.5	0.0101525668113	-0.184686936788	
! Port Impedance	50.00000000000000	0.00000000000000	
713.75	0.00719021570712	-0.184105800797	
! Port Impedance	50.00000000000000	0.00000000000000	
715.0	0.00645633593644	-0.181915093906	
! Port Impedance	50.00000000000000	0.00000000000000	
716.25	0.00805817183351	-0.182160733948	
! Port Impedance	50.00000000000000	0.00000000000000	
717.5	0.00778502029988	-0.18377059672	
! Port Impedance	50.00000000000000	0.00000000000000	
718.75	0.00657683290895	-0.184445821791	
! Port Impedance	50.00000000000000	0.00000000000000	
720.0	0.00790143079196	-0.182292038143	
! Port Impedance	50.00000000000000	0.00000000000000	
721.25	0.00856269705924	-0.181623905979	
! Port Impedance	50.00000000000000	0.00000000000000	
722.5	0.00818088883	-0.182309803765	
! Port Impedance	50.00000000000000	0.00000000000000	
723.75	0.0053394488982	-0.183165557967	
! Port Impedance	50.00000000000000	0.00000000000000	
725.0	0.0057927700868	-0.181023831044	
! Port Impedance	50.00000000000000	0.00000000000000	
726.25	0.00664378978792	-0.179881660568	
! Port Impedance	50.00000000000000	0.00000000000000	
727.5	0.00668035751622	-0.18027909158	
! Port Impedance	50.00000000000000	0.00000000000000	
728.75	0.00386302841071	-0.181854657181	
! Port Impedance	50.00000000000000	0.00000000000000	
730.0	0.00220920803153	-0.181324262724	
! Port Impedance	50.00000000000000	0.00000000000000	
731.25	0.00494475621204	-0.178313060384	
! Port Impedance	50.00000000000000	0.00000000000000	
732.5	0.00612448644509	-0.179087214854	
! Port Impedance	50.00000000000000	0.00000000000000	
733.75	0.0038001514223	-0.180970586654	
! Port Impedance	50.00000000000000	0.00000000000000	
735.0	0.00180141632481	-0.177961565423	
! Port Impedance	50.00000000000000	0.00000000000000	
736.25	0.0042489711833	-0.177759813992	
! Port Impedance	50.00000000000000	0.00000000000000	
737.5	0.00448017417237	-0.178537596058	
! Port Impedance	50.00000000000000	0.00000000000000	
738.75	0.00274661417907	-0.178323731205	
! Port Impedance	50.00000000000000	0.00000000000000	
740.0	0.00235367113072	-0.178027175312	
! Port Impedance	50.00000000000000	0.00000000000000	
741.25	0.00452767727531	-0.176807711943	
! Port Impedance	50.00000000000000	0.00000000000000	
742.5	0.00468841566896	-0.176546603075	
! Port Impedance	50.00000000000000	0.00000000000000	
743.75	0.00341140484643	-0.178225557693	
! Port Impedance	50.00000000000000	0.00000000000000	
745.0	0.000761081907288	-0.176857621675	
! Port Impedance	50.00000000000000	0.00000000000000	
746.25	0.0034111243866	-0.172403488937	
! Port Impedance	50.00000000000000	0.00000000000000	
747.5	0.00453516263987	-0.175386721458	
! Port Impedance	50.00000000000000	0.00000000000000	
748.75	0.000568406654364	-0.17688122563	
! Port Impedance	50.00000000000000	0.00000000000000	
750.0	-0.00156025649108	-0.174671641215	
! Port Impedance	50.00000000000000	0.00000000000000	
