!Created with mwavepy.
# GHz S RI R 50.0 
!freq	ReS11	ImS11	
500.0	0.0454268846344	-0.19832764328	
! Port Impedance	50.00000000000000	0.00000000000000	
501.25	0.0445372264719	-0.192749716358	
! Port Impedance	50.00000000000000	0.00000000000000	
502.5	0.0450898726103	-0.194650378037	
! Port Impedance	50.00000000000000	0.00000000000000	
503.75	0.0474444563951	-0.190219769053	
! Port Impedance	50.00000000000000	0.00000000000000	
505.0	0.0459911709981	-0.201043779796	
! Port Impedance	50.00000000000000	0.00000000000000	
506.25	0.0481108302606	-0.195510080933	
! Port Impedance	50.00000000000000	0.00000000000000	
507.5	0.0498949348815	-0.194191704375	
! Port Impedance	50.00000000000000	0.00000000000000	
508.75	0.0555223618018	-0.195240794969	
! Port Impedance	50.00000000000000	0.00000000000000	
510.0	0.0537605520665	-0.198273947272	
! Port Impedance	50.00000000000000	0.00000000000000	
511.25	0.0517157599393	-0.197139578051	
! Port Impedance	50.00000000000000	0.00000000000000	
512.5	0.0459845584412	-0.199829491775	
! Port Impedance	50.00000000000000	0.00000000000000	
513.75	0.0482014075145	-0.195409352725	
! Port Impedance	50.00000000000000	0.00000000000000	
515.0	0.0529048661515	-0.190623638	
! Port Impedance	50.00000000000000	0.00000000000000	
516.25	0.0562559074189	-0.189423811463	
! Port Impedance	50.00000000000000	0.00000000000000	
517.5	0.0548943428325	-0.19132557187	
! Port Impedance	50.00000000000000	0.00000000000000	
518.75	0.0542345688474	-0.193531951369	
! Port Impedance	50.00000000000000	0.00000000000000	
520.0	0.0526842461944	-0.192864150843	
! Port Impedance	50.00000000000000	0.00000000000000	
521.25	0.0510558946441	-0.188669264641	
! Port Impedance	50.00000000000000	0.00000000000000	
522.5	0.0501104582155	-0.193257143664	
! Port Impedance	50.00000000000000	0.00000000000000	
523.75	0.0520493406499	-0.187316594863	
! Port Impedance	50.00000000000000	0.00000000000000	
525.0	0.0528740532508	-0.187516171995	
! Port Impedance	50.00000000000000	0.00000000000000	
526.25	0.051922668141	-0.192634442263	
! Port Impedance	50.00000000000000	0.00000000000000	
527.5	0.0518153265712	-0.191704275763	
! Port Impedance	50.00000000000000	0.00000000000000	
528.75	0.0501686897782	-0.189491059704	
! Port Impedance	50.00000000000000	0.00000000000000	
530.0	0.0517553396452	-0.190629105403	
! Port Impedance	50.00000000000000	0.00000000000000	
531.25	0.0553333014195	-0.191768350464	
! Port Impedance	50.00000000000000	0.00000000000000	
532.5	0.0553259307576	-0.193229330196	
! Port Impedance	50.00000000000000	0.00000000000000	
533.75	0.0539134305414	-0.195320036115	
! Port Impedance	50.00000000000000	0.00000000000000	
535.0	0.0529343025457	-0.195928956168	
! Port Impedance	50.00000000000000	0.00000000000000	
536.25	0.0529316853642	-0.194849123165	
! Port Impedance	50.00000000000000	0.00000000000000	
537.5	0.0526629121783	-0.195345255462	
! Port Impedance	50.00000000000000	0.00000000000000	
538.75	0.0521979362427	-0.197067313073	
! Port Impedance	50.00000000000000	0.00000000000000	
540.0	0.0493767238029	-0.19737155869	
! Port Impedance	50.00000000000000	0.00000000000000	
541.25	0.0464997743741	-0.196206293034	
! Port Impedance	50.00000000000000	0.00000000000000	
542.5	0.0476027367066	-0.193083098876	
! Port Impedance	50.00000000000000	0.00000000000000	
543.75	0.0483544054014	-0.189343216257	
! Port Impedance	50.00000000000000	0.00000000000000	
545.0	0.0500449238376	-0.192238586798	
! Port Impedance	50.00000000000000	0.00000000000000	
546.25	0.0518485336564	-0.194227696448	
! Port Impedance	50.00000000000000	0.00000000000000	
547.5	0.0510774588455	-0.192421134078	
! Port Impedance	50.00000000000000	0.00000000000000	
548.75	0.0515217002241	-0.192769933988	
! Port Impedance	50.00000000000000	0.00000000000000	
550.0	0.0538153404571	-0.194884194289	
! Port Impedance	50.00000000000000	0.00000000000000	
551.25	0.0547262371536	-0.196756148475	
! Port Impedance	50.00000000000000	0.00000000000000	
552.5	0.0510834956287	-0.19781658521	
! Port Impedance	50.00000000000000	0.00000000000000	
553.75	0.0464274268085	-0.1993471091	
! Port Impedance	50.00000000000000	0.00000000000000	
555.0	0.0487482802437	-0.198950201501	
! Port Impedance	50.00000000000000	0.00000000000000	
556.25	0.0485373885259	-0.196399664641	
! Port Impedance	50.00000000000000	0.00000000000000	
557.5	0.0409112270081	-0.196166608155	
! Port Impedance	50.00000000000000	0.00000000000000	
558.75	0.0445705862937	-0.191936113574	
! Port Impedance	50.00000000000000	0.00000000000000	
560.0	0.050231945629	-0.190365542103	
! Port Impedance	50.00000000000000	0.00000000000000	
561.25	0.0519779808132	-0.192857960854	
! Port Impedance	50.00000000000000	0.00000000000000	
562.5	0.0507016034145	-0.195799974149	
! Port Impedance	50.00000000000000	0.00000000000000	
563.75	0.0482187369572	-0.197223916836	
! Port Impedance	50.00000000000000	0.00000000000000	
565.0	0.0488250654664	-0.195528715808	
! Port Impedance	50.00000000000000	0.00000000000000	
566.25	0.0490146145556	-0.195476755017	
! Port Impedance	50.00000000000000	0.00000000000000	
567.5	0.046533721679	-0.196527893914	
! Port Impedance	50.00000000000000	0.00000000000000	
568.75	0.0475635328741	-0.194101709958	
! Port Impedance	50.00000000000000	0.00000000000000	
570.0	0.0469708370064	-0.191817363582	
! Port Impedance	50.00000000000000	0.00000000000000	
571.25	0.0503215098052	-0.192310962266	
! Port Impedance	50.00000000000000	0.00000000000000	
572.5	0.0505647457013	-0.194539379299	
! Port Impedance	50.00000000000000	0.00000000000000	
573.75	0.0475286962579	-0.197217492653	
! Port Impedance	50.00000000000000	0.00000000000000	
575.0	0.0474641527716	-0.197242949612	
! Port Impedance	50.00000000000000	0.00000000000000	
576.25	0.0470557223539	-0.196654047221	
! Port Impedance	50.00000000000000	0.00000000000000	
577.5	0.0426484546259	-0.197529004615	
! Port Impedance	50.00000000000000	0.00000000000000	
578.75	0.0429680535187	-0.194226246902	
! Port Impedance	50.00000000000000	0.00000000000000	
580.0	0.0453996280289	-0.192583924999	
! Port Impedance	50.00000000000000	0.00000000000000	
581.25	0.0477983363382	-0.192341847251	
! Port Impedance	50.00000000000000	0.00000000000000	
582.5	0.0474458946248	-0.194118198533	
! Port Impedance	50.00000000000000	0.00000000000000	
583.75	0.0456787042574	-0.195820708695	
! Port Impedance	50.00000000000000	0.00000000000000	
585.0	0.0461218807137	-0.195389972864	
! Port Impedance	50.00000000000000	0.00000000000000	
586.25	0.0446514989092	-0.195371026732	
! Port Impedance	50.00000000000000	0.00000000000000	
587.5	0.040665466064	-0.19595195338	
! Port Impedance	50.00000000000000	0.00000000000000	
588.75	0.0428168252126	-0.192912387149	
! Port Impedance	50.00000000000000	0.00000000000000	
590.0	0.0454321917432	-0.191817328532	
! Port Impedance	50.00000000000000	0.00000000000000	
591.25	0.0450994443512	-0.194055178566	
! Port Impedance	50.00000000000000	0.00000000000000	
592.5	0.0431550827053	-0.195087775693	
! Port Impedance	50.00000000000000	0.00000000000000	
593.75	0.0418598667149	-0.193846410934	
! Port Impedance	50.00000000000000	0.00000000000000	
595.0	0.0420577710312	-0.193269607651	
! Port Impedance	50.00000000000000	0.00000000000000	
596.25	0.0446112451682	-0.192131414687	
! Port Impedance	50.00000000000000	0.00000000000000	
597.5	0.0425566405368	-0.191310486011	
! Port Impedance	50.00000000000000	0.00000000000000	
598.75	0.04411747572	-0.190979410837	
! Port Impedance	50.00000000000000	0.00000000000000	
600.0	0.0439254846715	-0.193888341104	
! Port Impedance	50.00000000000000	0.00000000000000	
601.25	0.041289204838	-0.197454569739	
! Port Impedance	50.00000000000000	0.00000000000000	
602.5	0.0378492376291	-0.193949535563	
! Port Impedance	50.00000000000000	0.00000000000000	
603.75	0.0357492612132	-0.190734604433	
! Port Impedance	50.00000000000000	0.00000000000000	
605.0	0.0383927313333	-0.190981778083	
! Port Impedance	50.00000000000000	0.00000000000000	
606.25	0.0409056408148	-0.190844451929	
! Port Impedance	50.00000000000000	0.00000000000000	
607.5	0.0411103854458	-0.189463139768	
! Port Impedance	50.00000000000000	0.00000000000000	
608.75	0.041055878755	-0.191563209648	
! Port Impedance	50.00000000000000	0.00000000000000	
610.0	0.0394658649042	-0.192809290883	
! Port Impedance	50.00000000000000	0.00000000000000	
611.25	0.03852253564	-0.191721079195	
! Port Impedance	50.00000000000000	0.00000000000000	
612.5	0.0396310153187	-0.189750723693	
! Port Impedance	50.00000000000000	0.00000000000000	
613.75	0.0361430499917	-0.189781010798	
! Port Impedance	50.00000000000000	0.00000000000000	
615.0	0.0361973746356	-0.192311002879	
! Port Impedance	50.00000000000000	0.00000000000000	
616.25	0.0385059016129	-0.190860944438	
! Port Impedance	50.00000000000000	0.00000000000000	
617.5	0.0372608983974	-0.190079639174	
! Port Impedance	50.00000000000000	0.00000000000000	
618.75	0.0361796049686	-0.190148444531	
! Port Impedance	50.00000000000000	0.00000000000000	
620.0	0.0355993415108	-0.188897374563	
! Port Impedance	50.00000000000000	0.00000000000000	
621.25	0.0389948240651	-0.189267384621	
! Port Impedance	50.00000000000000	0.00000000000000	
622.5	0.0377180444044	-0.191026350007	
! Port Impedance	50.00000000000000	0.00000000000000	
623.75	0.0336236765382	-0.191435036664	
! Port Impedance	50.00000000000000	0.00000000000000	
625.0	0.0336187741059	-0.188954884891	
! Port Impedance	50.00000000000000	0.00000000000000	
626.25	0.0356487161017	-0.187083001942	
! Port Impedance	50.00000000000000	0.00000000000000	
627.5	0.0364672956142	-0.18732076134	
! Port Impedance	50.00000000000000	0.00000000000000	
628.75	0.0368142709163	-0.188840153237	
! Port Impedance	50.00000000000000	0.00000000000000	
630.0	0.0357806778132	-0.190526825606	
! Port Impedance	50.00000000000000	0.00000000000000	
631.25	0.0326431410404	-0.189140639423	
! Port Impedance	50.00000000000000	0.00000000000000	
632.5	0.0314328130729	-0.187836487072	
! Port Impedance	50.00000000000000	0.00000000000000	
633.75	0.034049437685	-0.185950841049	
! Port Impedance	50.00000000000000	0.00000000000000	
635.0	0.0347617967882	-0.186431018523	
! Port Impedance	50.00000000000000	0.00000000000000	
636.25	0.0340970594424	-0.187165187092	
! Port Impedance	50.00000000000000	0.00000000000000	
637.5	0.033683815543	-0.18770175082	
! Port Impedance	50.00000000000000	0.00000000000000	
638.75	0.0335364454871	-0.187080645808	
! Port Impedance	50.00000000000000	0.00000000000000	
640.0	0.0329223571895	-0.18611549419	
! Port Impedance	50.00000000000000	0.00000000000000	
641.25	0.0327731519127	-0.185624381353	
! Port Impedance	50.00000000000000	0.00000000000000	
642.5	0.0323842580747	-0.186158970327	
! Port Impedance	50.00000000000000	0.00000000000000	
643.75	0.0314065950447	-0.185797652154	
! Port Impedance	50.00000000000000	0.00000000000000	
645.0	0.0318674021092	-0.184685256258	
! Port Impedance	50.00000000000000	0.00000000000000	
646.25	0.0309422697934	-0.185349891786	
! Port Impedance	50.00000000000000	0.00000000000000	
647.5	0.0317171822284	-0.185360328374	
! Port Impedance	50.00000000000000	0.00000000000000	
648.75	0.0311096538222	-0.185388788924	
! Port Impedance	50.00000000000000	0.00000000000000	
650.0	0.0297978609405	-0.184800365626	
! Port Impedance	50.00000000000000	0.00000000000000	
651.25	0.0287966113926	-0.183653660029	
! Port Impedance	50.00000000000000	0.00000000000000	
652.5	0.0309251249843	-0.183260433092	
! Port Impedance	50.00000000000000	0.00000000000000	
653.75	0.0307773215086	-0.183623271079	
! Port Impedance	50.00000000000000	0.00000000000000	
655.0	0.0302833903916	-0.183568949645	
! Port Impedance	50.00000000000000	0.00000000000000	
656.25	0.0302704745424	-0.182796288823	
! Port Impedance	50.00000000000000	0.00000000000000	
657.5	0.0289619345135	-0.183267000339	
! Port Impedance	50.00000000000000	0.00000000000000	
658.75	0.0291503801605	-0.182463867284	
! Port Impedance	50.00000000000000	0.00000000000000	
660.0	0.028015065478	-0.181546355947	
! Port Impedance	50.00000000000000	0.00000000000000	
661.25	0.0285058248796	-0.182426071786	
! Port Impedance	50.00000000000000	0.00000000000000	
662.5	0.0285844913422	-0.181775272724	
! Port Impedance	50.00000000000000	0.00000000000000	
663.75	0.0292102073842	-0.181067955879	
! Port Impedance	50.00000000000000	0.00000000000000	
665.0	0.0297761509419	-0.182320852648	
! Port Impedance	50.00000000000000	0.00000000000000	
666.25	0.0283212343388	-0.181750179329	
! Port Impedance	50.00000000000000	0.00000000000000	
667.5	0.0274920216316	-0.180797534614	
! Port Impedance	50.00000000000000	0.00000000000000	
668.75	0.026196045588	-0.181248932006	
! Port Impedance	50.00000000000000	0.00000000000000	
670.0	0.0243769448888	-0.18086998211	
! Port Impedance	50.00000000000000	0.00000000000000	
671.25	0.0232337658765	-0.179871440823	
! Port Impedance	50.00000000000000	0.00000000000000	
672.5	0.0240944565179	-0.180039960039	
! Port Impedance	50.00000000000000	0.00000000000000	
673.75	0.0242655616225	-0.17992627705	
! Port Impedance	50.00000000000000	0.00000000000000	
675.0	0.0244752273337	-0.179609126042	
! Port Impedance	50.00000000000000	0.00000000000000	
676.25	0.0241456311098	-0.178616001631	
! Port Impedance	50.00000000000000	0.00000000000000	
677.5	0.0245389129512	-0.178290649907	
! Port Impedance	50.00000000000000	0.00000000000000	
678.75	0.0238426529094	-0.179287486539	
! Port Impedance	50.00000000000000	0.00000000000000	
680.0	0.0235434362299	-0.179178719307	
! Port Impedance	50.00000000000000	0.00000000000000	
681.25	0.0222322697628	-0.177757512962	
! Port Impedance	50.00000000000000	0.00000000000000	
682.5	0.0230952220301	-0.176808132035	
! Port Impedance	50.00000000000000	0.00000000000000	
683.75	0.0231682588443	-0.177082282455	
! Port Impedance	50.00000000000000	0.00000000000000	
685.0	0.0235244859945	-0.177331551799	
! Port Impedance	50.00000000000000	0.00000000000000	
686.25	0.0226583876703	-0.177651394979	
! Port Impedance	50.00000000000000	0.00000000000000	
687.5	0.020634373231	-0.176376170775	
! Port Impedance	50.00000000000000	0.00000000000000	
688.75	0.0223408668184	-0.175915162501	
! Port Impedance	50.00000000000000	0.00000000000000	
690.0	0.0225579323342	-0.175966564966	
! Port Impedance	50.00000000000000	0.00000000000000	
691.25	0.0208911780924	-0.177435746367	
! Port Impedance	50.00000000000000	0.00000000000000	
692.5	0.0193643561947	-0.175583863565	
! Port Impedance	50.00000000000000	0.00000000000000	
693.75	0.0183278641668	-0.174618841974	
! Port Impedance	50.00000000000000	0.00000000000000	
695.0	0.0207966465357	-0.174422159469	
! Port Impedance	50.00000000000000	0.00000000000000	
696.25	0.0213307801777	-0.174551651986	
! Port Impedance	50.00000000000000	0.00000000000000	
697.5	0.0188484882432	-0.17534111304	
! Port Impedance	50.00000000000000	0.00000000000000	
698.75	0.0169350943503	-0.174457045391	
! Port Impedance	50.00000000000000	0.00000000000000	
700.0	0.0180671364786	-0.173260289471	
! Port Impedance	50.00000000000000	0.00000000000000	
701.25	0.0187111535118	-0.173834018764	
! Port Impedance	50.00000000000000	0.00000000000000	
702.5	0.0171527271489	-0.173848558937	
! Port Impedance	50.00000000000000	0.00000000000000	
703.75	0.0169425518966	-0.173203384207	
! Port Impedance	50.00000000000000	0.00000000000000	
705.0	0.0178995040784	-0.173151085304	
! Port Impedance	50.00000000000000	0.00000000000000	
706.25	0.0178305103867	-0.17250796644	
! Port Impedance	50.00000000000000	0.00000000000000	
707.5	0.0179710588507	-0.171538107763	
! Port Impedance	50.00000000000000	0.00000000000000	
708.75	0.018220117854	-0.171749013698	
! Port Impedance	50.00000000000000	0.00000000000000	
710.0	0.0186838214056	-0.171360295652	
! Port Impedance	50.00000000000000	0.00000000000000	
711.25	0.0186234543397	-0.171267505233	
! Port Impedance	50.00000000000000	0.00000000000000	
712.5	0.0173811187951	-0.17189828697	
! Port Impedance	50.00000000000000	0.00000000000000	
713.75	0.0144479660938	-0.171494062935	
! Port Impedance	50.00000000000000	0.00000000000000	
715.0	0.0145037703023	-0.169455835931	
! Port Impedance	50.00000000000000	0.00000000000000	
716.25	0.0154521642753	-0.169419272366	
! Port Impedance	50.00000000000000	0.00000000000000	
717.5	0.0151583988586	-0.170534501854	
! Port Impedance	50.00000000000000	0.00000000000000	
718.75	0.0141910136458	-0.171007239587	
! Port Impedance	50.00000000000000	0.00000000000000	
720.0	0.0152559113625	-0.169558316858	
! Port Impedance	50.00000000000000	0.00000000000000	
721.25	0.0158248245095	-0.168894374731	
! Port Impedance	50.00000000000000	0.00000000000000	
722.5	0.0159805866561	-0.169157312842	
! Port Impedance	50.00000000000000	0.00000000000000	
723.75	0.0132910334564	-0.169480372254	
! Port Impedance	50.00000000000000	0.00000000000000	
725.0	0.0142371524573	-0.167927959755	
! Port Impedance	50.00000000000000	0.00000000000000	
726.25	0.0145397215094	-0.166757102433	
! Port Impedance	50.00000000000000	0.00000000000000	
727.5	0.0143273016514	-0.167086513708	
! Port Impedance	50.00000000000000	0.00000000000000	
728.75	0.012131737744	-0.168223346863	
! Port Impedance	50.00000000000000	0.00000000000000	
730.0	0.0100510194369	-0.168483277253	
! Port Impedance	50.00000000000000	0.00000000000000	
731.25	0.0130867610197	-0.165507519717	
! Port Impedance	50.00000000000000	0.00000000000000	
732.5	0.0138420512431	-0.165965769625	
! Port Impedance	50.00000000000000	0.00000000000000	
733.75	0.0121183401052	-0.167842385447	
! Port Impedance	50.00000000000000	0.00000000000000	
735.0	0.00912355855552	-0.165019491953	
! Port Impedance	50.00000000000000	0.00000000000000	
736.25	0.0116658302809	-0.164303032318	
! Port Impedance	50.00000000000000	0.00000000000000	
737.5	0.0121379982924	-0.165303929513	
! Port Impedance	50.00000000000000	0.00000000000000	
738.75	0.0107687825285	-0.164895913751	
! Port Impedance	50.00000000000000	0.00000000000000	
740.0	0.0104143908908	-0.164812261324	
! Port Impedance	50.00000000000000	0.00000000000000	
741.25	0.0119532404675	-0.163682561202	
! Port Impedance	50.00000000000000	0.00000000000000	
742.5	0.0123555037968	-0.162138089113	
! Port Impedance	50.00000000000000	0.00000000000000	
743.75	0.0108051535644	-0.165107342112	
! Port Impedance	50.00000000000000	0.00000000000000	
745.0	0.00846506652072	-0.163064022958	
! Port Impedance	50.00000000000000	0.00000000000000	
746.25	0.0113759165797	-0.159468009403	
! Port Impedance	50.00000000000000	0.00000000000000	
747.5	0.0108158108896	-0.162470617921	
! Port Impedance	50.00000000000000	0.00000000000000	
748.75	0.00813772331884	-0.16375405658	
! Port Impedance	50.00000000000000	0.00000000000000	
750.0	0.00555162758613	-0.161600601825	
! Port Impedance	50.00000000000000	0.00000000000000	
