!Created with mwavepy.
# GHz S RI R 50.0 
!freq	ReS11	ImS11	
500.0	0.128435141379	1.01275095706	
! Port Impedance	50.00000000000000	0.00000000000000	
501.25	0.158285397667	0.995839519622	
! Port Impedance	50.00000000000000	0.00000000000000	
502.5	0.15037543726	0.983628523191	
! Port Impedance	50.00000000000000	0.00000000000000	
503.75	0.188361274494	0.979519900532	
! Port Impedance	50.00000000000000	0.00000000000000	
505.0	0.186000635419	0.983771966114	
! Port Impedance	50.00000000000000	0.00000000000000	
506.25	0.186661286526	0.98124550961	
! Port Impedance	50.00000000000000	0.00000000000000	
507.5	0.210840176496	0.977574246062	
! Port Impedance	50.00000000000000	0.00000000000000	
508.75	0.228968332786	0.97651172834	
! Port Impedance	50.00000000000000	0.00000000000000	
510.0	0.231687337202	0.973199237765	
! Port Impedance	50.00000000000000	0.00000000000000	
511.25	0.239188108726	0.986859984535	
! Port Impedance	50.00000000000000	0.00000000000000	
512.5	0.255604754264	0.960641635001	
! Port Impedance	50.00000000000000	0.00000000000000	
513.75	0.247975875076	0.941455520312	
! Port Impedance	50.00000000000000	0.00000000000000	
515.0	0.279825042669	0.95753040275	
! Port Impedance	50.00000000000000	0.00000000000000	
516.25	0.28670530584	0.961272868093	
! Port Impedance	50.00000000000000	0.00000000000000	
517.5	0.297156682581	0.955191064217	
! Port Impedance	50.00000000000000	0.00000000000000	
518.75	0.304861742248	0.951199535337	
! Port Impedance	50.00000000000000	0.00000000000000	
520.0	0.320091363268	0.944703033708	
! Port Impedance	50.00000000000000	0.00000000000000	
521.25	0.324906849044	0.945250957236	
! Port Impedance	50.00000000000000	0.00000000000000	
522.5	0.339003310571	0.938169407066	
! Port Impedance	50.00000000000000	0.00000000000000	
523.75	0.344789991819	0.933318745971	
! Port Impedance	50.00000000000000	0.00000000000000	
525.0	0.356521058121	0.933784560181	
! Port Impedance	50.00000000000000	0.00000000000000	
526.25	0.363944872495	0.930950613312	
! Port Impedance	50.00000000000000	0.00000000000000	
527.5	0.373270297134	0.928149844435	
! Port Impedance	50.00000000000000	0.00000000000000	
528.75	0.382904787379	0.923389012177	
! Port Impedance	50.00000000000000	0.00000000000000	
530.0	0.392895936957	0.919196657387	
! Port Impedance	50.00000000000000	0.00000000000000	
531.25	0.401595096424	0.917517991886	
! Port Impedance	50.00000000000000	0.00000000000000	
532.5	0.408574912482	0.910524314551	
! Port Impedance	50.00000000000000	0.00000000000000	
533.75	0.423078518763	0.907109329979	
! Port Impedance	50.00000000000000	0.00000000000000	
535.0	0.431083655579	0.902374997055	
! Port Impedance	50.00000000000000	0.00000000000000	
536.25	0.44093816389	0.898192977196	
! Port Impedance	50.00000000000000	0.00000000000000	
537.5	0.448541385886	0.894248984516	
! Port Impedance	50.00000000000000	0.00000000000000	
538.75	0.458180818385	0.889695741726	
! Port Impedance	50.00000000000000	0.00000000000000	
540.0	0.467122593095	0.884552021144	
! Port Impedance	50.00000000000000	0.00000000000000	
541.25	0.47703055671	0.87978395341	
! Port Impedance	50.00000000000000	0.00000000000000	
542.5	0.485960027832	0.874510033741	
! Port Impedance	50.00000000000000	0.00000000000000	
543.75	0.492854461249	0.869690026099	
! Port Impedance	50.00000000000000	0.00000000000000	
545.0	0.501688044106	0.865234663225	
! Port Impedance	50.00000000000000	0.00000000000000	
546.25	0.509169747822	0.859942511672	
! Port Impedance	50.00000000000000	0.00000000000000	
547.5	0.518865620773	0.854759080637	
! Port Impedance	50.00000000000000	0.00000000000000	
548.75	0.527226224644	0.849961879362	
! Port Impedance	50.00000000000000	0.00000000000000	
550.0	0.535005691337	0.844909679185	
! Port Impedance	50.00000000000000	0.00000000000000	
551.25	0.544581640334	0.839125286004	
! Port Impedance	50.00000000000000	0.00000000000000	
552.5	0.554901472791	0.834065101216	
! Port Impedance	50.00000000000000	0.00000000000000	
553.75	0.560197157394	0.830639374159	
! Port Impedance	50.00000000000000	0.00000000000000	
555.0	0.565759113018	0.827590195847	
! Port Impedance	50.00000000000000	0.00000000000000	
556.25	0.577448352577	0.82033181334	
! Port Impedance	50.00000000000000	0.00000000000000	
557.5	0.586907991504	0.815389502681	
! Port Impedance	50.00000000000000	0.00000000000000	
558.75	0.594882284217	0.807271518343	
! Port Impedance	50.00000000000000	0.00000000000000	
560.0	0.603513407105	0.798517619555	
! Port Impedance	50.00000000000000	0.00000000000000	
561.25	0.609722761602	0.79379831174	
! Port Impedance	50.00000000000000	0.00000000000000	
562.5	0.619055187505	0.787172612774	
! Port Impedance	50.00000000000000	0.00000000000000	
563.75	0.626342620481	0.781106063979	
! Port Impedance	50.00000000000000	0.00000000000000	
565.0	0.629483056647	0.778382352581	
! Port Impedance	50.00000000000000	0.00000000000000	
566.25	0.641117227357	0.767889478445	
! Port Impedance	50.00000000000000	0.00000000000000	
567.5	0.647757142596	0.76315658405	
! Port Impedance	50.00000000000000	0.00000000000000	
568.75	0.656158829549	0.755725490691	
! Port Impedance	50.00000000000000	0.00000000000000	
570.0	0.663742165242	0.748543531377	
! Port Impedance	50.00000000000000	0.00000000000000	
571.25	0.66703308302	0.744437822381	
! Port Impedance	50.00000000000000	0.00000000000000	
572.5	0.677558500422	0.735529337453	
! Port Impedance	50.00000000000000	0.00000000000000	
573.75	0.685775929002	0.727737329492	
! Port Impedance	50.00000000000000	0.00000000000000	
575.0	0.6932044159	0.720938387919	
! Port Impedance	50.00000000000000	0.00000000000000	
576.25	0.698955978075	0.714279293224	
! Port Impedance	50.00000000000000	0.00000000000000	
577.5	0.705462974732	0.709404743769	
! Port Impedance	50.00000000000000	0.00000000000000	
578.75	0.713522314775	0.701527103024	
! Port Impedance	50.00000000000000	0.00000000000000	
580.0	0.718995766707	0.694843441631	
! Port Impedance	50.00000000000000	0.00000000000000	
581.25	0.725908420839	0.687729583977	
! Port Impedance	50.00000000000000	0.00000000000000	
582.5	0.733061617379	0.680849958221	
! Port Impedance	50.00000000000000	0.00000000000000	
583.75	0.739470602881	0.673424552181	
! Port Impedance	50.00000000000000	0.00000000000000	
585.0	0.745748739494	0.666368246284	
! Port Impedance	50.00000000000000	0.00000000000000	
586.25	0.751993833775	0.659408269371	
! Port Impedance	50.00000000000000	0.00000000000000	
587.5	0.757958954755	0.652402948937	
! Port Impedance	50.00000000000000	0.00000000000000	
588.75	0.764239005089	0.644597042486	
! Port Impedance	50.00000000000000	0.00000000000000	
590.0	0.770284472219	0.639317461542	
! Port Impedance	50.00000000000000	0.00000000000000	
591.25	0.776325559838	0.632180011825	
! Port Impedance	50.00000000000000	0.00000000000000	
592.5	0.781382661036	0.624545200669	
! Port Impedance	50.00000000000000	0.00000000000000	
593.75	0.787099861174	0.617176507449	
! Port Impedance	50.00000000000000	0.00000000000000	
595.0	0.792425637483	0.610417812103	
! Port Impedance	50.00000000000000	0.00000000000000	
596.25	0.798793511824	0.602891855043	
! Port Impedance	50.00000000000000	0.00000000000000	
597.5	0.804480286371	0.594564501962	
! Port Impedance	50.00000000000000	0.00000000000000	
598.75	0.809918336899	0.587426527603	
! Port Impedance	50.00000000000000	0.00000000000000	
600.0	0.814287899019	0.580162242548	
! Port Impedance	50.00000000000000	0.00000000000000	
601.25	0.819290178341	0.574563400269	
! Port Impedance	50.00000000000000	0.00000000000000	
602.5	0.825201877887	0.564883489508	
! Port Impedance	50.00000000000000	0.00000000000000	
603.75	0.831137500534	0.557295792412	
! Port Impedance	50.00000000000000	0.00000000000000	
605.0	0.835172478713	0.549634269792	
! Port Impedance	50.00000000000000	0.00000000000000	
606.25	0.840824672222	0.542123818327	
! Port Impedance	50.00000000000000	0.00000000000000	
607.5	0.845665831856	0.533560429695	
! Port Impedance	50.00000000000000	0.00000000000000	
608.75	0.850296740174	0.526846985747	
! Port Impedance	50.00000000000000	0.00000000000000	
610.0	0.85505115544	0.519171295251	
! Port Impedance	50.00000000000000	0.00000000000000	
611.25	0.858671497744	0.51034872517	
! Port Impedance	50.00000000000000	0.00000000000000	
612.5	0.866721205936	0.500954307292	
! Port Impedance	50.00000000000000	0.00000000000000	
613.75	0.868338052815	0.495611978873	
! Port Impedance	50.00000000000000	0.00000000000000	
615.0	0.872878445193	0.489107540256	
! Port Impedance	50.00000000000000	0.00000000000000	
616.25	0.8772348348	0.480016630499	
! Port Impedance	50.00000000000000	0.00000000000000	
617.5	0.881976116076	0.471715277102	
! Port Impedance	50.00000000000000	0.00000000000000	
618.75	0.885912027813	0.464440146118	
! Port Impedance	50.00000000000000	0.00000000000000	
620.0	0.890698772292	0.455407249197	
! Port Impedance	50.00000000000000	0.00000000000000	
621.25	0.894767857224	0.447383649116	
! Port Impedance	50.00000000000000	0.00000000000000	
622.5	0.89854729855	0.438776700121	
! Port Impedance	50.00000000000000	0.00000000000000	
623.75	0.903290171931	0.431647524138	
! Port Impedance	50.00000000000000	0.00000000000000	
625.0	0.905907254828	0.422916466461	
! Port Impedance	50.00000000000000	0.00000000000000	
626.25	0.910075095774	0.415218838925	
! Port Impedance	50.00000000000000	0.00000000000000	
627.5	0.913241447532	0.408259727767	
! Port Impedance	50.00000000000000	0.00000000000000	
628.75	0.917752477366	0.39816765515	
! Port Impedance	50.00000000000000	0.00000000000000	
630.0	0.919797910908	0.392525400076	
! Port Impedance	50.00000000000000	0.00000000000000	
631.25	0.924225316635	0.38347154796	
! Port Impedance	50.00000000000000	0.00000000000000	
632.5	0.928052980283	0.372828469815	
! Port Impedance	50.00000000000000	0.00000000000000	
633.75	0.93141962076	0.365501072866	
! Port Impedance	50.00000000000000	0.00000000000000	
635.0	0.934077376208	0.357314082775	
! Port Impedance	50.00000000000000	0.00000000000000	
636.25	0.937667112356	0.348906330931	
! Port Impedance	50.00000000000000	0.00000000000000	
637.5	0.939428087924	0.341270562746	
! Port Impedance	50.00000000000000	0.00000000000000	
638.75	0.943208651371	0.333250342682	
! Port Impedance	50.00000000000000	0.00000000000000	
640.0	0.946605425565	0.324186993482	
! Port Impedance	50.00000000000000	0.00000000000000	
641.25	0.949206064629	0.316573660332	
! Port Impedance	50.00000000000000	0.00000000000000	
642.5	0.951034144056	0.307407817664	
! Port Impedance	50.00000000000000	0.00000000000000	
643.75	0.95432337365	0.299222515191	
! Port Impedance	50.00000000000000	0.00000000000000	
645.0	0.957000850215	0.291416923611	
! Port Impedance	50.00000000000000	0.00000000000000	
646.25	0.959995769491	0.282625707156	
! Port Impedance	50.00000000000000	0.00000000000000	
647.5	0.96227845823	0.273964362819	
! Port Impedance	50.00000000000000	0.00000000000000	
648.75	0.963860488757	0.266468428792	
! Port Impedance	50.00000000000000	0.00000000000000	
650.0	0.96679280597	0.257072998145	
! Port Impedance	50.00000000000000	0.00000000000000	
651.25	0.968406858281	0.249474143918	
! Port Impedance	50.00000000000000	0.00000000000000	
652.5	0.972039462989	0.241138300175	
! Port Impedance	50.00000000000000	0.00000000000000	
653.75	0.973497234962	0.231475962129	
! Port Impedance	50.00000000000000	0.00000000000000	
655.0	0.975046271972	0.220099406512	
! Port Impedance	50.00000000000000	0.00000000000000	
656.25	0.976150931256	0.212830671222	
! Port Impedance	50.00000000000000	0.00000000000000	
657.5	0.978403761564	0.206660346427	
! Port Impedance	50.00000000000000	0.00000000000000	
658.75	0.980597266531	0.197924181449	
! Port Impedance	50.00000000000000	0.00000000000000	
660.0	0.982137185795	0.189863642319	
! Port Impedance	50.00000000000000	0.00000000000000	
661.25	0.983072360659	0.180643477601	
! Port Impedance	50.00000000000000	0.00000000000000	
662.5	0.985274134895	0.173364164728	
! Port Impedance	50.00000000000000	0.00000000000000	
663.75	0.987474670553	0.164900849831	
! Port Impedance	50.00000000000000	0.00000000000000	
665.0	0.988599897594	0.154829197248	
! Port Impedance	50.00000000000000	0.00000000000000	
666.25	0.989496619032	0.146849464216	
! Port Impedance	50.00000000000000	0.00000000000000	
667.5	0.990521025467	0.138563607831	
! Port Impedance	50.00000000000000	0.00000000000000	
668.75	0.991790257885	0.129612726609	
! Port Impedance	50.00000000000000	0.00000000000000	
670.0	0.992167985567	0.12099644248	
! Port Impedance	50.00000000000000	0.00000000000000	
671.25	0.994604509539	0.11219634002	
! Port Impedance	50.00000000000000	0.00000000000000	
672.5	0.994794175008	0.103406755555	
! Port Impedance	50.00000000000000	0.00000000000000	
673.75	0.996464192005	0.0961354097048	
! Port Impedance	50.00000000000000	0.00000000000000	
675.0	0.997088935933	0.0866332421151	
! Port Impedance	50.00000000000000	0.00000000000000	
676.25	0.997480089068	0.0785644357659	
! Port Impedance	50.00000000000000	0.00000000000000	
677.5	0.997756449738	0.067917891105	
! Port Impedance	50.00000000000000	0.00000000000000	
678.75	0.998400502779	0.0593981675523	
! Port Impedance	50.00000000000000	0.00000000000000	
680.0	0.998850121939	0.0524840130799	
! Port Impedance	50.00000000000000	0.00000000000000	
681.25	1.00018924417	0.0434344954497	
! Port Impedance	50.00000000000000	0.00000000000000	
682.5	0.99992613001	0.0354802129943	
! Port Impedance	50.00000000000000	0.00000000000000	
683.75	0.999958502022	0.0266285624711	
! Port Impedance	50.00000000000000	0.00000000000000	
685.0	0.999523770758	0.0193124495756	
! Port Impedance	50.00000000000000	0.00000000000000	
686.25	1.00047354218	0.0111406946304	
! Port Impedance	50.00000000000000	0.00000000000000	
687.5	1.00029312113	0.00161190074807	
! Port Impedance	50.00000000000000	0.00000000000000	
688.75	1.00020288883	-0.00752136616152	
! Port Impedance	50.00000000000000	0.00000000000000	
690.0	0.999506199295	-0.0153662842337	
! Port Impedance	50.00000000000000	0.00000000000000	
691.25	1.00007673029	-0.0242859551643	
! Port Impedance	50.00000000000000	0.00000000000000	
692.5	0.999902086448	-0.0341994781129	
! Port Impedance	50.00000000000000	0.00000000000000	
693.75	0.999346504304	-0.0461651216425	
! Port Impedance	50.00000000000000	0.00000000000000	
695.0	0.998301261386	-0.0534228041064	
! Port Impedance	50.00000000000000	0.00000000000000	
696.25	0.998075826325	-0.0612195146892	
! Port Impedance	50.00000000000000	0.00000000000000	
697.5	0.997759809734	-0.0685854619648	
! Port Impedance	50.00000000000000	0.00000000000000	
698.75	0.997612267091	-0.0754759082132	
! Port Impedance	50.00000000000000	0.00000000000000	
700.0	0.997313238012	-0.0839569283037	
! Port Impedance	50.00000000000000	0.00000000000000	
701.25	0.996010794808	-0.0915634739099	
! Port Impedance	50.00000000000000	0.00000000000000	
702.5	0.995538025839	-0.100735061908	
! Port Impedance	50.00000000000000	0.00000000000000	
703.75	0.994362148429	-0.109953845685	
! Port Impedance	50.00000000000000	0.00000000000000	
705.0	0.993309437661	-0.118275585314	
! Port Impedance	50.00000000000000	0.00000000000000	
706.25	0.992078141547	-0.124758270068	
! Port Impedance	50.00000000000000	0.00000000000000	
707.5	0.991530823548	-0.133095192833	
! Port Impedance	50.00000000000000	0.00000000000000	
708.75	0.990008774814	-0.142913300798	
! Port Impedance	50.00000000000000	0.00000000000000	
710.0	0.988983405752	-0.15095431145	
! Port Impedance	50.00000000000000	0.00000000000000	
711.25	0.987900906525	-0.157875541114	
! Port Impedance	50.00000000000000	0.00000000000000	
712.5	0.986305842465	-0.166116523381	
! Port Impedance	50.00000000000000	0.00000000000000	
713.75	0.985674118715	-0.174904627266	
! Port Impedance	50.00000000000000	0.00000000000000	
715.0	0.983112756069	-0.18542160467	
! Port Impedance	50.00000000000000	0.00000000000000	
716.25	0.982373607903	-0.193775820555	
! Port Impedance	50.00000000000000	0.00000000000000	
717.5	0.980276765626	-0.200026435858	
! Port Impedance	50.00000000000000	0.00000000000000	
718.75	0.978191758948	-0.208387489949	
! Port Impedance	50.00000000000000	0.00000000000000	
720.0	0.976669710981	-0.216443987569	
! Port Impedance	50.00000000000000	0.00000000000000	
721.25	0.974265826558	-0.224833101258	
! Port Impedance	50.00000000000000	0.00000000000000	
722.5	0.973212934213	-0.233503582196	
! Port Impedance	50.00000000000000	0.00000000000000	
723.75	0.970288556257	-0.241043717691	
! Port Impedance	50.00000000000000	0.00000000000000	
725.0	0.969356303866	-0.24844282462	
! Port Impedance	50.00000000000000	0.00000000000000	
726.25	0.967032592529	-0.258233831703	
! Port Impedance	50.00000000000000	0.00000000000000	
727.5	0.965435094073	-0.265223827258	
! Port Impedance	50.00000000000000	0.00000000000000	
728.75	0.961823041786	-0.274010222539	
! Port Impedance	50.00000000000000	0.00000000000000	
730.0	0.959668950072	-0.281513392987	
! Port Impedance	50.00000000000000	0.00000000000000	
731.25	0.95763586417	-0.289775366343	
! Port Impedance	50.00000000000000	0.00000000000000	
732.5	0.956035329084	-0.29646543825	
! Port Impedance	50.00000000000000	0.00000000000000	
733.75	0.952791928903	-0.304504672175	
! Port Impedance	50.00000000000000	0.00000000000000	
735.0	0.951009076771	-0.31122784227	
! Port Impedance	50.00000000000000	0.00000000000000	
736.25	0.948155866184	-0.319438240317	
! Port Impedance	50.00000000000000	0.00000000000000	
737.5	0.945400855144	-0.326406295124	
! Port Impedance	50.00000000000000	0.00000000000000	
738.75	0.942140017331	-0.336876766826	
! Port Impedance	50.00000000000000	0.00000000000000	
740.0	0.940538242693	-0.343615100609	
! Port Impedance	50.00000000000000	0.00000000000000	
741.25	0.938363734938	-0.350400524109	
! Port Impedance	50.00000000000000	0.00000000000000	
742.5	0.935725442629	-0.357020915504	
! Port Impedance	50.00000000000000	0.00000000000000	
743.75	0.930957508697	-0.364592097994	
! Port Impedance	50.00000000000000	0.00000000000000	
745.0	0.92908631215	-0.371972173278	
! Port Impedance	50.00000000000000	0.00000000000000	
746.25	0.925355930391	-0.381159092952	
! Port Impedance	50.00000000000000	0.00000000000000	
747.5	0.922630309437	-0.387735291449	
! Port Impedance	50.00000000000000	0.00000000000000	
748.75	0.918311861565	-0.396912405785	
! Port Impedance	50.00000000000000	0.00000000000000	
750.0	0.916529086053	-0.404177782449	
! Port Impedance	50.00000000000000	0.00000000000000	
