!Created with mwavepy.
# GHz S RI R 50.0 
!freq	ReS11	ImS11	
500.0	0.149117401708	0.995879767017	
! Port Impedance	50.00000000000000	0.00000000000000	
501.25	0.161734202092	0.962280939536	
! Port Impedance	50.00000000000000	0.00000000000000	
502.5	0.191594153455	1.00313046394	
! Port Impedance	50.00000000000000	0.00000000000000	
503.75	0.185572584841	0.989201584345	
! Port Impedance	50.00000000000000	0.00000000000000	
505.0	0.194095696265	0.977115194864	
! Port Impedance	50.00000000000000	0.00000000000000	
506.25	0.202118365052	0.977423996284	
! Port Impedance	50.00000000000000	0.00000000000000	
507.5	0.235717130318	0.96380755132	
! Port Impedance	50.00000000000000	0.00000000000000	
508.75	0.231712923327	0.979592581775	
! Port Impedance	50.00000000000000	0.00000000000000	
510.0	0.238290927333	0.969053098956	
! Port Impedance	50.00000000000000	0.00000000000000	
511.25	0.257863166095	0.970694172074	
! Port Impedance	50.00000000000000	0.00000000000000	
512.5	0.258039418985	0.964688404534	
! Port Impedance	50.00000000000000	0.00000000000000	
513.75	0.29378185599	0.993523965522	
! Port Impedance	50.00000000000000	0.00000000000000	
515.0	0.278092235255	0.959425991605	
! Port Impedance	50.00000000000000	0.00000000000000	
516.25	0.293159760094	0.95677886647	
! Port Impedance	50.00000000000000	0.00000000000000	
517.5	0.302723547801	0.955298686129	
! Port Impedance	50.00000000000000	0.00000000000000	
518.75	0.309569644918	0.950407560019	
! Port Impedance	50.00000000000000	0.00000000000000	
520.0	0.313656781548	0.9493105456	
! Port Impedance	50.00000000000000	0.00000000000000	
521.25	0.333605068477	0.928925825307	
! Port Impedance	50.00000000000000	0.00000000000000	
522.5	0.344445628897	0.942481555115	
! Port Impedance	50.00000000000000	0.00000000000000	
523.75	0.355171301662	0.940441225202	
! Port Impedance	50.00000000000000	0.00000000000000	
525.0	0.360120131739	0.93448098932	
! Port Impedance	50.00000000000000	0.00000000000000	
526.25	0.369168541382	0.929464095444	
! Port Impedance	50.00000000000000	0.00000000000000	
527.5	0.378182675668	0.924656427944	
! Port Impedance	50.00000000000000	0.00000000000000	
528.75	0.388763576547	0.920602639306	
! Port Impedance	50.00000000000000	0.00000000000000	
530.0	0.398952218932	0.917909168557	
! Port Impedance	50.00000000000000	0.00000000000000	
531.25	0.404302826834	0.912704521938	
! Port Impedance	50.00000000000000	0.00000000000000	
532.5	0.416072939018	0.910657296645	
! Port Impedance	50.00000000000000	0.00000000000000	
533.75	0.425663242349	0.904841799846	
! Port Impedance	50.00000000000000	0.00000000000000	
535.0	0.435837421267	0.900726149235	
! Port Impedance	50.00000000000000	0.00000000000000	
536.25	0.446586256194	0.895364022502	
! Port Impedance	50.00000000000000	0.00000000000000	
537.5	0.454246634282	0.891319304798	
! Port Impedance	50.00000000000000	0.00000000000000	
538.75	0.463605728417	0.88603151213	
! Port Impedance	50.00000000000000	0.00000000000000	
540.0	0.472416053597	0.881678703796	
! Port Impedance	50.00000000000000	0.00000000000000	
541.25	0.482655419104	0.876067615263	
! Port Impedance	50.00000000000000	0.00000000000000	
542.5	0.491235320701	0.871449431654	
! Port Impedance	50.00000000000000	0.00000000000000	
543.75	0.498270166948	0.865505706778	
! Port Impedance	50.00000000000000	0.00000000000000	
545.0	0.507119944966	0.8603616073	
! Port Impedance	50.00000000000000	0.00000000000000	
546.25	0.515744358502	0.856133997806	
! Port Impedance	50.00000000000000	0.00000000000000	
547.5	0.525138716417	0.849455388341	
! Port Impedance	50.00000000000000	0.00000000000000	
548.75	0.534326047539	0.843329131449	
! Port Impedance	50.00000000000000	0.00000000000000	
550.0	0.539745000225	0.839883905194	
! Port Impedance	50.00000000000000	0.00000000000000	
551.25	0.549293754676	0.833990961492	
! Port Impedance	50.00000000000000	0.00000000000000	
552.5	0.559001484892	0.826575658826	
! Port Impedance	50.00000000000000	0.00000000000000	
553.75	0.564572087236	0.823039267331	
! Port Impedance	50.00000000000000	0.00000000000000	
555.0	0.57059659899	0.81726956138	
! Port Impedance	50.00000000000000	0.00000000000000	
556.25	0.578741591774	0.809662561982	
! Port Impedance	50.00000000000000	0.00000000000000	
557.5	0.585087902805	0.805545713075	
! Port Impedance	50.00000000000000	0.00000000000000	
558.75	0.592278507598	0.800349000449	
! Port Impedance	50.00000000000000	0.00000000000000	
560.0	0.600910824906	0.794348174682	
! Port Impedance	50.00000000000000	0.00000000000000	
561.25	0.60831175976	0.789679679182	
! Port Impedance	50.00000000000000	0.00000000000000	
562.5	0.61685850485	0.784712720031	
! Port Impedance	50.00000000000000	0.00000000000000	
563.75	0.624131825192	0.780352459486	
! Port Impedance	50.00000000000000	0.00000000000000	
565.0	0.629088414026	0.775919366539	
! Port Impedance	50.00000000000000	0.00000000000000	
566.25	0.641352730085	0.766589472582	
! Port Impedance	50.00000000000000	0.00000000000000	
567.5	0.647987418873	0.760663937759	
! Port Impedance	50.00000000000000	0.00000000000000	
568.75	0.657482330061	0.752789970268	
! Port Impedance	50.00000000000000	0.00000000000000	
570.0	0.66492361007	0.745640439813	
! Port Impedance	50.00000000000000	0.00000000000000	
571.25	0.668926188878	0.74160894308	
! Port Impedance	50.00000000000000	0.00000000000000	
572.5	0.679019399736	0.73340371356	
! Port Impedance	50.00000000000000	0.00000000000000	
573.75	0.687390693778	0.726111421111	
! Port Impedance	50.00000000000000	0.00000000000000	
575.0	0.693075886879	0.719593208792	
! Port Impedance	50.00000000000000	0.00000000000000	
576.25	0.702447389532	0.712402667179	
! Port Impedance	50.00000000000000	0.00000000000000	
577.5	0.709206139503	0.704903433465	
! Port Impedance	50.00000000000000	0.00000000000000	
578.75	0.715020100559	0.699473783401	
! Port Impedance	50.00000000000000	0.00000000000000	
580.0	0.720873165373	0.69308781903	
! Port Impedance	50.00000000000000	0.00000000000000	
581.25	0.727210167756	0.685873336333	
! Port Impedance	50.00000000000000	0.00000000000000	
582.5	0.734870170851	0.678905087843	
! Port Impedance	50.00000000000000	0.00000000000000	
583.75	0.740707812341	0.672500853183	
! Port Impedance	50.00000000000000	0.00000000000000	
585.0	0.747162764595	0.66432984156	
! Port Impedance	50.00000000000000	0.00000000000000	
586.25	0.753908787901	0.656749848207	
! Port Impedance	50.00000000000000	0.00000000000000	
587.5	0.760015976777	0.650524980581	
! Port Impedance	50.00000000000000	0.00000000000000	
588.75	0.766230562381	0.642376133402	
! Port Impedance	50.00000000000000	0.00000000000000	
590.0	0.772201436707	0.63595118054	
! Port Impedance	50.00000000000000	0.00000000000000	
591.25	0.776754092406	0.628412764651	
! Port Impedance	50.00000000000000	0.00000000000000	
592.5	0.783591540754	0.622407643612	
! Port Impedance	50.00000000000000	0.00000000000000	
593.75	0.789417721696	0.61416852372	
! Port Impedance	50.00000000000000	0.00000000000000	
595.0	0.795004497091	0.606590981752	
! Port Impedance	50.00000000000000	0.00000000000000	
596.25	0.801249061291	0.599078092231	
! Port Impedance	50.00000000000000	0.00000000000000	
597.5	0.805675162936	0.592531403811	
! Port Impedance	50.00000000000000	0.00000000000000	
598.75	0.810474428522	0.585273209439	
! Port Impedance	50.00000000000000	0.00000000000000	
600.0	0.816711573051	0.578038746817	
! Port Impedance	50.00000000000000	0.00000000000000	
601.25	0.821832402097	0.571184338606	
! Port Impedance	50.00000000000000	0.00000000000000	
602.5	0.82758869645	0.562247711462	
! Port Impedance	50.00000000000000	0.00000000000000	
603.75	0.832455819709	0.554639345966	
! Port Impedance	50.00000000000000	0.00000000000000	
605.0	0.837737629691	0.545567006041	
! Port Impedance	50.00000000000000	0.00000000000000	
606.25	0.842992873315	0.538720751784	
! Port Impedance	50.00000000000000	0.00000000000000	
607.5	0.847210748085	0.530708896271	
! Port Impedance	50.00000000000000	0.00000000000000	
608.75	0.851773779528	0.52406139313	
! Port Impedance	50.00000000000000	0.00000000000000	
610.0	0.856816247551	0.516168831127	
! Port Impedance	50.00000000000000	0.00000000000000	
611.25	0.862985274481	0.506483247539	
! Port Impedance	50.00000000000000	0.00000000000000	
612.5	0.867014949784	0.49850799239	
! Port Impedance	50.00000000000000	0.00000000000000	
613.75	0.870316643878	0.492528141954	
! Port Impedance	50.00000000000000	0.00000000000000	
615.0	0.875645400905	0.484047302654	
! Port Impedance	50.00000000000000	0.00000000000000	
616.25	0.879615053198	0.474138435102	
! Port Impedance	50.00000000000000	0.00000000000000	
617.5	0.88403347099	0.467234536733	
! Port Impedance	50.00000000000000	0.00000000000000	
618.75	0.887521844747	0.458896214796	
! Port Impedance	50.00000000000000	0.00000000000000	
620.0	0.891898168103	0.451188766997	
! Port Impedance	50.00000000000000	0.00000000000000	
621.25	0.896463919569	0.443768316277	
! Port Impedance	50.00000000000000	0.00000000000000	
622.5	0.899929109323	0.436424446788	
! Port Impedance	50.00000000000000	0.00000000000000	
623.75	0.903781509869	0.427141810366	
! Port Impedance	50.00000000000000	0.00000000000000	
625.0	0.908451046474	0.419599826131	
! Port Impedance	50.00000000000000	0.00000000000000	
626.25	0.911141698597	0.410615035611	
! Port Impedance	50.00000000000000	0.00000000000000	
627.5	0.915258268085	0.403802081013	
! Port Impedance	50.00000000000000	0.00000000000000	
628.75	0.918550778219	0.394594644765	
! Port Impedance	50.00000000000000	0.00000000000000	
630.0	0.921026527463	0.389342067918	
! Port Impedance	50.00000000000000	0.00000000000000	
631.25	0.925016265808	0.379096436567	
! Port Impedance	50.00000000000000	0.00000000000000	
632.5	0.929238730674	0.369812963303	
! Port Impedance	50.00000000000000	0.00000000000000	
633.75	0.932260866418	0.361430384157	
! Port Impedance	50.00000000000000	0.00000000000000	
635.0	0.935632648416	0.353384149482	
! Port Impedance	50.00000000000000	0.00000000000000	
636.25	0.938595608659	0.344375928308	
! Port Impedance	50.00000000000000	0.00000000000000	
637.5	0.943063461425	0.336562209303	
! Port Impedance	50.00000000000000	0.00000000000000	
638.75	0.944350723559	0.328693994813	
! Port Impedance	50.00000000000000	0.00000000000000	
640.0	0.947251561767	0.320096901778	
! Port Impedance	50.00000000000000	0.00000000000000	
641.25	0.95019617842	0.312427412445	
! Port Impedance	50.00000000000000	0.00000000000000	
642.5	0.953460157982	0.303637009469	
! Port Impedance	50.00000000000000	0.00000000000000	
643.75	0.955457675145	0.295442266713	
! Port Impedance	50.00000000000000	0.00000000000000	
645.0	0.957772512042	0.286514096463	
! Port Impedance	50.00000000000000	0.00000000000000	
646.25	0.960501625894	0.278187453741	
! Port Impedance	50.00000000000000	0.00000000000000	
647.5	0.963169571258	0.269836860149	
! Port Impedance	50.00000000000000	0.00000000000000	
648.75	0.965849605505	0.261456198096	
! Port Impedance	50.00000000000000	0.00000000000000	
650.0	0.967467729912	0.252999111215	
! Port Impedance	50.00000000000000	0.00000000000000	
651.25	0.970156017223	0.24395281744	
! Port Impedance	50.00000000000000	0.00000000000000	
652.5	0.971452977403	0.235820011153	
! Port Impedance	50.00000000000000	0.00000000000000	
653.75	0.973647299261	0.226253074535	
! Port Impedance	50.00000000000000	0.00000000000000	
655.0	0.977338604159	0.215699104185	
! Port Impedance	50.00000000000000	0.00000000000000	
656.25	0.979563209164	0.207569551308	
! Port Impedance	50.00000000000000	0.00000000000000	
657.5	0.980165808358	0.201182738759	
! Port Impedance	50.00000000000000	0.00000000000000	
658.75	0.981183463249	0.192379167938	
! Port Impedance	50.00000000000000	0.00000000000000	
660.0	0.982374565	0.183870524257	
! Port Impedance	50.00000000000000	0.00000000000000	
661.25	0.985068138911	0.175943107945	
! Port Impedance	50.00000000000000	0.00000000000000	
662.5	0.985979906128	0.166135932291	
! Port Impedance	50.00000000000000	0.00000000000000	
663.75	0.987728214512	0.159076316124	
! Port Impedance	50.00000000000000	0.00000000000000	
665.0	0.988590760442	0.150321862372	
! Port Impedance	50.00000000000000	0.00000000000000	
666.25	0.989855489449	0.142044644441	
! Port Impedance	50.00000000000000	0.00000000000000	
667.5	0.99117033557	0.132920513837	
! Port Impedance	50.00000000000000	0.00000000000000	
668.75	0.991879851536	0.124541857859	
! Port Impedance	50.00000000000000	0.00000000000000	
670.0	0.993738697837	0.116323609962	
! Port Impedance	50.00000000000000	0.00000000000000	
671.25	0.994368026131	0.107415595282	
! Port Impedance	50.00000000000000	0.00000000000000	
672.5	0.995052986506	0.0985673225518	
! Port Impedance	50.00000000000000	0.00000000000000	
673.75	0.994900983483	0.0895053018424	
! Port Impedance	50.00000000000000	0.00000000000000	
675.0	0.996849923101	0.0812504282303	
! Port Impedance	50.00000000000000	0.00000000000000	
676.25	0.997763496803	0.0730305067924	
! Port Impedance	50.00000000000000	0.00000000000000	
677.5	0.99728000273	0.0629814141207	
! Port Impedance	50.00000000000000	0.00000000000000	
678.75	0.998243107143	0.0554330580238	
! Port Impedance	50.00000000000000	0.00000000000000	
680.0	0.999720022319	0.0466203769441	
! Port Impedance	50.00000000000000	0.00000000000000	
681.25	0.999483461784	0.0382584858112	
! Port Impedance	50.00000000000000	0.00000000000000	
682.5	0.999866720674	0.0299862827365	
! Port Impedance	50.00000000000000	0.00000000000000	
683.75	0.999796848085	0.0211568745453	
! Port Impedance	50.00000000000000	0.00000000000000	
685.0	0.999804470709	0.0126533237578	
! Port Impedance	50.00000000000000	0.00000000000000	
686.25	0.999481967867	0.00497455308702	
! Port Impedance	50.00000000000000	0.00000000000000	
687.5	1.0005615992	-0.00355497197202	
! Port Impedance	50.00000000000000	0.00000000000000	
688.75	0.999959496913	-0.0129950086133	
! Port Impedance	50.00000000000000	0.00000000000000	
690.0	1.00009796677	-0.0207919282946	
! Port Impedance	50.00000000000000	0.00000000000000	
691.25	0.998975336449	-0.0292224263554	
! Port Impedance	50.00000000000000	0.00000000000000	
692.5	0.999373618664	-0.0410087534991	
! Port Impedance	50.00000000000000	0.00000000000000	
693.75	0.997776520754	-0.0516844123099	
! Port Impedance	50.00000000000000	0.00000000000000	
695.0	0.99809398744	-0.0580628684641	
! Port Impedance	50.00000000000000	0.00000000000000	
696.25	0.999045935677	-0.0673275845978	
! Port Impedance	50.00000000000000	0.00000000000000	
697.5	0.997834282405	-0.0732967126848	
! Port Impedance	50.00000000000000	0.00000000000000	
698.75	0.996698364431	-0.0808348037372	
! Port Impedance	50.00000000000000	0.00000000000000	
700.0	0.995379344776	-0.0883785252869	
! Port Impedance	50.00000000000000	0.00000000000000	
701.25	0.995391461773	-0.0969921617236	
! Port Impedance	50.00000000000000	0.00000000000000	
702.5	0.993920161995	-0.105464394445	
! Port Impedance	50.00000000000000	0.00000000000000	
703.75	0.99295159375	-0.115630472824	
! Port Impedance	50.00000000000000	0.00000000000000	
705.0	0.99297738305	-0.121824728334	
! Port Impedance	50.00000000000000	0.00000000000000	
706.25	0.991288158174	-0.129667340913	
! Port Impedance	50.00000000000000	0.00000000000000	
707.5	0.990399384991	-0.138546137769	
! Port Impedance	50.00000000000000	0.00000000000000	
708.75	0.989534998561	-0.148019795171	
! Port Impedance	50.00000000000000	0.00000000000000	
710.0	0.987862325245	-0.155723190837	
! Port Impedance	50.00000000000000	0.00000000000000	
711.25	0.985962685553	-0.163951804918	
! Port Impedance	50.00000000000000	0.00000000000000	
712.5	0.984922801882	-0.172787762307	
! Port Impedance	50.00000000000000	0.00000000000000	
713.75	0.983328309794	-0.181089415777	
! Port Impedance	50.00000000000000	0.00000000000000	
715.0	0.981236486746	-0.191851867877	
! Port Impedance	50.00000000000000	0.00000000000000	
716.25	0.979940595318	-0.199495268479	
! Port Impedance	50.00000000000000	0.00000000000000	
717.5	0.978856747709	-0.206823076554	
! Port Impedance	50.00000000000000	0.00000000000000	
718.75	0.976949753532	-0.213992328575	
! Port Impedance	50.00000000000000	0.00000000000000	
720.0	0.975083326655	-0.221028691972	
! Port Impedance	50.00000000000000	0.00000000000000	
721.25	0.973497418928	-0.230294656131	
! Port Impedance	50.00000000000000	0.00000000000000	
722.5	0.970913715845	-0.241254777444	
! Port Impedance	50.00000000000000	0.00000000000000	
723.75	0.968414395256	-0.248288210916	
! Port Impedance	50.00000000000000	0.00000000000000	
725.0	0.965686238006	-0.25612769378	
! Port Impedance	50.00000000000000	0.00000000000000	
726.25	0.963804002827	-0.2649011015	
! Port Impedance	50.00000000000000	0.00000000000000	
727.5	0.961724034548	-0.272495746233	
! Port Impedance	50.00000000000000	0.00000000000000	
728.75	0.959373317814	-0.279414398161	
! Port Impedance	50.00000000000000	0.00000000000000	
730.0	0.958902319782	-0.28702735486	
! Port Impedance	50.00000000000000	0.00000000000000	
731.25	0.95530554256	-0.295016465427	
! Port Impedance	50.00000000000000	0.00000000000000	
732.5	0.9529054584	-0.304175139555	
! Port Impedance	50.00000000000000	0.00000000000000	
733.75	0.950501180936	-0.310869587852	
! Port Impedance	50.00000000000000	0.00000000000000	
735.0	0.947208987772	-0.317675717136	
! Port Impedance	50.00000000000000	0.00000000000000	
736.25	0.944799548307	-0.325777490184	
! Port Impedance	50.00000000000000	0.00000000000000	
737.5	0.941740442246	-0.33345539727	
! Port Impedance	50.00000000000000	0.00000000000000	
738.75	0.938545867006	-0.342479367936	
! Port Impedance	50.00000000000000	0.00000000000000	
740.0	0.93650739802	-0.349369997196	
! Port Impedance	50.00000000000000	0.00000000000000	
741.25	0.933101564392	-0.356810273726	
! Port Impedance	50.00000000000000	0.00000000000000	
742.5	0.93011010073	-0.363913669077	
! Port Impedance	50.00000000000000	0.00000000000000	
743.75	0.927736573372	-0.372378286478	
! Port Impedance	50.00000000000000	0.00000000000000	
745.0	0.923123838668	-0.380201681364	
! Port Impedance	50.00000000000000	0.00000000000000	
746.25	0.920015003091	-0.387893773987	
! Port Impedance	50.00000000000000	0.00000000000000	
747.5	0.91457846946	-0.394905945898	
! Port Impedance	50.00000000000000	0.00000000000000	
748.75	0.913433465453	-0.401262163763	
! Port Impedance	50.00000000000000	0.00000000000000	
750.0	0.9089301057	-0.408930030431	
! Port Impedance	50.00000000000000	0.00000000000000	
