!Created with mwavepy.
# GHz S RI R 50.0 
!freq	ReS11	ImS11	
500.0	0.168424163531	0.984157263879	
! Port Impedance	50.00000000000000	0.00000000000000	
501.25	0.176261055116	0.99973590414	
! Port Impedance	50.00000000000000	0.00000000000000	
502.5	0.168185468823	0.995759047108	
! Port Impedance	50.00000000000000	0.00000000000000	
503.75	0.167540566545	0.975187849796	
! Port Impedance	50.00000000000000	0.00000000000000	
505.0	0.194697316718	0.982227869861	
! Port Impedance	50.00000000000000	0.00000000000000	
506.25	0.20530751283	0.985515075804	
! Port Impedance	50.00000000000000	0.00000000000000	
507.5	0.211093895667	0.976823579643	
! Port Impedance	50.00000000000000	0.00000000000000	
508.75	0.224680558975	0.974585135565	
! Port Impedance	50.00000000000000	0.00000000000000	
510.0	0.230078955975	0.970846734897	
! Port Impedance	50.00000000000000	0.00000000000000	
511.25	0.251321411396	0.963143595022	
! Port Impedance	50.00000000000000	0.00000000000000	
512.5	0.274563798276	0.963656068778	
! Port Impedance	50.00000000000000	0.00000000000000	
513.75	0.253218391459	0.990329368656	
! Port Impedance	50.00000000000000	0.00000000000000	
515.0	0.267703166733	0.960364658599	
! Port Impedance	50.00000000000000	0.00000000000000	
516.25	0.293410928174	0.951908173035	
! Port Impedance	50.00000000000000	0.00000000000000	
517.5	0.295036736678	0.957650385293	
! Port Impedance	50.00000000000000	0.00000000000000	
518.75	0.309537175011	0.952093573359	
! Port Impedance	50.00000000000000	0.00000000000000	
520.0	0.315996264618	0.953003084559	
! Port Impedance	50.00000000000000	0.00000000000000	
521.25	0.316709365385	0.945290414555	
! Port Impedance	50.00000000000000	0.00000000000000	
522.5	0.329594889214	0.941586625066	
! Port Impedance	50.00000000000000	0.00000000000000	
523.75	0.346429174873	0.937187488662	
! Port Impedance	50.00000000000000	0.00000000000000	
525.0	0.354084880169	0.931803800153	
! Port Impedance	50.00000000000000	0.00000000000000	
526.25	0.36576787784	0.930661971305	
! Port Impedance	50.00000000000000	0.00000000000000	
527.5	0.375744143955	0.924588151907	
! Port Impedance	50.00000000000000	0.00000000000000	
528.75	0.38527707978	0.92202990451	
! Port Impedance	50.00000000000000	0.00000000000000	
530.0	0.395308596385	0.914141320418	
! Port Impedance	50.00000000000000	0.00000000000000	
531.25	0.405179784456	0.914758089487	
! Port Impedance	50.00000000000000	0.00000000000000	
532.5	0.411262152614	0.911343417354	
! Port Impedance	50.00000000000000	0.00000000000000	
533.75	0.421746881692	0.90636277256	
! Port Impedance	50.00000000000000	0.00000000000000	
535.0	0.431757010309	0.901053301995	
! Port Impedance	50.00000000000000	0.00000000000000	
536.25	0.442571384753	0.896996964878	
! Port Impedance	50.00000000000000	0.00000000000000	
537.5	0.450900347022	0.892306308264	
! Port Impedance	50.00000000000000	0.00000000000000	
538.75	0.4607831535	0.887503412032	
! Port Impedance	50.00000000000000	0.00000000000000	
540.0	0.470241059969	0.883225523258	
! Port Impedance	50.00000000000000	0.00000000000000	
541.25	0.479510664041	0.877733826227	
! Port Impedance	50.00000000000000	0.00000000000000	
542.5	0.488175206321	0.872289759215	
! Port Impedance	50.00000000000000	0.00000000000000	
543.75	0.495969454109	0.867670332246	
! Port Impedance	50.00000000000000	0.00000000000000	
545.0	0.50440490045	0.863567990201	
! Port Impedance	50.00000000000000	0.00000000000000	
546.25	0.512199442376	0.858161844652	
! Port Impedance	50.00000000000000	0.00000000000000	
547.5	0.52163734304	0.853796797552	
! Port Impedance	50.00000000000000	0.00000000000000	
548.75	0.529982372659	0.848054883525	
! Port Impedance	50.00000000000000	0.00000000000000	
550.0	0.538153253412	0.843774581351	
! Port Impedance	50.00000000000000	0.00000000000000	
551.25	0.5466491825	0.83930097413	
! Port Impedance	50.00000000000000	0.00000000000000	
552.5	0.555778760257	0.833180584479	
! Port Impedance	50.00000000000000	0.00000000000000	
553.75	0.562631645677	0.8304994299	
! Port Impedance	50.00000000000000	0.00000000000000	
555.0	0.571896221231	0.825491385464	
! Port Impedance	50.00000000000000	0.00000000000000	
556.25	0.582217397127	0.820276228095	
! Port Impedance	50.00000000000000	0.00000000000000	
557.5	0.591663356452	0.813305628879	
! Port Impedance	50.00000000000000	0.00000000000000	
558.75	0.600633045252	0.804885242167	
! Port Impedance	50.00000000000000	0.00000000000000	
560.0	0.60892174369	0.797179460224	
! Port Impedance	50.00000000000000	0.00000000000000	
561.25	0.616154162368	0.790208049206	
! Port Impedance	50.00000000000000	0.00000000000000	
562.5	0.623066574635	0.783712823047	
! Port Impedance	50.00000000000000	0.00000000000000	
563.75	0.62936107421	0.777008309514	
! Port Impedance	50.00000000000000	0.00000000000000	
565.0	0.633370921227	0.773235002898	
! Port Impedance	50.00000000000000	0.00000000000000	
566.25	0.644822639633	0.764558065974	
! Port Impedance	50.00000000000000	0.00000000000000	
567.5	0.652148610472	0.7602252728	
! Port Impedance	50.00000000000000	0.00000000000000	
568.75	0.659480986036	0.752421635454	
! Port Impedance	50.00000000000000	0.00000000000000	
570.0	0.666555240099	0.746254773522	
! Port Impedance	50.00000000000000	0.00000000000000	
571.25	0.670207914149	0.74183294221	
! Port Impedance	50.00000000000000	0.00000000000000	
572.5	0.68054646087	0.732557075461	
! Port Impedance	50.00000000000000	0.00000000000000	
573.75	0.689969091356	0.724383150586	
! Port Impedance	50.00000000000000	0.00000000000000	
575.0	0.694652672064	0.719091662603	
! Port Impedance	50.00000000000000	0.00000000000000	
576.25	0.70087340671	0.71221875737	
! Port Impedance	50.00000000000000	0.00000000000000	
577.5	0.708017588235	0.705640198099	
! Port Impedance	50.00000000000000	0.00000000000000	
578.75	0.715553174746	0.698847313389	
! Port Impedance	50.00000000000000	0.00000000000000	
580.0	0.722192750848	0.691356287427	
! Port Impedance	50.00000000000000	0.00000000000000	
581.25	0.729240055605	0.684318694254	
! Port Impedance	50.00000000000000	0.00000000000000	
582.5	0.735630470754	0.67752888893	
! Port Impedance	50.00000000000000	0.00000000000000	
583.75	0.740733412907	0.670978338654	
! Port Impedance	50.00000000000000	0.00000000000000	
585.0	0.747783592677	0.664380088864	
! Port Impedance	50.00000000000000	0.00000000000000	
586.25	0.753650851786	0.657040186511	
! Port Impedance	50.00000000000000	0.00000000000000	
587.5	0.759688349641	0.649601994108	
! Port Impedance	50.00000000000000	0.00000000000000	
588.75	0.76656747195	0.642081903293	
! Port Impedance	50.00000000000000	0.00000000000000	
590.0	0.772446312647	0.635408970229	
! Port Impedance	50.00000000000000	0.00000000000000	
591.25	0.778203427518	0.628087479979	
! Port Impedance	50.00000000000000	0.00000000000000	
592.5	0.783831025009	0.620316672208	
! Port Impedance	50.00000000000000	0.00000000000000	
593.75	0.789452461501	0.613689512404	
! Port Impedance	50.00000000000000	0.00000000000000	
595.0	0.794763391561	0.606115352828	
! Port Impedance	50.00000000000000	0.00000000000000	
596.25	0.800205632237	0.599665982865	
! Port Impedance	50.00000000000000	0.00000000000000	
597.5	0.805503511	0.591548613235	
! Port Impedance	50.00000000000000	0.00000000000000	
598.75	0.811138709519	0.583593046783	
! Port Impedance	50.00000000000000	0.00000000000000	
600.0	0.816959166352	0.576500505245	
! Port Impedance	50.00000000000000	0.00000000000000	
601.25	0.82117124442	0.569669134321	
! Port Impedance	50.00000000000000	0.00000000000000	
602.5	0.827467058195	0.560608706803	
! Port Impedance	50.00000000000000	0.00000000000000	
603.75	0.832608484275	0.553233540643	
! Port Impedance	50.00000000000000	0.00000000000000	
605.0	0.837847481476	0.545630072187	
! Port Impedance	50.00000000000000	0.00000000000000	
606.25	0.842708798114	0.538629066362	
! Port Impedance	50.00000000000000	0.00000000000000	
607.5	0.847270040937	0.530162500994	
! Port Impedance	50.00000000000000	0.00000000000000	
608.75	0.852719802863	0.521446184208	
! Port Impedance	50.00000000000000	0.00000000000000	
610.0	0.85710383686	0.513269575328	
! Port Impedance	50.00000000000000	0.00000000000000	
611.25	0.862118744894	0.506694079065	
! Port Impedance	50.00000000000000	0.00000000000000	
612.5	0.867658812414	0.498010098175	
! Port Impedance	50.00000000000000	0.00000000000000	
613.75	0.870351319159	0.492116586614	
! Port Impedance	50.00000000000000	0.00000000000000	
615.0	0.874955913749	0.483251038606	
! Port Impedance	50.00000000000000	0.00000000000000	
616.25	0.879469888891	0.47619727884	
! Port Impedance	50.00000000000000	0.00000000000000	
617.5	0.883743514853	0.467526491782	
! Port Impedance	50.00000000000000	0.00000000000000	
618.75	0.888747395612	0.459627251382	
! Port Impedance	50.00000000000000	0.00000000000000	
620.0	0.89163808772	0.452211553169	
! Port Impedance	50.00000000000000	0.00000000000000	
621.25	0.896025863601	0.444009811615	
! Port Impedance	50.00000000000000	0.00000000000000	
622.5	0.900234887581	0.435520835351	
! Port Impedance	50.00000000000000	0.00000000000000	
623.75	0.903160275449	0.427039604274	
! Port Impedance	50.00000000000000	0.00000000000000	
625.0	0.907727124339	0.420387923528	
! Port Impedance	50.00000000000000	0.00000000000000	
626.25	0.911348625382	0.411963302588	
! Port Impedance	50.00000000000000	0.00000000000000	
627.5	0.914340705705	0.40415104436	
! Port Impedance	50.00000000000000	0.00000000000000	
628.75	0.918407806038	0.395072082523	
! Port Impedance	50.00000000000000	0.00000000000000	
630.0	0.920165809138	0.389160931666	
! Port Impedance	50.00000000000000	0.00000000000000	
631.25	0.924952021175	0.379793032455	
! Port Impedance	50.00000000000000	0.00000000000000	
632.5	0.928650826737	0.370572574828	
! Port Impedance	50.00000000000000	0.00000000000000	
633.75	0.931444631712	0.362163719826	
! Port Impedance	50.00000000000000	0.00000000000000	
635.0	0.934840355895	0.353987630447	
! Port Impedance	50.00000000000000	0.00000000000000	
636.25	0.938676872441	0.34569529784	
! Port Impedance	50.00000000000000	0.00000000000000	
637.5	0.941449124798	0.338442449156	
! Port Impedance	50.00000000000000	0.00000000000000	
638.75	0.943980381375	0.329057886559	
! Port Impedance	50.00000000000000	0.00000000000000	
640.0	0.946908109674	0.321435830209	
! Port Impedance	50.00000000000000	0.00000000000000	
641.25	0.949729948377	0.312403017295	
! Port Impedance	50.00000000000000	0.00000000000000	
642.5	0.952403202288	0.304897584117	
! Port Impedance	50.00000000000000	0.00000000000000	
643.75	0.954979486185	0.296377622721	
! Port Impedance	50.00000000000000	0.00000000000000	
645.0	0.957875687926	0.288252879612	
! Port Impedance	50.00000000000000	0.00000000000000	
646.25	0.960387726923	0.279924070827	
! Port Impedance	50.00000000000000	0.00000000000000	
647.5	0.961679960016	0.27144368614	
! Port Impedance	50.00000000000000	0.00000000000000	
648.75	0.964351859119	0.263221944739	
! Port Impedance	50.00000000000000	0.00000000000000	
650.0	0.967071185577	0.254198938314	
! Port Impedance	50.00000000000000	0.00000000000000	
651.25	0.969074612591	0.245189460431	
! Port Impedance	50.00000000000000	0.00000000000000	
652.5	0.971507193869	0.236962194082	
! Port Impedance	50.00000000000000	0.00000000000000	
653.75	0.972774104359	0.227024816844	
! Port Impedance	50.00000000000000	0.00000000000000	
655.0	0.976828438597	0.214754456571	
! Port Impedance	50.00000000000000	0.00000000000000	
656.25	0.977231002275	0.208769705608	
! Port Impedance	50.00000000000000	0.00000000000000	
657.5	0.978915606902	0.203551985797	
! Port Impedance	50.00000000000000	0.00000000000000	
658.75	0.980495230129	0.195184928105	
! Port Impedance	50.00000000000000	0.00000000000000	
660.0	0.982522204792	0.187006894381	
! Port Impedance	50.00000000000000	0.00000000000000	
661.25	0.983588903998	0.178404063759	
! Port Impedance	50.00000000000000	0.00000000000000	
662.5	0.984931728991	0.169741054413	
! Port Impedance	50.00000000000000	0.00000000000000	
663.75	0.986526011748	0.160690614767	
! Port Impedance	50.00000000000000	0.00000000000000	
665.0	0.988353298759	0.152595211122	
! Port Impedance	50.00000000000000	0.00000000000000	
666.25	0.989040871674	0.143245875958	
! Port Impedance	50.00000000000000	0.00000000000000	
667.5	0.990000531114	0.134995269781	
! Port Impedance	50.00000000000000	0.00000000000000	
668.75	0.991345403121	0.125641077907	
! Port Impedance	50.00000000000000	0.00000000000000	
670.0	0.992311692643	0.117386990872	
! Port Impedance	50.00000000000000	0.00000000000000	
671.25	0.993639098639	0.109196058092	
! Port Impedance	50.00000000000000	0.00000000000000	
672.5	0.994673530809	0.100587454304	
! Port Impedance	50.00000000000000	0.00000000000000	
673.75	0.996054260696	0.0925385237227	
! Port Impedance	50.00000000000000	0.00000000000000	
675.0	0.996644708428	0.0828397184473	
! Port Impedance	50.00000000000000	0.00000000000000	
676.25	0.996334384232	0.0740729618113	
! Port Impedance	50.00000000000000	0.00000000000000	
677.5	0.998307271033	0.0659562824734	
! Port Impedance	50.00000000000000	0.00000000000000	
678.75	0.998822685097	0.0567212442263	
! Port Impedance	50.00000000000000	0.00000000000000	
680.0	0.99910081026	0.0496771768532	
! Port Impedance	50.00000000000000	0.00000000000000	
681.25	0.99849182195	0.0409079424455	
! Port Impedance	50.00000000000000	0.00000000000000	
682.5	0.999158030072	0.0318514821474	
! Port Impedance	50.00000000000000	0.00000000000000	
683.75	1.00001249429	0.0240962140227	
! Port Impedance	50.00000000000000	0.00000000000000	
685.0	0.99972735491	0.0147805600875	
! Port Impedance	50.00000000000000	0.00000000000000	
686.25	1.00006156082	0.00553136369384	
! Port Impedance	50.00000000000000	0.00000000000000	
687.5	0.999218046069	-0.00195368430089	
! Port Impedance	50.00000000000000	0.00000000000000	
688.75	0.999927093611	-0.0102262426097	
! Port Impedance	50.00000000000000	0.00000000000000	
690.0	0.999152008102	-0.0185486365449	
! Port Impedance	50.00000000000000	0.00000000000000	
691.25	0.999382367242	-0.0270270036308	
! Port Impedance	50.00000000000000	0.00000000000000	
692.5	0.998547633361	-0.0374246786215	
! Port Impedance	50.00000000000000	0.00000000000000	
693.75	0.998321290687	-0.0485979147965	
! Port Impedance	50.00000000000000	0.00000000000000	
695.0	0.998904209219	-0.0560199430754	
! Port Impedance	50.00000000000000	0.00000000000000	
696.25	0.997616204668	-0.0651877181209	
! Port Impedance	50.00000000000000	0.00000000000000	
697.5	0.99752773805	-0.0721639352521	
! Port Impedance	50.00000000000000	0.00000000000000	
698.75	0.996209287042	-0.0790083244991	
! Port Impedance	50.00000000000000	0.00000000000000	
700.0	0.99586291262	-0.0866488005768	
! Port Impedance	50.00000000000000	0.00000000000000	
701.25	0.995382446716	-0.0947053513335	
! Port Impedance	50.00000000000000	0.00000000000000	
702.5	0.994645596505	-0.102725521504	
! Port Impedance	50.00000000000000	0.00000000000000	
703.75	0.993415602806	-0.112336257928	
! Port Impedance	50.00000000000000	0.00000000000000	
705.0	0.992293527	-0.119128194521	
! Port Impedance	50.00000000000000	0.00000000000000	
706.25	0.991301904378	-0.127550302058	
! Port Impedance	50.00000000000000	0.00000000000000	
707.5	0.99053760083	-0.13694503251	
! Port Impedance	50.00000000000000	0.00000000000000	
708.75	0.989266426342	-0.143914099655	
! Port Impedance	50.00000000000000	0.00000000000000	
710.0	0.987566210413	-0.153130934732	
! Port Impedance	50.00000000000000	0.00000000000000	
711.25	0.987005941107	-0.160867136148	
! Port Impedance	50.00000000000000	0.00000000000000	
712.5	0.985179436522	-0.169977661171	
! Port Impedance	50.00000000000000	0.00000000000000	
713.75	0.9838503915	-0.178022765336	
! Port Impedance	50.00000000000000	0.00000000000000	
715.0	0.981813417456	-0.187950185127	
! Port Impedance	50.00000000000000	0.00000000000000	
716.25	0.980884181788	-0.196440883946	
! Port Impedance	50.00000000000000	0.00000000000000	
717.5	0.979578861818	-0.20376015641	
! Port Impedance	50.00000000000000	0.00000000000000	
718.75	0.976653564835	-0.212099116043	
! Port Impedance	50.00000000000000	0.00000000000000	
720.0	0.976044109682	-0.21796982878	
! Port Impedance	50.00000000000000	0.00000000000000	
721.25	0.974727228763	-0.227255668158	
! Port Impedance	50.00000000000000	0.00000000000000	
722.5	0.971647356981	-0.235795798994	
! Port Impedance	50.00000000000000	0.00000000000000	
723.75	0.970540623918	-0.243416383718	
! Port Impedance	50.00000000000000	0.00000000000000	
725.0	0.967189445281	-0.252694715104	
! Port Impedance	50.00000000000000	0.00000000000000	
726.25	0.965306880003	-0.261378331175	
! Port Impedance	50.00000000000000	0.00000000000000	
727.5	0.964610373514	-0.269438877714	
! Port Impedance	50.00000000000000	0.00000000000000	
728.75	0.959935795349	-0.276451130746	
! Port Impedance	50.00000000000000	0.00000000000000	
730.0	0.957504961746	-0.284572671631	
! Port Impedance	50.00000000000000	0.00000000000000	
731.25	0.956668236733	-0.29205170513	
! Port Impedance	50.00000000000000	0.00000000000000	
732.5	0.953729763464	-0.299799650902	
! Port Impedance	50.00000000000000	0.00000000000000	
733.75	0.951902261133	-0.307443436017	
! Port Impedance	50.00000000000000	0.00000000000000	
735.0	0.949834023656	-0.313662539202	
! Port Impedance	50.00000000000000	0.00000000000000	
736.25	0.947453101066	-0.321205787961	
! Port Impedance	50.00000000000000	0.00000000000000	
737.5	0.944579126446	-0.329374267149	
! Port Impedance	50.00000000000000	0.00000000000000	
738.75	0.94054349633	-0.338507236792	
! Port Impedance	50.00000000000000	0.00000000000000	
740.0	0.938210428456	-0.345895647574	
! Port Impedance	50.00000000000000	0.00000000000000	
741.25	0.936475907548	-0.353466668476	
! Port Impedance	50.00000000000000	0.00000000000000	
742.5	0.932191813236	-0.360732169444	
! Port Impedance	50.00000000000000	0.00000000000000	
743.75	0.929918879288	-0.369071479445	
! Port Impedance	50.00000000000000	0.00000000000000	
745.0	0.927984757362	-0.375626755629	
! Port Impedance	50.00000000000000	0.00000000000000	
746.25	0.924447457754	-0.382845663587	
! Port Impedance	50.00000000000000	0.00000000000000	
747.5	0.922476695615	-0.390052976826	
! Port Impedance	50.00000000000000	0.00000000000000	
748.75	0.91881089631	-0.399015176638	
! Port Impedance	50.00000000000000	0.00000000000000	
750.0	0.915937692871	-0.405942710541	
! Port Impedance	50.00000000000000	0.00000000000000	
