!Created with mwavepy.
# GHz S RI R 50.0 
!freq	ReS11	ImS11	
500.0	0.735890053128	0.671230021402	
! Port Impedance	50.00000000000000	0.00000000000000	
501.25	0.711363027256	0.669856066986	
! Port Impedance	50.00000000000000	0.00000000000000	
502.5	0.713292836765	0.696997190609	
! Port Impedance	50.00000000000000	0.00000000000000	
503.75	0.710526395004	0.672655007231	
! Port Impedance	50.00000000000000	0.00000000000000	
505.0	0.724072823278	0.676903260855	
! Port Impedance	50.00000000000000	0.00000000000000	
506.25	0.73455403518	0.66294852165	
! Port Impedance	50.00000000000000	0.00000000000000	
507.5	0.748524731833	0.645191441897	
! Port Impedance	50.00000000000000	0.00000000000000	
508.75	0.758682936487	0.643995108059	
! Port Impedance	50.00000000000000	0.00000000000000	
510.0	0.768605221205	0.641272696003	
! Port Impedance	50.00000000000000	0.00000000000000	
511.25	0.783107647586	0.631214368877	
! Port Impedance	50.00000000000000	0.00000000000000	
512.5	0.789243688709	0.599672018951	
! Port Impedance	50.00000000000000	0.00000000000000	
513.75	0.762586065297	0.567357326555	
! Port Impedance	50.00000000000000	0.00000000000000	
515.0	0.786719379404	0.568942433736	
! Port Impedance	50.00000000000000	0.00000000000000	
516.25	0.799389820053	0.565818712803	
! Port Impedance	50.00000000000000	0.00000000000000	
517.5	0.801409408954	0.559267348264	
! Port Impedance	50.00000000000000	0.00000000000000	
518.75	0.819441496634	0.546648786426	
! Port Impedance	50.00000000000000	0.00000000000000	
520.0	0.818867509816	0.539006419876	
! Port Impedance	50.00000000000000	0.00000000000000	
521.25	0.833422318624	0.523407840055	
! Port Impedance	50.00000000000000	0.00000000000000	
522.5	0.844439904589	0.523442510079	
! Port Impedance	50.00000000000000	0.00000000000000	
523.75	0.855196343371	0.507405217525	
! Port Impedance	50.00000000000000	0.00000000000000	
525.0	0.862245117976	0.49721368366	
! Port Impedance	50.00000000000000	0.00000000000000	
526.25	0.87186277286	0.473067043025	
! Port Impedance	50.00000000000000	0.00000000000000	
527.5	0.873521437358	0.460178316521	
! Port Impedance	50.00000000000000	0.00000000000000	
528.75	0.876402084522	0.450445783942	
! Port Impedance	50.00000000000000	0.00000000000000	
530.0	0.888720201029	0.436566053109	
! Port Impedance	50.00000000000000	0.00000000000000	
531.25	0.895488489543	0.424617944597	
! Port Impedance	50.00000000000000	0.00000000000000	
532.5	0.902865953704	0.406807423471	
! Port Impedance	50.00000000000000	0.00000000000000	
533.75	0.903389020051	0.392998583214	
! Port Impedance	50.00000000000000	0.00000000000000	
535.0	0.906653332954	0.383694176408	
! Port Impedance	50.00000000000000	0.00000000000000	
536.25	0.91448714284	0.370047755923	
! Port Impedance	50.00000000000000	0.00000000000000	
537.5	0.920597859104	0.360953889101	
! Port Impedance	50.00000000000000	0.00000000000000	
538.75	0.923271522585	0.342010011933	
! Port Impedance	50.00000000000000	0.00000000000000	
540.0	0.924553960272	0.331697463807	
! Port Impedance	50.00000000000000	0.00000000000000	
541.25	0.928058972431	0.316239628563	
! Port Impedance	50.00000000000000	0.00000000000000	
542.5	0.932213233779	0.308033286605	
! Port Impedance	50.00000000000000	0.00000000000000	
543.75	0.942664434217	0.296205644374	
! Port Impedance	50.00000000000000	0.00000000000000	
545.0	0.947636391378	0.286950972678	
! Port Impedance	50.00000000000000	0.00000000000000	
546.25	0.958526718024	0.270717404759	
! Port Impedance	50.00000000000000	0.00000000000000	
547.5	0.957716668335	0.256530887117	
! Port Impedance	50.00000000000000	0.00000000000000	
548.75	0.96791732655	0.23440957256	
! Port Impedance	50.00000000000000	0.00000000000000	
550.0	0.964420857092	0.215012449175	
! Port Impedance	50.00000000000000	0.00000000000000	
551.25	0.964873024342	0.194262267731	
! Port Impedance	50.00000000000000	0.00000000000000	
552.5	0.948499483313	0.193713716908	
! Port Impedance	50.00000000000000	0.00000000000000	
553.75	0.95854896417	0.192131015636	
! Port Impedance	50.00000000000000	0.00000000000000	
555.0	0.966916119715	0.185988688304	
! Port Impedance	50.00000000000000	0.00000000000000	
556.25	0.975811952849	0.164569120388	
! Port Impedance	50.00000000000000	0.00000000000000	
557.5	0.973569582031	0.154464311321	
! Port Impedance	50.00000000000000	0.00000000000000	
558.75	0.975624481623	0.142633445572	
! Port Impedance	50.00000000000000	0.00000000000000	
560.0	0.9773733734	0.127332905638	
! Port Impedance	50.00000000000000	0.00000000000000	
561.25	0.983281031062	0.107866059965	
! Port Impedance	50.00000000000000	0.00000000000000	
562.5	0.984168175871	0.0953866911362	
! Port Impedance	50.00000000000000	0.00000000000000	
563.75	0.981700457381	0.0789778223869	
! Port Impedance	50.00000000000000	0.00000000000000	
565.0	0.988465097817	0.080093406158	
! Port Impedance	50.00000000000000	0.00000000000000	
566.25	0.981542893312	0.0519775372358	
! Port Impedance	50.00000000000000	0.00000000000000	
567.5	0.986676407524	0.0434875322629	
! Port Impedance	50.00000000000000	0.00000000000000	
568.75	0.981520725986	0.029330613975	
! Port Impedance	50.00000000000000	0.00000000000000	
570.0	0.98490507882	0.017307993584	
! Port Impedance	50.00000000000000	0.00000000000000	
571.25	0.989425623322	0.0113726213661	
! Port Impedance	50.00000000000000	0.00000000000000	
572.5	0.99049071538	-0.0120200451007	
! Port Impedance	50.00000000000000	0.00000000000000	
573.75	0.989648816024	-0.0295514320596	
! Port Impedance	50.00000000000000	0.00000000000000	
575.0	0.988909367068	-0.0508079536189	
! Port Impedance	50.00000000000000	0.00000000000000	
576.25	0.989092096642	-0.0557617738527	
! Port Impedance	50.00000000000000	0.00000000000000	
577.5	0.979087169065	-0.075455892269	
! Port Impedance	50.00000000000000	0.00000000000000	
578.75	0.978778165625	-0.0828816907846	
! Port Impedance	50.00000000000000	0.00000000000000	
580.0	0.9786070907	-0.0910068266352	
! Port Impedance	50.00000000000000	0.00000000000000	
581.25	0.986113783197	-0.102025569227	
! Port Impedance	50.00000000000000	0.00000000000000	
582.5	0.980061782209	-0.115331798702	
! Port Impedance	50.00000000000000	0.00000000000000	
583.75	0.980701830197	-0.141303510048	
! Port Impedance	50.00000000000000	0.00000000000000	
585.0	0.980909111598	-0.14864388008	
! Port Impedance	50.00000000000000	0.00000000000000	
586.25	0.968529058564	-0.169949908404	
! Port Impedance	50.00000000000000	0.00000000000000	
587.5	0.963459020391	-0.183175505775	
! Port Impedance	50.00000000000000	0.00000000000000	
588.75	0.947577576856	-0.182536963093	
! Port Impedance	50.00000000000000	0.00000000000000	
590.0	0.956265351489	-0.178271085684	
! Port Impedance	50.00000000000000	0.00000000000000	
591.25	0.975438000619	-0.178788507582	
! Port Impedance	50.00000000000000	0.00000000000000	
592.5	0.975778059804	-0.217314776489	
! Port Impedance	50.00000000000000	0.00000000000000	
593.75	0.975786394948	-0.233799569883	
! Port Impedance	50.00000000000000	0.00000000000000	
595.0	0.961058418942	-0.252701891937	
! Port Impedance	50.00000000000000	0.00000000000000	
596.25	0.958113178974	-0.265548709705	
! Port Impedance	50.00000000000000	0.00000000000000	
597.5	0.949950125717	-0.27074199971	
! Port Impedance	50.00000000000000	0.00000000000000	
598.75	0.94824163641	-0.28742663186	
! Port Impedance	50.00000000000000	0.00000000000000	
600.0	0.950631706984	-0.300680838086	
! Port Impedance	50.00000000000000	0.00000000000000	
601.25	0.933184916402	-0.31244545082	
! Port Impedance	50.00000000000000	0.00000000000000	
602.5	0.924102697694	-0.326778243	
! Port Impedance	50.00000000000000	0.00000000000000	
603.75	0.917354311112	-0.326050736118	
! Port Impedance	50.00000000000000	0.00000000000000	
605.0	0.91586403365	-0.339132441674	
! Port Impedance	50.00000000000000	0.00000000000000	
606.25	0.923847373534	-0.349008354798	
! Port Impedance	50.00000000000000	0.00000000000000	
607.5	0.91802746204	-0.3539055336	
! Port Impedance	50.00000000000000	0.00000000000000	
608.75	0.917138760042	-0.377225234191	
! Port Impedance	50.00000000000000	0.00000000000000	
610.0	0.907886771296	-0.387220510261	
! Port Impedance	50.00000000000000	0.00000000000000	
611.25	0.895978118713	-0.396202814912	
! Port Impedance	50.00000000000000	0.00000000000000	
612.5	0.894638646121	-0.407324843124	
! Port Impedance	50.00000000000000	0.00000000000000	
613.75	0.892611997132	-0.411806208394	
! Port Impedance	50.00000000000000	0.00000000000000	
615.0	0.886185329388	-0.43083368643	
! Port Impedance	50.00000000000000	0.00000000000000	
616.25	0.888995223869	-0.442937866543	
! Port Impedance	50.00000000000000	0.00000000000000	
617.5	0.877189390575	-0.450210458942	
! Port Impedance	50.00000000000000	0.00000000000000	
618.75	0.865814234852	-0.468137779979	
! Port Impedance	50.00000000000000	0.00000000000000	
620.0	0.871128633906	-0.470220046411	
! Port Impedance	50.00000000000000	0.00000000000000	
621.25	0.864294232592	-0.481725633467	
! Port Impedance	50.00000000000000	0.00000000000000	
622.5	0.857803665221	-0.507232280762	
! Port Impedance	50.00000000000000	0.00000000000000	
623.75	0.846088877831	-0.509796279518	
! Port Impedance	50.00000000000000	0.00000000000000	
625.0	0.829405677937	-0.512347286366	
! Port Impedance	50.00000000000000	0.00000000000000	
626.25	0.830860298521	-0.51908164826	
! Port Impedance	50.00000000000000	0.00000000000000	
627.5	0.837919405271	-0.516812011479	
! Port Impedance	50.00000000000000	0.00000000000000	
628.75	0.838587972143	-0.541656022748	
! Port Impedance	50.00000000000000	0.00000000000000	
630.0	0.833461601325	-0.575849831329	
! Port Impedance	50.00000000000000	0.00000000000000	
631.25	0.806597642225	-0.57986578231	
! Port Impedance	50.00000000000000	0.00000000000000	
632.5	0.781985344824	-0.58845277559	
! Port Impedance	50.00000000000000	0.00000000000000	
633.75	0.788414513698	-0.592545808834	
! Port Impedance	50.00000000000000	0.00000000000000	
635.0	0.77995077083	-0.587924227097	
! Port Impedance	50.00000000000000	0.00000000000000	
636.25	0.768494981442	-0.602613189831	
! Port Impedance	50.00000000000000	0.00000000000000	
637.5	0.770623837555	-0.613080070947	
! Port Impedance	50.00000000000000	0.00000000000000	
638.75	0.758171606896	-0.608865078599	
! Port Impedance	50.00000000000000	0.00000000000000	
640.0	0.749804313165	-0.618870936638	
! Port Impedance	50.00000000000000	0.00000000000000	
641.25	0.755787741529	-0.631918474087	
! Port Impedance	50.00000000000000	0.00000000000000	
642.5	0.746831780967	-0.640973683935	
! Port Impedance	50.00000000000000	0.00000000000000	
643.75	0.734080791913	-0.654228210077	
! Port Impedance	50.00000000000000	0.00000000000000	
645.0	0.732080362489	-0.661951331093	
! Port Impedance	50.00000000000000	0.00000000000000	
646.25	0.725817744854	-0.668332970572	
! Port Impedance	50.00000000000000	0.00000000000000	
647.5	0.709819232239	-0.686301000661	
! Port Impedance	50.00000000000000	0.00000000000000	
648.75	0.708351308709	-0.698702068466	
! Port Impedance	50.00000000000000	0.00000000000000	
650.0	0.698843184479	-0.692961108432	
! Port Impedance	50.00000000000000	0.00000000000000	
651.25	0.675668137173	-0.700332537524	
! Port Impedance	50.00000000000000	0.00000000000000	
652.5	0.68239657329	-0.716360340741	
! Port Impedance	50.00000000000000	0.00000000000000	
653.75	0.680596835025	-0.714573812985	
! Port Impedance	50.00000000000000	0.00000000000000	
655.0	0.654655682122	-0.731051273937	
! Port Impedance	50.00000000000000	0.00000000000000	
656.25	0.64865800586	-0.746680764182	
! Port Impedance	50.00000000000000	0.00000000000000	
657.5	0.647658271112	-0.739329618163	
! Port Impedance	50.00000000000000	0.00000000000000	
658.75	0.631037246032	-0.741063575281	
! Port Impedance	50.00000000000000	0.00000000000000	
660.0	0.623443447005	-0.758185691973	
! Port Impedance	50.00000000000000	0.00000000000000	
661.25	0.62098600066	-0.766641596182	
! Port Impedance	50.00000000000000	0.00000000000000	
662.5	0.599220038761	-0.761951278031	
! Port Impedance	50.00000000000000	0.00000000000000	
663.75	0.592664759875	-0.767726728803	
! Port Impedance	50.00000000000000	0.00000000000000	
665.0	0.604234880996	-0.777592544967	
! Port Impedance	50.00000000000000	0.00000000000000	
666.25	0.598087330977	-0.790305294421	
! Port Impedance	50.00000000000000	0.00000000000000	
667.5	0.573866334017	-0.809121616137	
! Port Impedance	50.00000000000000	0.00000000000000	
668.75	0.556719360652	-0.822305357238	
! Port Impedance	50.00000000000000	0.00000000000000	
670.0	0.544424958454	-0.811031850143	
! Port Impedance	50.00000000000000	0.00000000000000	
671.25	0.52485709253	-0.806297555072	
! Port Impedance	50.00000000000000	0.00000000000000	
672.5	0.527702040781	-0.816946514704	
! Port Impedance	50.00000000000000	0.00000000000000	
673.75	0.531942435184	-0.818226968904	
! Port Impedance	50.00000000000000	0.00000000000000	
675.0	0.515823389475	-0.816617653776	
! Port Impedance	50.00000000000000	0.00000000000000	
676.25	0.50982135766	-0.832602662706	
! Port Impedance	50.00000000000000	0.00000000000000	
677.5	0.512061261497	-0.843453514638	
! Port Impedance	50.00000000000000	0.00000000000000	
678.75	0.496547523294	-0.845745893616	
! Port Impedance	50.00000000000000	0.00000000000000	
680.0	0.475805587838	-0.854299217985	
! Port Impedance	50.00000000000000	0.00000000000000	
681.25	0.470916128915	-0.863829093839	
! Port Impedance	50.00000000000000	0.00000000000000	
682.5	0.471789873974	-0.860956996749	
! Port Impedance	50.00000000000000	0.00000000000000	
683.75	0.452545533502	-0.862458342786	
! Port Impedance	50.00000000000000	0.00000000000000	
685.0	0.435729807445	-0.881692118403	
! Port Impedance	50.00000000000000	0.00000000000000	
686.25	0.428992815483	-0.880665624699	
! Port Impedance	50.00000000000000	0.00000000000000	
687.5	0.42414338654	-0.871274852029	
! Port Impedance	50.00000000000000	0.00000000000000	
688.75	0.412578459304	-0.881344959969	
! Port Impedance	50.00000000000000	0.00000000000000	
690.0	0.405412850192	-0.89656035794	
! Port Impedance	50.00000000000000	0.00000000000000	
691.25	0.399864479394	-0.898864271397	
! Port Impedance	50.00000000000000	0.00000000000000	
692.5	0.374546274981	-0.894281655543	
! Port Impedance	50.00000000000000	0.00000000000000	
693.75	0.35065857686	-0.904002692167	
! Port Impedance	50.00000000000000	0.00000000000000	
695.0	0.359284884228	-0.914635254139	
! Port Impedance	50.00000000000000	0.00000000000000	
696.25	0.354199587776	-0.911833969275	
! Port Impedance	50.00000000000000	0.00000000000000	
697.5	0.331259235666	-0.910597888445	
! Port Impedance	50.00000000000000	0.00000000000000	
698.75	0.318934560319	-0.921326487114	
! Port Impedance	50.00000000000000	0.00000000000000	
700.0	0.326265358433	-0.919553010267	
! Port Impedance	50.00000000000000	0.00000000000000	
701.25	0.317855262828	-0.914701435089	
! Port Impedance	50.00000000000000	0.00000000000000	
702.5	0.299868894037	-0.922750023231	
! Port Impedance	50.00000000000000	0.00000000000000	
703.75	0.291982219935	-0.934593574198	
! Port Impedance	50.00000000000000	0.00000000000000	
705.0	0.29124476977	-0.937377994161	
! Port Impedance	50.00000000000000	0.00000000000000	
706.25	0.269530206833	-0.931959984224	
! Port Impedance	50.00000000000000	0.00000000000000	
707.5	0.250745975541	-0.926875350095	
! Port Impedance	50.00000000000000	0.00000000000000	
708.75	0.259654779014	-0.926047568209	
! Port Impedance	50.00000000000000	0.00000000000000	
710.0	0.265058589198	-0.927840387126	
! Port Impedance	50.00000000000000	0.00000000000000	
711.25	0.250343406619	-0.936866418049	
! Port Impedance	50.00000000000000	0.00000000000000	
712.5	0.231880489732	-0.951872157326	
! Port Impedance	50.00000000000000	0.00000000000000	
713.75	0.222752614481	-0.955064883171	
! Port Impedance	50.00000000000000	0.00000000000000	
715.0	0.209564066938	-0.949723517696	
! Port Impedance	50.00000000000000	0.00000000000000	
716.25	0.194920414777	-0.953540227209	
! Port Impedance	50.00000000000000	0.00000000000000	
717.5	0.183028736274	-0.963200272033	
! Port Impedance	50.00000000000000	0.00000000000000	
718.75	0.177186581058	-0.966123854355	
! Port Impedance	50.00000000000000	0.00000000000000	
720.0	0.172358603776	-0.956753690147	
! Port Impedance	50.00000000000000	0.00000000000000	
721.25	0.157098229159	-0.954771241893	
! Port Impedance	50.00000000000000	0.00000000000000	
722.5	0.147079768654	-0.962563753294	
! Port Impedance	50.00000000000000	0.00000000000000	
723.75	0.136797218344	-0.96364193892	
! Port Impedance	50.00000000000000	0.00000000000000	
725.0	0.128795247389	-0.959813688398	
! Port Impedance	50.00000000000000	0.00000000000000	
726.25	0.12045799783	-0.958811465028	
! Port Impedance	50.00000000000000	0.00000000000000	
727.5	0.109608235408	-0.964419416065	
! Port Impedance	50.00000000000000	0.00000000000000	
728.75	0.0986797217092	-0.973203225259	
! Port Impedance	50.00000000000000	0.00000000000000	
730.0	0.0854743329545	-0.967264637407	
! Port Impedance	50.00000000000000	0.00000000000000	
731.25	0.0767267611122	-0.962548268505	
! Port Impedance	50.00000000000000	0.00000000000000	
732.5	0.0686673657992	-0.96951330349	
! Port Impedance	50.00000000000000	0.00000000000000	
733.75	0.0614184079416	-0.974315414688	
! Port Impedance	50.00000000000000	0.00000000000000	
735.0	0.0493515583854	-0.964400066321	
! Port Impedance	50.00000000000000	0.00000000000000	
736.25	0.0429502987159	-0.965070768192	
! Port Impedance	50.00000000000000	0.00000000000000	
737.5	0.0327029292904	-0.969090055899	
! Port Impedance	50.00000000000000	0.00000000000000	
738.75	0.0213049317583	-0.973726752059	
! Port Impedance	50.00000000000000	0.00000000000000	
740.0	0.0153162579675	-0.973053581272	
! Port Impedance	50.00000000000000	0.00000000000000	
741.25	0.00638325893716	-0.97484648683	
! Port Impedance	50.00000000000000	0.00000000000000	
742.5	-0.00777511124451	-0.975872848608	
! Port Impedance	50.00000000000000	0.00000000000000	
743.75	-0.019951034881	-0.978471503806	
! Port Impedance	50.00000000000000	0.00000000000000	
745.0	-0.0325862604129	-0.964751916799	
! Port Impedance	50.00000000000000	0.00000000000000	
746.25	-0.0280096794193	-0.954762742995	
! Port Impedance	50.00000000000000	0.00000000000000	
747.5	-0.0374545285376	-0.970865187409	
! Port Impedance	50.00000000000000	0.00000000000000	
748.75	-0.0556631555361	-0.975366737724	
! Port Impedance	50.00000000000000	0.00000000000000	
750.0	-0.0692883398525	-0.974236459429	
! Port Impedance	50.00000000000000	0.00000000000000	
