!Created with mwavepy.
# GHz S RI R 50.0 
!freq	ReS11	ImS11	
500.0	0.581786570509	0.746446547022	
! Port Impedance	50.00000000000000	0.00000000000000	
501.25	0.640476791935	0.716417419977	
! Port Impedance	50.00000000000000	0.00000000000000	
502.5	0.669779484286	0.744161527184	
! Port Impedance	50.00000000000000	0.00000000000000	
503.75	0.667578014944	0.722610326464	
! Port Impedance	50.00000000000000	0.00000000000000	
505.0	0.681112709928	0.719396210404	
! Port Impedance	50.00000000000000	0.00000000000000	
506.25	0.70335332833	0.708359154505	
! Port Impedance	50.00000000000000	0.00000000000000	
507.5	0.703619470586	0.709054919741	
! Port Impedance	50.00000000000000	0.00000000000000	
508.75	0.720344426678	0.692239335774	
! Port Impedance	50.00000000000000	0.00000000000000	
510.0	0.721665192934	0.684822786013	
! Port Impedance	50.00000000000000	0.00000000000000	
511.25	0.761237763174	0.679037840131	
! Port Impedance	50.00000000000000	0.00000000000000	
512.5	0.733793700424	0.634174620407	
! Port Impedance	50.00000000000000	0.00000000000000	
513.75	0.779986513327	0.641481014042	
! Port Impedance	50.00000000000000	0.00000000000000	
515.0	0.74927476072	0.619965334012	
! Port Impedance	50.00000000000000	0.00000000000000	
516.25	0.754311740125	0.617319097996	
! Port Impedance	50.00000000000000	0.00000000000000	
517.5	0.776380285344	0.612037946447	
! Port Impedance	50.00000000000000	0.00000000000000	
518.75	0.784793018986	0.603631769683	
! Port Impedance	50.00000000000000	0.00000000000000	
520.0	0.775722042293	0.587986900139	
! Port Impedance	50.00000000000000	0.00000000000000	
521.25	0.799266464436	0.57251099565	
! Port Impedance	50.00000000000000	0.00000000000000	
522.5	0.809692777549	0.571978142999	
! Port Impedance	50.00000000000000	0.00000000000000	
523.75	0.817402530418	0.565756672377	
! Port Impedance	50.00000000000000	0.00000000000000	
525.0	0.824678143556	0.542853937667	
! Port Impedance	50.00000000000000	0.00000000000000	
526.25	0.838619666281	0.53183192209	
! Port Impedance	50.00000000000000	0.00000000000000	
527.5	0.840640813706	0.520613925303	
! Port Impedance	50.00000000000000	0.00000000000000	
528.75	0.844051842421	0.51124282117	
! Port Impedance	50.00000000000000	0.00000000000000	
530.0	0.851716000734	0.499126539583	
! Port Impedance	50.00000000000000	0.00000000000000	
531.25	0.863501786879	0.487675443055	
! Port Impedance	50.00000000000000	0.00000000000000	
532.5	0.87160373712	0.470438291528	
! Port Impedance	50.00000000000000	0.00000000000000	
533.75	0.872732380794	0.459198145289	
! Port Impedance	50.00000000000000	0.00000000000000	
535.0	0.878753018783	0.449616779562	
! Port Impedance	50.00000000000000	0.00000000000000	
536.25	0.886070399063	0.436927690825	
! Port Impedance	50.00000000000000	0.00000000000000	
537.5	0.894062055962	0.426855919143	
! Port Impedance	50.00000000000000	0.00000000000000	
538.75	0.897449987543	0.409457960706	
! Port Impedance	50.00000000000000	0.00000000000000	
540.0	0.898408056846	0.399614441996	
! Port Impedance	50.00000000000000	0.00000000000000	
541.25	0.902761101603	0.385199735117	
! Port Impedance	50.00000000000000	0.00000000000000	
542.5	0.906967124937	0.378580746562	
! Port Impedance	50.00000000000000	0.00000000000000	
543.75	0.918185475696	0.367803425381	
! Port Impedance	50.00000000000000	0.00000000000000	
545.0	0.92365047299	0.358249806565	
! Port Impedance	50.00000000000000	0.00000000000000	
546.25	0.934610945109	0.344139013306	
! Port Impedance	50.00000000000000	0.00000000000000	
547.5	0.933896694311	0.332727461369	
! Port Impedance	50.00000000000000	0.00000000000000	
548.75	0.94721177034	0.311352435618	
! Port Impedance	50.00000000000000	0.00000000000000	
550.0	0.945113006701	0.293849044294	
! Port Impedance	50.00000000000000	0.00000000000000	
551.25	0.945677337886	0.274016296461	
! Port Impedance	50.00000000000000	0.00000000000000	
552.5	0.933019444516	0.269799867574	
! Port Impedance	50.00000000000000	0.00000000000000	
553.75	0.939879061899	0.268801778227	
! Port Impedance	50.00000000000000	0.00000000000000	
555.0	0.949182898221	0.265723407832	
! Port Impedance	50.00000000000000	0.00000000000000	
556.25	0.958830362117	0.244949253499	
! Port Impedance	50.00000000000000	0.00000000000000	
557.5	0.958389632627	0.235222572363	
! Port Impedance	50.00000000000000	0.00000000000000	
558.75	0.961238093116	0.222830880442	
! Port Impedance	50.00000000000000	0.00000000000000	
560.0	0.964376277695	0.209036735796	
! Port Impedance	50.00000000000000	0.00000000000000	
561.25	0.970575779806	0.190926584208	
! Port Impedance	50.00000000000000	0.00000000000000	
562.5	0.973925595947	0.179583967341	
! Port Impedance	50.00000000000000	0.00000000000000	
563.75	0.972758795504	0.162443235837	
! Port Impedance	50.00000000000000	0.00000000000000	
565.0	0.977350730614	0.163305548202	
! Port Impedance	50.00000000000000	0.00000000000000	
566.25	0.973232709085	0.138999744872	
! Port Impedance	50.00000000000000	0.00000000000000	
567.5	0.98032091168	0.131232423688	
! Port Impedance	50.00000000000000	0.00000000000000	
568.75	0.976460089329	0.117867182616	
! Port Impedance	50.00000000000000	0.00000000000000	
570.0	0.981019925251	0.103983741073	
! Port Impedance	50.00000000000000	0.00000000000000	
571.25	0.984948585312	0.0983328333639	
! Port Impedance	50.00000000000000	0.00000000000000	
572.5	0.989908459783	0.0772413031223	
! Port Impedance	50.00000000000000	0.00000000000000	
573.75	0.988755000382	0.061308518052	
! Port Impedance	50.00000000000000	0.00000000000000	
575.0	0.990354681254	0.0416377901483	
! Port Impedance	50.00000000000000	0.00000000000000	
576.25	0.988476724622	0.036831716112	
! Port Impedance	50.00000000000000	0.00000000000000	
577.5	0.984095247448	0.0167195154458	
! Port Impedance	50.00000000000000	0.00000000000000	
578.75	0.985856298411	0.00894456959814	
! Port Impedance	50.00000000000000	0.00000000000000	
580.0	0.984619187515	0.000758154561404	
! Port Impedance	50.00000000000000	0.00000000000000	
581.25	0.994151309871	-0.00976344737163	
! Port Impedance	50.00000000000000	0.00000000000000	
582.5	0.988374331457	-0.0228242357656	
! Port Impedance	50.00000000000000	0.00000000000000	
583.75	0.989427759186	-0.0481334486843	
! Port Impedance	50.00000000000000	0.00000000000000	
585.0	0.991710743804	-0.0540178617994	
! Port Impedance	50.00000000000000	0.00000000000000	
586.25	0.983499338657	-0.0761807869466	
! Port Impedance	50.00000000000000	0.00000000000000	
587.5	0.98025652415	-0.0897336046469	
! Port Impedance	50.00000000000000	0.00000000000000	
588.75	0.965551235365	-0.0909048736066	
! Port Impedance	50.00000000000000	0.00000000000000	
590.0	0.972356199182	-0.0889001628601	
! Port Impedance	50.00000000000000	0.00000000000000	
591.25	0.988767073522	-0.0877233297663	
! Port Impedance	50.00000000000000	0.00000000000000	
592.5	0.99383182227	-0.123723521555	
! Port Impedance	50.00000000000000	0.00000000000000	
593.75	0.992528497183	-0.139504978909	
! Port Impedance	50.00000000000000	0.00000000000000	
595.0	0.982290015167	-0.157967666287	
! Port Impedance	50.00000000000000	0.00000000000000	
596.25	0.981894552872	-0.170109523662	
! Port Impedance	50.00000000000000	0.00000000000000	
597.5	0.973538510209	-0.178022638528	
! Port Impedance	50.00000000000000	0.00000000000000	
598.75	0.973336314388	-0.192831606153	
! Port Impedance	50.00000000000000	0.00000000000000	
600.0	0.976166265524	-0.206972089897	
! Port Impedance	50.00000000000000	0.00000000000000	
601.25	0.961561545661	-0.219794934044	
! Port Impedance	50.00000000000000	0.00000000000000	
602.5	0.954766280172	-0.234819907914	
! Port Impedance	50.00000000000000	0.00000000000000	
603.75	0.948781032382	-0.235131698083	
! Port Impedance	50.00000000000000	0.00000000000000	
605.0	0.948564321108	-0.248479037054	
! Port Impedance	50.00000000000000	0.00000000000000	
606.25	0.955693009025	-0.257401165743	
! Port Impedance	50.00000000000000	0.00000000000000	
607.5	0.949902066185	-0.263448338923	
! Port Impedance	50.00000000000000	0.00000000000000	
608.75	0.951744177289	-0.285757104419	
! Port Impedance	50.00000000000000	0.00000000000000	
610.0	0.945438632988	-0.294775786422	
! Port Impedance	50.00000000000000	0.00000000000000	
611.25	0.933233141849	-0.306547072326	
! Port Impedance	50.00000000000000	0.00000000000000	
612.5	0.932849254022	-0.317346705038	
! Port Impedance	50.00000000000000	0.00000000000000	
613.75	0.931262129144	-0.322970129843	
! Port Impedance	50.00000000000000	0.00000000000000	
615.0	0.924876681581	-0.340908043247	
! Port Impedance	50.00000000000000	0.00000000000000	
616.25	0.929724137943	-0.35152513874	
! Port Impedance	50.00000000000000	0.00000000000000	
617.5	0.919421533923	-0.359711822266	
! Port Impedance	50.00000000000000	0.00000000000000	
618.75	0.909915862824	-0.378342937954	
! Port Impedance	50.00000000000000	0.00000000000000	
620.0	0.914634251018	-0.381824097706	
! Port Impedance	50.00000000000000	0.00000000000000	
621.25	0.909901437766	-0.392301820992	
! Port Impedance	50.00000000000000	0.00000000000000	
622.5	0.905299877212	-0.417376930952	
! Port Impedance	50.00000000000000	0.00000000000000	
623.75	0.895533501758	-0.420811097924	
! Port Impedance	50.00000000000000	0.00000000000000	
625.0	0.879357008158	-0.42635541731	
! Port Impedance	50.00000000000000	0.00000000000000	
626.25	0.88124545642	-0.433052930783	
! Port Impedance	50.00000000000000	0.00000000000000	
627.5	0.887564269501	-0.431585136222	
! Port Impedance	50.00000000000000	0.00000000000000	
628.75	0.889546132722	-0.45459748016	
! Port Impedance	50.00000000000000	0.00000000000000	
630.0	0.88838244614	-0.486770406328	
! Port Impedance	50.00000000000000	0.00000000000000	
631.25	0.862919242732	-0.492845911181	
! Port Impedance	50.00000000000000	0.00000000000000	
632.5	0.842059369486	-0.504486433756	
! Port Impedance	50.00000000000000	0.00000000000000	
633.75	0.84682060023	-0.509659378304	
! Port Impedance	50.00000000000000	0.00000000000000	
635.0	0.837771847848	-0.506578055997	
! Port Impedance	50.00000000000000	0.00000000000000	
636.25	0.827803355161	-0.520775880432	
! Port Impedance	50.00000000000000	0.00000000000000	
637.5	0.832814519638	-0.531277292886	
! Port Impedance	50.00000000000000	0.00000000000000	
638.75	0.818836902876	-0.528229030459	
! Port Impedance	50.00000000000000	0.00000000000000	
640.0	0.81255364251	-0.538862459586	
! Port Impedance	50.00000000000000	0.00000000000000	
641.25	0.818490236566	-0.552149266463	
! Port Impedance	50.00000000000000	0.00000000000000	
642.5	0.809868321015	-0.561970725208	
! Port Impedance	50.00000000000000	0.00000000000000	
643.75	0.797757307831	-0.574993861629	
! Port Impedance	50.00000000000000	0.00000000000000	
645.0	0.797721686956	-0.584104643792	
! Port Impedance	50.00000000000000	0.00000000000000	
646.25	0.792022693788	-0.592307122305	
! Port Impedance	50.00000000000000	0.00000000000000	
647.5	0.778703184743	-0.609646298159	
! Port Impedance	50.00000000000000	0.00000000000000	
648.75	0.777728301097	-0.622715998723	
! Port Impedance	50.00000000000000	0.00000000000000	
650.0	0.766895830355	-0.618200366797	
! Port Impedance	50.00000000000000	0.00000000000000	
651.25	0.745329182447	-0.627981237187	
! Port Impedance	50.00000000000000	0.00000000000000	
652.5	0.753522796354	-0.641965033829	
! Port Impedance	50.00000000000000	0.00000000000000	
653.75	0.751766632324	-0.641737841621	
! Port Impedance	50.00000000000000	0.00000000000000	
655.0	0.727218709208	-0.659365417859	
! Port Impedance	50.00000000000000	0.00000000000000	
656.25	0.72281666198	-0.674133326669	
! Port Impedance	50.00000000000000	0.00000000000000	
657.5	0.722678964565	-0.669761774308	
! Port Impedance	50.00000000000000	0.00000000000000	
658.75	0.706743958176	-0.674198574381	
! Port Impedance	50.00000000000000	0.00000000000000	
660.0	0.698826245459	-0.691315453465	
! Port Impedance	50.00000000000000	0.00000000000000	
661.25	0.696331197446	-0.700587580759	
! Port Impedance	50.00000000000000	0.00000000000000	
662.5	0.675444588157	-0.698517730443	
! Port Impedance	50.00000000000000	0.00000000000000	
663.75	0.670715388813	-0.704829446917	
! Port Impedance	50.00000000000000	0.00000000000000	
665.0	0.680844651106	-0.712219635613	
! Port Impedance	50.00000000000000	0.00000000000000	
666.25	0.676262275653	-0.726252121982	
! Port Impedance	50.00000000000000	0.00000000000000	
667.5	0.654692401851	-0.746243772052	
! Port Impedance	50.00000000000000	0.00000000000000	
668.75	0.638763953221	-0.760571101008	
! Port Impedance	50.00000000000000	0.00000000000000	
670.0	0.62661748856	-0.752038741137	
! Port Impedance	50.00000000000000	0.00000000000000	
671.25	0.605704342051	-0.749420722086	
! Port Impedance	50.00000000000000	0.00000000000000	
672.5	0.608675676963	-0.760292362139	
! Port Impedance	50.00000000000000	0.00000000000000	
673.75	0.612651003512	-0.760993817748	
! Port Impedance	50.00000000000000	0.00000000000000	
675.0	0.597229665099	-0.761571499374	
! Port Impedance	50.00000000000000	0.00000000000000	
676.25	0.592369176798	-0.77721605777	
! Port Impedance	50.00000000000000	0.00000000000000	
677.5	0.593762726978	-0.787612970713	
! Port Impedance	50.00000000000000	0.00000000000000	
678.75	0.578766142483	-0.79171837942	
! Port Impedance	50.00000000000000	0.00000000000000	
680.0	0.56043047486	-0.803221904449	
! Port Impedance	50.00000000000000	0.00000000000000	
681.25	0.556364392331	-0.811863180517	
! Port Impedance	50.00000000000000	0.00000000000000	
682.5	0.555374833646	-0.808556192383	
! Port Impedance	50.00000000000000	0.00000000000000	
683.75	0.537600378452	-0.812737153269	
! Port Impedance	50.00000000000000	0.00000000000000	
685.0	0.522100709375	-0.831302860335	
! Port Impedance	50.00000000000000	0.00000000000000	
686.25	0.516681991063	-0.833053741291	
! Port Impedance	50.00000000000000	0.00000000000000	
687.5	0.510967496442	-0.824840266147	
! Port Impedance	50.00000000000000	0.00000000000000	
688.75	0.499911334311	-0.83580885144	
! Port Impedance	50.00000000000000	0.00000000000000	
690.0	0.494765915849	-0.850895071002	
! Port Impedance	50.00000000000000	0.00000000000000	
691.25	0.487168476854	-0.854343283207	
! Port Impedance	50.00000000000000	0.00000000000000	
692.5	0.463081770462	-0.852208975285	
! Port Impedance	50.00000000000000	0.00000000000000	
693.75	0.441125213305	-0.864388765637	
! Port Impedance	50.00000000000000	0.00000000000000	
695.0	0.450413626676	-0.873087395505	
! Port Impedance	50.00000000000000	0.00000000000000	
696.25	0.445208831915	-0.872358570962	
! Port Impedance	50.00000000000000	0.00000000000000	
697.5	0.422462748076	-0.874551678382	
! Port Impedance	50.00000000000000	0.00000000000000	
698.75	0.411752951173	-0.885008607481	
! Port Impedance	50.00000000000000	0.00000000000000	
700.0	0.418039920134	-0.884510688055	
! Port Impedance	50.00000000000000	0.00000000000000	
701.25	0.408403443774	-0.878440346079	
! Port Impedance	50.00000000000000	0.00000000000000	
702.5	0.389979644008	-0.889307212693	
! Port Impedance	50.00000000000000	0.00000000000000	
703.75	0.383284293652	-0.901962814107	
! Port Impedance	50.00000000000000	0.00000000000000	
705.0	0.384085224061	-0.905133044972	
! Port Impedance	50.00000000000000	0.00000000000000	
706.25	0.361445280578	-0.902517267479	
! Port Impedance	50.00000000000000	0.00000000000000	
707.5	0.343204204852	-0.899424292128	
! Port Impedance	50.00000000000000	0.00000000000000	
708.75	0.350166532391	-0.897834251268	
! Port Impedance	50.00000000000000	0.00000000000000	
710.0	0.35591944568	-0.900396075272	
! Port Impedance	50.00000000000000	0.00000000000000	
711.25	0.340866255127	-0.910558781837	
! Port Impedance	50.00000000000000	0.00000000000000	
712.5	0.324760105657	-0.926263686242	
! Port Impedance	50.00000000000000	0.00000000000000	
713.75	0.313902582124	-0.931392851724	
! Port Impedance	50.00000000000000	0.00000000000000	
715.0	0.300862418423	-0.92758707459	
! Port Impedance	50.00000000000000	0.00000000000000	
716.25	0.287097289411	-0.931614579639	
! Port Impedance	50.00000000000000	0.00000000000000	
717.5	0.274168632584	-0.943428556227	
! Port Impedance	50.00000000000000	0.00000000000000	
718.75	0.269084678677	-0.94692742727	
! Port Impedance	50.00000000000000	0.00000000000000	
720.0	0.261667530586	-0.938321436188	
! Port Impedance	50.00000000000000	0.00000000000000	
721.25	0.24697248709	-0.939107583294	
! Port Impedance	50.00000000000000	0.00000000000000	
722.5	0.236241572209	-0.946984577536	
! Port Impedance	50.00000000000000	0.00000000000000	
723.75	0.226201093613	-0.948882737122	
! Port Impedance	50.00000000000000	0.00000000000000	
725.0	0.218024186973	-0.944390672888	
! Port Impedance	50.00000000000000	0.00000000000000	
726.25	0.209663139712	-0.946097792267	
! Port Impedance	50.00000000000000	0.00000000000000	
727.5	0.198452343231	-0.951708770462	
! Port Impedance	50.00000000000000	0.00000000000000	
728.75	0.185283302501	-0.95880004549	
! Port Impedance	50.00000000000000	0.00000000000000	
730.0	0.174102742886	-0.957434694438	
! Port Impedance	50.00000000000000	0.00000000000000	
731.25	0.163937542814	-0.953976726234	
! Port Impedance	50.00000000000000	0.00000000000000	
732.5	0.157280960925	-0.960322344441	
! Port Impedance	50.00000000000000	0.00000000000000	
733.75	0.148508255141	-0.964880888283	
! Port Impedance	50.00000000000000	0.00000000000000	
735.0	0.135164641633	-0.957806066052	
! Port Impedance	50.00000000000000	0.00000000000000	
736.25	0.129418344822	-0.959437144292	
! Port Impedance	50.00000000000000	0.00000000000000	
737.5	0.120597412235	-0.963188464097	
! Port Impedance	50.00000000000000	0.00000000000000	
738.75	0.109349138309	-0.968399342552	
! Port Impedance	50.00000000000000	0.00000000000000	
740.0	0.102279586063	-0.968834020636	
! Port Impedance	50.00000000000000	0.00000000000000	
741.25	0.0931759649131	-0.970255380076	
! Port Impedance	50.00000000000000	0.00000000000000	
742.5	0.0794279648779	-0.971937331666	
! Port Impedance	50.00000000000000	0.00000000000000	
743.75	0.0671973283084	-0.97686224128	
! Port Impedance	50.00000000000000	0.00000000000000	
745.0	0.0519660900956	-0.964776969969	
! Port Impedance	50.00000000000000	0.00000000000000	
746.25	0.0532548920366	-0.954048316683	
! Port Impedance	50.00000000000000	0.00000000000000	
747.5	0.0478232581074	-0.969054930898	
! Port Impedance	50.00000000000000	0.00000000000000	
748.75	0.0299231634195	-0.976021393174	
! Port Impedance	50.00000000000000	0.00000000000000	
750.0	0.0163677458597	-0.976783115432	
! Port Impedance	50.00000000000000	0.00000000000000	
