!Created with mwavepy.
# GHz S RI R 50.0 
!freq	ReS11	ImS11	
500.0	0.692404322518	0.698899734715	
! Port Impedance	50.00000000000000	0.00000000000000	
501.25	0.694690995288	0.690270129274	
! Port Impedance	50.00000000000000	0.00000000000000	
502.5	0.72626010381	0.66672555395	
! Port Impedance	50.00000000000000	0.00000000000000	
503.75	0.714165340783	0.675223226653	
! Port Impedance	50.00000000000000	0.00000000000000	
505.0	0.722922374695	0.663807227803	
! Port Impedance	50.00000000000000	0.00000000000000	
506.25	0.715078581591	0.706682350711	
! Port Impedance	50.00000000000000	0.00000000000000	
507.5	0.753480614151	0.654560704107	
! Port Impedance	50.00000000000000	0.00000000000000	
508.75	0.759967085257	0.640569257049	
! Port Impedance	50.00000000000000	0.00000000000000	
510.0	0.778488254612	0.619874244358	
! Port Impedance	50.00000000000000	0.00000000000000	
511.25	0.807267848613	0.624628979705	
! Port Impedance	50.00000000000000	0.00000000000000	
512.5	0.747299505025	0.601526510396	
! Port Impedance	50.00000000000000	0.00000000000000	
513.75	0.791875844365	0.564998337859	
! Port Impedance	50.00000000000000	0.00000000000000	
515.0	0.789346522724	0.559999449251	
! Port Impedance	50.00000000000000	0.00000000000000	
516.25	0.800009105756	0.559920194521	
! Port Impedance	50.00000000000000	0.00000000000000	
517.5	0.808370323157	0.548321946207	
! Port Impedance	50.00000000000000	0.00000000000000	
518.75	0.820477084808	0.538613931928	
! Port Impedance	50.00000000000000	0.00000000000000	
520.0	0.814685442856	0.537092685436	
! Port Impedance	50.00000000000000	0.00000000000000	
521.25	0.829086876216	0.515407267801	
! Port Impedance	50.00000000000000	0.00000000000000	
522.5	0.843230818019	0.509496179595	
! Port Impedance	50.00000000000000	0.00000000000000	
523.75	0.851904775296	0.490067388559	
! Port Impedance	50.00000000000000	0.00000000000000	
525.0	0.869465418019	0.485025054037	
! Port Impedance	50.00000000000000	0.00000000000000	
526.25	0.872420559449	0.463223770508	
! Port Impedance	50.00000000000000	0.00000000000000	
527.5	0.875488946912	0.449784444429	
! Port Impedance	50.00000000000000	0.00000000000000	
528.75	0.880594060554	0.438554565629	
! Port Impedance	50.00000000000000	0.00000000000000	
530.0	0.889394256692	0.42417321015	
! Port Impedance	50.00000000000000	0.00000000000000	
531.25	0.898038109968	0.411299370477	
! Port Impedance	50.00000000000000	0.00000000000000	
532.5	0.903984614238	0.393620441206	
! Port Impedance	50.00000000000000	0.00000000000000	
533.75	0.9040579349	0.381682978751	
! Port Impedance	50.00000000000000	0.00000000000000	
535.0	0.911770872482	0.371975467352	
! Port Impedance	50.00000000000000	0.00000000000000	
536.25	0.916884214018	0.357715960805	
! Port Impedance	50.00000000000000	0.00000000000000	
537.5	0.925649015417	0.343364875239	
! Port Impedance	50.00000000000000	0.00000000000000	
538.75	0.926557820622	0.325937064249	
! Port Impedance	50.00000000000000	0.00000000000000	
540.0	0.926235347624	0.31647567538	
! Port Impedance	50.00000000000000	0.00000000000000	
541.25	0.928990179624	0.302699804057	
! Port Impedance	50.00000000000000	0.00000000000000	
542.5	0.932093270441	0.296464653767	
! Port Impedance	50.00000000000000	0.00000000000000	
543.75	0.944969846417	0.281904391013	
! Port Impedance	50.00000000000000	0.00000000000000	
545.0	0.950860393498	0.270704535253	
! Port Impedance	50.00000000000000	0.00000000000000	
546.25	0.961376657638	0.252966670746	
! Port Impedance	50.00000000000000	0.00000000000000	
547.5	0.959578705837	0.242135516709	
! Port Impedance	50.00000000000000	0.00000000000000	
548.75	0.969190910417	0.221998514192	
! Port Impedance	50.00000000000000	0.00000000000000	
550.0	0.967796105464	0.200626262572	
! Port Impedance	50.00000000000000	0.00000000000000	
551.25	0.967032233119	0.179061966817	
! Port Impedance	50.00000000000000	0.00000000000000	
552.5	0.9509714039	0.179929273881	
! Port Impedance	50.00000000000000	0.00000000000000	
553.75	0.959004919149	0.172799470572	
! Port Impedance	50.00000000000000	0.00000000000000	
555.0	0.970924063724	0.16308837959	
! Port Impedance	50.00000000000000	0.00000000000000	
556.25	0.979296372313	0.144354242489	
! Port Impedance	50.00000000000000	0.00000000000000	
557.5	0.975156566778	0.130300924214	
! Port Impedance	50.00000000000000	0.00000000000000	
558.75	0.976399092535	0.119893077281	
! Port Impedance	50.00000000000000	0.00000000000000	
560.0	0.978897436163	0.110684329683	
! Port Impedance	50.00000000000000	0.00000000000000	
561.25	0.98382609294	0.0902878599981	
! Port Impedance	50.00000000000000	0.00000000000000	
562.5	0.98521808501	0.0768768365996	
! Port Impedance	50.00000000000000	0.00000000000000	
563.75	0.980723411768	0.0566643912069	
! Port Impedance	50.00000000000000	0.00000000000000	
565.0	0.987024907898	0.0516944963528	
! Port Impedance	50.00000000000000	0.00000000000000	
566.25	0.979220441887	0.0351581028438	
! Port Impedance	50.00000000000000	0.00000000000000	
567.5	0.985105422384	0.0214749903223	
! Port Impedance	50.00000000000000	0.00000000000000	
568.75	0.977377681978	0.013149731213	
! Port Impedance	50.00000000000000	0.00000000000000	
570.0	0.982372604602	0.00177438982841	
! Port Impedance	50.00000000000000	0.00000000000000	
571.25	0.988339187027	-0.0111388274449	
! Port Impedance	50.00000000000000	0.00000000000000	
572.5	0.988187965398	-0.0281639645958	
! Port Impedance	50.00000000000000	0.00000000000000	
573.75	0.985288240715	-0.0420532188485	
! Port Impedance	50.00000000000000	0.00000000000000	
575.0	0.986145195551	-0.0612662964302	
! Port Impedance	50.00000000000000	0.00000000000000	
576.25	0.983846769702	-0.067554983048	
! Port Impedance	50.00000000000000	0.00000000000000	
577.5	0.97522936353	-0.0893370634194	
! Port Impedance	50.00000000000000	0.00000000000000	
578.75	0.975086003099	-0.095299433263	
! Port Impedance	50.00000000000000	0.00000000000000	
580.0	0.973519621861	-0.103201802077	
! Port Impedance	50.00000000000000	0.00000000000000	
581.25	0.982272591769	-0.115742674428	
! Port Impedance	50.00000000000000	0.00000000000000	
582.5	0.976096569203	-0.12754935859	
! Port Impedance	50.00000000000000	0.00000000000000	
583.75	0.975840290496	-0.154864167826	
! Port Impedance	50.00000000000000	0.00000000000000	
585.0	0.975863735209	-0.160549844756	
! Port Impedance	50.00000000000000	0.00000000000000	
586.25	0.964362875161	-0.183676746206	
! Port Impedance	50.00000000000000	0.00000000000000	
587.5	0.958740321207	-0.19624649824	
! Port Impedance	50.00000000000000	0.00000000000000	
588.75	0.94281452117	-0.191665581422	
! Port Impedance	50.00000000000000	0.00000000000000	
590.0	0.950362957791	-0.190736534865	
! Port Impedance	50.00000000000000	0.00000000000000	
591.25	0.968758917325	-0.192017418132	
! Port Impedance	50.00000000000000	0.00000000000000	
592.5	0.972082838563	-0.230308821042	
! Port Impedance	50.00000000000000	0.00000000000000	
593.75	0.968947002019	-0.248970207231	
! Port Impedance	50.00000000000000	0.00000000000000	
595.0	0.954980185207	-0.266692626028	
! Port Impedance	50.00000000000000	0.00000000000000	
596.25	0.952833520251	-0.277948889623	
! Port Impedance	50.00000000000000	0.00000000000000	
597.5	0.943179378907	-0.284866831114	
! Port Impedance	50.00000000000000	0.00000000000000	
598.75	0.941202829828	-0.299948439269	
! Port Impedance	50.00000000000000	0.00000000000000	
600.0	0.943532698607	-0.315019495147	
! Port Impedance	50.00000000000000	0.00000000000000	
601.25	0.924645501851	-0.331865248717	
! Port Impedance	50.00000000000000	0.00000000000000	
602.5	0.91696740359	-0.340242302079	
! Port Impedance	50.00000000000000	0.00000000000000	
603.75	0.910254147284	-0.339877282943	
! Port Impedance	50.00000000000000	0.00000000000000	
605.0	0.908650016925	-0.354483512745	
! Port Impedance	50.00000000000000	0.00000000000000	
606.25	0.916673569298	-0.362230289325	
! Port Impedance	50.00000000000000	0.00000000000000	
607.5	0.909302619075	-0.368244608497	
! Port Impedance	50.00000000000000	0.00000000000000	
608.75	0.908054458329	-0.391747418335	
! Port Impedance	50.00000000000000	0.00000000000000	
610.0	0.901168908103	-0.400802308211	
! Port Impedance	50.00000000000000	0.00000000000000	
611.25	0.886254184555	-0.407979148689	
! Port Impedance	50.00000000000000	0.00000000000000	
612.5	0.886731235083	-0.417962226093	
! Port Impedance	50.00000000000000	0.00000000000000	
613.75	0.881360601072	-0.428350211796	
! Port Impedance	50.00000000000000	0.00000000000000	
615.0	0.875443931686	-0.448421624623	
! Port Impedance	50.00000000000000	0.00000000000000	
616.25	0.878132829258	-0.456083093135	
! Port Impedance	50.00000000000000	0.00000000000000	
617.5	0.867670665779	-0.462814167088	
! Port Impedance	50.00000000000000	0.00000000000000	
618.75	0.854917063231	-0.480013027895	
! Port Impedance	50.00000000000000	0.00000000000000	
620.0	0.859921204657	-0.485810523168	
! Port Impedance	50.00000000000000	0.00000000000000	
621.25	0.855061582182	-0.493475473585	
! Port Impedance	50.00000000000000	0.00000000000000	
622.5	0.847417719512	-0.519933415247	
! Port Impedance	50.00000000000000	0.00000000000000	
623.75	0.83499590343	-0.522171132866	
! Port Impedance	50.00000000000000	0.00000000000000	
625.0	0.818472220064	-0.524533024812	
! Port Impedance	50.00000000000000	0.00000000000000	
626.25	0.81987472295	-0.530494924432	
! Port Impedance	50.00000000000000	0.00000000000000	
627.5	0.825196364158	-0.530509347125	
! Port Impedance	50.00000000000000	0.00000000000000	
628.75	0.82806558012	-0.55287591182	
! Port Impedance	50.00000000000000	0.00000000000000	
630.0	0.820355509003	-0.592974458981	
! Port Impedance	50.00000000000000	0.00000000000000	
631.25	0.794137459696	-0.592378919663	
! Port Impedance	50.00000000000000	0.00000000000000	
632.5	0.770959305304	-0.599483407753	
! Port Impedance	50.00000000000000	0.00000000000000	
633.75	0.777039583243	-0.604284421078	
! Port Impedance	50.00000000000000	0.00000000000000	
635.0	0.770431761502	-0.598362908983	
! Port Impedance	50.00000000000000	0.00000000000000	
636.25	0.757111477797	-0.613278611866	
! Port Impedance	50.00000000000000	0.00000000000000	
637.5	0.758576184267	-0.625462597895	
! Port Impedance	50.00000000000000	0.00000000000000	
638.75	0.746019919012	-0.619165569129	
! Port Impedance	50.00000000000000	0.00000000000000	
640.0	0.737667017787	-0.628483042918	
! Port Impedance	50.00000000000000	0.00000000000000	
641.25	0.743984653107	-0.643677249628	
! Port Impedance	50.00000000000000	0.00000000000000	
642.5	0.73365463222	-0.652404782048	
! Port Impedance	50.00000000000000	0.00000000000000	
643.75	0.720815645793	-0.665290886544	
! Port Impedance	50.00000000000000	0.00000000000000	
645.0	0.720077680577	-0.672021860784	
! Port Impedance	50.00000000000000	0.00000000000000	
646.25	0.712896657336	-0.679195589995	
! Port Impedance	50.00000000000000	0.00000000000000	
647.5	0.697014434465	-0.696183829318	
! Port Impedance	50.00000000000000	0.00000000000000	
648.75	0.69565209628	-0.70835715625	
! Port Impedance	50.00000000000000	0.00000000000000	
650.0	0.685233071169	-0.703217783278	
! Port Impedance	50.00000000000000	0.00000000000000	
651.25	0.661815145271	-0.70996668652	
! Port Impedance	50.00000000000000	0.00000000000000	
652.5	0.667892974429	-0.725054644954	
! Port Impedance	50.00000000000000	0.00000000000000	
653.75	0.668704306078	-0.723290980162	
! Port Impedance	50.00000000000000	0.00000000000000	
655.0	0.646558886943	-0.733613077646	
! Port Impedance	50.00000000000000	0.00000000000000	
656.25	0.639004118742	-0.751539587015	
! Port Impedance	50.00000000000000	0.00000000000000	
657.5	0.633856498971	-0.747701216125	
! Port Impedance	50.00000000000000	0.00000000000000	
658.75	0.617033505532	-0.749925148355	
! Port Impedance	50.00000000000000	0.00000000000000	
660.0	0.609676432259	-0.766927080749	
! Port Impedance	50.00000000000000	0.00000000000000	
661.25	0.605932812473	-0.776056200428	
! Port Impedance	50.00000000000000	0.00000000000000	
662.5	0.584461526594	-0.772066412714	
! Port Impedance	50.00000000000000	0.00000000000000	
663.75	0.578154424827	-0.776280782416	
! Port Impedance	50.00000000000000	0.00000000000000	
665.0	0.588253001152	-0.786321924797	
! Port Impedance	50.00000000000000	0.00000000000000	
666.25	0.582296840068	-0.798022982916	
! Port Impedance	50.00000000000000	0.00000000000000	
667.5	0.558027537256	-0.816410145125	
! Port Impedance	50.00000000000000	0.00000000000000	
668.75	0.540926953047	-0.830443307859	
! Port Impedance	50.00000000000000	0.00000000000000	
670.0	0.528739489784	-0.817388597667	
! Port Impedance	50.00000000000000	0.00000000000000	
671.25	0.508910243501	-0.811863732984	
! Port Impedance	50.00000000000000	0.00000000000000	
672.5	0.511752485645	-0.823494090552	
! Port Impedance	50.00000000000000	0.00000000000000	
673.75	0.51583379868	-0.824788790755	
! Port Impedance	50.00000000000000	0.00000000000000	
675.0	0.49991809195	-0.823352071526	
! Port Impedance	50.00000000000000	0.00000000000000	
676.25	0.492470882598	-0.839864410217	
! Port Impedance	50.00000000000000	0.00000000000000	
677.5	0.497095208742	-0.84740155782	
! Port Impedance	50.00000000000000	0.00000000000000	
678.75	0.48178748224	-0.850771703312	
! Port Impedance	50.00000000000000	0.00000000000000	
680.0	0.458089611133	-0.860117763854	
! Port Impedance	50.00000000000000	0.00000000000000	
681.25	0.453688784311	-0.86784197659	
! Port Impedance	50.00000000000000	0.00000000000000	
682.5	0.454280356208	-0.864209477661	
! Port Impedance	50.00000000000000	0.00000000000000	
683.75	0.435313220485	-0.866797552586	
! Port Impedance	50.00000000000000	0.00000000000000	
685.0	0.418031840181	-0.884569034449	
! Port Impedance	50.00000000000000	0.00000000000000	
686.25	0.411969926295	-0.884031111303	
! Port Impedance	50.00000000000000	0.00000000000000	
687.5	0.406299410624	-0.874276202657	
! Port Impedance	50.00000000000000	0.00000000000000	
688.75	0.39593934381	-0.883608567215	
! Port Impedance	50.00000000000000	0.00000000000000	
690.0	0.388364151993	-0.898894265895	
! Port Impedance	50.00000000000000	0.00000000000000	
691.25	0.383654251356	-0.900967433709	
! Port Impedance	50.00000000000000	0.00000000000000	
692.5	0.36274376149	-0.894231653484	
! Port Impedance	50.00000000000000	0.00000000000000	
693.75	0.345704202644	-0.902692988636	
! Port Impedance	50.00000000000000	0.00000000000000	
695.0	0.34934839374	-0.913428118214	
! Port Impedance	50.00000000000000	0.00000000000000	
696.25	0.343165333864	-0.911227230847	
! Port Impedance	50.00000000000000	0.00000000000000	
697.5	0.317139732251	-0.90954237262	
! Port Impedance	50.00000000000000	0.00000000000000	
698.75	0.305079838068	-0.922486790566	
! Port Impedance	50.00000000000000	0.00000000000000	
700.0	0.311631436644	-0.922438888533	
! Port Impedance	50.00000000000000	0.00000000000000	
701.25	0.302828128384	-0.915857099776	
! Port Impedance	50.00000000000000	0.00000000000000	
702.5	0.284017434481	-0.923849015562	
! Port Impedance	50.00000000000000	0.00000000000000	
703.75	0.279274333367	-0.935735292427	
! Port Impedance	50.00000000000000	0.00000000000000	
705.0	0.2766249925	-0.938291094964	
! Port Impedance	50.00000000000000	0.00000000000000	
706.25	0.253590034294	-0.934194643024	
! Port Impedance	50.00000000000000	0.00000000000000	
707.5	0.235461711711	-0.927927181995	
! Port Impedance	50.00000000000000	0.00000000000000	
708.75	0.243314298714	-0.926801494306	
! Port Impedance	50.00000000000000	0.00000000000000	
710.0	0.250258808214	-0.929160005339	
! Port Impedance	50.00000000000000	0.00000000000000	
711.25	0.234985409083	-0.938263799584	
! Port Impedance	50.00000000000000	0.00000000000000	
712.5	0.217471354993	-0.952513383972	
! Port Impedance	50.00000000000000	0.00000000000000	
713.75	0.207393712715	-0.956326696232	
! Port Impedance	50.00000000000000	0.00000000000000	
715.0	0.200538253301	-0.949564621933	
! Port Impedance	50.00000000000000	0.00000000000000	
716.25	0.184142947965	-0.952452313381	
! Port Impedance	50.00000000000000	0.00000000000000	
717.5	0.168208098012	-0.96316097275	
! Port Impedance	50.00000000000000	0.00000000000000	
718.75	0.162275623599	-0.966537828178	
! Port Impedance	50.00000000000000	0.00000000000000	
720.0	0.155154509891	-0.957024577338	
! Port Impedance	50.00000000000000	0.00000000000000	
721.25	0.141792730137	-0.955148013873	
! Port Impedance	50.00000000000000	0.00000000000000	
722.5	0.132753797208	-0.96151464563	
! Port Impedance	50.00000000000000	0.00000000000000	
723.75	0.12403671674	-0.962476009818	
! Port Impedance	50.00000000000000	0.00000000000000	
725.0	0.117226233972	-0.957442412717	
! Port Impedance	50.00000000000000	0.00000000000000	
726.25	0.109636661472	-0.957692840833	
! Port Impedance	50.00000000000000	0.00000000000000	
727.5	0.0967450997555	-0.962725213795	
! Port Impedance	50.00000000000000	0.00000000000000	
728.75	0.083094337421	-0.968561385494	
! Port Impedance	50.00000000000000	0.00000000000000	
730.0	0.0729723846735	-0.965800814601	
! Port Impedance	50.00000000000000	0.00000000000000	
731.25	0.0627308444522	-0.960906226004	
! Port Impedance	50.00000000000000	0.00000000000000	
732.5	0.0551142704748	-0.967976453149	
! Port Impedance	50.00000000000000	0.00000000000000	
733.75	0.0455531560816	-0.971049992942	
! Port Impedance	50.00000000000000	0.00000000000000	
735.0	0.0330843953974	-0.962151350988	
! Port Impedance	50.00000000000000	0.00000000000000	
736.25	0.0260730292731	-0.962671430892	
! Port Impedance	50.00000000000000	0.00000000000000	
737.5	0.0171005689695	-0.966400596483	
! Port Impedance	50.00000000000000	0.00000000000000	
738.75	0.00864928659816	-0.970809122329	
! Port Impedance	50.00000000000000	0.00000000000000	
740.0	0.0021364824743	-0.970389110098	
! Port Impedance	50.00000000000000	0.00000000000000	
741.25	-0.0103247951917	-0.969311077303	
! Port Impedance	50.00000000000000	0.00000000000000	
742.5	-0.024522528847	-0.973718024259	
! Port Impedance	50.00000000000000	0.00000000000000	
743.75	-0.035950570166	-0.974932601339	
! Port Impedance	50.00000000000000	0.00000000000000	
745.0	-0.0484425218182	-0.960242073932	
! Port Impedance	50.00000000000000	0.00000000000000	
746.25	-0.0442380102224	-0.950558439227	
! Port Impedance	50.00000000000000	0.00000000000000	
747.5	-0.0514991772179	-0.965973707584	
! Port Impedance	50.00000000000000	0.00000000000000	
748.75	-0.0687128238948	-0.970722248262	
! Port Impedance	50.00000000000000	0.00000000000000	
750.0	-0.0833450783207	-0.970882229161	
! Port Impedance	50.00000000000000	0.00000000000000	
