!Created with mwavepy.
# GHz S RI R 50.0 
!freq	ReS11	ImS11	
500.0	0.0422051250382	-0.204703855556	
! Port Impedance	50.00000000000000	0.00000000000000	
501.25	0.0465966805842	-0.20158965352	
! Port Impedance	50.00000000000000	0.00000000000000	
502.5	0.0456774375793	-0.199279429179	
! Port Impedance	50.00000000000000	0.00000000000000	
503.75	0.0465845039314	-0.207749092427	
! Port Impedance	50.00000000000000	0.00000000000000	
505.0	0.0446804949489	-0.209723513999	
! Port Impedance	50.00000000000000	0.00000000000000	
506.25	0.0468057135776	-0.207683623348	
! Port Impedance	50.00000000000000	0.00000000000000	
507.5	0.0464465734683	-0.204468653477	
! Port Impedance	50.00000000000000	0.00000000000000	
508.75	0.0487774111558	-0.208737301113	
! Port Impedance	50.00000000000000	0.00000000000000	
510.0	0.0480029570822	-0.209932751338	
! Port Impedance	50.00000000000000	0.00000000000000	
511.25	0.0466848326661	-0.207891922744	
! Port Impedance	50.00000000000000	0.00000000000000	
512.5	0.0441885378002	-0.205141052053	
! Port Impedance	50.00000000000000	0.00000000000000	
513.75	0.0451217038048	-0.207359793899	
! Port Impedance	50.00000000000000	0.00000000000000	
515.0	0.0493802405887	-0.206857733986	
! Port Impedance	50.00000000000000	0.00000000000000	
516.25	0.0515664183196	-0.207021462618	
! Port Impedance	50.00000000000000	0.00000000000000	
517.5	0.0495106309516	-0.203798112969	
! Port Impedance	50.00000000000000	0.00000000000000	
518.75	0.0500434794928	-0.205575793379	
! Port Impedance	50.00000000000000	0.00000000000000	
520.0	0.0479493262747	-0.205867645549	
! Port Impedance	50.00000000000000	0.00000000000000	
521.25	0.0458461889059	-0.207691446596	
! Port Impedance	50.00000000000000	0.00000000000000	
522.5	0.0450103332271	-0.202985197689	
! Port Impedance	50.00000000000000	0.00000000000000	
523.75	0.0482080577387	-0.20195820777	
! Port Impedance	50.00000000000000	0.00000000000000	
525.0	0.0466201652296	-0.203771570184	
! Port Impedance	50.00000000000000	0.00000000000000	
526.25	0.0475983323157	-0.206224486476	
! Port Impedance	50.00000000000000	0.00000000000000	
527.5	0.0475892569299	-0.20612960484	
! Port Impedance	50.00000000000000	0.00000000000000	
528.75	0.0456330970267	-0.204992412374	
! Port Impedance	50.00000000000000	0.00000000000000	
530.0	0.0464162454075	-0.205213976412	
! Port Impedance	50.00000000000000	0.00000000000000	
531.25	0.0491286136936	-0.205834596728	
! Port Impedance	50.00000000000000	0.00000000000000	
532.5	0.0481748636411	-0.206901463207	
! Port Impedance	50.00000000000000	0.00000000000000	
533.75	0.0475072267156	-0.208241478337	
! Port Impedance	50.00000000000000	0.00000000000000	
535.0	0.0461334235511	-0.208897666323	
! Port Impedance	50.00000000000000	0.00000000000000	
536.25	0.0467309151286	-0.20737787345	
! Port Impedance	50.00000000000000	0.00000000000000	
537.5	0.0465624615837	-0.207857284811	
! Port Impedance	50.00000000000000	0.00000000000000	
538.75	0.0464636114441	-0.20926039802	
! Port Impedance	50.00000000000000	0.00000000000000	
540.0	0.0450528725759	-0.209033494337	
! Port Impedance	50.00000000000000	0.00000000000000	
541.25	0.0434183503457	-0.208078269139	
! Port Impedance	50.00000000000000	0.00000000000000	
542.5	0.0450164847151	-0.206936761402	
! Port Impedance	50.00000000000000	0.00000000000000	
543.75	0.0446874351854	-0.205279693267	
! Port Impedance	50.00000000000000	0.00000000000000	
545.0	0.0454691756886	-0.207059110376	
! Port Impedance	50.00000000000000	0.00000000000000	
546.25	0.0456120921634	-0.208129740559	
! Port Impedance	50.00000000000000	0.00000000000000	
547.5	0.044886561856	-0.206644738968	
! Port Impedance	50.00000000000000	0.00000000000000	
548.75	0.0447488407822	-0.206434570959	
! Port Impedance	50.00000000000000	0.00000000000000	
550.0	0.0462698520745	-0.208160703492	
! Port Impedance	50.00000000000000	0.00000000000000	
551.25	0.0465128248846	-0.209656631711	
! Port Impedance	50.00000000000000	0.00000000000000	
552.5	0.043849308949	-0.20829291486	
! Port Impedance	50.00000000000000	0.00000000000000	
553.75	0.0397008432271	-0.209538048606	
! Port Impedance	50.00000000000000	0.00000000000000	
555.0	0.042116132898	-0.209785707581	
! Port Impedance	50.00000000000000	0.00000000000000	
556.25	0.0427918802804	-0.207539791036	
! Port Impedance	50.00000000000000	0.00000000000000	
557.5	0.0376807980732	-0.206413119084	
! Port Impedance	50.00000000000000	0.00000000000000	
558.75	0.0401357898929	-0.204538871768	
! Port Impedance	50.00000000000000	0.00000000000000	
560.0	0.0447024834691	-0.204703812985	
! Port Impedance	50.00000000000000	0.00000000000000	
561.25	0.0451596657216	-0.206127065004	
! Port Impedance	50.00000000000000	0.00000000000000	
562.5	0.0443455609144	-0.207704835988	
! Port Impedance	50.00000000000000	0.00000000000000	
563.75	0.0427792076495	-0.208038215097	
! Port Impedance	50.00000000000000	0.00000000000000	
565.0	0.0416936407229	-0.207463159566	
! Port Impedance	50.00000000000000	0.00000000000000	
566.25	0.0430327957252	-0.207626036885	
! Port Impedance	50.00000000000000	0.00000000000000	
567.5	0.0417931024927	-0.208689747483	
! Port Impedance	50.00000000000000	0.00000000000000	
568.75	0.041423662093	-0.206942972637	
! Port Impedance	50.00000000000000	0.00000000000000	
570.0	0.0421539315383	-0.205912051727	
! Port Impedance	50.00000000000000	0.00000000000000	
571.25	0.043083311318	-0.206165498036	
! Port Impedance	50.00000000000000	0.00000000000000	
572.5	0.042920101785	-0.207432450001	
! Port Impedance	50.00000000000000	0.00000000000000	
573.75	0.0421631128814	-0.207873575835	
! Port Impedance	50.00000000000000	0.00000000000000	
575.0	0.0420382466694	-0.207721192669	
! Port Impedance	50.00000000000000	0.00000000000000	
576.25	0.0416442542274	-0.207608063351	
! Port Impedance	50.00000000000000	0.00000000000000	
577.5	0.0405168562879	-0.207647350021	
! Port Impedance	50.00000000000000	0.00000000000000	
578.75	0.0401654164696	-0.206925951166	
! Port Impedance	50.00000000000000	0.00000000000000	
580.0	0.0400953916474	-0.206273124735	
! Port Impedance	50.00000000000000	0.00000000000000	
581.25	0.0408486641691	-0.206133780958	
! Port Impedance	50.00000000000000	0.00000000000000	
582.5	0.0401953806719	-0.206731965748	
! Port Impedance	50.00000000000000	0.00000000000000	
583.75	0.039793204222	-0.206904786703	
! Port Impedance	50.00000000000000	0.00000000000000	
585.0	0.0398732335757	-0.20684535614	
! Port Impedance	50.00000000000000	0.00000000000000	
586.25	0.0391869844422	-0.206669821845	
! Port Impedance	50.00000000000000	0.00000000000000	
587.5	0.0378974859122	-0.207047269236	
! Port Impedance	50.00000000000000	0.00000000000000	
588.75	0.0381667876109	-0.206402050031	
! Port Impedance	50.00000000000000	0.00000000000000	
590.0	0.0382711443918	-0.20564076457	
! Port Impedance	50.00000000000000	0.00000000000000	
591.25	0.0381451811431	-0.205849500222	
! Port Impedance	50.00000000000000	0.00000000000000	
592.5	0.0372449775975	-0.206156955352	
! Port Impedance	50.00000000000000	0.00000000000000	
593.75	0.0372022460784	-0.206205609491	
! Port Impedance	50.00000000000000	0.00000000000000	
595.0	0.0368615416504	-0.205899286934	
! Port Impedance	50.00000000000000	0.00000000000000	
596.25	0.0363286430723	-0.205531060431	
! Port Impedance	50.00000000000000	0.00000000000000	
597.5	0.0362072943878	-0.204966975769	
! Port Impedance	50.00000000000000	0.00000000000000	
598.75	0.0365073253959	-0.204450870416	
! Port Impedance	50.00000000000000	0.00000000000000	
600.0	0.0363847992105	-0.205305834547	
! Port Impedance	50.00000000000000	0.00000000000000	
601.25	0.0350186450043	-0.207149774932	
! Port Impedance	50.00000000000000	0.00000000000000	
602.5	0.0345884139649	-0.205206766059	
! Port Impedance	50.00000000000000	0.00000000000000	
603.75	0.0339161676942	-0.204105478541	
! Port Impedance	50.00000000000000	0.00000000000000	
605.0	0.0337044457695	-0.204628219449	
! Port Impedance	50.00000000000000	0.00000000000000	
606.25	0.0342365878892	-0.204281252164	
! Port Impedance	50.00000000000000	0.00000000000000	
607.5	0.0344729388158	-0.20344803617	
! Port Impedance	50.00000000000000	0.00000000000000	
608.75	0.0338616602183	-0.203975583367	
! Port Impedance	50.00000000000000	0.00000000000000	
610.0	0.0330208518659	-0.204919414231	
! Port Impedance	50.00000000000000	0.00000000000000	
611.25	0.0326602602166	-0.203982415325	
! Port Impedance	50.00000000000000	0.00000000000000	
612.5	0.033485208048	-0.203304710919	
! Port Impedance	50.00000000000000	0.00000000000000	
613.75	0.0308894253044	-0.203044182567	
! Port Impedance	50.00000000000000	0.00000000000000	
615.0	0.0312236869432	-0.203647747025	
! Port Impedance	50.00000000000000	0.00000000000000	
616.25	0.0320876026572	-0.203122538854	
! Port Impedance	50.00000000000000	0.00000000000000	
617.5	0.0313126193173	-0.202767674639	
! Port Impedance	50.00000000000000	0.00000000000000	
618.75	0.0299635244017	-0.203305219065	
! Port Impedance	50.00000000000000	0.00000000000000	
620.0	0.0298862425665	-0.202099016872	
! Port Impedance	50.00000000000000	0.00000000000000	
621.25	0.0311726872928	-0.201943829934	
! Port Impedance	50.00000000000000	0.00000000000000	
622.5	0.0305260026902	-0.202547397435	
! Port Impedance	50.00000000000000	0.00000000000000	
623.75	0.0288825719414	-0.202511289331	
! Port Impedance	50.00000000000000	0.00000000000000	
625.0	0.0285644239372	-0.202006663118	
! Port Impedance	50.00000000000000	0.00000000000000	
626.25	0.0288637936123	-0.201095918783	
! Port Impedance	50.00000000000000	0.00000000000000	
627.5	0.0281106399662	-0.200274683446	
! Port Impedance	50.00000000000000	0.00000000000000	
628.75	0.0289491784455	-0.200638226742	
! Port Impedance	50.00000000000000	0.00000000000000	
630.0	0.028920229162	-0.20237556781	
! Port Impedance	50.00000000000000	0.00000000000000	
631.25	0.0270102332689	-0.201446970373	
! Port Impedance	50.00000000000000	0.00000000000000	
632.5	0.0276709727705	-0.200532386301	
! Port Impedance	50.00000000000000	0.00000000000000	
633.75	0.0270388868729	-0.199820290265	
! Port Impedance	50.00000000000000	0.00000000000000	
635.0	0.0270259259881	-0.199436816975	
! Port Impedance	50.00000000000000	0.00000000000000	
636.25	0.0267450564164	-0.199598579415	
! Port Impedance	50.00000000000000	0.00000000000000	
637.5	0.0261547120346	-0.200225963041	
! Port Impedance	50.00000000000000	0.00000000000000	
638.75	0.0256282661226	-0.200176738056	
! Port Impedance	50.00000000000000	0.00000000000000	
640.0	0.0249417060874	-0.199148930111	
! Port Impedance	50.00000000000000	0.00000000000000	
641.25	0.0249026171559	-0.198178342039	
! Port Impedance	50.00000000000000	0.00000000000000	
642.5	0.0249913680947	-0.198881034082	
! Port Impedance	50.00000000000000	0.00000000000000	
643.75	0.0248897866206	-0.198883056837	
! Port Impedance	50.00000000000000	0.00000000000000	
645.0	0.0241671628773	-0.197943053406	
! Port Impedance	50.00000000000000	0.00000000000000	
646.25	0.0238205489266	-0.198006981171	
! Port Impedance	50.00000000000000	0.00000000000000	
647.5	0.0234739828352	-0.197899295709	
! Port Impedance	50.00000000000000	0.00000000000000	
648.75	0.0239723271779	-0.197851085126	
! Port Impedance	50.00000000000000	0.00000000000000	
650.0	0.0231870763275	-0.197645424825	
! Port Impedance	50.00000000000000	0.00000000000000	
651.25	0.022238765207	-0.197200757932	
! Port Impedance	50.00000000000000	0.00000000000000	
652.5	0.022178805296	-0.196667335845	
! Port Impedance	50.00000000000000	0.00000000000000	
653.75	0.0226705538551	-0.19613000057	
! Port Impedance	50.00000000000000	0.00000000000000	
655.0	0.023083144186	-0.196003604181	
! Port Impedance	50.00000000000000	0.00000000000000	
656.25	0.0221199681816	-0.196279872382	
! Port Impedance	50.00000000000000	0.00000000000000	
657.5	0.0207605455926	-0.196404148189	
! Port Impedance	50.00000000000000	0.00000000000000	
658.75	0.0206124254534	-0.195449575703	
! Port Impedance	50.00000000000000	0.00000000000000	
660.0	0.0206957257511	-0.194975112743	
! Port Impedance	50.00000000000000	0.00000000000000	
661.25	0.0208645494389	-0.195392743036	
! Port Impedance	50.00000000000000	0.00000000000000	
662.5	0.0202108487192	-0.195222282498	
! Port Impedance	50.00000000000000	0.00000000000000	
663.75	0.0191292202729	-0.194855347648	
! Port Impedance	50.00000000000000	0.00000000000000	
665.0	0.0191376287939	-0.194136393276	
! Port Impedance	50.00000000000000	0.00000000000000	
666.25	0.019824717701	-0.193891470434	
! Port Impedance	50.00000000000000	0.00000000000000	
667.5	0.0194055985051	-0.194135959193	
! Port Impedance	50.00000000000000	0.00000000000000	
668.75	0.0185820905549	-0.194175521607	
! Port Impedance	50.00000000000000	0.00000000000000	
670.0	0.0179036605869	-0.193609826663	
! Port Impedance	50.00000000000000	0.00000000000000	
671.25	0.0178145048096	-0.193034650028	
! Port Impedance	50.00000000000000	0.00000000000000	
672.5	0.0179916079474	-0.192732801717	
! Port Impedance	50.00000000000000	0.00000000000000	
673.75	0.0176036712036	-0.192899375317	
! Port Impedance	50.00000000000000	0.00000000000000	
675.0	0.0167657349433	-0.192831155896	
! Port Impedance	50.00000000000000	0.00000000000000	
676.25	0.0169490648239	-0.192298866997	
! Port Impedance	50.00000000000000	0.00000000000000	
677.5	0.0170905760597	-0.191436517937	
! Port Impedance	50.00000000000000	0.00000000000000	
678.75	0.0165443499019	-0.191729624187	
! Port Impedance	50.00000000000000	0.00000000000000	
680.0	0.0156388897327	-0.192212808379	
! Port Impedance	50.00000000000000	0.00000000000000	
681.25	0.0157137296283	-0.191151695185	
! Port Impedance	50.00000000000000	0.00000000000000	
682.5	0.015589222595	-0.190203867568	
! Port Impedance	50.00000000000000	0.00000000000000	
683.75	0.0153091353896	-0.190250003871	
! Port Impedance	50.00000000000000	0.00000000000000	
685.0	0.0154336736872	-0.19072351472	
! Port Impedance	50.00000000000000	0.00000000000000	
686.25	0.0146621390034	-0.190918026958	
! Port Impedance	50.00000000000000	0.00000000000000	
687.5	0.0136059094846	-0.189783630602	
! Port Impedance	50.00000000000000	0.00000000000000	
688.75	0.0140531431408	-0.188723634825	
! Port Impedance	50.00000000000000	0.00000000000000	
690.0	0.0143282618861	-0.189549408131	
! Port Impedance	50.00000000000000	0.00000000000000	
691.25	0.0138874801656	-0.189652226018	
! Port Impedance	50.00000000000000	0.00000000000000	
692.5	0.0141711719867	-0.188325975885	
! Port Impedance	50.00000000000000	0.00000000000000	
693.75	0.01449425239	-0.188644433938	
! Port Impedance	50.00000000000000	0.00000000000000	
695.0	0.0136005077802	-0.188341268406	
! Port Impedance	50.00000000000000	0.00000000000000	
696.25	0.0134929957543	-0.187925299934	
! Port Impedance	50.00000000000000	0.00000000000000	
697.5	0.0123667827181	-0.187550798793	
! Port Impedance	50.00000000000000	0.00000000000000	
698.75	0.0110550855678	-0.187423129866	
! Port Impedance	50.00000000000000	0.00000000000000	
700.0	0.011534093761	-0.186937912215	
! Port Impedance	50.00000000000000	0.00000000000000	
701.25	0.0117419267735	-0.187036126334	
! Port Impedance	50.00000000000000	0.00000000000000	
702.5	0.0108449847763	-0.186583191755	
! Port Impedance	50.00000000000000	0.00000000000000	
703.75	0.0110851984268	-0.186263734581	
! Port Impedance	50.00000000000000	0.00000000000000	
705.0	0.0109321391237	-0.186167466873	
! Port Impedance	50.00000000000000	0.00000000000000	
706.25	0.0107004138888	-0.185827057415	
! Port Impedance	50.00000000000000	0.00000000000000	
707.5	0.00990007453522	-0.185380156023	
! Port Impedance	50.00000000000000	0.00000000000000	
708.75	0.00935918638224	-0.185438915451	
! Port Impedance	50.00000000000000	0.00000000000000	
710.0	0.00923315335219	-0.184783545361	
! Port Impedance	50.00000000000000	0.00000000000000	
711.25	0.0102483795665	-0.184636288643	
! Port Impedance	50.00000000000000	0.00000000000000	
712.5	0.00924497833562	-0.184696711769	
! Port Impedance	50.00000000000000	0.00000000000000	
713.75	0.00835173445282	-0.184215141529	
! Port Impedance	50.00000000000000	0.00000000000000	
715.0	0.00919760070741	-0.183926009558	
! Port Impedance	50.00000000000000	0.00000000000000	
716.25	0.00908430089646	-0.183496556162	
! Port Impedance	50.00000000000000	0.00000000000000	
717.5	0.00822630178544	-0.183242880172	
! Port Impedance	50.00000000000000	0.00000000000000	
718.75	0.00766906855548	-0.183349884228	
! Port Impedance	50.00000000000000	0.00000000000000	
720.0	0.00678232586915	-0.182862858834	
! Port Impedance	50.00000000000000	0.00000000000000	
721.25	0.00767445478244	-0.182301874149	
! Port Impedance	50.00000000000000	0.00000000000000	
722.5	0.00756343292679	-0.182203771125	
! Port Impedance	50.00000000000000	0.00000000000000	
723.75	0.00698901187687	-0.182622022866	
! Port Impedance	50.00000000000000	0.00000000000000	
725.0	0.00668451729432	-0.181615769702	
! Port Impedance	50.00000000000000	0.00000000000000	
726.25	0.00720153046539	-0.180993791522	
! Port Impedance	50.00000000000000	0.00000000000000	
727.5	0.00619171142207	-0.180974203826	
! Port Impedance	50.00000000000000	0.00000000000000	
728.75	0.00601748001169	-0.180835317134	
! Port Impedance	50.00000000000000	0.00000000000000	
730.0	0.00525079966479	-0.180680134356	
! Port Impedance	50.00000000000000	0.00000000000000	
731.25	0.00541206551677	-0.179542323728	
! Port Impedance	50.00000000000000	0.00000000000000	
732.5	0.00533032969387	-0.179779057507	
! Port Impedance	50.00000000000000	0.00000000000000	
733.75	0.00475901202697	-0.180122048638	
! Port Impedance	50.00000000000000	0.00000000000000	
735.0	0.00363743788407	-0.179093336666	
! Port Impedance	50.00000000000000	0.00000000000000	
736.25	0.00436875742719	-0.17855494963	
! Port Impedance	50.00000000000000	0.00000000000000	
737.5	0.00386638528084	-0.178798729039	
! Port Impedance	50.00000000000000	0.00000000000000	
738.75	0.00389307296434	-0.178565428416	
! Port Impedance	50.00000000000000	0.00000000000000	
740.0	0.00344510678664	-0.178019282224	
! Port Impedance	50.00000000000000	0.00000000000000	
741.25	0.00287981302426	-0.177092578944	
! Port Impedance	50.00000000000000	0.00000000000000	
742.5	0.0029381741518	-0.177352152879	
! Port Impedance	50.00000000000000	0.00000000000000	
743.75	0.00182926763909	-0.178241557633	
! Port Impedance	50.00000000000000	0.00000000000000	
745.0	0.00158203688454	-0.176914092622	
! Port Impedance	50.00000000000000	0.00000000000000	
746.25	0.00205603949318	-0.174731948644	
! Port Impedance	50.00000000000000	0.00000000000000	
747.5	0.00154470188961	-0.176363047611	
! Port Impedance	50.00000000000000	0.00000000000000	
748.75	0.000717492390574	-0.175726604117	
! Port Impedance	50.00000000000000	0.00000000000000	
750.0	0.000566640065397	-0.174713164896	
! Port Impedance	50.00000000000000	0.00000000000000	
