!Created with mwavepy.
# GHz S RI R 50.0 
!freq	ReS11	ImS11	
500.0	-0.99547670018	0.0919888612965	
! Port Impedance	50.00000000000000	0.00000000000000	
501.25	-1.01210670424	-0.0227728710188	
! Port Impedance	50.00000000000000	0.00000000000000	
502.5	-0.972678099006	-0.011968382514	
! Port Impedance	50.00000000000000	0.00000000000000	
503.75	-0.995360385957	-0.00248807626276	
! Port Impedance	50.00000000000000	0.00000000000000	
505.0	-0.984033515862	0.00113289321853	
! Port Impedance	50.00000000000000	0.00000000000000	
506.25	-0.998469569645	0.0119261677659	
! Port Impedance	50.00000000000000	0.00000000000000	
507.5	-0.997926564849	0.00946005898816	
! Port Impedance	50.00000000000000	0.00000000000000	
508.75	-0.999744159859	-0.00130016046461	
! Port Impedance	50.00000000000000	0.00000000000000	
510.0	-1.00054440038	0.000285389037453	
! Port Impedance	50.00000000000000	0.00000000000000	
511.25	-0.998665997917	0.00492536900862	
! Port Impedance	50.00000000000000	0.00000000000000	
512.5	-1.02078101256	-0.0207211982111	
! Port Impedance	50.00000000000000	0.00000000000000	
513.75	-0.983372987718	-0.0237996724967	
! Port Impedance	50.00000000000000	0.00000000000000	
515.0	-1.00161113926	-0.00273855194351	
! Port Impedance	50.00000000000000	0.00000000000000	
516.25	-1.01359104587	0.00710345721249	
! Port Impedance	50.00000000000000	0.00000000000000	
517.5	-1.01318608653	0.00667964150019	
! Port Impedance	50.00000000000000	0.00000000000000	
518.75	-1.00453930541	0.00600247989706	
! Port Impedance	50.00000000000000	0.00000000000000	
520.0	-1.00168176654	-0.00932822889313	
! Port Impedance	50.00000000000000	0.00000000000000	
521.25	-1.00277362767	-0.0102818018431	
! Port Impedance	50.00000000000000	0.00000000000000	
522.5	-0.998445284558	-0.00397263966444	
! Port Impedance	50.00000000000000	0.00000000000000	
523.75	-1.00086534071	-0.00416867074612	
! Port Impedance	50.00000000000000	0.00000000000000	
525.0	-1.00285279734	-0.0101023398985	
! Port Impedance	50.00000000000000	0.00000000000000	
526.25	-1.00086634249	-0.00245257439762	
! Port Impedance	50.00000000000000	0.00000000000000	
527.5	-0.998731286876	-0.00429664989804	
! Port Impedance	50.00000000000000	0.00000000000000	
528.75	-0.999429296042	-0.00699154494075	
! Port Impedance	50.00000000000000	0.00000000000000	
530.0	-0.997091598584	-0.00486715869798	
! Port Impedance	50.00000000000000	0.00000000000000	
531.25	-1.00036281822	-0.00573922397159	
! Port Impedance	50.00000000000000	0.00000000000000	
532.5	-0.999421097676	-0.00693464134795	
! Port Impedance	50.00000000000000	0.00000000000000	
533.75	-1.00032515877	-0.0033329784091	
! Port Impedance	50.00000000000000	0.00000000000000	
535.0	-0.997621542213	-0.00452427876653	
! Port Impedance	50.00000000000000	0.00000000000000	
536.25	-0.998719421026	-0.00198507220065	
! Port Impedance	50.00000000000000	0.00000000000000	
537.5	-0.999457712445	-0.00372522961876	
! Port Impedance	50.00000000000000	0.00000000000000	
538.75	-0.999350188847	-0.00213055576064	
! Port Impedance	50.00000000000000	0.00000000000000	
540.0	-0.999075770989	-0.00365421195803	
! Port Impedance	50.00000000000000	0.00000000000000	
541.25	-0.998314694693	-0.00326925532082	
! Port Impedance	50.00000000000000	0.00000000000000	
542.5	-0.998537727217	-0.00272652161484	
! Port Impedance	50.00000000000000	0.00000000000000	
543.75	-0.998631914947	-0.00709389082711	
! Port Impedance	50.00000000000000	0.00000000000000	
545.0	-0.998828388624	-0.00600964933648	
! Port Impedance	50.00000000000000	0.00000000000000	
546.25	-0.999185326753	-0.00547175634918	
! Port Impedance	50.00000000000000	0.00000000000000	
547.5	-0.999422761444	-0.00550497123293	
! Port Impedance	50.00000000000000	0.00000000000000	
548.75	-1.00008889477	-0.00522137159388	
! Port Impedance	50.00000000000000	0.00000000000000	
550.0	-1.00158246876	-0.0040932752644	
! Port Impedance	50.00000000000000	0.00000000000000	
551.25	-1.00123654048	-0.00418220627889	
! Port Impedance	50.00000000000000	0.00000000000000	
552.5	-0.998873231576	-0.00328759148271	
! Port Impedance	50.00000000000000	0.00000000000000	
553.75	-0.998123894744	-0.0052449513412	
! Port Impedance	50.00000000000000	0.00000000000000	
555.0	-0.999165297704	-0.00817992175792	
! Port Impedance	50.00000000000000	0.00000000000000	
556.25	-0.99859233288	-0.00568046004088	
! Port Impedance	50.00000000000000	0.00000000000000	
557.5	-0.995800380515	-0.00842222199391	
! Port Impedance	50.00000000000000	0.00000000000000	
558.75	-0.996401171348	-0.00864681254521	
! Port Impedance	50.00000000000000	0.00000000000000	
560.0	-0.998348267965	-0.00558458492172	
! Port Impedance	50.00000000000000	0.00000000000000	
561.25	-0.999224809911	-0.00601721783246	
! Port Impedance	50.00000000000000	0.00000000000000	
562.5	-0.99913142903	-0.00223655184529	
! Port Impedance	50.00000000000000	0.00000000000000	
563.75	-0.997958938634	-0.00562355750355	
! Port Impedance	50.00000000000000	0.00000000000000	
565.0	-0.997924127953	-0.0147136678184	
! Port Impedance	50.00000000000000	0.00000000000000	
566.25	-0.998035072593	-0.00383640533904	
! Port Impedance	50.00000000000000	0.00000000000000	
567.5	-0.998014750069	-0.00574235477863	
! Port Impedance	50.00000000000000	0.00000000000000	
568.75	-0.997373202735	-0.00258767643679	
! Port Impedance	50.00000000000000	0.00000000000000	
570.0	-0.998668292798	-0.00319467148693	
! Port Impedance	50.00000000000000	0.00000000000000	
571.25	-1.00057174688	-0.0112370422561	
! Port Impedance	50.00000000000000	0.00000000000000	
572.5	-0.998416630202	-0.00246358359546	
! Port Impedance	50.00000000000000	0.00000000000000	
573.75	-0.999187422895	-0.000210342071588	
! Port Impedance	50.00000000000000	0.00000000000000	
575.0	-0.998550040391	0.00120522668336	
! Port Impedance	50.00000000000000	0.00000000000000	
576.25	-0.999163976021	0.000439482168089	
! Port Impedance	50.00000000000000	0.00000000000000	
577.5	-0.999277601457	0.00149548837032	
! Port Impedance	50.00000000000000	0.00000000000000	
578.75	-0.999633210639	0.000680872329487	
! Port Impedance	50.00000000000000	0.00000000000000	
580.0	-0.998823330279	0.000291831966279	
! Port Impedance	50.00000000000000	0.00000000000000	
581.25	-0.998306552989	0.000886124884761	
! Port Impedance	50.00000000000000	0.00000000000000	
582.5	-0.998864147411	-0.000328632637536	
! Port Impedance	50.00000000000000	0.00000000000000	
583.75	-0.9990931826	0.000621686016928	
! Port Impedance	50.00000000000000	0.00000000000000	
585.0	-0.998788383459	0.000875711737934	
! Port Impedance	50.00000000000000	0.00000000000000	
586.25	-0.998282603737	0.000183277910011	
! Port Impedance	50.00000000000000	0.00000000000000	
587.5	-0.998762660657	0.000690181885231	
! Port Impedance	50.00000000000000	0.00000000000000	
588.75	-0.998981589066	0.00191028333341	
! Port Impedance	50.00000000000000	0.00000000000000	
590.0	-0.99850165391	0.000561227563757	
! Port Impedance	50.00000000000000	0.00000000000000	
591.25	-0.998254972676	0.00141772085915	
! Port Impedance	50.00000000000000	0.00000000000000	
592.5	-0.998454984816	-0.000577884809873	
! Port Impedance	50.00000000000000	0.00000000000000	
593.75	-0.998866445238	-0.00018419580714	
! Port Impedance	50.00000000000000	0.00000000000000	
595.0	-0.998935540232	0.000131505094382	
! Port Impedance	50.00000000000000	0.00000000000000	
596.25	-0.99841979175	-0.0010222054502	
! Port Impedance	50.00000000000000	0.00000000000000	
597.5	-0.99796968024	-0.00086843016009	
! Port Impedance	50.00000000000000	0.00000000000000	
598.75	-0.999114631437	-0.000645877880751	
! Port Impedance	50.00000000000000	0.00000000000000	
600.0	-0.998573968121	-0.000109735971109	
! Port Impedance	50.00000000000000	0.00000000000000	
601.25	-0.999224395846	-0.00229944547221	
! Port Impedance	50.00000000000000	0.00000000000000	
602.5	-0.998995774888	-0.000493932039625	
! Port Impedance	50.00000000000000	0.00000000000000	
603.75	-0.998947639508	0.000110728386495	
! Port Impedance	50.00000000000000	0.00000000000000	
605.0	-0.997955218531	0.000712435383132	
! Port Impedance	50.00000000000000	0.00000000000000	
606.25	-0.999095977264	-0.000404578109766	
! Port Impedance	50.00000000000000	0.00000000000000	
607.5	-0.998454515096	0.000108515228598	
! Port Impedance	50.00000000000000	0.00000000000000	
608.75	-0.999183872185	-0.000997856242821	
! Port Impedance	50.00000000000000	0.00000000000000	
610.0	-0.998713268555	-0.00111856538085	
! Port Impedance	50.00000000000000	0.00000000000000	
611.25	-0.998343033847	-0.000969098194114	
! Port Impedance	50.00000000000000	0.00000000000000	
612.5	-0.99926233607	0.00426136128139	
! Port Impedance	50.00000000000000	0.00000000000000	
613.75	-0.998533179931	-0.00226185400297	
! Port Impedance	50.00000000000000	0.00000000000000	
615.0	-1.00019074727	-0.00152835354114	
! Port Impedance	50.00000000000000	0.00000000000000	
616.25	-1.00003299591	-0.0021570844034	
! Port Impedance	50.00000000000000	0.00000000000000	
617.5	-0.999504041332	-0.0011187748202	
! Port Impedance	50.00000000000000	0.00000000000000	
618.75	-0.999213044376	0.000201398603333	
! Port Impedance	50.00000000000000	0.00000000000000	
620.0	-1.00016773291	-0.000356248252152	
! Port Impedance	50.00000000000000	0.00000000000000	
621.25	-0.999823882242	-0.00104826255674	
! Port Impedance	50.00000000000000	0.00000000000000	
622.5	-0.99944353442	-0.000682011909331	
! Port Impedance	50.00000000000000	0.00000000000000	
623.75	-0.999425394097	-0.000109902828765	
! Port Impedance	50.00000000000000	0.00000000000000	
625.0	-0.999462817067	-0.00071946991194	
! Port Impedance	50.00000000000000	0.00000000000000	
626.25	-0.998698056498	-0.000598260352672	
! Port Impedance	50.00000000000000	0.00000000000000	
627.5	-0.999480286135	-0.00426195241755	
! Port Impedance	50.00000000000000	0.00000000000000	
628.75	-1.00033192999	0.000468254392907	
! Port Impedance	50.00000000000000	0.00000000000000	
630.0	-1.00047856687	-0.00418560395775	
! Port Impedance	50.00000000000000	0.00000000000000	
631.25	-0.998472591388	-0.000535948968948	
! Port Impedance	50.00000000000000	0.00000000000000	
632.5	-0.999497211235	0.000706902752433	
! Port Impedance	50.00000000000000	0.00000000000000	
633.75	-0.999887288415	-0.000234048725581	
! Port Impedance	50.00000000000000	0.00000000000000	
635.0	-0.999494326079	0.00144244261237	
! Port Impedance	50.00000000000000	0.00000000000000	
636.25	-0.999513431101	0.000175073542509	
! Port Impedance	50.00000000000000	0.00000000000000	
637.5	-0.999740582251	0.000361570791535	
! Port Impedance	50.00000000000000	0.00000000000000	
638.75	-0.999331386102	-0.00186715625393	
! Port Impedance	50.00000000000000	0.00000000000000	
640.0	-0.99963383262	-0.000961518615274	
! Port Impedance	50.00000000000000	0.00000000000000	
641.25	-0.999685378882	-0.00118283694489	
! Port Impedance	50.00000000000000	0.00000000000000	
642.5	-1.00013092612	-0.000876462376504	
! Port Impedance	50.00000000000000	0.00000000000000	
643.75	-0.999942747201	-0.000990671368266	
! Port Impedance	50.00000000000000	0.00000000000000	
645.0	-0.999458923166	-0.00164699542519	
! Port Impedance	50.00000000000000	0.00000000000000	
646.25	-0.999502965201	-0.000922499135828	
! Port Impedance	50.00000000000000	0.00000000000000	
647.5	-1.00012411598	-0.00119691863498	
! Port Impedance	50.00000000000000	0.00000000000000	
648.75	-0.999707310979	-0.000956857846919	
! Port Impedance	50.00000000000000	0.00000000000000	
650.0	-0.999545192145	-0.000823924296761	
! Port Impedance	50.00000000000000	0.00000000000000	
651.25	-1.00006501598	-0.000723569617359	
! Port Impedance	50.00000000000000	0.00000000000000	
652.5	-0.999699546949	-0.00131708188832	
! Port Impedance	50.00000000000000	0.00000000000000	
653.75	-1.00002901109	0.000674972421383	
! Port Impedance	50.00000000000000	0.00000000000000	
655.0	-0.998927257186	0.0071416442535	
! Port Impedance	50.00000000000000	0.00000000000000	
656.25	-0.999785799196	0.00191287668991	
! Port Impedance	50.00000000000000	0.00000000000000	
657.5	-0.998827155228	-0.00144638192197	
! Port Impedance	50.00000000000000	0.00000000000000	
658.75	-0.998843385117	-0.00155382318521	
! Port Impedance	50.00000000000000	0.00000000000000	
660.0	-0.999709384644	-0.000895406914892	
! Port Impedance	50.00000000000000	0.00000000000000	
661.25	-0.999971523319	-0.000941020205614	
! Port Impedance	50.00000000000000	0.00000000000000	
662.5	-0.999905593908	-0.00110496011916	
! Port Impedance	50.00000000000000	0.00000000000000	
663.75	-0.999749288113	-0.000785085356424	
! Port Impedance	50.00000000000000	0.00000000000000	
665.0	-0.999215012892	7.98199847854e-05	
! Port Impedance	50.00000000000000	0.00000000000000	
666.25	-0.999953259296	-0.00146633725482	
! Port Impedance	50.00000000000000	0.00000000000000	
667.5	-1.00029557844	-0.00121912740876	
! Port Impedance	50.00000000000000	0.00000000000000	
668.75	-0.999875241138	4.94530827364e-05	
! Port Impedance	50.00000000000000	0.00000000000000	
670.0	-0.999937404828	-0.00037880053012	
! Port Impedance	50.00000000000000	0.00000000000000	
671.25	-0.999846019196	-0.000738376295605	
! Port Impedance	50.00000000000000	0.00000000000000	
672.5	-1.00006041467	-0.000326156801553	
! Port Impedance	50.00000000000000	0.00000000000000	
673.75	-1.00057329827	0.000517634196387	
! Port Impedance	50.00000000000000	0.00000000000000	
675.0	-1.0005605169	-0.00135976135031	
! Port Impedance	50.00000000000000	0.00000000000000	
676.25	-0.999788724214	0.000888282624946	
! Port Impedance	50.00000000000000	0.00000000000000	
677.5	-1.00011277736	0.00356172354801	
! Port Impedance	50.00000000000000	0.00000000000000	
678.75	-1.00119973225	0.00261964213298	
! Port Impedance	50.00000000000000	0.00000000000000	
680.0	-0.999930639768	0.000676623436812	
! Port Impedance	50.00000000000000	0.00000000000000	
681.25	-1.00030061901	-0.000633994794625	
! Port Impedance	50.00000000000000	0.00000000000000	
682.5	-1.00015001262	0.000132142014104	
! Port Impedance	50.00000000000000	0.00000000000000	
683.75	-1.0005266215	0.000445307091129	
! Port Impedance	50.00000000000000	0.00000000000000	
685.0	-0.999868752407	-0.00028195328862	
! Port Impedance	50.00000000000000	0.00000000000000	
686.25	-0.999974136496	0.000309921364781	
! Port Impedance	50.00000000000000	0.00000000000000	
687.5	-1.00082798507	0.00049417756561	
! Port Impedance	50.00000000000000	0.00000000000000	
688.75	-1.00059958059	0.000371284982385	
! Port Impedance	50.00000000000000	0.00000000000000	
690.0	-1.00075082068	0.00114416727284	
! Port Impedance	50.00000000000000	0.00000000000000	
691.25	-1.00042977858	0.000654238912265	
! Port Impedance	50.00000000000000	0.00000000000000	
692.5	-1.00011343298	0.00582769249653	
! Port Impedance	50.00000000000000	0.00000000000000	
693.75	-1.00052946135	0.013189874856	
! Port Impedance	50.00000000000000	0.00000000000000	
695.0	-0.999568663429	0.00881741294134	
! Port Impedance	50.00000000000000	0.00000000000000	
696.25	-1.00007766894	0.00844118839146	
! Port Impedance	50.00000000000000	0.00000000000000	
697.5	-1.00065068633	0.00401235297763	
! Port Impedance	50.00000000000000	0.00000000000000	
698.75	-0.999889944115	0.00390756825768	
! Port Impedance	50.00000000000000	0.00000000000000	
700.0	-1.00018669365	0.00114049092051	
! Port Impedance	50.00000000000000	0.00000000000000	
701.25	-0.999576911376	0.00156913211285	
! Port Impedance	50.00000000000000	0.00000000000000	
702.5	-0.999409926736	0.00172589696325	
! Port Impedance	50.00000000000000	0.00000000000000	
703.75	-0.999210022914	0.0049892244763	
! Port Impedance	50.00000000000000	0.00000000000000	
705.0	-0.999037781245	0.00276155714815	
! Port Impedance	50.00000000000000	0.00000000000000	
706.25	-0.999091576948	0.00102453009749	
! Port Impedance	50.00000000000000	0.00000000000000	
707.5	-0.999491870489	0.00164924835087	
! Port Impedance	50.00000000000000	0.00000000000000	
708.75	-0.999284283112	0.00164501467198	
! Port Impedance	50.00000000000000	0.00000000000000	
710.0	-0.998822857534	0.00100009094015	
! Port Impedance	50.00000000000000	0.00000000000000	
711.25	-0.999140055502	0.000934456113228	
! Port Impedance	50.00000000000000	0.00000000000000	
712.5	-0.998645650459	0.000967469020557	
! Port Impedance	50.00000000000000	0.00000000000000	
713.75	-0.998935871409	0.00180680462407	
! Port Impedance	50.00000000000000	0.00000000000000	
715.0	-0.998733067851	0.00840855339127	
! Port Impedance	50.00000000000000	0.00000000000000	
716.25	-0.997553056894	0.00814918926086	
! Port Impedance	50.00000000000000	0.00000000000000	
717.5	-0.999062661672	0.00378345614975	
! Port Impedance	50.00000000000000	0.00000000000000	
718.75	-0.998332544355	0.00340728722898	
! Port Impedance	50.00000000000000	0.00000000000000	
720.0	-0.998735285763	0.00154235431194	
! Port Impedance	50.00000000000000	0.00000000000000	
721.25	-0.998206263232	0.00378992281642	
! Port Impedance	50.00000000000000	0.00000000000000	
722.5	-0.997465586536	0.0054530817456	
! Port Impedance	50.00000000000000	0.00000000000000	
723.75	-0.998801922841	0.00392277411758	
! Port Impedance	50.00000000000000	0.00000000000000	
725.0	-0.998509067928	0.00416404698949	
! Port Impedance	50.00000000000000	0.00000000000000	
726.25	-0.997846310501	0.00743640083583	
! Port Impedance	50.00000000000000	0.00000000000000	
727.5	-0.998620442234	0.00463124538775	
! Port Impedance	50.00000000000000	0.00000000000000	
728.75	-0.99846557038	0.00389451221368	
! Port Impedance	50.00000000000000	0.00000000000000	
730.0	-0.999008692783	0.00382409555821	
! Port Impedance	50.00000000000000	0.00000000000000	
731.25	-0.998621047222	0.00588859980688	
! Port Impedance	50.00000000000000	0.00000000000000	
732.5	-0.997871174124	0.00547255561565	
! Port Impedance	50.00000000000000	0.00000000000000	
733.75	-0.998476546694	0.00275474297227	
! Port Impedance	50.00000000000000	0.00000000000000	
735.0	-0.998800743243	0.000799511911667	
! Port Impedance	50.00000000000000	0.00000000000000	
736.25	-0.998659767428	0.000855140475404	
! Port Impedance	50.00000000000000	0.00000000000000	
737.5	-0.998298872525	0.00105885646702	
! Port Impedance	50.00000000000000	0.00000000000000	
738.75	-0.998371241002	0.00466827764619	
! Port Impedance	50.00000000000000	0.00000000000000	
740.0	-0.998480319602	0.00296060477801	
! Port Impedance	50.00000000000000	0.00000000000000	
741.25	-0.998294911534	0.000795020779204	
! Port Impedance	50.00000000000000	0.00000000000000	
742.5	-0.997661387733	0.00194782166665	
! Port Impedance	50.00000000000000	0.00000000000000	
743.75	-0.997753462512	0.00138879243358	
! Port Impedance	50.00000000000000	0.00000000000000	
745.0	-0.997493020733	0.00102186881637	
! Port Impedance	50.00000000000000	0.00000000000000	
746.25	-0.998805572308	0.00296769335459	
! Port Impedance	50.00000000000000	0.00000000000000	
747.5	-0.996873396495	0.00140847626498	
! Port Impedance	50.00000000000000	0.00000000000000	
748.75	-0.998260992289	0.00107422799233	
! Port Impedance	50.00000000000000	0.00000000000000	
750.0	-0.996539657002	0.00137915320627	
! Port Impedance	50.00000000000000	0.00000000000000	
