!Created with mwavepy.
# GHz S RI R 50.0 
!freq	ReS11	ImS11	
500.0	-1.02239999096	-0.00964555878648	
! Port Impedance	50.00000000000000	0.00000000000000	
501.25	-1.04107322803	0.045481758027	
! Port Impedance	50.00000000000000	0.00000000000000	
502.5	-1.01031527006	0.0117935641312	
! Port Impedance	50.00000000000000	0.00000000000000	
503.75	-1.00531962899	0.00608043517239	
! Port Impedance	50.00000000000000	0.00000000000000	
505.0	-1.00800515248	0.00296321317468	
! Port Impedance	50.00000000000000	0.00000000000000	
506.25	-0.973903291153	-0.00925335852489	
! Port Impedance	50.00000000000000	0.00000000000000	
507.5	-1.00689902646	0.000863512537294	
! Port Impedance	50.00000000000000	0.00000000000000	
508.75	-1.00523024696	0.00768017742655	
! Port Impedance	50.00000000000000	0.00000000000000	
510.0	-1.00124346918	0.0105653818144	
! Port Impedance	50.00000000000000	0.00000000000000	
511.25	-0.996776230746	-0.00534499027386	
! Port Impedance	50.00000000000000	0.00000000000000	
512.5	-1.00810688148	-0.0199259368989	
! Port Impedance	50.00000000000000	0.00000000000000	
513.75	-0.998212695153	0.00368189973742	
! Port Impedance	50.00000000000000	0.00000000000000	
515.0	-1.00062046944	0.00291173480356	
! Port Impedance	50.00000000000000	0.00000000000000	
516.25	-0.999683490366	0.0204686759173	
! Port Impedance	50.00000000000000	0.00000000000000	
517.5	-0.994452477873	0.0026572895686	
! Port Impedance	50.00000000000000	0.00000000000000	
518.75	-1.00401418951	0.00447267903778	
! Port Impedance	50.00000000000000	0.00000000000000	
520.0	-0.993917003154	0.00916166395376	
! Port Impedance	50.00000000000000	0.00000000000000	
521.25	-0.998835312354	0.00716752632968	
! Port Impedance	50.00000000000000	0.00000000000000	
522.5	-0.999425903145	0.00627673845469	
! Port Impedance	50.00000000000000	0.00000000000000	
523.75	-1.00243457719	-0.00191648542486	
! Port Impedance	50.00000000000000	0.00000000000000	
525.0	-0.995311965881	0.0208540032264	
! Port Impedance	50.00000000000000	0.00000000000000	
526.25	-0.998142223685	0.00431963136648	
! Port Impedance	50.00000000000000	0.00000000000000	
527.5	-0.998330485223	0.00484838645621	
! Port Impedance	50.00000000000000	0.00000000000000	
528.75	-0.999656542734	0.00524650532415	
! Port Impedance	50.00000000000000	0.00000000000000	
530.0	-1.00115209796	0.002266808756	
! Port Impedance	50.00000000000000	0.00000000000000	
531.25	-0.996574890784	0.00450898795626	
! Port Impedance	50.00000000000000	0.00000000000000	
532.5	-1.00085302923	0.00524570817029	
! Port Impedance	50.00000000000000	0.00000000000000	
533.75	-0.998111443141	0.00486610033671	
! Port Impedance	50.00000000000000	0.00000000000000	
535.0	-0.999010098154	0.00278192037224	
! Port Impedance	50.00000000000000	0.00000000000000	
536.25	-0.999361417216	0.00191173948606	
! Port Impedance	50.00000000000000	0.00000000000000	
537.5	-0.99909336542	0.00176378035305	
! Port Impedance	50.00000000000000	0.00000000000000	
538.75	-0.998687002572	0.0023018218003	
! Port Impedance	50.00000000000000	0.00000000000000	
540.0	-0.999057210136	0.00231329664953	
! Port Impedance	50.00000000000000	0.00000000000000	
541.25	-0.999446618569	0.00266668039149	
! Port Impedance	50.00000000000000	0.00000000000000	
542.5	-0.999826880987	0.00282839641406	
! Port Impedance	50.00000000000000	0.00000000000000	
543.75	-0.998475636885	0.00200650373286	
! Port Impedance	50.00000000000000	0.00000000000000	
545.0	-0.999152713782	0.0015720073213	
! Port Impedance	50.00000000000000	0.00000000000000	
546.25	-0.998860108768	0.000972613579472	
! Port Impedance	50.00000000000000	0.00000000000000	
547.5	-0.998369859713	0.00159037328309	
! Port Impedance	50.00000000000000	0.00000000000000	
548.75	-0.997834746719	0.00113762488386	
! Port Impedance	50.00000000000000	0.00000000000000	
550.0	-0.998525893835	0.00110902214083	
! Port Impedance	50.00000000000000	0.00000000000000	
551.25	-0.999215886227	-9.00465872783e-06	
! Port Impedance	50.00000000000000	0.00000000000000	
552.5	-1.00044350001	-0.00013545849442	
! Port Impedance	50.00000000000000	0.00000000000000	
553.75	-1.00129960708	-0.00124759414114	
! Port Impedance	50.00000000000000	0.00000000000000	
555.0	-1.00241708865	-2.16056666466e-05	
! Port Impedance	50.00000000000000	0.00000000000000	
556.25	-1.00390872125	0.00140588659712	
! Port Impedance	50.00000000000000	0.00000000000000	
557.5	-1.00471947969	0.00302335606698	
! Port Impedance	50.00000000000000	0.00000000000000	
558.75	-1.00280854231	0.00446549068035	
! Port Impedance	50.00000000000000	0.00000000000000	
560.0	-1.00152138174	0.00699230839046	
! Port Impedance	50.00000000000000	0.00000000000000	
561.25	-1.00082575724	0.00415142200877	
! Port Impedance	50.00000000000000	0.00000000000000	
562.5	-0.9999019048	0.00396034727577	
! Port Impedance	50.00000000000000	0.00000000000000	
563.75	-0.99872702101	0.00433275009819	
! Port Impedance	50.00000000000000	0.00000000000000	
565.0	-0.998872608083	0.00320566227734	
! Port Impedance	50.00000000000000	0.00000000000000	
566.25	-0.999038324977	0.00472160047144	
! Port Impedance	50.00000000000000	0.00000000000000	
567.5	-0.997969363114	0.00343699624359	
! Port Impedance	50.00000000000000	0.00000000000000	
568.75	-0.999041999581	0.0030961446173	
! Port Impedance	50.00000000000000	0.00000000000000	
570.0	-0.998087663955	0.00449504257952	
! Port Impedance	50.00000000000000	0.00000000000000	
571.25	-0.99768218531	0.00275461890815	
! Port Impedance	50.00000000000000	0.00000000000000	
572.5	-0.998519972059	0.00374940665249	
! Port Impedance	50.00000000000000	0.00000000000000	
573.75	-0.998716269307	0.0035978695642	
! Port Impedance	50.00000000000000	0.00000000000000	
575.0	-0.998697781085	0.00198770081566	
! Port Impedance	50.00000000000000	0.00000000000000	
576.25	-0.999055223451	0.0024659241758	
! Port Impedance	50.00000000000000	0.00000000000000	
577.5	-0.998691688607	0.00240448992319	
! Port Impedance	50.00000000000000	0.00000000000000	
578.75	-0.998348428083	0.00214016964389	
! Port Impedance	50.00000000000000	0.00000000000000	
580.0	-0.997943033893	0.0024288042432	
! Port Impedance	50.00000000000000	0.00000000000000	
581.25	-0.998008376919	0.00368262764051	
! Port Impedance	50.00000000000000	0.00000000000000	
582.5	-0.998043362958	0.00404199836656	
! Port Impedance	50.00000000000000	0.00000000000000	
583.75	-0.997401369965	0.0024939413323	
! Port Impedance	50.00000000000000	0.00000000000000	
585.0	-0.997527794223	0.00238707250822	
! Port Impedance	50.00000000000000	0.00000000000000	
586.25	-0.99871282699	0.00324338156709	
! Port Impedance	50.00000000000000	0.00000000000000	
587.5	-0.997869001681	0.00283726496717	
! Port Impedance	50.00000000000000	0.00000000000000	
588.75	-0.997881952686	0.00381139896862	
! Port Impedance	50.00000000000000	0.00000000000000	
590.0	-0.997703920055	0.00387241570226	
! Port Impedance	50.00000000000000	0.00000000000000	
591.25	-0.998582675168	0.00147426645942	
! Port Impedance	50.00000000000000	0.00000000000000	
592.5	-0.99828994577	0.00243886503322	
! Port Impedance	50.00000000000000	0.00000000000000	
593.75	-0.998538081205	0.00394998426924	
! Port Impedance	50.00000000000000	0.00000000000000	
595.0	-0.998354963737	0.00342606826213	
! Port Impedance	50.00000000000000	0.00000000000000	
596.25	-0.998359787569	0.00491787950691	
! Port Impedance	50.00000000000000	0.00000000000000	
597.5	-0.997898635624	0.00441349873731	
! Port Impedance	50.00000000000000	0.00000000000000	
598.75	-0.997069979033	0.00446342982886	
! Port Impedance	50.00000000000000	0.00000000000000	
600.0	-0.997331633048	0.00259138521711	
! Port Impedance	50.00000000000000	0.00000000000000	
601.25	-0.998277067627	0.00109727090534	
! Port Impedance	50.00000000000000	0.00000000000000	
602.5	-0.998160727346	0.00220502398019	
! Port Impedance	50.00000000000000	0.00000000000000	
603.75	-0.998175500106	0.00265081639872	
! Port Impedance	50.00000000000000	0.00000000000000	
605.0	-0.99784053311	0.00152184665242	
! Port Impedance	50.00000000000000	0.00000000000000	
606.25	-0.997843724637	0.00116317420032	
! Port Impedance	50.00000000000000	0.00000000000000	
607.5	-0.997167383852	0.00231727546728	
! Port Impedance	50.00000000000000	0.00000000000000	
608.75	-0.997932015179	0.00114328544356	
! Port Impedance	50.00000000000000	0.00000000000000	
610.0	-0.998025683252	0.0019593474484	
! Port Impedance	50.00000000000000	0.00000000000000	
611.25	-0.997718831185	0.00247646574507	
! Port Impedance	50.00000000000000	0.00000000000000	
612.5	-0.997952880613	0.00416790093221	
! Port Impedance	50.00000000000000	0.00000000000000	
613.75	-0.998811835875	0.00286134735354	
! Port Impedance	50.00000000000000	0.00000000000000	
615.0	-0.998796734681	0.000411943286433	
! Port Impedance	50.00000000000000	0.00000000000000	
616.25	-0.997307406799	0.00300484324886	
! Port Impedance	50.00000000000000	0.00000000000000	
617.5	-0.998842578098	0.00193970903739	
! Port Impedance	50.00000000000000	0.00000000000000	
618.75	-0.998522425435	0.00323953741566	
! Port Impedance	50.00000000000000	0.00000000000000	
620.0	-0.998387094955	0.00264520169778	
! Port Impedance	50.00000000000000	0.00000000000000	
621.25	-0.997861630016	0.00327940137491	
! Port Impedance	50.00000000000000	0.00000000000000	
622.5	-0.998280826989	0.00322590340041	
! Port Impedance	50.00000000000000	0.00000000000000	
623.75	-0.998535208401	0.00166972415426	
! Port Impedance	50.00000000000000	0.00000000000000	
625.0	-0.999030263059	0.00342031078866	
! Port Impedance	50.00000000000000	0.00000000000000	
626.25	-0.998990269176	0.00354882866079	
! Port Impedance	50.00000000000000	0.00000000000000	
627.5	-0.998401138553	0.00318258517087	
! Port Impedance	50.00000000000000	0.00000000000000	
628.75	-0.997602583837	0.0030014706669	
! Port Impedance	50.00000000000000	0.00000000000000	
630.0	-0.99849304189	0.00182720004476	
! Port Impedance	50.00000000000000	0.00000000000000	
631.25	-0.999519626008	0.00214862672842	
! Port Impedance	50.00000000000000	0.00000000000000	
632.5	-0.999228468346	0.00375099806928	
! Port Impedance	50.00000000000000	0.00000000000000	
633.75	-0.997768639311	0.00442640664698	
! Port Impedance	50.00000000000000	0.00000000000000	
635.0	-0.996868709886	0.00420360249338	
! Port Impedance	50.00000000000000	0.00000000000000	
636.25	-0.997914828267	0.00374908870987	
! Port Impedance	50.00000000000000	0.00000000000000	
637.5	-0.998568323018	0.00212188531734	
! Port Impedance	50.00000000000000	0.00000000000000	
638.75	-0.998461357604	0.00367781762076	
! Port Impedance	50.00000000000000	0.00000000000000	
640.0	-0.998633305562	0.00388811526827	
! Port Impedance	50.00000000000000	0.00000000000000	
641.25	-0.997956775607	0.00430225297803	
! Port Impedance	50.00000000000000	0.00000000000000	
642.5	-0.997837115895	0.00433687774486	
! Port Impedance	50.00000000000000	0.00000000000000	
643.75	-0.998727468969	0.00365543514896	
! Port Impedance	50.00000000000000	0.00000000000000	
645.0	-0.997759735523	0.00463733073416	
! Port Impedance	50.00000000000000	0.00000000000000	
646.25	-0.998718361	0.00374253061019	
! Port Impedance	50.00000000000000	0.00000000000000	
647.5	-0.9985086949	0.00300854190192	
! Port Impedance	50.00000000000000	0.00000000000000	
648.75	-0.998569429675	0.00391392456114	
! Port Impedance	50.00000000000000	0.00000000000000	
650.0	-0.998769775968	0.00305311849203	
! Port Impedance	50.00000000000000	0.00000000000000	
651.25	-0.999475240834	0.00419504442836	
! Port Impedance	50.00000000000000	0.00000000000000	
652.5	-0.999179011013	0.00482270172268	
! Port Impedance	50.00000000000000	0.00000000000000	
653.75	-0.998993330903	0.00400925845019	
! Port Impedance	50.00000000000000	0.00000000000000	
655.0	-0.997840201404	0.00465946572951	
! Port Impedance	50.00000000000000	0.00000000000000	
656.25	-0.999007587881	0.0049054615892	
! Port Impedance	50.00000000000000	0.00000000000000	
657.5	-0.999674828377	0.0048501464044	
! Port Impedance	50.00000000000000	0.00000000000000	
658.75	-0.998936147587	0.00623246515396	
! Port Impedance	50.00000000000000	0.00000000000000	
660.0	-0.998294973393	0.00575317077886	
! Port Impedance	50.00000000000000	0.00000000000000	
661.25	-0.997921080226	0.00367976160364	
! Port Impedance	50.00000000000000	0.00000000000000	
662.5	-0.999259324408	0.00338938094872	
! Port Impedance	50.00000000000000	0.00000000000000	
663.75	-0.999571662508	0.00505887939484	
! Port Impedance	50.00000000000000	0.00000000000000	
665.0	-0.999454572986	0.00466469796104	
! Port Impedance	50.00000000000000	0.00000000000000	
666.25	-0.99869144749	0.00526285410235	
! Port Impedance	50.00000000000000	0.00000000000000	
667.5	-0.998277928452	0.00520076685614	
! Port Impedance	50.00000000000000	0.00000000000000	
668.75	-0.998750573229	0.00385511544756	
! Port Impedance	50.00000000000000	0.00000000000000	
670.0	-1.00005231937	0.00368209022696	
! Port Impedance	50.00000000000000	0.00000000000000	
671.25	-0.998419803025	0.00451058970463	
! Port Impedance	50.00000000000000	0.00000000000000	
672.5	-0.998436898844	0.00497846356391	
! Port Impedance	50.00000000000000	0.00000000000000	
673.75	-0.999544007596	0.00448681201237	
! Port Impedance	50.00000000000000	0.00000000000000	
675.0	-1.00026159669	0.00416887944989	
! Port Impedance	50.00000000000000	0.00000000000000	
676.25	-0.999682319938	0.00493684712393	
! Port Impedance	50.00000000000000	0.00000000000000	
677.5	-0.998420011247	0.00435283308808	
! Port Impedance	50.00000000000000	0.00000000000000	
678.75	-0.99871680926	0.0048207949112	
! Port Impedance	50.00000000000000	0.00000000000000	
680.0	-0.999417327411	0.00505385122994	
! Port Impedance	50.00000000000000	0.00000000000000	
681.25	-0.999900523666	0.00585332599395	
! Port Impedance	50.00000000000000	0.00000000000000	
682.5	-0.99936349227	0.00610838346421	
! Port Impedance	50.00000000000000	0.00000000000000	
683.75	-0.998944208639	0.00547923867601	
! Port Impedance	50.00000000000000	0.00000000000000	
685.0	-0.999736694894	0.00541772392142	
! Port Impedance	50.00000000000000	0.00000000000000	
686.25	-0.999226442506	0.00497938234336	
! Port Impedance	50.00000000000000	0.00000000000000	
687.5	-0.999412430372	0.00632528168235	
! Port Impedance	50.00000000000000	0.00000000000000	
688.75	-0.998524066711	0.00694245832917	
! Port Impedance	50.00000000000000	0.00000000000000	
690.0	-0.997361630674	0.00635432184888	
! Port Impedance	50.00000000000000	0.00000000000000	
691.25	-0.997814530085	0.00593137822344	
! Port Impedance	50.00000000000000	0.00000000000000	
692.5	-0.998901772429	0.00715758986465	
! Port Impedance	50.00000000000000	0.00000000000000	
693.75	-0.998156599905	0.00537055641071	
! Port Impedance	50.00000000000000	0.00000000000000	
695.0	-0.997671852099	0.00519146221299	
! Port Impedance	50.00000000000000	0.00000000000000	
696.25	-0.995777225085	0.00521000088533	
! Port Impedance	50.00000000000000	0.00000000000000	
697.5	-0.997493024876	0.00602999055139	
! Port Impedance	50.00000000000000	0.00000000000000	
698.75	-0.998104064994	0.00623662730923	
! Port Impedance	50.00000000000000	0.00000000000000	
700.0	-0.997013001989	0.00671700672161	
! Port Impedance	50.00000000000000	0.00000000000000	
701.25	-0.997642739243	0.00463858813525	
! Port Impedance	50.00000000000000	0.00000000000000	
702.5	-0.99751143859	0.00543639868427	
! Port Impedance	50.00000000000000	0.00000000000000	
703.75	-0.997901488227	0.00574743543048	
! Port Impedance	50.00000000000000	0.00000000000000	
705.0	-0.997711728145	0.00494641780501	
! Port Impedance	50.00000000000000	0.00000000000000	
706.25	-0.996905767966	0.00606472841306	
! Port Impedance	50.00000000000000	0.00000000000000	
707.5	-0.997252632403	0.00537235455714	
! Port Impedance	50.00000000000000	0.00000000000000	
708.75	-0.997687945038	0.00616180442279	
! Port Impedance	50.00000000000000	0.00000000000000	
710.0	-0.99682301575	0.00577335754257	
! Port Impedance	50.00000000000000	0.00000000000000	
711.25	-0.996689717439	0.00651119571325	
! Port Impedance	50.00000000000000	0.00000000000000	
712.5	-0.997420507921	0.0054550439902	
! Port Impedance	50.00000000000000	0.00000000000000	
713.75	-0.997664866015	0.00577102334043	
! Port Impedance	50.00000000000000	0.00000000000000	
715.0	-0.997078975126	0.00578768189712	
! Port Impedance	50.00000000000000	0.00000000000000	
716.25	-0.996122364618	0.00542311029538	
! Port Impedance	50.00000000000000	0.00000000000000	
717.5	-0.996577398947	0.00488222532756	
! Port Impedance	50.00000000000000	0.00000000000000	
718.75	-0.9970097539	0.00443778541558	
! Port Impedance	50.00000000000000	0.00000000000000	
720.0	-0.997188608028	0.00509158014725	
! Port Impedance	50.00000000000000	0.00000000000000	
721.25	-0.996153462126	0.00494782359601	
! Port Impedance	50.00000000000000	0.00000000000000	
722.5	-0.99642855852	0.00462757456644	
! Port Impedance	50.00000000000000	0.00000000000000	
723.75	-0.996956892395	0.00378829036438	
! Port Impedance	50.00000000000000	0.00000000000000	
725.0	-0.997331183031	0.00494770503737	
! Port Impedance	50.00000000000000	0.00000000000000	
726.25	-0.996602814255	0.00515116384992	
! Port Impedance	50.00000000000000	0.00000000000000	
727.5	-0.996044355386	0.00515067230102	
! Port Impedance	50.00000000000000	0.00000000000000	
728.75	-0.997286537691	0.0044311449782	
! Port Impedance	50.00000000000000	0.00000000000000	
730.0	-0.996337995058	0.00621109744039	
! Port Impedance	50.00000000000000	0.00000000000000	
731.25	-0.995611395802	0.00482428110353	
! Port Impedance	50.00000000000000	0.00000000000000	
732.5	-0.996624931473	0.00456553072803	
! Port Impedance	50.00000000000000	0.00000000000000	
733.75	-0.996672472194	0.00394193135598	
! Port Impedance	50.00000000000000	0.00000000000000	
735.0	-0.99689189072	0.00472627651038	
! Port Impedance	50.00000000000000	0.00000000000000	
736.25	-0.995539757596	0.00431331897763	
! Port Impedance	50.00000000000000	0.00000000000000	
737.5	-0.996858874912	0.00344902842857	
! Port Impedance	50.00000000000000	0.00000000000000	
738.75	-0.996326322933	0.00355466884752	
! Port Impedance	50.00000000000000	0.00000000000000	
740.0	-0.996641291077	0.00465455847744	
! Port Impedance	50.00000000000000	0.00000000000000	
741.25	-0.996130744952	0.00644728840014	
! Port Impedance	50.00000000000000	0.00000000000000	
742.5	-0.994780461086	0.00392311860028	
! Port Impedance	50.00000000000000	0.00000000000000	
743.75	-0.996691235402	0.00259671882447	
! Port Impedance	50.00000000000000	0.00000000000000	
745.0	-0.997832489415	0.00428559352785	
! Port Impedance	50.00000000000000	0.00000000000000	
746.25	-0.996502054397	0.00321742486418	
! Port Impedance	50.00000000000000	0.00000000000000	
747.5	-0.99626801656	0.002876454358	
! Port Impedance	50.00000000000000	0.00000000000000	
748.75	-0.996249933536	0.00297914425911	
! Port Impedance	50.00000000000000	0.00000000000000	
750.0	-0.998835002662	0.00388844750146	
! Port Impedance	50.00000000000000	0.00000000000000	
