!Created with mwavepy.
# GHz S RI R 50.0 
!freq	ReS11	ImS11	
500.0	-0.899639098769	-0.0739369671675	
! Port Impedance	50.00000000000000	0.00000000000000	
501.25	-0.985204055693	-0.0286477462632	
! Port Impedance	50.00000000000000	0.00000000000000	
502.5	-1.02509848332	-0.00178019900066	
! Port Impedance	50.00000000000000	0.00000000000000	
503.75	-0.99902780603	-0.00515339346099	
! Port Impedance	50.00000000000000	0.00000000000000	
505.0	-1.01239821368	-0.00138066325045	
! Port Impedance	50.00000000000000	0.00000000000000	
506.25	-1.00648910242	-0.0188398893873	
! Port Impedance	50.00000000000000	0.00000000000000	
507.5	-1.00557857353	-0.00665806709204	
! Port Impedance	50.00000000000000	0.00000000000000	
508.75	-1.00190786398	-0.00331474684001	
! Port Impedance	50.00000000000000	0.00000000000000	
510.0	-0.997113900097	-0.0114171048692	
! Port Impedance	50.00000000000000	0.00000000000000	
511.25	-1.00186195502	-0.00575182469954	
! Port Impedance	50.00000000000000	0.00000000000000	
512.5	-0.977178732609	-0.0100888598138	
! Port Impedance	50.00000000000000	0.00000000000000	
513.75	-1.00378028882	-0.0227263378138	
! Port Impedance	50.00000000000000	0.00000000000000	
515.0	-0.996005163321	-0.0107053673393	
! Port Impedance	50.00000000000000	0.00000000000000	
516.25	-1.00311573862	-0.0265081331871	
! Port Impedance	50.00000000000000	0.00000000000000	
517.5	-1.0074369046	-0.00374604609188	
! Port Impedance	50.00000000000000	0.00000000000000	
518.75	-0.995979195758	-0.00161169738248	
! Port Impedance	50.00000000000000	0.00000000000000	
520.0	-1.00155597236	-0.0010126476433	
! Port Impedance	50.00000000000000	0.00000000000000	
521.25	-1.00045094812	-0.00858984438345	
! Port Impedance	50.00000000000000	0.00000000000000	
522.5	-0.999428835771	-0.00835356085424	
! Port Impedance	50.00000000000000	0.00000000000000	
523.75	-1.00026096699	-0.00597001869211	
! Port Impedance	50.00000000000000	0.00000000000000	
525.0	-0.995420965218	-0.0105550437327	
! Port Impedance	50.00000000000000	0.00000000000000	
526.25	-1.00116102973	-0.0097966626081	
! Port Impedance	50.00000000000000	0.00000000000000	
527.5	-0.999248335706	-0.00820109663394	
! Port Impedance	50.00000000000000	0.00000000000000	
528.75	-0.998065703073	-0.00865371464454	
! Port Impedance	50.00000000000000	0.00000000000000	
530.0	-1.00048718224	-0.00846918393066	
! Port Impedance	50.00000000000000	0.00000000000000	
531.25	-1.00080861778	-0.00892650856067	
! Port Impedance	50.00000000000000	0.00000000000000	
532.5	-0.998711967961	-0.00681140067988	
! Port Impedance	50.00000000000000	0.00000000000000	
533.75	-1.00031596552	-0.00609861328975	
! Port Impedance	50.00000000000000	0.00000000000000	
535.0	-1.00017624515	-0.00622902415787	
! Port Impedance	50.00000000000000	0.00000000000000	
536.25	-0.999179212799	-0.0047726514099	
! Port Impedance	50.00000000000000	0.00000000000000	
537.5	-0.999296763618	-0.00699060823327	
! Port Impedance	50.00000000000000	0.00000000000000	
538.75	-0.999720200547	-0.0050153330032	
! Port Impedance	50.00000000000000	0.00000000000000	
540.0	-0.999178759046	-0.00558818656454	
! Port Impedance	50.00000000000000	0.00000000000000	
541.25	-0.998191008459	-0.00421950207531	
! Port Impedance	50.00000000000000	0.00000000000000	
542.5	-0.998666878105	-0.00307496824429	
! Port Impedance	50.00000000000000	0.00000000000000	
543.75	-0.999642868465	-0.0094764130805	
! Port Impedance	50.00000000000000	0.00000000000000	
545.0	-0.999468267706	-0.00776817162482	
! Port Impedance	50.00000000000000	0.00000000000000	
546.25	-0.999621023682	-0.00682877194086	
! Port Impedance	50.00000000000000	0.00000000000000	
547.5	-0.99906165567	-0.0077368906276	
! Port Impedance	50.00000000000000	0.00000000000000	
548.75	-0.999735125461	-0.00566482641374	
! Port Impedance	50.00000000000000	0.00000000000000	
550.0	-1.000864208	-0.00618299797666	
! Port Impedance	50.00000000000000	0.00000000000000	
551.25	-1.00035476486	-0.00530953736195	
! Port Impedance	50.00000000000000	0.00000000000000	
552.5	-0.99822571604	-0.00238463363431	
! Port Impedance	50.00000000000000	0.00000000000000	
553.75	-0.997209175076	-0.00571499560777	
! Port Impedance	50.00000000000000	0.00000000000000	
555.0	-0.997918449119	-0.00954714034548	
! Port Impedance	50.00000000000000	0.00000000000000	
556.25	-0.996160831607	-0.00627249291541	
! Port Impedance	50.00000000000000	0.00000000000000	
557.5	-0.99286762759	-0.00998894114128	
! Port Impedance	50.00000000000000	0.00000000000000	
558.75	-0.994999948677	-0.0108699442715	
! Port Impedance	50.00000000000000	0.00000000000000	
560.0	-0.997222515552	-0.00877403067486	
! Port Impedance	50.00000000000000	0.00000000000000	
561.25	-0.99754216019	-0.0070109710333	
! Port Impedance	50.00000000000000	0.00000000000000	
562.5	-0.997977568432	-0.00598602708225	
! Port Impedance	50.00000000000000	0.00000000000000	
563.75	-0.999044209105	-0.00806524405996	
! Port Impedance	50.00000000000000	0.00000000000000	
565.0	-0.997926864143	-0.0182741013577	
! Port Impedance	50.00000000000000	0.00000000000000	
566.25	-0.998675037919	-0.00627869156896	
! Port Impedance	50.00000000000000	0.00000000000000	
567.5	-0.998197996849	-0.00700257479246	
! Port Impedance	50.00000000000000	0.00000000000000	
568.75	-0.997276087598	-0.00519449339052	
! Port Impedance	50.00000000000000	0.00000000000000	
570.0	-0.999080790702	-0.003904564504	
! Port Impedance	50.00000000000000	0.00000000000000	
571.25	-0.999759190124	-0.0116627585225	
! Port Impedance	50.00000000000000	0.00000000000000	
572.5	-0.999074984929	-0.00328502508627	
! Port Impedance	50.00000000000000	0.00000000000000	
573.75	-0.998490259254	-4.87860795716e-05	
! Port Impedance	50.00000000000000	0.00000000000000	
575.0	-0.998726419872	-0.000792140899832	
! Port Impedance	50.00000000000000	0.00000000000000	
576.25	-0.9987753272	-0.00115087902002	
! Port Impedance	50.00000000000000	0.00000000000000	
577.5	-0.99895643356	-0.00114720797244	
! Port Impedance	50.00000000000000	0.00000000000000	
578.75	-0.999326130714	-0.000431301200089	
! Port Impedance	50.00000000000000	0.00000000000000	
580.0	-0.999318175824	-0.000181224552234	
! Port Impedance	50.00000000000000	0.00000000000000	
581.25	-0.999261034012	-0.00194145438895	
! Port Impedance	50.00000000000000	0.00000000000000	
582.5	-0.99827582175	-3.97214225159e-05	
! Port Impedance	50.00000000000000	0.00000000000000	
583.75	-0.99952673972	-0.00198144728859	
! Port Impedance	50.00000000000000	0.00000000000000	
585.0	-0.998788094852	-0.00187260084194	
! Port Impedance	50.00000000000000	0.00000000000000	
586.25	-0.998739787535	-0.00116062767219	
! Port Impedance	50.00000000000000	0.00000000000000	
587.5	-0.99915181293	-0.00257338948769	
! Port Impedance	50.00000000000000	0.00000000000000	
588.75	-0.999343866727	0.000193318352042	
! Port Impedance	50.00000000000000	0.00000000000000	
590.0	-0.99868360626	-0.000626073679739	
! Port Impedance	50.00000000000000	0.00000000000000	
591.25	-0.998249823239	-0.00234594997042	
! Port Impedance	50.00000000000000	0.00000000000000	
592.5	-0.998630087475	-0.000605233778357	
! Port Impedance	50.00000000000000	0.00000000000000	
593.75	-0.999072553001	-0.0014269737768	
! Port Impedance	50.00000000000000	0.00000000000000	
595.0	-0.998185796907	-0.000643798162647	
! Port Impedance	50.00000000000000	0.00000000000000	
596.25	-0.998925463132	-0.000754629927169	
! Port Impedance	50.00000000000000	0.00000000000000	
597.5	-0.998583945667	-0.00073284977464	
! Port Impedance	50.00000000000000	0.00000000000000	
598.75	-0.999603624662	-0.00190618745806	
! Port Impedance	50.00000000000000	0.00000000000000	
600.0	-0.999290251433	-0.00188137390539	
! Port Impedance	50.00000000000000	0.00000000000000	
601.25	-0.998772609744	-0.00380992721138	
! Port Impedance	50.00000000000000	0.00000000000000	
602.5	-0.998911384839	-0.00131734912566	
! Port Impedance	50.00000000000000	0.00000000000000	
603.75	-0.998360374978	-0.00116275051752	
! Port Impedance	50.00000000000000	0.00000000000000	
605.0	-0.998615803729	-0.000796589624238	
! Port Impedance	50.00000000000000	0.00000000000000	
606.25	-0.998458013942	-0.00123621646805	
! Port Impedance	50.00000000000000	0.00000000000000	
607.5	-0.998442860423	-0.000807605534028	
! Port Impedance	50.00000000000000	0.00000000000000	
608.75	-0.99918520631	-0.00191602320137	
! Port Impedance	50.00000000000000	0.00000000000000	
610.0	-0.999019474311	-0.00255005157233	
! Port Impedance	50.00000000000000	0.00000000000000	
611.25	-0.99969448803	1.12681815784e-05	
! Port Impedance	50.00000000000000	0.00000000000000	
612.5	-0.998839877517	0.00455887374026	
! Port Impedance	50.00000000000000	0.00000000000000	
613.75	-0.999635349135	-0.00506706158986	
! Port Impedance	50.00000000000000	0.00000000000000	
615.0	-0.999268252145	-0.00492122305847	
! Port Impedance	50.00000000000000	0.00000000000000	
616.25	-0.99922702749	-0.00109777095417	
! Port Impedance	50.00000000000000	0.00000000000000	
617.5	-0.998286472065	-0.00215330030398	
! Port Impedance	50.00000000000000	0.00000000000000	
618.75	-0.998991173645	-0.00287335141959	
! Port Impedance	50.00000000000000	0.00000000000000	
620.0	-0.99933354314	-0.00191648579198	
! Port Impedance	50.00000000000000	0.00000000000000	
621.25	-0.998798151105	-0.00281750099302	
! Port Impedance	50.00000000000000	0.00000000000000	
622.5	-0.999363481269	-0.00276810595161	
! Port Impedance	50.00000000000000	0.00000000000000	
623.75	-0.999591036785	-0.00185868533593	
! Port Impedance	50.00000000000000	0.00000000000000	
625.0	-0.999160362285	-0.00283024024162	
! Port Impedance	50.00000000000000	0.00000000000000	
626.25	-0.999248354324	-0.00272735762722	
! Port Impedance	50.00000000000000	0.00000000000000	
627.5	-0.999486610156	-0.00569046653932	
! Port Impedance	50.00000000000000	0.00000000000000	
628.75	-0.999665021177	-0.00119318711535	
! Port Impedance	50.00000000000000	0.00000000000000	
630.0	-1.00050115879	-0.0053546683542	
! Port Impedance	50.00000000000000	0.00000000000000	
631.25	-1.00041198134	-0.00289910873637	
! Port Impedance	50.00000000000000	0.00000000000000	
632.5	-0.999976442114	-0.000693950987824	
! Port Impedance	50.00000000000000	0.00000000000000	
633.75	-1.00013105441	-0.00132453458649	
! Port Impedance	50.00000000000000	0.00000000000000	
635.0	-0.999438129265	-0.00161948707426	
! Port Impedance	50.00000000000000	0.00000000000000	
636.25	-1.00027834028	-0.00153440440396	
! Port Impedance	50.00000000000000	0.00000000000000	
637.5	-0.999905697175	-0.00265556085412	
! Port Impedance	50.00000000000000	0.00000000000000	
638.75	-1.00013711241	-0.00201403340907	
! Port Impedance	50.00000000000000	0.00000000000000	
640.0	-0.999667562984	-0.00217884357718	
! Port Impedance	50.00000000000000	0.00000000000000	
641.25	-1.00090884148	-0.00169151249322	
! Port Impedance	50.00000000000000	0.00000000000000	
642.5	-1.00023104031	-0.00215217215997	
! Port Impedance	50.00000000000000	0.00000000000000	
643.75	-1.00011707279	-0.00171301231156	
! Port Impedance	50.00000000000000	0.00000000000000	
645.0	-0.999338676192	-0.00155546663693	
! Port Impedance	50.00000000000000	0.00000000000000	
646.25	-1.00023319219	-0.0021800883104	
! Port Impedance	50.00000000000000	0.00000000000000	
647.5	-1.00012176948	-0.00202016321243	
! Port Impedance	50.00000000000000	0.00000000000000	
648.75	-1.00009781065	-0.00219029129199	
! Port Impedance	50.00000000000000	0.00000000000000	
650.0	-1.00026861557	-0.00182997898748	
! Port Impedance	50.00000000000000	0.00000000000000	
651.25	-0.999705994028	-0.00211190449316	
! Port Impedance	50.00000000000000	0.00000000000000	
652.5	-1.00015003249	-0.00216451235136	
! Port Impedance	50.00000000000000	0.00000000000000	
653.75	-1.00001770757	0.000330721585276	
! Port Impedance	50.00000000000000	0.00000000000000	
655.0	-0.999147800449	0.00710663830341	
! Port Impedance	50.00000000000000	0.00000000000000	
656.25	-1.00023769338	0.00276000812792	
! Port Impedance	50.00000000000000	0.00000000000000	
657.5	-0.999285631709	-0.00172050573062	
! Port Impedance	50.00000000000000	0.00000000000000	
658.75	-1.00098035049	-0.001890482584	
! Port Impedance	50.00000000000000	0.00000000000000	
660.0	-0.999888335708	-0.00195293318273	
! Port Impedance	50.00000000000000	0.00000000000000	
661.25	-1.00018744913	-0.000859400590355	
! Port Impedance	50.00000000000000	0.00000000000000	
662.5	-0.999883721338	-0.00052719192392	
! Port Impedance	50.00000000000000	0.00000000000000	
663.75	-0.999472171793	-0.00185926295405	
! Port Impedance	50.00000000000000	0.00000000000000	
665.0	-0.999405652579	-0.00154040973533	
! Port Impedance	50.00000000000000	0.00000000000000	
666.25	-0.99971682657	-0.00155491545707	
! Port Impedance	50.00000000000000	0.00000000000000	
667.5	-0.999861650936	-0.00109825817849	
! Port Impedance	50.00000000000000	0.00000000000000	
668.75	-1.00023263405	-0.000921871106362	
! Port Impedance	50.00000000000000	0.00000000000000	
670.0	-1.00059442503	-0.00149061970307	
! Port Impedance	50.00000000000000	0.00000000000000	
671.25	-1.00129259882	-0.000811560942593	
! Port Impedance	50.00000000000000	0.00000000000000	
672.5	-0.999987021629	-0.00103118101333	
! Port Impedance	50.00000000000000	0.00000000000000	
673.75	-1.00003701746	-0.000563853624697	
! Port Impedance	50.00000000000000	0.00000000000000	
675.0	-0.999983346432	-0.000400461713748	
! Port Impedance	50.00000000000000	0.00000000000000	
676.25	-0.999338359117	-0.00115831377417	
! Port Impedance	50.00000000000000	0.00000000000000	
677.5	-1.00032073384	0.00181419451301	
! Port Impedance	50.00000000000000	0.00000000000000	
678.75	-0.999677335022	0.000407715557217	
! Port Impedance	50.00000000000000	0.00000000000000	
680.0	-1.00040414363	-0.000929375916699	
! Port Impedance	50.00000000000000	0.00000000000000	
681.25	-0.99979955936	-0.00112246236601	
! Port Impedance	50.00000000000000	0.00000000000000	
682.5	-0.999929616681	-0.00129981005765	
! Port Impedance	50.00000000000000	0.00000000000000	
683.75	-0.99985135349	-0.000280397755814	
! Port Impedance	50.00000000000000	0.00000000000000	
685.0	-0.999870362568	-0.00099128593754	
! Port Impedance	50.00000000000000	0.00000000000000	
686.25	-1.00048139275	-0.000537746617877	
! Port Impedance	50.00000000000000	0.00000000000000	
687.5	-0.999934592094	-0.000828955510957	
! Port Impedance	50.00000000000000	0.00000000000000	
688.75	-0.999806948756	0.000230563517897	
! Port Impedance	50.00000000000000	0.00000000000000	
690.0	-1.00034395085	-0.00145856626971	
! Port Impedance	50.00000000000000	0.00000000000000	
691.25	-1.00045098948	-0.0006793587184	
! Port Impedance	50.00000000000000	0.00000000000000	
692.5	-1.00079234552	0.00407117539573	
! Port Impedance	50.00000000000000	0.00000000000000	
693.75	-1.00083954916	0.0123338939777	
! Port Impedance	50.00000000000000	0.00000000000000	
695.0	-0.999726937153	0.00771411073319	
! Port Impedance	50.00000000000000	0.00000000000000	
696.25	-1.00031555711	0.00769833519786	
! Port Impedance	50.00000000000000	0.00000000000000	
697.5	-1.00046958218	0.00353635599285	
! Port Impedance	50.00000000000000	0.00000000000000	
698.75	-0.999953418978	0.00133769951067	
! Port Impedance	50.00000000000000	0.00000000000000	
700.0	-1.00091309623	-0.00105522362163	
! Port Impedance	50.00000000000000	0.00000000000000	
701.25	-1.0005499473	0.000408611870392	
! Port Impedance	50.00000000000000	0.00000000000000	
702.5	-1.0005625978	-0.000273211891092	
! Port Impedance	50.00000000000000	0.00000000000000	
703.75	-1.00050399939	0.00343047414721	
! Port Impedance	50.00000000000000	0.00000000000000	
705.0	-0.999989838916	0.00177535667854	
! Port Impedance	50.00000000000000	0.00000000000000	
706.25	-0.999408394079	-0.000269293842319	
! Port Impedance	50.00000000000000	0.00000000000000	
707.5	-1.00042612697	0.000162416755412	
! Port Impedance	50.00000000000000	0.00000000000000	
708.75	-0.999402556549	0.000473242322967	
! Port Impedance	50.00000000000000	0.00000000000000	
710.0	-1.00005311251	0.000331499483837	
! Port Impedance	50.00000000000000	0.00000000000000	
711.25	-0.99871635989	-0.000135653309099	
! Port Impedance	50.00000000000000	0.00000000000000	
712.5	-0.999573154895	0.00055473725295	
! Port Impedance	50.00000000000000	0.00000000000000	
713.75	-0.999329972674	0.000334427629319	
! Port Impedance	50.00000000000000	0.00000000000000	
715.0	-0.999399098888	0.00622557822439	
! Port Impedance	50.00000000000000	0.00000000000000	
716.25	-0.998832892556	0.00684058654679	
! Port Impedance	50.00000000000000	0.00000000000000	
717.5	-0.999139744678	0.0030251066471	
! Port Impedance	50.00000000000000	0.00000000000000	
718.75	-0.999785666746	0.00274277953195	
! Port Impedance	50.00000000000000	0.00000000000000	
720.0	-0.99919714353	0.000502837831958	
! Port Impedance	50.00000000000000	0.00000000000000	
721.25	-0.999014184592	0.0031504557264	
! Port Impedance	50.00000000000000	0.00000000000000	
722.5	-0.998799800091	0.00446146509649	
! Port Impedance	50.00000000000000	0.00000000000000	
723.75	-0.99981390152	0.00239348592225	
! Port Impedance	50.00000000000000	0.00000000000000	
725.0	-0.998700908002	0.00308473881643	
! Port Impedance	50.00000000000000	0.00000000000000	
726.25	-0.998106032167	0.00671085553441	
! Port Impedance	50.00000000000000	0.00000000000000	
727.5	-0.998349480154	0.00317368705766	
! Port Impedance	50.00000000000000	0.00000000000000	
728.75	-0.998284522534	0.00455052076727	
! Port Impedance	50.00000000000000	0.00000000000000	
730.0	-0.998964506487	0.00270726768549	
! Port Impedance	50.00000000000000	0.00000000000000	
731.25	-0.998386913425	0.00456815642723	
! Port Impedance	50.00000000000000	0.00000000000000	
732.5	-0.997618675969	0.00405673335549	
! Port Impedance	50.00000000000000	0.00000000000000	
733.75	-0.998605247921	0.00185247352958	
! Port Impedance	50.00000000000000	0.00000000000000	
735.0	-0.998461310675	-0.000341714878929	
! Port Impedance	50.00000000000000	0.00000000000000	
736.25	-0.998672989351	6.56220012368e-05	
! Port Impedance	50.00000000000000	0.00000000000000	
737.5	-0.998249756919	0.000422923332813	
! Port Impedance	50.00000000000000	0.00000000000000	
738.75	-0.998932716385	0.00433341071646	
! Port Impedance	50.00000000000000	0.00000000000000	
740.0	-0.998657631454	0.00176011091598	
! Port Impedance	50.00000000000000	0.00000000000000	
741.25	-0.998971374713	-0.000573102721443	
! Port Impedance	50.00000000000000	0.00000000000000	
742.5	-0.999860745649	-0.000332202775793	
! Port Impedance	50.00000000000000	0.00000000000000	
743.75	-0.997933353288	0.00090688489896	
! Port Impedance	50.00000000000000	0.00000000000000	
745.0	-0.998438600473	0.00166671535847	
! Port Impedance	50.00000000000000	0.00000000000000	
746.25	-0.997849362395	0.000577936393458	
! Port Impedance	50.00000000000000	0.00000000000000	
747.5	-0.998683286484	-0.000237976543135	
! Port Impedance	50.00000000000000	0.00000000000000	
748.75	-0.9975642665	0.000101995350524	
! Port Impedance	50.00000000000000	0.00000000000000	
750.0	-0.997208873748	0.00108164116243	
! Port Impedance	50.00000000000000	0.00000000000000	
