!Created with mwavepy.
# GHz S RI R 50.0 
!freq	ReS11	ImS11	
500.0	-1.06659829734	-0.0216209184106	
! Port Impedance	50.00000000000000	0.00000000000000	
501.25	-0.987820848569	-0.0358082305317	
! Port Impedance	50.00000000000000	0.00000000000000	
502.5	-1.0130976047	0.02046115378	
! Port Impedance	50.00000000000000	0.00000000000000	
503.75	-0.997444548329	-0.00131628760628	
! Port Impedance	50.00000000000000	0.00000000000000	
505.0	-0.994292863161	-0.00192184675452	
! Port Impedance	50.00000000000000	0.00000000000000	
506.25	-1.00048472607	0.0146358570292	
! Port Impedance	50.00000000000000	0.00000000000000	
507.5	-0.990864518091	-0.000459313643239	
! Port Impedance	50.00000000000000	0.00000000000000	
508.75	-0.998867158007	-0.00581594256334	
! Port Impedance	50.00000000000000	0.00000000000000	
510.0	-1.0019021433	0.00568122379268	
! Port Impedance	50.00000000000000	0.00000000000000	
511.25	-0.998675621854	0.00138482774409	
! Port Impedance	50.00000000000000	0.00000000000000	
512.5	-0.979364464781	0.00634011024511	
! Port Impedance	50.00000000000000	0.00000000000000	
513.75	-1.01304667689	0.024865423803	
! Port Impedance	50.00000000000000	0.00000000000000	
515.0	-1.004098196	0.00312920301718	
! Port Impedance	50.00000000000000	0.00000000000000	
516.25	-1.00180592182	-0.00940299510192	
! Port Impedance	50.00000000000000	0.00000000000000	
517.5	-0.993911271783	-0.0134410698777	
! Port Impedance	50.00000000000000	0.00000000000000	
518.75	-0.9972907671	-0.0126222124942	
! Port Impedance	50.00000000000000	0.00000000000000	
520.0	-1.00089790381	0.00416750266169	
! Port Impedance	50.00000000000000	0.00000000000000	
521.25	-0.996646093558	0.00413701173861	
! Port Impedance	50.00000000000000	0.00000000000000	
522.5	-1.00104410941	0.00204116406703	
! Port Impedance	50.00000000000000	0.00000000000000	
523.75	-1.00527146256	0.00838079121403	
! Port Impedance	50.00000000000000	0.00000000000000	
525.0	-1.00490810111	-0.00289406212884	
! Port Impedance	50.00000000000000	0.00000000000000	
526.25	-0.998341768907	0.00552008060435	
! Port Impedance	50.00000000000000	0.00000000000000	
527.5	-1.00060739524	0.00242488236092	
! Port Impedance	50.00000000000000	0.00000000000000	
528.75	-0.999999038661	0.00258135323244	
! Port Impedance	50.00000000000000	0.00000000000000	
530.0	-1.00040374793	0.00232382823173	
! Port Impedance	50.00000000000000	0.00000000000000	
531.25	-0.999515589432	0.00118984342368	
! Port Impedance	50.00000000000000	0.00000000000000	
532.5	-1.00087653727	0.00329044321042	
! Port Impedance	50.00000000000000	0.00000000000000	
533.75	-0.999718404034	0.00118387973414	
! Port Impedance	50.00000000000000	0.00000000000000	
535.0	-1.00122178359	0.00317606722213	
! Port Impedance	50.00000000000000	0.00000000000000	
536.25	-1.00175345611	0.00124023290885	
! Port Impedance	50.00000000000000	0.00000000000000	
537.5	-1.00021434466	0.00285507986603	
! Port Impedance	50.00000000000000	0.00000000000000	
538.75	-1.00030188558	0.0010624464931	
! Port Impedance	50.00000000000000	0.00000000000000	
540.0	-1.00044137795	0.00168577883389	
! Port Impedance	50.00000000000000	0.00000000000000	
541.25	-1.0006311519	-0.000109276397942	
! Port Impedance	50.00000000000000	0.00000000000000	
542.5	-1.00005154806	-0.00107701984821	
! Port Impedance	50.00000000000000	0.00000000000000	
543.75	-1.00029519368	0.00409005186651	
! Port Impedance	50.00000000000000	0.00000000000000	
545.0	-1.00039178708	0.0047991764229	
! Port Impedance	50.00000000000000	0.00000000000000	
546.25	-1.00015340995	0.00476742475778	
! Port Impedance	50.00000000000000	0.00000000000000	
547.5	-1.0007915557	0.00466329239929	
! Port Impedance	50.00000000000000	0.00000000000000	
548.75	-1.00002832859	0.00198959272921	
! Port Impedance	50.00000000000000	0.00000000000000	
550.0	-0.999453517069	0.00286554048179	
! Port Impedance	50.00000000000000	0.00000000000000	
551.25	-0.999402364571	0.00376836331182	
! Port Impedance	50.00000000000000	0.00000000000000	
552.5	-1.00077568183	0.00105293009341	
! Port Impedance	50.00000000000000	0.00000000000000	
553.75	-1.00151600039	0.00522559608773	
! Port Impedance	50.00000000000000	0.00000000000000	
555.0	-1.00073576366	0.0084894675731	
! Port Impedance	50.00000000000000	0.00000000000000	
556.25	-0.999735657295	0.00472877719314	
! Port Impedance	50.00000000000000	0.00000000000000	
557.5	-1.00355104598	0.00677228390916	
! Port Impedance	50.00000000000000	0.00000000000000	
558.75	-1.00267908167	0.00551627261224	
! Port Impedance	50.00000000000000	0.00000000000000	
560.0	-1.00131473321	0.00237304332624	
! Port Impedance	50.00000000000000	0.00000000000000	
561.25	-1.00155255723	0.00210261789335	
! Port Impedance	50.00000000000000	0.00000000000000	
562.5	-1.00188363081	0.00124302293739	
! Port Impedance	50.00000000000000	0.00000000000000	
563.75	-1.00228834065	0.00290338328931	
! Port Impedance	50.00000000000000	0.00000000000000	
565.0	-1.00314207061	0.0122490406832	
! Port Impedance	50.00000000000000	0.00000000000000	
566.25	-1.00198705138	0.00241981679877	
! Port Impedance	50.00000000000000	0.00000000000000	
567.5	-1.00255923381	0.00374395488281	
! Port Impedance	50.00000000000000	0.00000000000000	
568.75	-1.00260273478	0.00100144701777	
! Port Impedance	50.00000000000000	0.00000000000000	
570.0	-1.00159424401	-0.00154971567114	
! Port Impedance	50.00000000000000	0.00000000000000	
571.25	-1.00075675018	0.00852020686267	
! Port Impedance	50.00000000000000	0.00000000000000	
572.5	-1.0018898226	-0.000556270000662	
! Port Impedance	50.00000000000000	0.00000000000000	
573.75	-1.00314857326	-0.00273329216961	
! Port Impedance	50.00000000000000	0.00000000000000	
575.0	-1.00137994426	-0.00272550722504	
! Port Impedance	50.00000000000000	0.00000000000000	
576.25	-1.00280671598	-0.00123426565301	
! Port Impedance	50.00000000000000	0.00000000000000	
577.5	-1.00098661988	-0.00127643319965	
! Port Impedance	50.00000000000000	0.00000000000000	
578.75	-1.00033147678	-0.00241146428945	
! Port Impedance	50.00000000000000	0.00000000000000	
580.0	-1.00223057437	-0.00286360457774	
! Port Impedance	50.00000000000000	0.00000000000000	
581.25	-1.00154241935	-0.00267295885359	
! Port Impedance	50.00000000000000	0.00000000000000	
582.5	-1.00147871941	-0.00257958294126	
! Port Impedance	50.00000000000000	0.00000000000000	
583.75	-1.00142474057	-0.00125783218136	
! Port Impedance	50.00000000000000	0.00000000000000	
585.0	-1.0024607472	-0.0015243767594	
! Port Impedance	50.00000000000000	0.00000000000000	
586.25	-1.0013657837	-0.00131285230484	
! Port Impedance	50.00000000000000	0.00000000000000	
587.5	-1.00163605344	-0.00143222836558	
! Port Impedance	50.00000000000000	0.00000000000000	
588.75	-1.00119478648	-0.00479219739349	
! Port Impedance	50.00000000000000	0.00000000000000	
590.0	-1.0031268716	-0.00279712181327	
! Port Impedance	50.00000000000000	0.00000000000000	
591.25	-1.00187535509	-0.00238729150981	
! Port Impedance	50.00000000000000	0.00000000000000	
592.5	-1.00107154229	-0.00151980986643	
! Port Impedance	50.00000000000000	0.00000000000000	
593.75	-1.00100922185	-0.00280737770658	
! Port Impedance	50.00000000000000	0.00000000000000	
595.0	-1.00153083117	-0.00237664355757	
! Port Impedance	50.00000000000000	0.00000000000000	
596.25	-1.00169335457	-0.00352746474537	
! Port Impedance	50.00000000000000	0.00000000000000	
597.5	-1.00145180858	-0.00406088272886	
! Port Impedance	50.00000000000000	0.00000000000000	
598.75	-1.00211742113	-0.00374222207837	
! Port Impedance	50.00000000000000	0.00000000000000	
600.0	-1.00115954337	-0.00152341035046	
! Port Impedance	50.00000000000000	0.00000000000000	
601.25	-1.00153690176	0.000863339494582	
! Port Impedance	50.00000000000000	0.00000000000000	
602.5	-1.00109388178	-0.00210485399112	
! Port Impedance	50.00000000000000	0.00000000000000	
603.75	-1.00169941728	-0.00229852242674	
! Port Impedance	50.00000000000000	0.00000000000000	
605.0	-1.00167091898	-0.0024498782856	
! Port Impedance	50.00000000000000	0.00000000000000	
606.25	-1.00160104308	-0.00223673704807	
! Port Impedance	50.00000000000000	0.00000000000000	
607.5	-1.00305854995	-0.00243127550033	
! Port Impedance	50.00000000000000	0.00000000000000	
608.75	-1.00140030413	-0.000707777067185	
! Port Impedance	50.00000000000000	0.00000000000000	
610.0	-1.00136390913	-0.000967561504522	
! Port Impedance	50.00000000000000	0.00000000000000	
611.25	-1.00059685335	-0.00257666319438	
! Port Impedance	50.00000000000000	0.00000000000000	
612.5	-1.00111029614	-0.00845522413231	
! Port Impedance	50.00000000000000	0.00000000000000	
613.75	-1.00095475595	-0.000138592485036	
! Port Impedance	50.00000000000000	0.00000000000000	
615.0	-1.00093127123	0.000681964586953	
! Port Impedance	50.00000000000000	0.00000000000000	
616.25	-1.00095200922	-0.00160320389018	
! Port Impedance	50.00000000000000	0.00000000000000	
617.5	-1.00145072372	-0.00154692551678	
! Port Impedance	50.00000000000000	0.00000000000000	
618.75	-1.00133959305	-0.00208699237718	
! Port Impedance	50.00000000000000	0.00000000000000	
620.0	-1.00003086602	-0.00194286982532	
! Port Impedance	50.00000000000000	0.00000000000000	
621.25	-1.00122444673	-0.00120386580153	
! Port Impedance	50.00000000000000	0.00000000000000	
622.5	-1.00066535851	-0.000811970888202	
! Port Impedance	50.00000000000000	0.00000000000000	
623.75	-1.00007075922	-0.00129683875874	
! Port Impedance	50.00000000000000	0.00000000000000	
625.0	-1.00069988856	-0.00098482956219	
! Port Impedance	50.00000000000000	0.00000000000000	
626.25	-1.00035771496	-0.000743572620352	
! Port Impedance	50.00000000000000	0.00000000000000	
627.5	-0.999870909582	0.00184706874732	
! Port Impedance	50.00000000000000	0.00000000000000	
628.75	-0.999995104386	-0.00301356932788	
! Port Impedance	50.00000000000000	0.00000000000000	
630.0	-0.999208310051	0.00237284107106	
! Port Impedance	50.00000000000000	0.00000000000000	
631.25	-0.999991144119	-2.22888699606e-05	
! Port Impedance	50.00000000000000	0.00000000000000	
632.5	-0.999877614567	-0.00370736685176	
! Port Impedance	50.00000000000000	0.00000000000000	
633.75	-0.99963656456	-0.0032128245227	
! Port Impedance	50.00000000000000	0.00000000000000	
635.0	-1.00123288313	-0.00244620697615	
! Port Impedance	50.00000000000000	0.00000000000000	
636.25	-1.0003149033	-0.00261826654838	
! Port Impedance	50.00000000000000	0.00000000000000	
637.5	-0.998916026697	-0.0017195823214	
! Port Impedance	50.00000000000000	0.00000000000000	
638.75	-0.999511609824	-0.00151421194395	
! Port Impedance	50.00000000000000	0.00000000000000	
640.0	-1.00028264473	-0.00206169586215	
! Port Impedance	50.00000000000000	0.00000000000000	
641.25	-0.999201012006	-0.00308956520764	
! Port Impedance	50.00000000000000	0.00000000000000	
642.5	-1.00025205261	-0.00240340710742	
! Port Impedance	50.00000000000000	0.00000000000000	
643.75	-0.999859142047	-0.00178020666485	
! Port Impedance	50.00000000000000	0.00000000000000	
645.0	-1.00054606138	-0.0027334341062	
! Port Impedance	50.00000000000000	0.00000000000000	
646.25	-0.999993824908	-0.00231117463213	
! Port Impedance	50.00000000000000	0.00000000000000	
647.5	-0.999418557988	-0.00214031679859	
! Port Impedance	50.00000000000000	0.00000000000000	
648.75	-0.999467017538	-0.00245147369231	
! Port Impedance	50.00000000000000	0.00000000000000	
650.0	-0.999657189463	-0.00183595774806	
! Port Impedance	50.00000000000000	0.00000000000000	
651.25	-0.999098872621	-0.00225399452866	
! Port Impedance	50.00000000000000	0.00000000000000	
652.5	-0.999152437123	-0.00147197286811	
! Port Impedance	50.00000000000000	0.00000000000000	
653.75	-0.999054185524	-0.0042789099561	
! Port Impedance	50.00000000000000	0.00000000000000	
655.0	-1.00082859518	-0.0112479638644	
! Port Impedance	50.00000000000000	0.00000000000000	
656.25	-0.999008795951	-0.00655727725718	
! Port Impedance	50.00000000000000	0.00000000000000	
657.5	-0.999569422583	-0.00325813130631	
! Port Impedance	50.00000000000000	0.00000000000000	
658.75	-0.999666629863	-0.00336487196582	
! Port Impedance	50.00000000000000	0.00000000000000	
660.0	-1.00042827836	-0.00334178548098	
! Port Impedance	50.00000000000000	0.00000000000000	
661.25	-1.00113286777	-0.00295679635689	
! Port Impedance	50.00000000000000	0.00000000000000	
662.5	-0.999835799362	-0.00263224556327	
! Port Impedance	50.00000000000000	0.00000000000000	
663.75	-0.998933869666	-0.00318689645523	
! Port Impedance	50.00000000000000	0.00000000000000	
665.0	-1.00001255793	-0.00313207837202	
! Port Impedance	50.00000000000000	0.00000000000000	
666.25	-0.999851811026	-0.00320433311677	
! Port Impedance	50.00000000000000	0.00000000000000	
667.5	-0.999515381338	-0.00302275954828	
! Port Impedance	50.00000000000000	0.00000000000000	
668.75	-0.999578330076	-0.00309143918644	
! Port Impedance	50.00000000000000	0.00000000000000	
670.0	-0.998487039181	-0.00248352763367	
! Port Impedance	50.00000000000000	0.00000000000000	
671.25	-0.999165850621	-0.00283778735688	
! Port Impedance	50.00000000000000	0.00000000000000	
672.5	-0.999548135797	-0.00314022537065	
! Port Impedance	50.00000000000000	0.00000000000000	
673.75	-0.998869349779	-0.00342739930004	
! Port Impedance	50.00000000000000	0.00000000000000	
675.0	-0.998730942768	-0.00212641330685	
! Port Impedance	50.00000000000000	0.00000000000000	
676.25	-0.999428624842	-0.00361407221708	
! Port Impedance	50.00000000000000	0.00000000000000	
677.5	-0.998941546753	-0.00618001879247	
! Port Impedance	50.00000000000000	0.00000000000000	
678.75	-0.999078552432	-0.0044423594778	
! Port Impedance	50.00000000000000	0.00000000000000	
680.0	-0.998567028225	-0.00326971458401	
! Port Impedance	50.00000000000000	0.00000000000000	
681.25	-0.99853168056	-0.00239571655576	
! Port Impedance	50.00000000000000	0.00000000000000	
682.5	-0.998322750655	-0.00368444608927	
! Port Impedance	50.00000000000000	0.00000000000000	
683.75	-0.998949499799	-0.00447789868756	
! Port Impedance	50.00000000000000	0.00000000000000	
685.0	-0.998795169927	-0.00315639392	
! Port Impedance	50.00000000000000	0.00000000000000	
686.25	-0.998649161093	-0.00443406505995	
! Port Impedance	50.00000000000000	0.00000000000000	
687.5	-0.998283653447	-0.00442944973041	
! Port Impedance	50.00000000000000	0.00000000000000	
688.75	-0.999061476572	-0.0056007816972	
! Port Impedance	50.00000000000000	0.00000000000000	
690.0	-0.999699407286	-0.00483550777169	
! Port Impedance	50.00000000000000	0.00000000000000	
691.25	-0.998909126935	-0.00439615226361	
! Port Impedance	50.00000000000000	0.00000000000000	
692.5	-0.998703338785	-0.010832141245	
! Port Impedance	50.00000000000000	0.00000000000000	
693.75	-0.998966029883	-0.0166096338279	
! Port Impedance	50.00000000000000	0.00000000000000	
695.0	-1.0001201085	-0.0133631632425	
! Port Impedance	50.00000000000000	0.00000000000000	
696.25	-0.999827545068	-0.013124829299	
! Port Impedance	50.00000000000000	0.00000000000000	
697.5	-0.999729880693	-0.0088942999855	
! Port Impedance	50.00000000000000	0.00000000000000	
698.75	-0.999210907872	-0.00731228389163	
! Port Impedance	50.00000000000000	0.00000000000000	
700.0	-1.00025088877	-0.0057685794999	
! Port Impedance	50.00000000000000	0.00000000000000	
701.25	-0.999942637484	-0.0055016913117	
! Port Impedance	50.00000000000000	0.00000000000000	
702.5	-1.00010366511	-0.00494891880399	
! Port Impedance	50.00000000000000	0.00000000000000	
703.75	-0.999986050075	-0.00913044944662	
! Port Impedance	50.00000000000000	0.00000000000000	
705.0	-1.00002352475	-0.00600895821614	
! Port Impedance	50.00000000000000	0.00000000000000	
706.25	-1.00162798544	-0.00461183602399	
! Port Impedance	50.00000000000000	0.00000000000000	
707.5	-1.00013232315	-0.0051999572705	
! Port Impedance	50.00000000000000	0.00000000000000	
708.75	-1.00072732766	-0.00634622071199	
! Port Impedance	50.00000000000000	0.00000000000000	
710.0	-1.00124558746	-0.00637019749665	
! Port Impedance	50.00000000000000	0.00000000000000	
711.25	-1.00185244965	-0.00532101742386	
! Port Impedance	50.00000000000000	0.00000000000000	
712.5	-1.00117820813	-0.00553956152011	
! Port Impedance	50.00000000000000	0.00000000000000	
713.75	-1.00189644839	-0.0054881173718	
! Port Impedance	50.00000000000000	0.00000000000000	
715.0	-1.00123922305	-0.0118712239541	
! Port Impedance	50.00000000000000	0.00000000000000	
716.25	-1.0037310175	-0.0118395506423	
! Port Impedance	50.00000000000000	0.00000000000000	
717.5	-1.00183118015	-0.00699571472477	
! Port Impedance	50.00000000000000	0.00000000000000	
718.75	-1.00147733013	-0.00736887619166	
! Port Impedance	50.00000000000000	0.00000000000000	
720.0	-1.002045651	-0.00407430602794	
! Port Impedance	50.00000000000000	0.00000000000000	
721.25	-1.00265481825	-0.0078313614979	
! Port Impedance	50.00000000000000	0.00000000000000	
722.5	-1.00338803377	-0.00848194919032	
! Port Impedance	50.00000000000000	0.00000000000000	
723.75	-1.00190628289	-0.00657751335881	
! Port Impedance	50.00000000000000	0.00000000000000	
725.0	-1.00190884815	-0.00801410712138	
! Port Impedance	50.00000000000000	0.00000000000000	
726.25	-1.00268785378	-0.0108186776939	
! Port Impedance	50.00000000000000	0.00000000000000	
727.5	-1.00347011371	-0.00722123423064	
! Port Impedance	50.00000000000000	0.00000000000000	
728.75	-1.00302908591	-0.00741259694451	
! Port Impedance	50.00000000000000	0.00000000000000	
730.0	-1.00242030575	-0.00754842249522	
! Port Impedance	50.00000000000000	0.00000000000000	
731.25	-1.00268643625	-0.00893396290808	
! Port Impedance	50.00000000000000	0.00000000000000	
732.5	-1.00335459988	-0.00760049044652	
! Port Impedance	50.00000000000000	0.00000000000000	
733.75	-1.00264355856	-0.0045461715098	
! Port Impedance	50.00000000000000	0.00000000000000	
735.0	-1.0023076609	-0.00362730653589	
! Port Impedance	50.00000000000000	0.00000000000000	
736.25	-1.00298518259	-0.00322498110039	
! Port Impedance	50.00000000000000	0.00000000000000	
737.5	-1.00282919015	-0.00300258405017	
! Port Impedance	50.00000000000000	0.00000000000000	
738.75	-1.00238352523	-0.00803740784247	
! Port Impedance	50.00000000000000	0.00000000000000	
740.0	-1.00244362561	-0.00525098389471	
! Port Impedance	50.00000000000000	0.00000000000000	
741.25	-1.00319405924	-0.00444736926628	
! Port Impedance	50.00000000000000	0.00000000000000	
742.5	-1.00320117486	-0.003579180384	
! Port Impedance	50.00000000000000	0.00000000000000	
743.75	-1.0031195381	-0.00295062966972	
! Port Impedance	50.00000000000000	0.00000000000000	
745.0	-1.00263943097	-0.00422763380945	
! Port Impedance	50.00000000000000	0.00000000000000	
746.25	-1.00290304381	-0.00449130504526	
! Port Impedance	50.00000000000000	0.00000000000000	
747.5	-1.00411423543	-0.00306440418356	
! Port Impedance	50.00000000000000	0.00000000000000	
748.75	-1.00345223921	-0.00340308676087	
! Port Impedance	50.00000000000000	0.00000000000000	
750.0	-1.00290855872	-0.00455209721466	
! Port Impedance	50.00000000000000	0.00000000000000	
