! Created Sat Jan  8 20:36:32 2022
# hz S ma R 50
! 4 Port Network Data from SP1.SP block
! freq  magS11  angS11  magS12  angS12  magS13  angS13  magS14  angS14  
!       magS21  angS21  magS22  angS22  magS23  angS23  magS24  angS24  
!       magS31  angS31  magS32  angS32  magS33  angS33  magS34  angS34  
!       magS41  angS41  magS42  angS42  magS43  angS43  magS44  angS44  
!     
          10000000       0.499955713         179.651224        0.499972353       -0.448795624        0.499929249       -0.604566183        0.499912672       -0.975838752
                      0.499972353       -0.448795624        0.499883313         179.291798        0.499912672       -0.975838752        0.499916007       -0.964129012
                      0.499929249       -0.604566183        0.499912672       -0.975838752        0.499955713         179.651224        0.499972353       -0.448795624
                      0.499912672       -0.975838752        0.499916007       -0.964129012        0.499972353       -0.448795624        0.499883313         179.291798

          20000000       0.499990734         179.307905        0.499947776       -0.898223689        0.499833514        -1.18996014         0.49987943        -1.93567701
                      0.499947776       -0.898223689        0.499815722         178.586254         0.49987943        -1.93567701        0.499893054        -1.91212647
                      0.499833514        -1.18996014         0.49987943        -1.93567701        0.499990734         179.307905        0.499947776       -0.898223689
                       0.49987943        -1.93567701        0.499893054        -1.91212647        0.499947776       -0.898223689        0.499815722         178.586254

          30000000       0.500047687          178.96427        0.499926368        -1.34652818        0.499698808        -1.77379866        0.499857364         -2.8936581
                      0.499926368        -1.34652818        0.499711726         177.881026        0.499857364         -2.8936581        0.499888148        -2.85822039
                      0.499698808        -1.77379866        0.499857364         -2.8936581        0.500047687          178.96427        0.499926368        -1.34652818
                      0.499857364         -2.8936581        0.499888148        -2.85822039        0.499926368        -1.34652818        0.499711726         177.881026

          40000000       0.500128776         178.620437        0.499908142        -1.79414126        0.499525858        -2.35653914        0.499848185        -3.85038721
                      0.499908142        -1.79414126        0.499574931         177.176151        0.499848185        -3.85038721        0.499902968        -3.80298647
                      0.499525858        -2.35653914        0.499848185        -3.85038721        0.500128776         178.620437        0.499908142        -1.79414126
                      0.499848185        -3.85038721        0.499902968        -3.80298647        0.499908142        -1.79414126        0.499574931         177.176151

          50000000       0.500235126         178.276263        0.499893123        -2.24128014        0.499315046         -2.9384276        0.499852787        -4.80629335
                      0.499893123        -2.24128014         0.49940722         176.471368        0.499852787        -4.80629335        0.499938392        -4.74682417
                      0.499315046         -2.9384276        0.499852787        -4.80629335        0.500235126         178.276263        0.499893123        -2.24128014
                      0.499852787        -4.80629335        0.499938392        -4.74682417        0.499893123        -2.24128014         0.49940722         176.471368

          60000000       0.500366835         177.931571        0.499881344        -2.68808324        0.499066451        -3.51961683        0.499871301        -5.76169409
                      0.499881344        -2.68808324        0.499208866         175.766399        0.499871301        -5.76169409        0.499994533        -5.69002134
                      0.499066451        -3.51961683        0.499871301        -5.76169409        0.500366835         177.931571        0.499881344        -2.68808324
                      0.499871301        -5.76169409        0.499994533        -5.69002134        0.499881344        -2.68808324        0.499208866         175.766399

          70000000       0.500523518          177.58621        0.499872845        -3.13465178        0.498779994        -4.10020195        0.499903496        -6.71681716
                      0.499872845        -3.13465178        0.498979374          175.06103        0.499903496        -6.71681716        0.500071148        -6.63277556
                      0.498779994        -4.10020195        0.499903496        -6.71681716        0.500523518          177.58621        0.499872845        -3.13465178
                      0.499903496        -6.71681716        0.500071148        -6.63277556        0.499872845        -3.13465178        0.498979374          175.06103

          80000000       0.500704669         177.240068         0.49986766        -3.58106645        0.498455542         -4.6802409        0.499949046        -7.67182664
                       0.49986766        -3.58106645        0.498718034         174.355108        0.499949046        -7.67182664        0.500167905        -7.57522043
                      0.498455542         -4.6802409        0.499949046        -7.67182664        0.500704669         177.240068         0.49986766        -3.58106645
                      0.499949046        -7.67182664        0.500167905        -7.57522043         0.49986766        -3.58106645        0.498718034         174.355108

          90000000        0.50090982         176.893056        0.499865816        -4.02739534        0.498092951        -5.25976786        0.500007655        -8.62684578
                      0.499865816        -4.02739534        0.498424166         173.648525        0.500007655        -8.62684578        0.500284501        -8.51744837
                      0.498092951        -5.25976786        0.500007655        -8.62684578         0.50090982         176.893056        0.499865816        -4.02739534
                      0.500007655        -8.62684578        0.500284501        -8.51744837        0.499865816        -4.02739534        0.498424166         173.648525

         100000000       0.501138589         176.545095        0.499867337        -4.47369828        0.497692078        -5.83880175        0.500079082        -9.58197267
                      0.499867337        -4.47369828        0.498097195         172.941194        0.500079082        -9.58197267        0.500420699        -9.45952637
                      0.497692078        -5.83880175        0.500079082        -9.58197267        0.501138589         176.545095        0.499867337        -4.47369828
                      0.500079082        -9.58197267        0.500420699        -9.45952637        0.499867337        -4.47369828        0.498097195         172.941194

         110000000       0.501390672         176.196117         0.49987224        -4.92002935        0.497252786        -6.41735139        0.500163151        -10.5372901
                       0.49987224        -4.92002935        0.497736643         172.233042        0.500163151        -10.5372901        0.500576321        -10.4015059
                      0.497252786        -6.41735139        0.500163151        -10.5372901        0.501390672         176.196117         0.49987224        -4.92002935
                      0.500163151        -10.5372901        0.500576321        -10.4015059         0.49987224        -4.92002935        0.497736643         172.233042

         120000000       0.501665691         175.845643        0.499880789        -5.36623336        0.496774776        -6.99627242         0.50025978        -11.4935203
                      0.499880789        -5.36623336        0.497341865         171.523785         0.50025978        -11.4935203        0.500751187        -11.3440827
                      0.496774776        -6.99627242         0.50025978        -11.4935203        0.501665691         175.845643        0.499880789        -5.36623336
                       0.50025978        -11.4935203        0.500751187        -11.3440827        0.499880789        -5.36623336        0.497341865         171.523785

         130000000        0.50196348          175.49375        0.499892959         -5.8124309        0.496257925        -7.57525944         0.50036887        -12.4505004
                      0.499892959         -5.8124309        0.496912552         170.813432         0.50036887        -12.4505004        0.500945219        -12.2870595
                      0.496257925        -7.57525944         0.50036887        -12.4505004         0.50196348          175.49375        0.499892959         -5.8124309
                       0.50036887        -12.4505004        0.500945219        -12.2870595        0.499892959         -5.8124309        0.496912552         170.813432

         140000000       0.502283975         175.140633        0.499908608        -6.25879849        0.495702179        -8.15376001        0.500490324        -13.4078794
                      0.499908608        -6.25879849        0.496448546         170.102054        0.500490324        -13.4078794        0.501158391        -13.2300495
                      0.495702179        -8.15376001        0.500490324        -13.4078794        0.502283975         175.140633        0.499908608        -6.25879849
                      0.500490324        -13.4078794        0.501158391        -13.2300495        0.499908608        -6.25879849        0.496448546         170.102054

         150000000       0.502627051         174.786221        0.499927738        -6.70537976        0.495107378         -8.7317642        0.500624095        -14.3657187
                      0.499927738        -6.70537976         0.49594956         169.389584        0.500624095        -14.3657187        0.501390669        -14.1730813
                      0.495107378         -8.7317642        0.500624095        -14.3657187        0.502627051         174.786221        0.499927738        -6.70537976
                      0.500624095        -14.3657187        0.501390669        -14.1730813        0.499927738        -6.70537976         0.49594956         169.389584

         160000000       0.502992602         174.430444        0.499950346         -7.1522173        0.494473354        -9.30925931        0.500770147        -15.3240778
                      0.499950346         -7.1522173        0.495415322         168.675952        0.500770147        -15.3240778        0.501642034        -15.1161811
                      0.494473354        -9.30925931        0.500770147        -15.3240778        0.502992602         174.430444        0.499950346         -7.1522173
                      0.500770147        -15.3240778        0.501642034        -15.1161811        0.499950346         -7.1522173        0.495415322         168.675952

         170000000       0.503380538          174.07323        0.499976427        -7.59935301        0.493799927        -9.88623013        0.500928457        -16.2830148
                      0.499976427        -7.59935301        0.494845557         167.961089        0.500928457        -16.2830148        0.501912477        -16.0593735
                      0.493799927        -9.88623013        0.500928457        -16.2830148        0.503380538          174.07323        0.499976427        -7.59935301
                      0.500928457        -16.2830148        0.501912477        -16.0593735        0.499976427        -7.59935301        0.494845557         167.961089

         180000000       0.503790775         173.714509        0.500005972        -8.04682839        0.493086905        -10.4626592        0.501099008         -17.242587
                      0.500005972        -8.04682839        0.494239993         167.244925        0.501099008         -17.242587        0.502202002        -17.0026817
                      0.493086905        -10.4626592        0.501099008         -17.242587        0.503790775         173.714509        0.500005972        -8.04682839
                      0.501099008         -17.242587        0.502202002        -17.0026817        0.500005972        -8.04682839        0.494239993         167.244925

         190000000        0.50422324         173.354206        0.500038967        -8.49468474        0.492334081        -11.0385267        0.501281789        -18.2028508
                      0.500038967        -8.49468474        0.493598348          166.52739        0.501281789        -18.2028508         0.50251062        -17.9461275
                      0.492334081        -11.0385267        0.501281789        -18.2028508         0.50422324         173.354206        0.500038967        -8.49468474
                      0.501281789        -18.2028508         0.50251062        -17.9461275        0.500038967        -8.49468474        0.493598348          166.52739

         200000000       0.504677863         172.992248        0.500075396        -8.94296339        0.491541238        -11.6138109        0.501476792        -19.1638624
                      0.500075396        -8.94296339        0.492920333         165.808409        0.501476792        -19.1638624         0.50283835        -18.8897318
                      0.491541238        -11.6138109        0.501476792        -19.1638624        0.504677863         172.992248        0.500075396        -8.94296339
                      0.501476792        -19.1638624         0.50283835        -18.8897318        0.500075396        -8.94296339        0.492920333         165.808409

         210000000        0.50515458         172.628563        0.500115235        -9.39170581        0.490708142        -12.1884878        0.501684015        -20.1256771
                      0.500115235        -9.39170581        0.492205651         165.087912        0.501684015        -20.1256771        0.503185213        -19.8335144
                      0.490708142        -12.1884878        0.501684015        -20.1256771         0.50515458         172.628563        0.500115235        -9.39170581
                      0.501684015        -20.1256771        0.503185213        -19.8335144        0.500115235        -9.39170581        0.492205651         165.087912

         220000000       0.505653333         172.263075        0.500158458         -9.8409538        0.489834548        -12.7625312        0.501903457        -21.0883504
                      0.500158458         -9.8409538        0.491453993         164.365824        0.501903457        -21.0883504        0.503551242        -20.7774945
                      0.489834548        -12.7625312        0.501903457        -21.0883504        0.505653333         172.263075        0.500158458         -9.8409538
                      0.501903457        -21.0883504        0.503551242        -20.7774945        0.500158458         -9.8409538        0.491453993         164.365824

         230000000       0.506174067         171.895709        0.500205033        -10.2907496        0.488920196         -13.335913         0.50213512        -22.0519374
                      0.500205033        -10.2907496        0.490665038         163.642072         0.50213512        -22.0519374         0.50393647        -21.7216903
                      0.488920196         -13.335913         0.50213512        -22.0519374        0.506174067         171.895709        0.500205033        -10.2907496
                       0.50213512        -22.0519374         0.50393647        -21.7216903        0.500205033        -10.2907496        0.490665038         163.642072

         240000000        0.50671673         171.526392        0.500254921        -10.7411358        0.487964813        -13.9086025        0.502379007        -23.0164932
                      0.500254921        -10.7411358        0.489838453         162.916581        0.502379007        -23.0164932        0.504340939        -22.6661193
                      0.487964813        -13.9086025        0.502379007        -23.0164932         0.50671673         171.526392        0.500254921        -10.7411358
                      0.502379007        -23.0164932        0.504340939        -22.6661193        0.500254921        -10.7411358        0.489838453         162.916581

         250000000       0.507281274         171.155047        0.500308079        -11.1921559        0.486968111        -14.4805672        0.502635126        -23.9820732
                      0.500308079        -11.1921559        0.488973894         162.189275        0.502635126        -23.9820732        0.504764694        -23.6107985
                      0.486968111        -14.4805672        0.502635126        -23.9820732        0.507281274         171.155047        0.500308079        -11.1921559
                      0.502635126        -23.9820732        0.504764694        -23.6107985        0.500308079        -11.1921559        0.488973894         162.189275

         260000000       0.507867656         170.781599        0.500364456        -11.6438538        0.485929789        -15.0517718        0.502903484        -24.9487326
                      0.500364456        -11.6438538        0.488071004         161.460079        0.502903484        -24.9487326        0.505207786        -24.5557442
                      0.485929789        -15.0517718        0.502903484        -24.9487326        0.507867656         170.781599        0.500364456        -11.6438538
                      0.502903484        -24.9487326        0.505207786        -24.5557442        0.500364456        -11.6438538        0.488071004         161.460079

         270000000       0.508475835         170.405972        0.500423995        -12.0962744        0.484849531        -15.6221787        0.503184091        -25.9165268
                      0.500423995        -12.0962744        0.487129412         160.728917        0.503184091        -25.9165268        0.505670272        -25.5009722
                      0.484849531        -15.6221787        0.503184091        -25.9165268        0.508475835         170.405972        0.500423995        -12.0962744
                      0.503184091        -25.9165268        0.505670272        -25.5009722        0.500423995        -12.0962744        0.487129412         160.728917

         280000000       0.509105776          170.02809         0.50048663        -12.5494632        0.483727008        -16.1917479        0.503476958        -26.8855119
                       0.50048663        -12.5494632        0.486148735         159.995712        0.503476958        -26.8855119        0.506152213        -26.4464977
                      0.483727008        -16.1917479        0.503476958        -26.8855119        0.509105776          170.02809         0.50048663        -12.5494632
                      0.503476958        -26.8855119        0.506152213        -26.4464977         0.50048663        -12.5494632        0.486148735         159.995712

         290000000       0.509757447         169.647876        0.500552288        -13.0034668        0.482561875        -16.7604366        0.503782099        -27.8557438
                      0.500552288        -13.0034668        0.485128578         159.260386        0.503782099        -27.8557438        0.506653676        -27.3923354
                      0.482561875        -16.7604366        0.503782099        -27.8557438        0.509757447         169.647876        0.500552288        -13.0034668
