! Created Sun Jan  9 14:01:27 2022
# hz S ma R 50
! 4 Port Network Data from SP1.SP block
! freq  magS11  angS11  magS12  angS12  magS13  angS13  magS14  angS14  
!       magS21  angS21  magS22  angS22  magS23  angS23  magS24  angS24  
!       magS31  angS31  magS32  angS32  magS33  angS33  magS34  angS34  
!       magS41  angS41  magS42  angS42  magS43  angS43  magS44  angS44  
!     
          10000000       0.500030171        -179.982742        0.499951386       -0.589816289        0.499942792        -0.81026248         0.49994051       -0.679926734
                      0.499951386       -0.589816289        0.500030171        -179.982742         0.49994051       -0.679926734        0.499942792        -0.81026248
                      0.499942792        -0.81026248         0.49994051       -0.679926734        0.500030171        -179.982742        0.499951386       -0.589816289
                       0.49994051       -0.679926734        0.499942792        -0.81026248        0.499951386       -0.589816289        0.500030171        -179.982742

          20000000       0.500135906        -179.969445        0.499873758        -1.17541656        0.499894602          -1.616054         0.49986762        -1.35546585
                      0.499873758        -1.17541656        0.500135906        -179.969445         0.49986762        -1.35546585        0.499894602          -1.616054
                      0.499894602          -1.616054         0.49986762        -1.35546585        0.500135906        -179.969445        0.499873758        -1.17541656
                       0.49986762        -1.35546585        0.499894602          -1.616054        0.499873758        -1.17541656        0.500135906        -179.969445

          30000000       0.500294786        -179.957889        0.499768051        -1.75927852        0.499842265        -2.41994633        0.499772772        -2.02916805
                      0.499768051        -1.75927852        0.500294786        -179.957889        0.499772772        -2.02916805        0.499842265        -2.41994633
                      0.499842265        -2.41994633        0.499772772        -2.02916805        0.500294786        -179.957889        0.499768051        -1.75927852
                      0.499772772        -2.02916805        0.499842265        -2.41994633        0.499768051        -1.75927852        0.500294786        -179.957889

          40000000       0.500507202        -179.947852        0.499634475        -2.34187286        0.499786476        -3.22249443        0.499656521        -2.70156872
                      0.499634475        -2.34187286        0.500507202        -179.947852        0.499656521        -2.70156872        0.499786476        -3.22249443
                      0.499786476        -3.22249443        0.499656521        -2.70156872        0.500507202        -179.947852        0.499634475        -2.34187286
                      0.499656521        -2.70156872        0.499786476        -3.22249443        0.499634475        -2.34187286        0.500507202        -179.947852

          50000000       0.500773085        -179.939416        0.499473209        -2.92338492        0.499727629        -4.02398057        0.499519217        -3.37292686
                      0.499473209        -2.92338492        0.500773085        -179.939416        0.499519217        -3.37292686        0.499727629        -4.02398057
                      0.499727629        -4.02398057        0.499519217        -3.37292686        0.500773085        -179.939416        0.499473209        -2.92338492
                      0.499519217        -3.37292686        0.499727629        -4.02398057        0.499473209        -2.92338492        0.500773085        -179.939416

          60000000        0.50109193        -179.932743        0.499284432        -3.50389442        0.499665869        -4.82456981        0.499361038        -4.04338865
                      0.499284432        -3.50389442         0.50109193        -179.932743        0.499361038        -4.04338865        0.499665869        -4.82456981
                      0.499665869        -4.82456981        0.499361038        -4.04338865         0.50109193        -179.932743        0.499284432        -3.50389442
                      0.499361038        -4.04338865        0.499665869        -4.82456981        0.499284432        -3.50389442         0.50109193        -179.932743

          70000000       0.501463012        -179.928014         0.49906833        -4.08343038        0.499601239        -5.62435907        0.499182089        -4.71303821
                       0.49906833        -4.08343038        0.501463012        -179.928014        0.499182089        -4.71303821        0.499601239        -5.62435907
                      0.499601239        -5.62435907        0.499182089        -4.71303821        0.501463012        -179.928014         0.49906833        -4.08343038
                      0.499182089        -4.71303821        0.499601239        -5.62435907         0.49906833        -4.08343038        0.501463012        -179.928014

          80000000        0.50188553        -179.925414        0.498825095        -4.66199361        0.499533761        -6.42340334        0.498982466        -5.38192234
                      0.498825095        -4.66199361         0.50188553        -179.925414        0.498982466        -5.38192234        0.499533761        -6.42340334
                      0.499533761        -6.42340334        0.498982466        -5.38192234         0.50188553        -179.925414        0.498825095        -4.66199361
                      0.498982466        -5.38192234        0.499533761        -6.42340334        0.498825095        -4.66199361         0.50188553        -179.925414

          90000000       0.502358657        -179.925125        0.498554927        -5.23956773        0.499463479        -7.22173161        0.498762275        -6.05006469
                      0.498554927        -5.23956773        0.502358657        -179.925125        0.498762275        -6.05006469        0.499463479        -7.22173161
                      0.499463479        -7.22173161        0.498762275        -6.05006469        0.502358657        -179.925125        0.498554927        -5.23956773
                      0.498762275        -6.05006469        0.499463479        -7.22173161        0.498554927        -5.23956773        0.502358657        -179.925125

         100000000       0.502881553        -179.927327        0.498258035          -5.816125        0.499390467        -8.01935649        0.498521646         -6.7174742
                      0.498258035          -5.816125        0.502881553        -179.927327        0.498521646         -6.7174742        0.499390467        -8.01935649
                      0.499390467        -8.01935649        0.498521646         -6.7174742        0.502881553        -179.927327        0.498258035          -5.816125
                      0.498521646         -6.7174742        0.499390467        -8.01935649        0.498258035          -5.816125        0.502881553        -179.927327

         110000000       0.503453365          -179.9322        0.497934636        -6.39162994        0.499314825        -8.81628006         0.49826073        -7.38415019
                      0.497934636        -6.39162994        0.503453365          -179.9322         0.49826073        -7.38415019        0.499314825        -8.81628006
                      0.499314825        -8.81628006         0.49826073        -7.38415019        0.503453365          -179.9322        0.497934636        -6.39162994
                       0.49826073        -7.38415019        0.499314825        -8.81628006        0.497934636        -6.39162994        0.503453365          -179.9322

         120000000       0.504073214        -179.939923        0.497584961        -6.96604148         0.49923668         -9.6124975        0.497979696        -8.05008556
                      0.497584961        -6.96604148        0.504073214        -179.939923        0.497979696        -8.05008556         0.49923668         -9.6124975
                       0.49923668         -9.6124975        0.497979696        -8.05008556        0.504073214        -179.939923        0.497584961        -6.96604148
                      0.497979696        -8.05008556         0.49923668         -9.6124975        0.497584961        -6.96604148        0.504073214        -179.939923

         130000000       0.504740195         -179.95067        0.497209249        -7.53931452        0.499156177        -10.4079992        0.497678734        -8.71526877
                      0.497209249        -7.53931452        0.504740195         -179.95067        0.497678734        -8.71526877        0.499156177        -10.4079992
                      0.499156177        -10.4079992        0.497678734        -8.71526877        0.504740195         -179.95067        0.497209249        -7.53931452
                      0.497678734        -8.71526877        0.499156177        -10.4079992        0.497209249        -7.53931452        0.504740195         -179.95067

         140000000       0.505453368        -179.964613         0.49680775        -8.11140096        0.499073481        -11.2027725        0.497358045         -9.3796852
                       0.49680775        -8.11140096        0.505453368        -179.964613        0.497358045         -9.3796852        0.499073481        -11.2027725
                      0.499073481        -11.2027725        0.497358045         -9.3796852        0.505453368        -179.964613         0.49680775        -8.11140096
                      0.497358045         -9.3796852        0.499073481        -11.2027725         0.49680775        -8.11140096        0.505453368        -179.964613

         150000000       0.506211756        -179.981919        0.496380727        -8.68225042        0.498988772        -11.9968021        0.497017849        -10.0433181
                      0.496380727        -8.68225042        0.506211756        -179.981919        0.497017849        -10.0433181        0.498988772        -11.9968021
                      0.498988772        -11.9968021        0.497017849        -10.0433181        0.506211756        -179.981919        0.496380727        -8.68225042
                      0.497017849        -10.0433181        0.498988772        -11.9968021        0.496380727        -8.68225042        0.506211756        -179.981919

         160000000       0.507014346         179.997247        0.495928454        -9.25181085        0.498902245        -12.7900715        0.496658375         -10.706149
                      0.495928454        -9.25181085        0.507014346         179.997247        0.496658375         -10.706149        0.498902245        -12.7900715
                      0.498902245        -12.7900715        0.496658375         -10.706149        0.507014346         179.997247        0.495928454        -9.25181085
                      0.496658375         -10.706149        0.498902245        -12.7900715        0.495928454        -9.25181085        0.507014346         179.997247

         170000000       0.507860088         179.972729        0.495451216        -9.82002893        0.498814104        -13.5825628        0.496279865        -11.3681587
                      0.495451216        -9.82002893        0.507860088         179.972729        0.496279865        -11.3681587        0.498814104        -13.5825628
                      0.498814104        -13.5825628        0.496279865        -11.3681587        0.507860088         179.972729        0.495451216        -9.82002893
                      0.496279865        -11.3681587        0.498814104        -13.5825628        0.495451216        -9.82002893        0.507860088         179.972729

         180000000       0.508747895         179.944374         0.49494931        -10.3868504        0.498724569        -14.3742574        0.495882574        -12.0293271
                       0.49494931        -10.3868504        0.508747895         179.944374        0.495882574        -12.0293271        0.498724569        -14.3742574
                      0.498724569        -14.3742574        0.495882574        -12.0293271        0.508747895         179.944374         0.49494931        -10.3868504
                      0.495882574        -12.0293271        0.498724569        -14.3742574         0.49494931        -10.3868504        0.508747895         179.944374

         190000000       0.509676642         179.912036        0.494423045        -10.9522202        0.498633867        -15.1651365        0.495466765        -12.6896339
                      0.494423045        -10.9522202        0.509676642         179.912036        0.495466765        -12.6896339        0.498633867        -15.1651365
                      0.498633867        -15.1651365        0.495466765        -12.6896339        0.509676642         179.912036        0.494423045        -10.9522202
                      0.495466765        -12.6896339        0.498633867        -15.1651365        0.494423045        -10.9522202        0.509676642         179.912036

         200000000       0.510645174         179.875574        0.493872739        -11.5160831        0.498542239        -15.9551808        0.495032714        -13.3490584
                      0.493872739        -11.5160831        0.510645174         179.875574        0.495032714        -13.3490584        0.498542239        -15.9551808
                      0.498542239        -15.9551808        0.495032714        -13.3490584        0.510645174         179.875574        0.493872739        -11.5160831
                      0.495032714        -13.3490584        0.498542239        -15.9551808        0.493872739        -11.5160831        0.510645174         179.875574

         210000000       0.511652302         179.834856        0.493298724        -12.0783832        0.498449933         -16.744371        0.494580704        -14.0075801
                      0.493298724        -12.0783832        0.511652302         179.834856        0.494580704        -14.0075801        0.498449933         -16.744371
                      0.498449933         -16.744371        0.494580704        -14.0075801        0.511652302         179.834856        0.493298724        -12.0783832
                      0.494580704        -14.0075801        0.498449933         -16.744371        0.493298724        -12.0783832        0.511652302         179.834856

         220000000       0.512696807         179.789756        0.492701339        -12.6390646        0.498357208        -17.5326881        0.494111029        -14.6651788
                      0.492701339        -12.6390646        0.512696807         179.789756        0.494111029        -14.6651788        0.498357208        -17.5326881
                      0.498357208        -17.5326881        0.494111029        -14.6651788        0.512696807         179.789756        0.492701339        -12.6390646
                      0.494111029        -14.6651788        0.498357208        -17.5326881        0.492701339        -12.6390646        0.512696807         179.789756

         230000000       0.513777444         179.740152        0.492080937        -13.1980715        0.498264332        -18.3201132        0.493623992        -15.3218344
                      0.492080937        -13.1980715        0.513777444         179.740152        0.493623992        -15.3218344        0.498264332        -18.3201132
                      0.498264332        -18.3201132        0.493623992        -15.3218344        0.513777444         179.740152        0.492080937        -13.1980715
                      0.493623992        -15.3218344        0.498264332        -18.3201132        0.492080937        -13.1980715        0.513777444         179.740152

         240000000       0.514892941         179.685933        0.491437879        -13.7553477        0.498171583        -19.1066279        0.493119904        -15.9775275
                      0.491437879        -13.7553477        0.514892941         179.685933        0.493119904        -15.9775275        0.498171583        -19.1066279
                      0.498171583        -19.1066279        0.493119904        -15.9775275        0.514892941         179.685933        0.491437879        -13.7553477
                      0.493119904        -15.9775275        0.498171583        -19.1066279        0.491437879        -13.7553477        0.514892941         179.685933

         250000000       0.516042005         179.626993        0.490772535        -14.3108376        0.498079246        -19.8922142        0.492599084        -16.6322391
                      0.490772535        -14.3108376        0.516042005         179.626993        0.492599084        -16.6322391        0.498079246        -19.8922142
                      0.498079246        -19.8922142        0.492599084        -16.6322391        0.516042005         179.626993        0.490772535        -14.3108376
                      0.492599084        -16.6322391        0.498079246        -19.8922142        0.490772535        -14.3108376        0.516042005         179.626993

         260000000       0.517223321         179.563233        0.490085286        -14.8644855        0.497987614        -20.6768546        0.492061861        -17.2859509
                      0.490085286        -14.8644855        0.517223321         179.563233        0.492061861        -17.2859509        0.497987614        -20.6768546
                      0.497987614        -20.6768546        0.492061861        -17.2859509        0.517223321         179.563233        0.490085286        -14.8644855
                      0.492061861        -17.2859509        0.497987614        -20.6768546        0.490085286        -14.8644855        0.517223321         179.563233

         270000000       0.518435556         179.494561        0.489376521         -15.416236        0.497896991        -21.4605325        0.491508567        -17.9386453
                      0.489376521         -15.416236        0.518435556         179.494561        0.491508567        -17.9386453        0.497896991        -21.4605325
                      0.497896991        -21.4605325        0.491508567        -17.9386453        0.518435556         179.494561        0.489376521         -15.416236
                      0.491508567        -17.9386453        0.497896991        -21.4605325        0.489376521         -15.416236        0.518435556         179.494561

         280000000       0.519677362         179.420892        0.488646639         -15.966034        0.497807686        -22.2432317        0.490939545        -18.5903056
                      0.488646639         -15.966034        0.519677362         179.420892        0.490939545        -18.5903056        0.497807686        -22.2432317
                      0.497807686        -22.2432317        0.490939545        -18.5903056        0.519677362         179.420892        0.488646639         -15.966034
                      0.490939545        -18.5903056        0.497807686        -22.2432317        0.488646639         -15.966034        0.519677362         179.420892

         290000000       0.520947376         179.342149        0.487896045        -16.5138247        0.497720016         -23.024937        0.490355141        -19.2409159
                      0.487896045        -16.5138247        0.520947376         179.342149        0.490355141        -19.2409159        0.497720016         -23.024937
                      0.497720016         -23.024937        0.490355141        -19.2409159        0.520947376         179.342149        0.487896045        -16.5138247
