! Created Mon Nov 15 13:49:02 2021
# hz S ma R 50
! 1 Port Network Data from SP1.SP block
! freq  magS11  angS11  
!     
                 0                 0                  0
           1000000    3.83965454e-06        -90.0002196
           2000000    7.67930908e-06        -90.0004392
           3000000    1.15189636e-05        -90.0006587
           4000000    1.53586182e-05        -90.0008783
           5000000    1.91982727e-05        -90.0010979
           6000000    2.30379272e-05        -90.0013175
           7000000    2.68775818e-05         -90.001537
           8000000    3.07172363e-05        -90.0017566
           9000000    3.45568909e-05        -90.0019762
          10000000    3.83965454e-05        -90.0021958
          11000000    4.22361999e-05        -90.0024153
          12000000    4.60758544e-05        -90.0026349
          13000000     4.9915509e-05        -90.0028545
          14000000    5.37551635e-05        -90.0030741
          15000000     5.7594818e-05        -90.0032936
          16000000    6.14344725e-05        -90.0035132
          17000000    6.52741271e-05        -90.0037328
          18000000    6.91137816e-05        -90.0039524
          19000000    7.29534361e-05        -90.0041719
          20000000    7.67930906e-05        -90.0043915
          21000000    8.06327451e-05        -90.0046111
          22000000    8.44723996e-05        -90.0048307
          23000000    8.83120541e-05        -90.0050502
          24000000    9.21517086e-05        -90.0052698
          25000000    9.59913631e-05        -90.0054894
          26000000    9.98310176e-05         -90.005709
          27000000    0.000103670672        -90.0059285
          28000000    0.000107510327        -90.0061481
          29000000    0.000111349981        -90.0063677
          30000000    0.000115189635        -90.0065873
          31000000     0.00011902929        -90.0068068
          32000000    0.000122868944        -90.0070264
          33000000    0.000126708599         -90.007246
          34000000    0.000130548253        -90.0074656
          35000000    0.000134387908        -90.0076851
          36000000    0.000138227562        -90.0079047
          37000000    0.000142067217        -90.0081243
          38000000    0.000145906871        -90.0083439
          39000000    0.000149746525        -90.0085634
          40000000     0.00015358618         -90.008783
          41000000    0.000157425834        -90.0090026
          42000000    0.000161265489        -90.0092222
          43000000    0.000165105143        -90.0094417
          44000000    0.000168944797        -90.0096613
          45000000    0.000172784452        -90.0098809
          46000000    0.000176624106        -90.0101005
          47000000    0.000180463761          -90.01032
          48000000    0.000184303415        -90.0105396
          49000000    0.000188143069        -90.0107592
          50000000    0.000191982724        -90.0109788
          51000000    0.000195822378        -90.0111983
          52000000    0.000199662032        -90.0114179
          53000000    0.000203501686        -90.0116375
          54000000    0.000207341341        -90.0118571
          55000000    0.000211180995        -90.0120766
          56000000    0.000215020649        -90.0122962
          57000000    0.000218860304        -90.0125158
          58000000    0.000222699958        -90.0127354
          59000000    0.000226539612        -90.0129549
          60000000    0.000230379266        -90.0131745
          61000000    0.000234218921        -90.0133941
          62000000    0.000238058575        -90.0136137
          63000000    0.000241898229        -90.0138332
          64000000    0.000245737883        -90.0140528
          65000000    0.000249577537        -90.0142724
          66000000    0.000253417192         -90.014492
          67000000    0.000257256846        -90.0147115
          68000000      0.0002610965        -90.0149311
          69000000    0.000264936154        -90.0151507
          70000000    0.000268775808        -90.0153703
          71000000    0.000272615462        -90.0155898
          72000000    0.000276455116        -90.0158094
          73000000    0.000280294771         -90.016029
          74000000    0.000284134425        -90.0162486
          75000000    0.000287974079        -90.0164681
          76000000    0.000291813733        -90.0166877
          77000000    0.000295653387        -90.0169073
          78000000    0.000299493041        -90.0171269
          79000000    0.000303332695        -90.0173464
          80000000    0.000307172349         -90.017566
          81000000    0.000311012003        -90.0177856
          82000000    0.000314851657        -90.0180052
          83000000    0.000318691311        -90.0182247
          84000000    0.000322530965        -90.0184443
          85000000    0.000326370619        -90.0186639
          86000000    0.000330210273        -90.0188835
          87000000    0.000334049927         -90.019103
          88000000     0.00033788958        -90.0193226
          89000000    0.000341729234        -90.0195422
          90000000    0.000345568888        -90.0197618
          91000000    0.000349408542        -90.0199813
          92000000    0.000353248196        -90.0202009
          93000000     0.00035708785        -90.0204205
          94000000    0.000360927503        -90.0206401
          95000000    0.000364767157        -90.0208596
          96000000    0.000368606811        -90.0210792
          97000000    0.000372446465        -90.0212988
          98000000    0.000376286119        -90.0215184
          99000000    0.000380125772        -90.0217379
         100000000    0.000383965426        -90.0219575
         101000000     0.00038780508        -90.0221771
         102000000    0.000391644733        -90.0223967
         103000000    0.000395484387        -90.0226162
         104000000    0.000399324041        -90.0228358
         105000000    0.000403163694        -90.0230554
         106000000    0.000407003348         -90.023275
         107000000    0.000410843001        -90.0234945
         108000000    0.000414682655        -90.0237141
         109000000    0.000418522308        -90.0239337
         110000000    0.000422361962        -90.0241533
         111000000    0.000426201616        -90.0243728
         112000000    0.000430041269        -90.0245924
         113000000    0.000433880922         -90.024812
         114000000    0.000437720576        -90.0250316
         115000000    0.000441560229        -90.0252511
         116000000    0.000445399883        -90.0254707
         117000000    0.000449239536        -90.0256903
         118000000     0.00045307919        -90.0259099
         119000000    0.000456918843        -90.0261294
         120000000    0.000460758496         -90.026349
         121000000     0.00046459815        -90.0265686
         122000000    0.000468437803        -90.0267882
         123000000    0.000472277456        -90.0270077
         124000000    0.000476117109        -90.0272273
         125000000    0.000479956763        -90.0274469
         126000000    0.000483796416        -90.0276665
         127000000    0.000487636069         -90.027886
         128000000    0.000491475722        -90.0281056
         129000000    0.000495315375        -90.0283252
         130000000    0.000499155028        -90.0285448
         131000000    0.000502994682        -90.0287643
         132000000    0.000506834335        -90.0289839
         133000000    0.000510673988        -90.0292035
         134000000    0.000514513641        -90.0294231
         135000000    0.000518353294        -90.0296426
         136000000    0.000522192947        -90.0298622
         137000000      0.0005260326        -90.0300818
         138000000    0.000529872253        -90.0303014
         139000000    0.000533711906        -90.0305209
         140000000    0.000537551558        -90.0307405
         141000000    0.000541391211        -90.0309601
         142000000    0.000545230864        -90.0311797
         143000000    0.000549070517        -90.0313992
         144000000     0.00055291017        -90.0316188
         145000000    0.000556749823        -90.0318384
         146000000    0.000560589475         -90.032058
         147000000    0.000564429128        -90.0322775
         148000000    0.000568268781        -90.0324971
         149000000    0.000572108433        -90.0327167
         150000000    0.000575948086        -90.0329363
         151000000    0.000579787739        -90.0331558
         152000000    0.000583627391        -90.0333754
         153000000    0.000587467044         -90.033595
         154000000    0.000591306696        -90.0338146
         155000000    0.000595146349        -90.0340341
         156000000    0.000598986001        -90.0342537
         157000000    0.000602825654        -90.0344733
         158000000    0.000606665306        -90.0346929
         159000000    0.000610504959        -90.0349124
         160000000    0.000614344611         -90.035132
         161000000    0.000618184263        -90.0353516
         162000000    0.000622023916        -90.0355712
         163000000    0.000625863568        -90.0357907
         164000000     0.00062970322        -90.0360103
         165000000    0.000633542873        -90.0362299
         166000000    0.000637382525        -90.0364495
         167000000    0.000641222177         -90.036669
         168000000    0.000645061829        -90.0368886
         169000000    0.000648901481        -90.0371082
         170000000    0.000652741134        -90.0373278
         171000000    0.000656580786        -90.0375473
         172000000    0.000660420438        -90.0377669
         173000000     0.00066426009        -90.0379865
         174000000    0.000668099742        -90.0382061
         175000000    0.000671939394        -90.0384256
         176000000    0.000675779046        -90.0386452
         177000000    0.000679618697        -90.0388648
         178000000    0.000683458349        -90.0390844
         179000000    0.000687298001        -90.0393039
         180000000    0.000691137653        -90.0395235
         181000000    0.000694977305        -90.0397431
         182000000    0.000698816957        -90.0399627
         183000000    0.000702656608        -90.0401822
         184000000     0.00070649626        -90.0404018
         185000000    0.000710335912        -90.0406214
         186000000    0.000714175563         -90.040841
         187000000    0.000718015215        -90.0410605
         188000000    0.000721854866        -90.0412801
         189000000    0.000725694518        -90.0414997
         190000000    0.000729534169        -90.0417193
         191000000    0.000733373821        -90.0419388
         192000000    0.000737213472        -90.0421584
         193000000    0.000741053124         -90.042378
         194000000    0.000744892775        -90.0425976
         195000000    0.000748732427        -90.0428171
         196000000    0.000752572078        -90.0430367
         197000000    0.000756411729        -90.0432563
         198000000     0.00076025138        -90.0434759
         199000000    0.000764091032        -90.0436954
         200000000    0.000767930683         -90.043915
         201000000    0.000771770334        -90.0441346
         202000000    0.000775609985        -90.0443542
         203000000    0.000779449636        -90.0445737
         204000000    0.000783289287        -90.0447933
         205000000    0.000787128938        -90.0450129
         206000000    0.000790968589        -90.0452325
         207000000     0.00079480824         -90.045452
         208000000    0.000798647891        -90.0456716
         209000000    0.000802487542        -90.0458912
         210000000    0.000806327193        -90.0461108
         211000000    0.000810166843        -90.0463303
         212000000    0.000814006494        -90.0465499
         213000000    0.000817846145        -90.0467695
         214000000    0.000821685796        -90.0469891
         215000000    0.000825525446        -90.0472086
         216000000    0.000829365097        -90.0474282
         217000000    0.000833204747        -90.0476478
         218000000    0.000837044398        -90.0478674
         219000000    0.000840884048        -90.0480869
         220000000    0.000844723699        -90.0483065
         221000000    0.000848563349        -90.0485261
         222000000       0.000852403        -90.0487457
         223000000     0.00085624265        -90.0489652
         224000000      0.0008600823        -90.0491848
         225000000    0.000863921951        -90.0494044
         226000000    0.000867761601         -90.049624
         227000000    0.000871601251        -90.0498435
         228000000    0.000875440901        -90.0500631
         229000000    0.000879280551        -90.0502827
         230000000    0.000883120202        -90.0505023
         231000000    0.000886959852        -90.0507218
         232000000    0.000890799502        -90.0509414
         233000000    0.000894639152         -90.051161
         234000000    0.000898478801        -90.0513806
         235000000    0.000902318451        -90.0516001
         236000000    0.000906158101        -90.0518197
         237000000    0.000909997751        -90.0520393
         238000000    0.000913837401        -90.0522589
         239000000    0.000917677051        -90.0524784
         240000000      0.0009215167         -90.052698
         241000000     0.00092535635        -90.0529176
         242000000    0.000929195999        -90.0531372
         243000000    0.000933035649        -90.0533567
         244000000    0.000936875299        -90.0535763
         245000000    0.000940714948        -90.0537959
         246000000    0.000944554597        -90.0540155
         247000000    0.000948394247         -90.054235
         248000000    0.000952233896        -90.0544546
         249000000    0.000956073546        -90.0546742
         250000000    0.000959913195        -90.0548938
         251000000    0.000963752844        -90.0551133
         252000000    0.000967592493        -90.0553329
         253000000    0.000971432142        -90.0555525
         254000000    0.000975271792        -90.0557721
         255000000    0.000979111441        -90.0559916
         256000000     0.00098295109        -90.0562112
         257000000    0.000986790739        -90.0564308
         258000000    0.000990630388        -90.0566504
         259000000    0.000994470036        -90.0568699
         260000000    0.000998309685        -90.0570895
         261000000     0.00100214933        -90.0573091
         262000000     0.00100598898        -90.0575287
         263000000     0.00100982863        -90.0577482
         264000000     0.00101366828        -90.0579678
         265000000     0.00101750793        -90.0581874
         266000000     0.00102134758         -90.058407
         267000000     0.00102518723        -90.0586265
         268000000     0.00102902687        -90.0588461
         269000000     0.00103286652        -90.0590657
         270000000     0.00103670617        -90.0592853
         271000000     0.00104054582        -90.0595048
         272000000     0.00104438547        -90.0597244
         273000000     0.00104822512         -90.059944
         274000000     0.00105206476        -90.0601636
         275000000     0.00105590441        -90.0603831
         276000000     0.00105974406        -90.0606027
         277000000     0.00106358371        -90.0608223
         278000000     0.00106742336        -90.0610419
         279000000       0.001071263        -90.0612614
         280000000     0.00107510265         -90.061481
         281000000      0.0010789423        -90.0617006
         282000000     0.00108278195        -90.0619202
         283000000      0.0010866216        -90.0621397
         284000000     0.00109046124        -90.0623593
         285000000     0.00109430089        -90.0625789
         286000000     0.00109814054        -90.0627985
         287000000     0.00110198019         -90.063018
         288000000     0.00110581983        -90.0632376
         289000000     0.00110965948        -90.0634572
         290000000     0.00111349913        -90.0636768
         291000000     0.00111733878        -90.0638963
         292000000     0.00112117842        -90.0641159
         293000000     0.00112501807        -90.0643355
         294000000     0.00112885772        -90.0645551
         295000000     0.00113269737        -90.0647746
         296000000     0.00113653701        -90.0649942
         297000000     0.00114037666        -90.0652138
         298000000     0.00114421631        -90.0654334
         299000000     0.00114805595        -90.0656529
         300000000      0.0011518956        -90.0658725
         301000000     0.00115573525        -90.0660921
         302000000      0.0011595749        -90.0663117
         303000000     0.00116341454        -90.0665312
         304000000     0.00116725419        -90.0667508
         305000000     0.00117109384        -90.0669704
         306000000     0.00117493348          -90.06719
         307000000     0.00117877313        -90.0674095
         308000000     0.00118261278        -90.0676291
         309000000     0.00118645242        -90.0678487
         310000000     0.00119029207        -90.0680683
         311000000     0.00119413171        -90.0682878
         312000000     0.00119797136        -90.0685074
         313000000     0.00120181101         -90.068727
         314000000     0.00120565065        -90.0689466
         315000000      0.0012094903        -90.0691661
         316000000     0.00121332995        -90.0693857
         317000000     0.00121716959        -90.0696053
         318000000     0.00122100924        -90.0698249
         319000000     0.00122484888        -90.0700444
         320000000     0.00122868853         -90.070264
         321000000     0.00123252818        -90.0704836
         322000000     0.00123636782        -90.0707032
         323000000     0.00124020747        -90.0709227
         324000000     0.00124404711        -90.0711423
         325000000     0.00124788676        -90.0713619
         326000000      0.0012517264        -90.0715815
         327000000     0.00125556605         -90.071801
         328000000     0.00125940569        -90.0720206
         329000000     0.00126324534        -90.0722402
         330000000     0.00126708499        -90.0724598
         331000000     0.00127092463        -90.0726793
         332000000     0.00127476428        -90.0728989
         333000000     0.00127860392        -90.0731185
         334000000     0.00128244357        -90.0733381
         335000000     0.00128628321        -90.0735576
         336000000     0.00129012286        -90.0737772
         337000000      0.0012939625        -90.0739968
         338000000     0.00129780215        -90.0742164
         339000000     0.00130164179        -90.0744359
         340000000     0.00130548144        -90.0746555
         341000000     0.00130932108        -90.0748751
         342000000     0.00131316073        -90.0750947
         343000000     0.00131700037        -90.0753142
         344000000     0.00132084001        -90.0755338
         345000000     0.00132467966        -90.0757534
         346000000      0.0013285193         -90.075973
         347000000     0.00133235895        -90.0761925
