! Data provided by Modelithics, Inc.  Tampa, Florida USA, June 2008
!Model SAV-541+
!VAR V_out= 3
!VAR I_out= 60
!VAR V_in= 0.4652
!VAR I_in= 1.0123
!BEGIN ACDATA
# GHZ S MA R 50
! Scattering Parameters
!% F n11x n11y n21x n21y n12x n12y n22x n22y
       0.1000 0.99413  -18.165  27.84911  168.666  0.00871   78.370  0.49695  -14.806
      0.14475 0.97643  -25.196  26.82112  163.235  0.01132   79.979  0.49606  -18.767
       0.1895 0.96347  -32.756  26.38868  158.460  0.01540   73.192  0.48371  -24.568
      0.23425 0.94558  -40.266  25.83325  153.717  0.01816   69.369  0.46770  -30.846
       0.2790 0.92101  -46.673  24.98460  149.010  0.02116   69.143  0.45636  -36.285
      0.32375 0.92057  -54.656  24.36853  144.843  0.02372   67.606  0.44130  -41.034
       0.3685 0.89129  -60.828  23.46145  140.652  0.02639   61.241  0.42309  -46.440
      0.41325 0.88091  -67.030  22.64011  136.791  0.02892   60.471  0.41164  -52.356
       0.4580 0.86401  -72.416  21.75970  133.536  0.02980   56.208  0.39775  -55.132
      0.50275 0.84812  -78.469  20.97682  130.006  0.03265   53.320  0.38540  -60.564
       0.5475 0.83227  -83.255  20.16762  126.958  0.03405   52.035  0.37235  -64.025
      0.59225 0.81224  -88.396  19.32435  123.974  0.03542   50.434  0.35640  -67.574
       0.6370 0.80131  -93.069  18.62428  121.100  0.03681   48.445  0.35010  -71.725
      0.68175 0.79034  -97.490  17.92134  118.430  0.03816   47.437  0.33696  -75.271
       0.7265 0.77682 -101.906  17.23103  115.924  0.03972   45.890  0.32474  -78.609
      0.77125 0.76647 -105.661  16.59849  113.558  0.04027   44.114  0.31289  -81.624
       0.8160 0.75496 -109.760  15.98451  111.221  0.04144   43.177  0.30257  -84.849
      0.86075 0.74668 -113.475  15.41540  109.014  0.04275   42.152  0.29333  -88.219
       0.9055 0.73565 -116.634  14.88144  107.008  0.04376   41.724  0.28573  -90.398
      0.95025 0.73050 -120.350  14.36972  104.979  0.04432   40.181  0.27781  -93.700
       0.9950 0.72267 -123.597  13.89241  103.086  0.04507   39.793  0.26855  -96.500
      1.03975 0.71669 -126.745  13.43755  101.271  0.04595   38.636  0.26229  -99.397
       1.0845 0.70892 -129.606  12.99540   99.450  0.04694   38.558  0.25468 -101.809
      1.12925 0.70312 -132.275  12.60175   97.839  0.04769   37.791  0.24811 -104.268
       1.1740 0.69950 -135.246  12.20554   96.137  0.04833   36.859  0.24209 -106.659
      1.21875 0.69371 -137.814  11.84404   94.567  0.04879   36.446  0.23764 -108.856
       1.2635 0.69016 -140.460  11.49721   92.965  0.04960   35.651  0.23163 -111.350
      1.30825 0.68705 -142.714  11.17554   91.569  0.05015   35.993  0.22592 -113.707
       1.3530 0.68126 -145.164  10.84591   90.061  0.05111   34.919  0.22218 -115.778
      1.39775 0.67854 -147.484  10.55913   88.649  0.05133   34.426  0.21661 -118.224
       1.4425 0.67493 -149.725  10.27576   87.215  0.05207   34.563  0.21362 -120.296
      1.48725 0.67153 -151.928  10.01080   85.905  0.05274   33.799  0.20981 -122.183
       1.5320 0.66937 -153.915  9.75229   84.543  0.05379   33.251  0.20605 -124.577
      1.57675 0.66596 -155.962  9.51565   83.246  0.05450   32.691  0.20307 -126.529
       1.6215 0.66535 -158.008  9.27571   81.955  0.05449   32.408  0.20079 -128.640
      1.66625 0.66184 -159.912  9.04593   80.718  0.05556   32.296  0.19701 -130.935
       1.7110 0.66094 -161.806  8.84302   79.477  0.05611   32.313  0.19440 -132.681
      1.75575 0.65895 -163.528  8.63759   78.347  0.05673   31.442  0.19107 -134.581
       1.8005 0.65481 -165.361  8.43616   77.105  0.05717   31.233  0.18931 -136.452
      1.84525 0.65628 -167.177  8.25597   75.918  0.05810   30.996  0.18700 -138.286
       1.8900 0.65308 -168.803  8.07859   74.784  0.05881   30.383  0.18467 -140.203
      1.93475 0.65258 -170.678  7.90857   73.592  0.05928   30.099  0.18284 -141.922
       1.9795 0.65108 -172.067  7.73671   72.563  0.06006   29.946  0.18004 -144.030
      2.02425 0.65026 -173.748  7.58136   71.442  0.06084   29.570  0.17893 -145.613
       2.0690 0.64807 -175.351  7.42303   70.362  0.06133   29.323  0.17727 -147.373
      2.11375 0.64883 -176.895  7.28449   69.277  0.06164   28.868  0.17477 -149.154
       2.1585 0.64776 -178.364  7.14096   68.198  0.06265   28.790  0.17434 -151.100
      2.20325 0.64709 -179.716  7.00339   67.182  0.06337   28.542  0.17214 -152.747
       2.2480 0.64549  178.721  6.87338   66.202  0.06379   28.230  0.17079 -154.404
      2.29275 0.64569  177.270  6.74593   65.031  0.06431   27.724  0.17019 -156.095
       2.3375 0.64579  175.934  6.62328   64.161  0.06533   27.638  0.16813 -157.727
      2.38225 0.64492  174.455  6.50453   63.006  0.06577   26.960  0.16784 -159.221
       2.4270 0.64623  173.060  6.39104   62.145  0.06626   26.847  0.16613 -161.260
      2.47175 0.64415  171.810  6.27732   61.069  0.06698   26.790  0.16540 -162.433
       2.5165 0.64575  170.384  6.17757   60.088  0.06789   26.411  0.16440 -164.208
      2.56125 0.64395  169.147  6.07100   59.065  0.06839   25.883  0.16420 -165.745
       2.6060 0.64354  167.733  5.97536   58.100  0.06916   25.782  0.16367 -167.175
      2.65075 0.64421  166.621  5.87369   57.130  0.06970   25.493  0.16272 -168.944
       2.6955 0.64360  165.299  5.78337   56.223  0.07070   24.974  0.16224 -170.516
      2.74025 0.64414  163.915  5.69002   55.215  0.07116   24.915  0.16205 -171.755
       2.7850 0.64482  162.767  5.60706   54.378  0.07197   24.607  0.16093 -173.457
      2.82975 0.64308  161.523  5.51643   53.365  0.07260   23.954  0.16048 -174.629
       2.8745 0.64301  160.259  5.44064   52.426  0.07312   23.714  0.16174 -176.260
      2.91925 0.64370  159.338  5.35261   51.553  0.07371   23.086  0.16072 -177.586
       2.9640 0.64313  157.951  5.27436   50.575  0.07439   23.075  0.16078 -179.042
      3.00875 0.64384  156.830  5.20078   49.692  0.07533   22.774  0.16075  179.313
       3.0535 0.64395  155.679  5.13135   48.760  0.07610   22.444  0.16057  178.308
      3.09825 0.64346  154.471  5.05089   47.820  0.07689   22.081  0.16055  176.370
       3.1430 0.64488  153.447  4.99029   46.955  0.07721   21.743  0.16114  175.233
      3.18775 0.64347  152.287  4.91247   46.047  0.07785   21.477  0.16118  173.871
       3.2325 0.64595  151.201  4.85711   45.125  0.07880   20.684  0.16167  172.302
      3.27725 0.64503  150.060  4.78469   44.203  0.07966   20.709  0.16142  171.284
       3.3220 0.64586  149.004  4.72623   43.343  0.08005   20.374  0.16210  169.509
      3.36675 0.64603  147.804  4.66095   42.428  0.08069   20.077  0.16193  168.094
       3.4115 0.64590  146.931  4.59896   41.591  0.08178   19.680  0.16353  166.870
      3.45625 0.64746  145.729  4.53912   40.650  0.08228   19.478  0.16327  165.442
       3.5010 0.64903  144.665  4.48805   39.819  0.08266   18.854  0.16376  164.477
      3.54575 0.64883  143.638  4.42668   38.910  0.08346   18.543  0.16359  162.771
       3.5905 0.64970  142.552  4.37415   38.010  0.08428   17.972  0.16511  161.508
      3.63525 0.65004  141.534  4.32383   37.143  0.08479   17.858  0.16468  160.334
       3.6800 0.65052  140.523  4.26842   36.274  0.08531   17.234  0.16532  158.939
      3.72475 0.65197  139.430  4.21898   35.309  0.08623   16.707  0.16613  157.694
       3.7695 0.65200  138.459  4.17118   34.395  0.08684   16.645  0.16625  156.414
      3.81425 0.65316  137.518  4.11961   33.550  0.08785   16.111  0.16755  155.162
       3.8590 0.65303  136.322  4.06968   32.630  0.08852   15.633  0.16764  153.791
      3.90375 0.65463  135.431  4.02380   31.794  0.08884   15.420  0.16874  152.596
       3.9485 0.65362  134.319  3.97726   30.950  0.08955   15.088  0.16899  151.620
      3.99325 0.65601  133.416  3.93503   30.072  0.09051   14.628  0.16961  149.875
       4.0380 0.65631  132.434  3.89350   29.227  0.09097   14.125  0.17183  149.312
      4.08275 0.65712  131.561  3.84959   28.408  0.09158   13.646  0.17170  147.937
       4.1275 0.65769  130.585  3.80904   27.526  0.09228   13.362  0.17269  146.727
      4.17225 0.65830  129.547  3.76745   26.648  0.09296   13.210  0.17392  145.651
       4.2170 0.65898  128.679  3.72361   25.819  0.09308   12.687  0.17452  144.431
      4.26175 0.66036  127.663  3.68631   24.991  0.09425   12.282  0.17666  143.278
       4.3065 0.66144  126.712  3.64747   24.104  0.09488   11.882  0.17697  142.219
      4.35125 0.66166  125.749  3.60926   23.251  0.09590   11.599  0.17874  140.942
       4.3960 0.66263  124.871  3.57143   22.450  0.09629   10.853  0.17959  139.820
      4.44075 0.66396  123.950  3.53397   21.605  0.09688   10.542  0.18057  138.713
       4.4855 0.66547  122.968  3.49673   20.727  0.09762   10.059  0.18181  137.537
      4.53025 0.66531  122.032  3.46569   19.873  0.09814    9.599  0.18329  136.613
       4.5750 0.66663  121.164  3.42759   19.077  0.09926    9.153  0.18438  135.327
      4.61975 0.66826  120.205  3.39944   18.286  0.09976    8.649  0.18644  134.342
       4.6645 0.66861  119.340  3.36312   17.384  0.10046    8.223  0.18710  133.223
      4.70925 0.66955  118.405  3.32993   16.572  0.10073    7.714  0.18917  132.027
       4.7540 0.67050  117.543  3.29724   15.778  0.10203    7.527  0.18970  131.259
      4.79875 0.67220  116.728  3.26643   14.975  0.10201    6.858  0.19155  130.185
       4.8435 0.67234  115.827  3.23274   14.155  0.10291    6.403  0.19323  129.213
      4.88825 0.67541  114.893  3.20681   13.298  0.10373    6.132  0.19423  128.123
       4.9330 0.67671  114.037  3.17555   12.449  0.10430    5.394  0.19630  127.012
      4.97775 0.67677  113.113  3.14626   11.650  0.10470    5.021  0.19775  126.173
       5.0225 0.67806  112.224  3.11524   10.808  0.10573    4.534  0.19902  125.011
      5.06725 0.67990  111.369  3.08591   10.011  0.10626    4.175  0.20092  124.114
       5.1120 0.67905  110.566  3.05753    9.209  0.10665    3.820  0.20223  123.026
      5.15675 0.68174  109.537  3.02888    8.333  0.10749    3.332  0.20396  122.254
       5.2015 0.68318  108.915  3.00535    7.561  0.10839    2.681  0.20618  121.235
      5.24625 0.68427  107.942  2.97744    6.695  0.10894    2.017  0.20718  120.177
       5.2910 0.68607  107.009  2.94848    5.847  0.10963    1.730  0.20954  119.066
      5.33575 0.68668  106.203  2.92353    5.098  0.10978    1.057  0.21093  118.362
       5.3805 0.68962  105.469  2.90079    4.306  0.11087    0.811  0.21276  117.446
      5.42525 0.68943  104.524  2.86930    3.465  0.11121    0.527  0.21408  116.544
       5.4700 0.69136  103.727  2.84894    2.625  0.11190   -0.154  0.21611  115.498
      5.51475 0.69193  102.845  2.82278    1.813  0.11264   -0.481  0.21817  114.645
       5.5595 0.69421  102.050  2.79966    1.060  0.11331   -1.055  0.22017  113.833
      5.60425 0.69479  101.281  2.77499    0.228  0.11403   -1.591  0.22172  112.694
       5.6490 0.69558  100.467  2.74835   -0.513  0.11431   -2.136  0.22468  111.973
      5.69375 0.69732   99.712  2.72531   -1.350  0.11511   -2.530  0.22562  110.856
       5.7385 0.69824   98.740  2.70274   -2.182  0.11604   -3.055  0.22752  110.103
      5.78325 0.69950   98.124  2.67983   -2.921  0.11661   -3.491  0.22922  109.306
       5.8280 0.70127   97.262  2.65937   -3.685  0.11704   -3.953  0.23119  108.515
      5.87275 0.70173   96.428  2.63598   -4.506  0.11747   -4.504  0.23284  107.516
       5.9175 0.70459   95.654  2.61544   -5.307  0.11849   -4.996  0.23493  106.777
      5.96225 0.70378   94.779  2.59307   -6.155  0.11923   -5.506  0.23757  105.934
       6.0070 0.70750   93.980  2.57418   -6.897  0.11976   -5.765  0.23939  105.250
      6.05175 0.70811   93.296  2.55143   -7.695  0.12053   -6.561  0.24165  104.187
       6.0965 0.71035   92.577  2.53356   -8.432  0.12064   -6.934  0.24379  103.624
      6.14125 0.71002   91.674  2.50909   -9.277  0.12136   -7.458  0.24602  102.750
       6.1860 0.71333   90.916  2.49220  -10.045  0.12183   -7.908  0.24789  101.920
      6.23075 0.71529   90.218  2.47306  -10.853  0.12253   -8.462  0.25090  101.083
       6.2755 0.71533   89.537  2.45113  -11.574  0.12339   -8.732  0.25263  100.240
      6.32025 0.71703   88.630  2.43266  -12.448  0.12393   -9.782  0.25595   99.530
       6.3650 0.71894   88.036  2.41368  -13.147  0.12456   -9.964  0.25720   98.780
      6.40975 0.71987   87.245  2.39325  -13.928  0.12494  -10.588  0.25990   97.951
       6.4545 0.72199   86.516  2.37555  -14.734  0.12523  -10.989  0.26200   97.244
      6.49925 0.72389   85.614  2.35416  -15.510  0.12605  -11.642  0.26396   96.360
       6.5440 0.72545   84.939  2.33909  -16.319  0.12608  -11.949  0.26684   95.587
      6.58875 0.72733   84.272  2.32208  -17.031  0.12760  -12.570  0.26929   94.918
       6.6335 0.72922   83.496  2.30404  -17.829  0.12823  -13.199  0.27145   94.107
      6.67825 0.73072   82.768  2.28485  -18.628  0.12841  -13.664  0.27401   93.510
       6.7230 0.73108   81.854  2.26614  -19.396  0.12832  -13.862  0.27495   92.629
      6.76775 0.73365   81.141  2.24873  -20.207  0.12893  -14.482  0.27808   91.760
       6.8125 0.73485   80.547  2.23239  -20.923  0.12998  -15.128  0.28079   91.142
      6.85725 0.73634   79.683  2.21354  -21.757  0.13045  -15.626  0.28259   90.270
       6.9020 0.73836   79.027  2.19723  -22.476  0.13061  -15.968  0.28497   89.647
      6.94675 0.73952   78.335  2.18034  -23.202  0.13121  -16.588  0.28738   88.998
       6.9915 0.74028   77.572  2.16271  -23.998  0.13170  -17.197  0.29041   87.996
      7.03625 0.74246   76.895  2.14797  -24.718  0.13201  -17.583  0.29245   87.539
       7.0810 0.74330   76.127  2.13062  -25.558  0.13275  -18.197  0.29524   86.672
      7.12575 0.74502   75.456  2.11343  -26.229  0.13321  -18.766  0.29776   85.997
       7.1705 0.74719   74.720  2.10020  -27.037  0.13344  -19.288  0.30068   85.300
      7.21525 0.74867   74.038  2.08426  -27.749  0.13394  -19.422  0.30182   84.556
       7.2600 0.74996   73.352  2.06751  -28.549  0.13424  -20.201  0.30546   83.844
      7.30475 0.75084   72.696  2.05060  -29.257  0.13476  -20.495  0.30745   83.087
       7.3495 0.75330   71.944  2.03852  -30.040  0.13529  -21.188  0.31088   82.555
      7.39425 0.75327   71.346  2.02128  -30.686  0.13615  -21.716  0.31266   81.767
       7.4390 0.75527   70.575  2.00597  -31.463  0.13652  -22.257  0.31590   81.014
      7.48375 0.75761   69.895  1.99197  -32.208  0.13663  -22.755  0.31803   80.300
       7.5285 0.75831   69.294  1.97969  -32.924  0.13745  -23.113  0.32064   79.685
      7.57325 0.76042   68.622  1.96152  -33.684  0.13773  -23.674  0.32382   78.847
       7.6180 0.76126   67.877  1.94853  -34.431  0.13819  -24.104  0.32610   78.349
      7.66275 0.76330   67.293  1.93452  -35.116  0.13846  -24.600  0.32881   77.535
       7.7075 0.76476   66.439  1.92039  -35.942  0.13919  -25.076  0.33138   77.005
      7.75225 0.76748   65.916  1.90900  -36.593  0.13954  -25.700  0.33410   76.198
       7.7970 0.76890   65.172  1.89468  -37.411  0.13984  -26.278  0.33796   75.569
      7.84175 0.76923   64.583  1.88134  -38.099  0.14001  -26.736  0.33927   74.736
       7.8865 0.77166   63.834  1.86804  -38.838  0.14070  -27.183  0.34231   74.137
      7.93125 0.77364   63.190  1.85415  -39.626  0.14110  -27.853  0.34538   73.622
       7.9760 0.77579   62.397  1.84196  -40.409  0.14153  -28.266  0.34577   72.963
      8.02075 0.77715   61.841  1.82995  -41.133  0.14204  -28.735  0.35109   72.233
       8.0655 0.77952   61.156  1.81583  -41.825  0.14243  -29.294  0.35311   71.659
      8.11025 0.78029   60.554  1.80291  -42.547  0.14292  -29.909  0.35581   70.851
       8.1550 0.78194   59.857  1.78964  -43.290  0.14315  -30.313  0.35848   70.293
      8.19975 0.78391   59.082  1.77783  -44.107  0.14342  -31.016  0.36117   69.738
       8.2445 0.78593   58.518  1.76369  -44.808  0.14373  -31.459  0.36377   68.899
      8.28925 0.78657   57.806  1.75167  -45.509  0.14385  -31.986  0.36714   68.397
       8.3340 0.78846   57.210  1.73827  -46.209  0.14449  -32.454  0.36925   67.688
      8.37875 0.78880   56.515  1.72499  -47.000  0.14501  -33.010  0.37283   67.051
       8.4235 0.79198   55.851  1.71317  -47.701  0.14506  -33.566  0.37427   66.286
      8.46825 0.79291   55.225  1.70094  -48.452  0.14583  -33.977  0.37836   65.770
       8.5130 0.79472   54.595  1.68669  -49.171  0.14582  -34.690  0.38121   65.061
      8.55775 0.79608   53.877  1.67469  -49.881  0.14637  -35.126  0.38355   64.344
       8.6025 0.79753   53.300  1.66428  -50.591  0.14625  -35.773  0.38671   63.783
      8.64725 0.79932   52.560  1.65119  -51.378  0.14677  -36.151  0.38900   63.240
       8.6920 0.80123   52.042  1.64027  -52.086  0.14678  -36.858  0.39288   62.424
      8.73675 0.80184   51.256  1.62785  -52.764  0.14702  -37.378  0.39556   61.961
       8.7815 0.80425   50.731  1.61786  -53.483  0.14753  -37.959  0.39835   61.248
      8.82625 0.80561   49.930  1.60528  -54.247  0.14764  -38.359  0.40097   60.543
       8.8710 0.80743   49.421  1.59388  -54.892  0.14823  -38.950  0.40364   59.895
      8.91575 0.80862   48.804  1.58155  -55.590  0.14800  -39.415  0.40636   59.269
       8.9605 0.80962   48.131  1.57120  -56.328  0.14837  -40.057  0.41000   58.666
      9.00525 0.81300   47.587  1.56098  -57.011  0.14881  -40.459  0.41160   57.978
       9.0500 0.81226   46.871  1.54700  -57.688  0.14871  -41.080  0.41571   57.268
      9.09475 0.81621   46.229  1.53848  -58.519  0.14910  -41.670  0.41839   56.785
       9.1395 0.81622   45.636  1.52874  -59.183  0.14915  -42.181  0.42215   56.155
      9.18425 0.81799   44.942  1.51677  -59.899  0.14923  -42.696  0.42442   55.531
       9.2290 0.82094   44.331  1.50746  -60.580  0.14965  -43.260  0.42751   54.963
      9.27375 0.82198   43.743  1.49728  -61.309  0.14996  -43.878  0.43047   54.226
       9.3185 0.82458   43.056  1.48735  -61.968  0.14995  -44.418  0.43442   53.714
      9.36325 0.82496   42.461  1.47546  -62.787  0.15030  -44.788  0.43647   52.919
       9.4080 0.82679   41.721  1.46645  -63.520  0.15031  -45.483  0.43971   52.332
      9.45275 0.82936   41.146  1.45562  -64.147  0.15053  -45.973  0.44164   51.632
       9.4975 0.82948   40.480  1.44559  -64.847  0.15076  -46.345  0.44463   51.217
      9.54225 0.83313   39.853  1.43718  -65.639  0.15081  -46.931  0.44746   50.561
       9.5870 0.83324   39.278  1.42669  -66.299  0.15125  -47.678  0.44991   49.911
      9.63175 0.83359   38.678  1.41575  -66.976  0.15125  -48.088  0.45300   49.271
       9.6765 0.83677   37.999  1.40587  -67.697  0.15156  -48.478  0.45544   48.677
      9.72125 0.83694   37.474  1.39738  -68.385  0.15156  -49.038  0.45850   48.029
       9.7660 0.83991   36.747  1.38661  -69.185  0.15172  -49.579  0.46152   47.571
      9.81075 0.84073   36.212  1.37764  -69.812  0.15199  -50.083  0.46382   46.893
       9.8555 0.84334   35.474  1.36907  -70.547  0.15201  -50.684  0.46698   46.315
      9.90025 0.84377   35.002  1.35829  -71.243  0.15228  -51.210  0.47024   45.651
       9.9450 0.84502   34.275  1.34790  -71.951  0.15223  -51.831  0.47315   45.051
      9.98975 0.84596   33.672  1.33935  -72.687  0.15226  -52.277  0.47601   44.553
      10.0345 0.84866   33.158  1.33160  -73.296  0.15272  -52.775  0.47852   43.952
     10.07925 0.84761   32.542  1.32142  -73.985  0.15233  -53.293  0.48204   43.354
      10.1240 0.85114   31.982  1.31345  -74.809  0.15273  -53.808  0.48370   42.691
     10.16875 0.85092   31.309  1.30363  -75.392  0.15252  -54.362  0.48732   42.112
      10.2135 0.85373   30.766  1.29542  -76.160  0.15304  -54.975  0.48966   41.459
     10.25825 0.85413   30.104  1.28596  -76.883  0.15303  -55.418  0.49253   40.928
      10.3030 0.85524   29.554  1.27662  -77.554  0.15305  -55.851  0.49576   40.398
