!Agilent Technologies,N5225A,MY51451011,A.09.90.21
!Agilent N5225A: A.09.90.21
!Date: Tuesday, July 07, 2020 17:08:48
!Correction: Sdd11(Full 4 Port(1,2,3,4)) 
!Sdc11(Full 4 Port(1,2,3,4)) 
!Sdd12(Full 4 Port(1,2,3,4)) 
!Sdc12(Full 4 Port(1,2,3,4)) 
!Scd11(Full 4 Port(1,2,3,4)) 
!Scc11(Full 4 Port(1,2,3,4)) 
!Scd12(Full 4 Port(1,2,3,4)) 
!Scc12(Full 4 Port(1,2,3,4)) 
!Sdd21(Full 4 Port(1,2,3,4)) 
!Sdc21(Full 4 Port(1,2,3,4)) 
!Sdd22(Full 4 Port(1,2,3,4)) 
!Sdc22(Full 4 Port(1,2,3,4)) 
!Scd21(Full 4 Port(1,2,3,4)) 
!Scc21(Full 4 Port(1,2,3,4)) 
!Scd22(Full 4 Port(1,2,3,4)) 
!Scc22(Full 4 Port(1,2,3,4)) 
!Balanced Topology: BBAL
!S4P File: Measurements: <Sdd11,Sdc11,Sdd12,Sdc12>,
!<Scd11,Scc11,Scd12,Scc12>,
!<Sdd21,Sdc21,Sdd22,Sdc22>,
!<Scd21,Scc21,Scd22,Scc22>:
# Hz S  RI   R 50
1000000000 -0.00094910257 -0.0045730681 -0.00059079874 -2.6793161e-005 1.5004437e-005 0.00023276309 4.6487672e-005 -3.7990576e-005
-0.00061893312 -9.0712623e-005 -1.9930922e-005 0.0073717921 -1.0103348e-005 0.00010507127 7.8104349e-005 0.00043661712
-5.9861151e-005 0.00021134561 -2.716627e-005 4.1397085e-005 -0.00071726943 -0.0054278248 -0.0003202435 -0.002239764
1.8197989e-006 -3.6654528e-006 0.00013355481 0.00036855906 -0.00028627532 -0.0021571659 0.00017726015 0.0012194423
1005000000 -0.0010126369 -0.004612329 -0.00051996385 3.6147947e-005 7.1245748e-005 0.00016166831 4.131921e-005 5.1430878e-005
-0.00050580548 -9.6628384e-005 -1.3942806e-006 0.0074046371 2.0900596e-005 0.00010513454 0.00014831165 0.00022589377
7.1367598e-005 0.00026060603 1.5381607e-005 0.00015281615 -0.0006389718 -0.0054295459 2.2903609e-005 -0.0021725835
5.1935604e-005 3.0243042e-005 0.0001328338 0.00029736359 -6.0405233e-005 -0.0021813523 0.00025243466 0.001274472
1010000000 -0.0011318454 -0.0047046235 -0.00061489292 2.714427e-005 6.1013805e-005 0.00024338257 -4.1250238e-005 -3.7772566e-005
-0.000512906 4.7230569e-005 -6.4503096e-005 0.0073242844 1.4977098e-005 0.00010613709 0.00012274238 0.00032602227
0.00010869233 0.00014956332 3.2241802e-005 9.1219539e-005 -0.00068366749 -0.0054337545 -0.0001419601 -0.0022102578
1.3418886e-005 -3.7575417e-005 4.995141e-005 0.00035591365 -0.00010744208 -0.0021457134 0.00019363218 0.0011699252
1015000000 -0.0011699931 -0.0046563563 -0.00060926419 6.8644644e-005 -7.1835369e-005 0.00021428466 7.9021329e-006 -1.4698955e-005
-0.00052881613 -3.12099e-005 -2.4274979e-005 0.0073862649 0.00011477379 9.3917093e-005 7.9261881e-005 0.00023413365
2.9844332e-005 0.00024223252 -5.8942904e-005 6.656941e-005 -0.00074635545 -0.0055178474 -0.00025954776 -0.0022743838
0.00010882456 -5.047318e-005 -4.918452e-005 0.00036492996 -0.00021083855 -0.0022118767 0.0001721861 0.0011942741
1020000000 -0.0011453077 -0.0047648437 -0.00056167255 -8.357421e-005 -5.9996255e-006 0.00020956993 5.5224242e-005 1.5225705e-005
-0.0005152825 -2.9964023e-005 -3.1654148e-005 0.007472449 -2.3817611e-006 0.00011296242 0.0001072065 0.00030942296
9.7761345e-005 0.00018321539 -2.6794472e-005 6.1538907e-005 -0.0008395809 -0.0054441141 -0.00025469411 -0.002119344
7.8358185e-005 1.2713099e-005 6.9838556e-005 0.00035455634 -0.00015011066 -0.0021440024 0.00016892879 0.0012508439
1025000000 -0.001016309 -0.0046546012 -0.00056775473 9.9683006e-005 8.2355582e-005 0.00031234761 7.8464573e-006 -6.5545173e-006
-0.00049206737 3.9997802e-005 -6.3383835e-005 0.0074771764 0.00011849056 5.791556e-005 -3.8701743e-005 0.00025399565
-2.7970545e-005 0.00023342969 7.1909933e-005 0.00017081836 -0.00071580184 -0.0056878403 -0.00011760892 -0.0022080564
6.7041765e-005 7.5581054e-005 5.2214215e-005 0.00028165296 -0.00011025991 -0.0020488007 0.00011843981 0.0011155409
1030000000 -0.0011529285 -0.0047552371 -0.00058903627 -9.5336232e-005 -2.7192191e-005 0.00016339991 -4.6420944e-005 -2.3427594e-005
-0.00048733491 -3.2498036e-005 -9.3055729e-005 0.0076115262 -2.2619455e-005 0.00016044284 9.7131837e-005 0.0004133436
4.3291209e-005 0.00027472025 7.6850469e-005 0.00018800354 -0.0007955496 -0.005550696 -0.00021233171 -0.0021854325
1.9680439e-005 -1.7126855e-005 -3.7355821e-005 0.00037690159 -0.00018536078 -0.0021870905 7.9800055e-005 0.0012688513
1035000000 -0.0011797359 -0.0048400238 -0.000580444 0.00011067512 8.3797218e-005 0.00019533311 1.3395059e-005 -5.2217976e-005
-0.00052842655 9.0413727e-005 -6.0604725e-006 0.0074956245 1.932653e-005 0.00019698555 0.00013454909 0.00030508632
9.1957394e-005 0.00024663855 4.2491349e-005 0.00020051465 -0.00075726525 -0.0055654943 -8.1973078e-005 -0.0022093831
0.00011363911 2.9151161e-005 0.00014767128 0.00035725991 -6.1451647e-005 -0.0021321555 0.00015452727 0.0012277713
1040000000 -0.0011061294 -0.004707057 -0.00062699872 5.6304445e-005 3.3386499e-005 0.00024783541 -3.2269982e-005 -4.1459643e-006
-0.0006546076 -9.1530907e-005 -5.9062986e-005 0.0077190585 2.0519281e-005 0.00016511022 0.00022265957 0.0003141507
6.9439309e-005 0.00019416079 6.9841604e-005 4.1121719e-005 -0.00067991257 -0.0056143552 -0.00019878069 -0.0021367881
-6.2996742e-006 2.2533481e-005 5.1236198e-005 0.00031748682 -0.00016952665 -0.0021731949 0.00025990725 0.0011890226
1045000000 -0.0011951991 -0.0046735927 -0.00069232529 1.0447169e-005 8.9680441e-005 0.0002192109 -3.0592983e-005 -1.6272999e-005
-0.00072233134 2.8844981e-005 -0.00011920821 0.0077015627 -2.2310081e-005 9.4383635e-005 9.7805809e-005 0.00032938289
8.7972898e-005 0.00014450621 5.4784643e-005 9.9026001e-005 -0.00078083109 -0.0055498313 -0.00022365752 -0.0022949793
1.8073406e-005 5.7013385e-006 2.9538605e-005 0.00036492042 -0.00021396874 -0.0022646093 0.00010553721 0.0011936036
1050000000 -0.0011537054 -0.0047620521 -0.00064128899 0.00016353407 4.4721583e-005 0.00026406412 1.3557533e-006 3.2773285e-005
-0.00069375109 9.0808957e-005 -0.00019402718 0.0075869481 -1.6946558e-005 4.4323984e-005 6.1495652e-005 0.00036804524
8.1357313e-005 0.00022680008 -4.3212742e-005 0.0001049306 -0.00065767509 -0.0057171844 -0.00027490139 -0.0021715367
1.7906706e-005 5.5077529e-005 2.4092154e-005 0.00042691082 -0.00021633024 -0.0022146357 0.00020864849 0.0012296824
1055000000 -0.0012012041 -0.0047229305 -0.00055192137 -5.9969898e-005 4.6604655e-005 0.00019419423 4.7767888e-005 -3.2512158e-005
-0.00049725146 -1.5040103e-005 6.6503133e-005 0.0077994289 4.9224687e-005 0.00022612215 0.00013333026 0.00038718747
7.2834118e-006 0.00018953872 0.00012148762 0.00016328268 -0.00071523781 -0.0056336294 -9.8715536e-005 -0.0021785372
2.0937008e-005 -2.6410387e-005 0.00011545789 0.00031084215 -0.00016418318 -0.0021937571 0.00024136633 0.0012596872
1060000000 -0.0010683073 -0.0049370173 -0.00059212273 -5.7404395e-006 0.00011114591 0.00015976295 6.3752144e-005 1.766489e-005
-0.00062291214 -9.0342248e-005 -7.073296e-005 0.0076548466 -6.4231208e-005 8.0659185e-005 4.4034656e-005 0.00038044667
5.5017495e-005 0.00019240333 6.3788379e-005 0.00012772591 -0.00071041397 -0.0056841983 -0.00023256229 -0.0022665693
4.9193299e-005 -0.00012653411 8.295483e-005 0.00021783312 -0.00026399206 -0.0023057582 0.00025581295 0.0012506767
1065000000 -0.001158386 -0.0048612724 -0.00047271742 3.7665071e-005 9.6911426e-005 0.00028690646 -4.5231525e-005 4.9524919e-005
-0.00049977726 8.8017026e-005 1.1570028e-005 0.0077509857 2.3681514e-005 0.00015205893 0.00011129319 0.00033898457
3.6304955e-005 0.00018855301 3.0484902e-005 0.00018567817 -0.00060152542 -0.0056894226 -0.00019391468 -0.0023318084
-1.9666146e-005 3.5476725e-005 9.261907e-005 0.00039384485 -0.0002215843 -0.0022259394 0.00031558395 0.0011634429
1070000000 -0.0011476929 -0.0048504621 -0.0004973028 1.8444844e-005 4.9911068e-006 0.00026208087 1.7807255e-005 6.4123604e-005
-0.00059423223 1.1039898e-005 -1.3989946e-005 0.0077793775 -5.3553595e-005 0.00010039577 2.7954447e-005 0.00025435584
6.1165192e-006 0.00025050616 7.4433643e-005 0.00015819017 -0.00067814242 -0.0058735237 -0.0001447148 -0.0023649379
9.8816745e-006 2.7666159e-005 0.00017715579 0.00032197384 -0.00019861916 -0.002368506 0.00024437066 0.0012905481
1075000000 -0.0010748076 -0.0049747131 -0.00071537582 -3.4707657e-005 3.6114507e-005 0.00015750539 4.4021373e-005 0.00013661878
-0.00075994729 4.4553482e-005 8.990895e-005 0.0078004259 2.3620365e-005 0.00016910005 6.3758707e-005 0.00037062136
6.2939958e-005 0.00021512345 9.0347399e-005 0.0001549747 -0.00066576182 -0.0058958568 -0.0002437247 -0.0023041642
6.2522558e-005 4.4123895e-005 6.0624865e-005 0.00039828889 -0.00018563814 -0.0023126025 0.00036274231 0.0012238804
1080000000 -0.0011447126 -0.0049106572 -0.00062779628 0.00011825212 5.5587698e-005 0.00019134267 -4.450186e-007 4.0801962e-005
-0.00052116881 6.519747e-005 -0.00010144537 0.0078809271 0.00011916562 0.00011454813 6.2435574e-005 0.00034384732
3.3847155e-005 0.00021451662 5.9219066e-005 0.00015314063 -0.00076653017 -0.0056380508 -0.00024697691 -0.0023669815
-5.9056332e-005 -1.0357486e-005 9.9412151e-005 0.00042220892 -0.00019649047 -0.0023258366 0.0001306312 0.0013744107
1085000000 -0.0011026395 -0.0051008705 -0.00054512813 -7.9572841e-005 1.2577919e-005 0.00025713735 0.00012857057 -6.126448e-005
-0.00058093388 -1.8989842e-005 -4.8077593e-005 0.0079086591 3.7041522e-005 0.00013763929 8.0460617e-005 0.00033115805
-5.8252308e-006 0.00018294854 0.00013227561 0.00012252446 -0.00066200917 -0.0059198206 -0.00026022075 -0.0024637214
1.2327689e-005 -5.0505114e-005 7.3273564e-005 0.00029696239 -0.00022243796 -0.0024306981 0.0001951931 0.0012879107
1090000000 -0.0011253045 -0.0050372873 -0.00044846826 5.7344616e-005 3.9266084e-005 0.0001850344 4.5045806e-005 -1.6122838e-005
-0.00056516315 -2.5842979e-005 -0.00017035914 0.0080026975 6.3749292e-005 0.00014817926 0.00015104223 0.00034752989
4.1627525e-005 0.00024727051 -4.7451471e-005 0.00017943888 -0.00078718539 -0.0059473356 -0.00023115642 -0.0023669456
3.1947638e-005 -5.1096569e-005 4.1243322e-005 0.00027319818 -0.00027069519 -0.0023301756 0.0001545719 0.0011441051
1095000000 -0.0010945951 -0.0051351949 -0.0005694626 -0.00012226828 -3.4134151e-005 0.00023831664 1.4437162e-005 -3.9941064e-005
-0.00047290727 -0.00014358625 3.306596e-005 0.0078349439 -1.7677794e-005 0.0001413806 0.00014520499 0.00032157882
5.4171076e-005 0.00018155624 -2.383299e-005 7.2385228e-005 -0.00062175893 -0.0059628421 -0.00014523575 -0.0023675524
8.3020159e-006 2.472644e-005 8.5804997e-005 0.00041835147 -9.2846676e-005 -0.0023392402 0.00018074403 0.0012426425
1100000000 -0.0011489092 -0.005077302 -0.00050741876 -5.0769071e-005 7.2725634e-005 0.00026815722 6.4693479e-005 4.9093163e-005
-0.0004853257 -0.00011118536 8.2853905e-005 0.0079598175 -1.8482888e-006 0.000139621 4.0545547e-005 0.00028320696
1.3685102e-005 0.00026242476 6.9215333e-005 0.00016547985 -0.00063420611 -0.0057880315 -0.0002594408 -0.0023878885
-1.1270045e-005 -1.204983e-005 0.00014416299 0.00036772981 -0.00010903958 -0.0022928105 0.00014294735 0.0013438415
1105000000 -0.0011704471 -0.0050403918 -0.00066134596 -8.7385881e-005 8.4489089e-005 0.00023169781 -1.3691912e-005 1.0145777e-005
-0.0005608495 -9.9568861e-006 -5.7754471e-005 0.0081038624 -1.0839183e-005 0.0001190131 0.00021299071 0.00032561205
-1.6283049e-005 0.00011486124 1.0135566e-006 0.0001411089 -0.00071234326 -0.0059644454 -0.00025598702 -0.0023365095
9.0824156e-005 -1.6840277e-005 0.0001106017 0.00034339956 -2.1245098e-005 -0.0023233194 0.00018549536 0.001297417
1110000000 -0.001158594 -0.0050336784 -0.00056251261 -8.5659325e-005 -8.1800945e-006 0.00021288139 1.8028875e-005 7.314721e-005
-0.0004760689 -7.6576602e-005 -2.0081334e-006 0.0080959052 7.0331167e-005 0.00010560881 5.3345659e-005 0.00026976204
2.2471828e-005 0.0002678395 3.7930895e-005 0.00012680922 -0.00068739482 -0.0059891627 -0.00011177748 -0.002503365
-2.5522451e-005 -3.4023687e-006 5.9616032e-005 0.00047206733 -0.00019023346 -0.002496091 0.00017985451 0.0013873941
1115000000 -0.0011641515 -0.0050880299 -0.00054375775 -7.9576159e-005 6.4159904e-005 0.00032288919 -6.2313018e-005 -3.2450349e-005
-0.000518338 -8.442509e-005 -2.4166431e-005 0.0081805158 2.0323456e-005 0.00018918423 9.9929057e-005 0.00034204597
3.4091336e-005 0.00022014244 5.4998771e-005 0.00019745034 -0.00071211479 -0.0059686787 -0.0001099347 -0.0024836892
3.3407752e-005 1.4209159e-005 0.00010165475 0.00034422742 -0.00014151454 -0.002425489 8.5387044e-005 0.0013192762
1120000000 -0.00097018952 -0.0051892824 -0.0006776221 3.9212173e-005 6.7478599e-005 0.00021722884 7.2621704e-005 -7.6264405e-007
-0.0006822953 -4.9970811e-005 4.1512751e-005 0.0081943758 8.6455097e-005 0.00014695514 -1.9202336e-005 0.00041348679
5.9897657e-006 0.00023554762 -5.6936078e-005 0.0001023755 -0.00079505227 -0.0058644861 -9.4034956e-005 -0.0023098765
7.5137308e-005 -8.2978469e-005 0.00015097174 0.00039410917 -0.00012205025 -0.002407504 0.00022246705 0.0014130281
1125000000 -0.00115145 -0.0050379722 -0.00037100865 -2.6125403e-005 3.0771283e-005 0.0001607477 8.2929597e-005 6.8051129e-005
-0.00041066506 -5.1082054e-005 -8.0513368e-005 0.0082483506 4.2319698e-005 9.7989832e-005 1.3979268e-006 0.00034089081
9.8566947e-005 0.0002666183 5.3703807e-005 0.00021069852 -0.00083792518 -0.00606811 -0.00017767039 -0.0023996558
4.2133332e-005 -1.2534983e-005 0.00015910938 0.00033545552 -0.00014942983 -0.0023953074 8.9049681e-005 0.0012337692
1130000000 -0.001091123 -0.0051124687 -0.00035222346 3.5771052e-005 9.9622128e-005 0.00020244272 5.4033237e-005 -1.368676e-005
-0.00043894182 4.6734931e-006 1.2257769e-005 0.0082437936 8.009775e-005 0.0001490053 5.7021716e-005 0.00031571728
5.6070723e-005 0.00025402469 -1.3746091e-005 6.920642e-005 -0.00082687964 -0.006079766 -0.00022523454 -0.0025033357
-1.1703753e-005 -3.7512073e-005 0.00010515358 0.00049322686 -0.00024047616 -0.0024032246 -1.8220337e-005 0.0013422378
1135000000 -0.0011532342 -0.0051262537 -0.00042909436 2.3480505e-005 2.792983e-006 0.00025472254 -4.3175507e-005 -2.2156644e-005
-0.0004049018 1.7203391e-005 -7.8587334e-005 0.0081633618 7.7984289e-005 9.161896e-005 0.0001377188 0.00030986936
7.3295239e-005 0.0002860614 9.9214267e-005 0.00015666241 -0.00070651592 -0.0061928136 -0.0001108045 -0.0023689144
2.8965833e-006 1.9698899e-005 -1.9250478e-005 0.0003257409 -0.00018854399 -0.0023221299 0.00019775247 0.0012674673
1140000000 -0.001174889 -0.0052141072 -0.00042451156 4.5327237e-005 7.3293006e-005 0.00024311346 0.00011408103 2.0776606e-005
-0.00036937988 0.00013030902 -7.4862786e-005 0.0083899619 6.5213542e-005 0.00015142237 2.9242648e-005 0.00041109291
9.6934409e-006 0.00021911322 -2.0689158e-006 7.360625e-005 -0.00077525742 -0.0061066467 -6.9295187e-005 -0.0023712746
-0.00011051384 -3.357356e-005 4.6159555e-005 0.00037420355 -0.00011634054 -0.0023750106 3.7581354e-005 0.0013082937
1145000000 -0.0011415035 -0.0052111298 -0.000574807 5.3045456e-005 1.6434085e-005 0.0002026874 -7.2431925e-005 1.8480736e-005
-0.00042923383 -0.00011963386 -9.1496564e-005 0.0084142219 8.0215577e-005 0.00015343429 8.6239597e-005 0.00040708334
3.9986917e-005 0.00019677076 0.00010106895 0.00020555395 -0.00093073922 -0.0061575742 -0.00028643297 -0.002595349
4.1922485e-006 -3.9932973e-005 2.8359811e-005 0.00035217387 -0.00033874501 -0.002367438 4.9405855e-005 0.0012797546
1150000000 -0.0010699207 -0.0052276701 -0.0005893035 4.9403694e-005 5.7780497e-005 0.00021889097 1.8810633e-005 1.1995449e-005
-0.00058918004 0.00016135332 -4.0731145e-005 0.0084314179 6.1410305e-005 0.00017732517 3.5670622e-005 0.00024176553
4.9509828e-005 0.00019243246 5.3076783e-005 0.000226145 -0.00075130991 -0.0062331753 -0.00020618824 -0.0024383713
-1.0336552e-005 -2.4857374e-005 0.00011248931 0.00035204217 -0.00017114717 -0.0024086104 4.9924762e-005 0.0013005282
1155000000 -0.0010296789 -0.0053098383 -0.00078721583 -1.2577628e-005 2.7667189e-005 0.00027257114 -1.91158e-005 4.0179846e-005
-0.00071468123 8.2200277e-005 -7.5655116e-006 0.0084136929 -4.2996697e-005 6.0968829e-005 0.0001301068 0.0003816984
7.601679e-005 0.00032198348 1.1780848e-005 0.00017396155 -0.00075141713 -0.006394777 -0.00013852224 -0.0025797768
-1.1805768e-005 1.4155085e-006 0.00010766453 0.00039476762 -0.00016377697 -0.0024953836 0.00015188748 0.0013042189
1160000000 -0.0011429987 -0.005399962 -0.00053358538 -0.00011535315 8.2579412e-005 0.00018668373 8.265115e-007 9.686331e-005
-0.00074039877 -6.2846113e-005 -9.1226775e-006 0.0084623666 7.3823052e-005 0.00015858392 5.7841087e-005 0.00030510407
0.00014026996 0.00018890593 -1.2453611e-006 0.00012094001 -0.00084066816 -0.0061563668 -0.0002764714 -0.002629284
8.7468929e-005 2.0376567e-005 9.913095e-005 0.00030594922 -0.00029327953 -0.0025422252 5.3777207e-005 0.0013551712
1165000000 -0.001202433 -0.0053604445 -0.00057223794 8.8284607e-005 6.8302812e-005 0.00024707295 -2.0235013e-005 -5.8790683e-005
-0.00059843453 7.5750402e-005 -0.00010615606 0.0084649036 2.2067136e-006 0.00012893371 3.0934152e-005 0.00032428373
0.00014719588 0.00025778494 2.9357148e-005 0.00014665253 -0.00079821399 -0.0061737923 -0.00019647536 -0.0025429041
-4.6727422e-005 1.9904954e-005 0.00014974485 0.0003277545 -0.00017986941 -0.0024507663 0.00013921817 0.0013950119
1170000000 -0.0011076159 -0.0054391334 -0.00063876121 7.4359123e-006 7.2531271e-005 0.00033154961 -3.5891528e-005 1.7854734e-005
-0.00065120158 -4.9524242e-005 1.3112727e-005 0.0084867999 -1.0111891e-005 0.0001482988 0.00016348864 0.00042306451
3.6034471e-005 0.00026200121 6.3739222e-005 0.00010099378 -0.00071179215 -0.0062075844 -0.00029871898 -0.0024576453
7.1341376e-005 -2.936196e-005 0.00013511369 0.00026593864 -0.00031672357 -0.0024872769 0.00020012249 0.0014572786
1175000000 -0.001086103 -0.0053361659 -0.00048085579 6.128446e-005 6.7100344e-005 0.00027624474 0.00011822708 3.284082e-005
-0.00051199505 1.6336038e-005 9.2533803e-005 0.008540526 -1.2199185e-005 0.00013343674 0.00010067842 0.00038941059
1.6633639e-005 0.00027327478 -5.9872385e-005 0.00013262393 -0.00056690234 -0.0062338389 -0.00016612631 -0.0024624236
7.2360046e-005 5.9886908e-005 0.00015974845 0.00045218004 -0.00025413712 -0.0024912083 0.00036967511 0.0013899128
1180000000 -0.0011165614 -0.0055078012 -0.00062615087 -1.3700454e-005 -8.2134386e-005 0.00025630972 -3.0450774e-006 -8.8173379e-005
-0.00058446889 6.2494539e-005 6.8872178e-005 0.0086401897 0.00012737139 0.00021065949 0.00013146199 0.00026697794
6.9835587e-005 0.00030866789 6.4866996e-005 0.00017387597 -0.00073301879 -0.006345266 -0.00025897194 -0.0025876781
5.3844738e-005 4.9537994e-005 0.00013150716 0.00034802526 -0.00028189004 -0.0025586938 0.00014272711 0.0014318271
1185000000 -0.001083428 -0.0053694015 -0.00049059058 -9.4006362e-005 -6.0543234e-006 0.00025370726 2.8448514e-005 2.3919099e-005
-0.00064510002 -7.872592e-005 -4.4668173e-005 0.0086208638 8.7569955e-005 0.00011184718 6.7016976e-005 0.00035729512
0.00018620306 0.00024331792 -5.8019115e-005 0.00010710806 -0.00072065747 -0.0063242856 -0.00024781813 -0.002510228
-7.3379808e-005 0.00012129423 0.00011379345 0.00039191797 -0.00035628892 -0.0025228765 0.00020102288 0.0014058159
1190000000 -0.0011229094 -0.0055281864 -0.00059434283 -9.2777598e-005 7.8605553e-005 0.00026214006 4.4551714e-005 5.0265604e-005
-0.0004933055 -9.3269337e-005 -3.2981156e-005 0.0085843271 5.6436289e-005 9.0059388e-005 5.8494956e-005 0.00037358765
0.00015434952 0.00033205646 6.3262938e-005 0.00024929133 -0.0007766998 -0.0063178912 -7.5222022e-005 -0.0025686906
1.4073862e-005 -4.7461457e-005 0.00011036475 0.00035035974 -0.0002652503 -0.0025057821 0.0002006531 0.0013687336
1195000000 -0.0010520992 -0.0054445164 -0.00048727175 -3.5859877e-005 9.5030104e-005 0.00021963101 -3.076654e-005 -4.571164e-006
-0.00054506323 -0.00014744583 0.0001113013 0.0087367464 5.6850076e-005 0.00010724895 0.00010864515 0.00033787952
4.5865723e-005 0.00031432224 3.6391713e-005 0.0001488569 -0.00064262073 -0.0064640911 -0.00014556815 -0.0025361984
-2.1015469e-005 -7.9731457e-005 0.0001633385 0.00033574871 -0.00011652261 -0.0025425178 0.00025263091 0.0013487921
1200000000 -0.0011597163 -0.0055875927 -0.0005982013 -3.0836149e-005 -4.6895464e-005 0.00017897588 1.633821e-005 3.8269929e-005
