!  4-Port S-parameters saved by WinCal
! VAR MeasName=S-Parameters (CALIBRATED_DATA) read from VNA (N5225A)
! VAR MeasDate=7/7/2020 2:51:53 PM
! VAR NAME=load_se
! VAR FILENAME=load_se.S4P
! VAR DATE=7/7/2020 2:51:53 PM
! VAR PHYS_PORTS=1,2,3,4
!
# Hz S RI R 50
1000000000.000 -8.6554611335E-004 +1.4300870243E-003  -6.2277890720E-006 +3.2969441963E-004  +5.6471570861E-004 +5.8992053382E-003  +5.1659924793E-005 +1.0022499919E-004 
	+2.1845773153E-004 +2.3905080161E-004  -6.3321972266E-004 -4.4728666544E-003  -7.2736562288E-005 +1.8132101104E-004  +4.6239825315E-004 +3.2034206670E-003 
	+6.5939372871E-004 +6.1208871193E-003  -6.2260332925E-005 +1.4315411681E-004  +5.9085647081E-005 +1.4842809178E-003  +5.3735679103E-005 +9.9783814221E-005 
	-1.9557410269E-006 -9.7200012533E-005  +3.0160060851E-004 +3.1857583672E-003  -2.3505648983E-007 +2.8556189500E-004  -9.4780931249E-005 +7.0027541369E-005 
1005000000.000 -8.4402255015E-004 +1.3641522964E-003  +5.1199625887E-005 +2.5371491211E-004  +4.3816579273E-004 +5.9746187180E-003  -5.0023299991E-005 -2.7394271456E-005 
	+1.9686791347E-005 +3.9875105722E-004  -3.4983290243E-004 -4.4168033637E-003  +6.0358452174E-005 -4.0328101022E-005  +4.4193057693E-004 +3.3077031840E-003 
	+4.9844459863E-004 +5.9780972078E-003  +6.7807784944E-005 +2.4664649391E-004  +5.1609637012E-005 +1.3968955027E-003  +1.2925085321E-004 +3.2385173836E-004 
	-1.0750141882E-005 +1.4531039596E-005  +4.7089208965E-004 +3.3767339773E-003  -5.5036798585E-005 +1.6246110317E-004  -2.6673503453E-004 +1.8099870431E-005 
1010000000.000 -1.1105175363E-003 +1.2672650628E-003  +7.9730656580E-005 +3.5279712756E-004  +6.1035552062E-004 +6.0689575039E-003  -9.1806301498E-005 +1.0276440662E-005 
	+8.2817474322E-005 +3.4972693538E-004  -4.2209390085E-004 -4.3617878109E-003  +2.4391780244E-005 +2.0512165793E-004  +4.8289776896E-004 +3.2386314124E-003 
	+6.1946600908E-004 +6.0828300193E-003  +4.5808254072E-005 +5.5490858358E-005  +4.1612875066E-006 +1.1070190230E-003  +4.0227259888E-005 +1.6058431356E-004 
	+7.5623800512E-005 -1.0165487038E-004  +3.3192691626E-004 +3.2193439547E-003  +7.6736287156E-005 +2.1323790133E-004  -8.5773339379E-005 +7.9762903624E-006 
1015000000.000 -9.1942277504E-004 +1.3740243157E-003  +1.0266393656E-004 +3.3678804175E-004  +4.2964864406E-004 +6.1168665998E-003  -6.5950598582E-006 +7.4563482485E-005 
	-4.3275569624E-005 +3.9686574019E-004  -5.0907116383E-004 -4.3399082497E-003  -2.8039187328E-006 +1.1314855510E-004  +5.1158422139E-004 +3.2805427909E-003 
	+6.0479127569E-004 +6.1081838794E-003  -3.7837329728E-005 +8.0365221947E-005  +6.7361368565E-005 +1.2079051230E-003  +8.7215463282E-005 +2.8756761458E-004 
	-3.9508373447E-005 +6.8173608270E-006  +3.8705093903E-004 +3.2245202456E-003  -1.2043042261E-005 +2.1271950391E-004  -1.3360021694E-004 +7.5709678640E-005 
1020000000.000 -9.4160385197E-004 +1.4218416763E-003  +1.0031581769E-004 +2.9283517506E-004  +5.0327437930E-004 +6.0544121079E-003  +4.0849517973E-006 +1.1234678823E-005 
	+7.1486779234E-006 +2.8225360438E-004  -6.0010660673E-004 -4.3966714293E-003  +4.6287699661E-005 +1.0781163292E-004  +3.6406749859E-004 +3.4315676894E-003 
	+6.6031003371E-004 +5.9314174578E-003  +5.1079878176E-005 +2.2080605504E-006  -8.1660291471E-005 +1.2989433017E-003  +2.5577963243E-005 +8.9917535661E-005 
	+2.8909387765E-005 -1.6572264940E-005  +5.7716417359E-004 +3.3243088983E-003  -4.5996752306E-005 +2.9588103644E-004  -1.5074075782E-004 +1.2818579853E-004 
1025000000.000 -1.0037469910E-003 +1.2246076949E-003  +7.1747002949E-005 +3.4974055598E-004  +5.6727509946E-004 +6.1040231958E-003  +6.5097076003E-005 -2.8614251278E-005 
	+6.4089326770E-006 +2.9146199813E-004  -3.4337269608E-004 -4.4840774499E-003  -2.2628317311E-005 +4.1562765546E-005  +3.9747430128E-004 +3.3925601747E-003 
	+4.7118481598E-004 +6.1984681524E-003  +1.5179594629E-004 +1.6751667135E-004  +2.9206992622E-005 +1.4621589798E-003  +2.4492253942E-005 +1.2037982378E-004 
	-3.6060097045E-005 +1.8994665879E-005  +4.3091649422E-004 +3.1673242338E-003  +9.7791722510E-005 +1.9737172988E-004  -1.8779236416E-004 -1.7061109247E-004 
1030000000.000 -1.0054950835E-003 +1.3931359863E-003  +1.6162043903E-004 +3.5699940054E-004  +4.9487495562E-004 +6.2462110072E-003  -4.4977019570E-005 -1.7739099349E-005 
	+2.0686321659E-004 +2.8085263330E-004  -6.1043864116E-004 -4.4368733652E-003  +2.2920814445E-005 +6.5441665356E-005  +4.3452830869E-004 +3.3186746296E-003 
	+5.4582807934E-004 +6.0226107016E-003  -3.7368117773E-005 +1.7278833548E-004  -9.1009307653E-005 +1.5550013632E-003  +1.2202578364E-004 +1.5641289065E-004 
	+4.5768196287E-005 -7.3236027674E-005  +3.6879876279E-004 +3.4033809789E-003  -5.1088412874E-005 +1.5886996698E-004  -1.6444621724E-004 +6.4037223638E-005 
1035000000.000 -9.9308602512E-004 +1.4777438482E-003  +8.1556572695E-005 +3.3882699790E-004  +7.0240633795E-004 +6.0570756905E-003  +3.5294677218E-005 -5.1882839216E-006 
	+2.3238333233E-004 +3.1525269151E-004  -4.2095201206E-004 -4.4413283467E-003  +1.4753501455E-004 +3.2649462810E-005  +6.0834496981E-004 +3.3500997815E-003 
	+4.3502676999E-004 +6.2444019131E-003  -7.5473362813E-005 +1.2692446762E-004  +2.2777263439E-005 +1.2773356866E-003  +8.8337641500E-005 +2.5739509147E-004 
	-1.0306507465E-004 -7.1497226600E-005  +4.2035465594E-004 +3.4684729762E-003  -1.0109726281E-004 +2.5671435287E-004  -2.7211420820E-004 +2.9721191822E-005 
1040000000.000 -1.0907530086E-003 +1.4383646194E-003  +2.0944603602E-004 +3.8047987618E-004  +6.6042476101E-004 +6.2786317430E-003  -2.2862115657E-005 -8.0730678746E-005 
	+7.3470968346E-005 +3.7377976696E-004  -4.6395207755E-004 -4.5743589289E-003  -7.1302958531E-005 +1.6315598623E-004  +3.1584547833E-004 +3.4082287457E-003 
	+5.8313942282E-004 +6.2533915043E-003  +2.0596768081E-005 +2.2023914789E-004  +1.2755353237E-004 +1.5802602284E-003  +9.3219146947E-005 +2.7727958513E-004 
	-1.7158237824E-005 -4.1201386921E-005  +3.8720775046E-004 +3.3957653213E-003  +1.5308655566E-004 +2.4394241336E-004  -1.2186145614E-004 +9.7932334029E-006 
1045000000.000 -1.1705302168E-003 +1.2716462370E-003  -8.3966609964E-005 +3.3829655149E-004  +6.2166503631E-004 +6.2866252847E-003  -4.7783854825E-005 -3.2821761124E-005 
	+1.4155708413E-005 +3.4666547435E-004  -5.3977989592E-004 -4.4626579620E-003  -5.8629198065E-006 +4.9348611356E-005  +3.8622738793E-004 +3.4273636993E-003 
	+5.1735842135E-004 +6.1677722260E-003  +7.6325297414E-005 +8.6312087660E-005  -8.3694721980E-006 +1.5084687620E-003  +5.3703275626E-005 +2.3989478359E-004 
	+1.3737463451E-004 +6.7849148763E-005  +3.3998358413E-004 +3.3921550494E-003  +2.6545429137E-004 +2.3465506092E-004  -6.8517649197E-005 +3.8389567635E-005 
1050000000.000 -1.1343200458E-003 +1.3724853052E-003  +1.2413853256E-004 +2.4079007562E-004  +5.3278048290E-004 +6.3732815906E-003  +5.1026094297E-005 -1.5287405404E-005 
	+1.2304706615E-004 +3.5221950384E-004  -5.9260608396E-004 -4.5836763456E-003  +6.0653623223E-005 +8.9425135229E-005  +5.0654570805E-004 +3.4646396525E-003 
	+6.8763800664E-004 +6.1626294628E-003  -2.9138873288E-005 +1.5807980162E-005  +1.8625946541E-004 +1.4315897133E-003  +3.0754035834E-005 +2.2039540636E-004 
	+1.4971270866E-004 +1.6178842634E-004  +3.8527429570E-004 +3.4401663579E-003  +1.3793415565E-004 +2.5448962697E-004  -1.1959550466E-004 -1.2062021415E-004 
1055000000.000 -1.0058128973E-003 +1.5162045602E-003  +1.1505449947E-004 +4.6576722525E-004  +4.9924926134E-004 +6.2743066810E-003  +1.0985622794E-004 -8.1904676335E-005 
	-2.2309784981E-005 +3.9891156484E-004  -1.6012405104E-004 -4.4007473625E-003  +5.8183864894E-005 +1.1162440205E-004  +4.1749150841E-004 +3.3626758959E-003 
	+6.5323879244E-004 +6.3217808492E-003  -4.7691111831E-005 -3.1015162676E-005  -6.0845133703E-005 +1.6045173397E-003  +8.2982180174E-005 +8.1855832832E-005 
	+1.9391850219E-004 -7.1266273153E-005  +5.0653965445E-004 +3.4862074535E-003  +4.6606302931E-005 +1.8354639178E-004  -1.6033064458E-004 +2.0278870943E-004 
1060000000.000 -9.4619410811E-004 +1.3550098520E-003  +7.3566792707E-005 +4.1063703247E-004  +5.7553302031E-004 +6.2925992534E-003  +5.2983934438E-005 +1.0688986549E-005 
	-6.0220412706E-005 +3.8101093378E-004  -3.0483159935E-004 -4.5208074152E-003  +8.7179078037E-006 +1.0363134788E-004  +4.6972738346E-004 +3.4384781029E-003 
	+5.9271673672E-004 +6.3853505999E-003  +8.3215993072E-005 +1.7347923131E-004  +1.8113258875E-006 +1.4165948378E-003  +1.7601464060E-004 +7.8216100519E-005 
	+7.9278150224E-005 +6.2712577346E-005  +2.6889060973E-004 +3.4368776251E-003  -5.2676419728E-005 +1.5074269322E-004  +1.1319598707E-004 -7.9815763456E-005 
1065000000.000 -1.0003726929E-003 +1.4501059195E-003  +1.5026483743E-004 +3.8372646668E-004  +4.4376292499E-004 +6.3740066253E-003  +9.5594194136E-005 -7.0202113420E-005 
	+2.0513884374E-004 +3.8732701796E-004  -3.3468531910E-004 -4.5433258638E-003  +1.2090138625E-005 +2.6829149647E-005  +4.8544851597E-004 +3.3931557555E-003 
	+6.1721180100E-004 +6.2651974149E-003  +5.1770555729E-005 +2.6161179994E-004  -1.1363125850E-005 +1.5256293118E-003  +6.9787332905E-005 +2.3676900310E-004 
	+1.4441827079E-004 -5.0705031754E-005  +4.0335633093E-004 +3.6260331981E-003  +1.1217676365E-004 +1.9512548170E-004  +7.1541131774E-007 +5.7417571952E-005 
1070000000.000 -8.5589772789E-004 +1.4021743555E-003  +4.8876852816E-005 +2.3931493342E-004  +5.2773440257E-004 +6.5478733741E-003  +2.4893975933E-005 +7.3246228567E-005 
	+3.9045331505E-005 +3.0894577503E-004  -4.9428036436E-004 -4.5988340862E-003  +4.9557811508E-006 +1.3658001262E-004  +4.4960709056E-004 +3.6120163277E-003 
	+6.4719427610E-004 +6.2813605182E-003  +8.1230580690E-005 +1.5961813915E-004  -8.8149652584E-005 +1.3491159771E-003  -4.5484237489E-005 +3.1003932236E-004 
	+5.1124956371E-005 -1.6842228069E-004  +4.6208311687E-004 +3.5231346264E-003  +8.7743115728E-005 +2.6286955108E-004  -5.7513931097E-005 +3.9716611354E-005 
1075000000.000 -9.8631845322E-004 +1.1895223288E-003  +4.9592897994E-005 +3.1311501516E-004  +5.7844416006E-004 +6.3517889939E-003  +2.1687932531E-005 -5.3333897085E-005 
	-6.1199068568E-007 +3.6076820106E-004  -4.6788007603E-004 -4.6503292397E-003  +7.4014562415E-005 +7.6943899330E-005  +4.2490146006E-004 +3.5907572601E-003 
	+5.4582167650E-004 +6.3273068517E-003  +4.5498596592E-005 +1.6438035527E-004  +4.8583064199E-005 +1.5036601108E-003  +7.6754971815E-005 +2.3149173649E-004 
	-4.4066557166E-005 -9.9320277513E-005  +4.3854641262E-004 +3.6244399380E-003  +2.5601599191E-005 +1.9455094298E-004  -7.6615659054E-005 +6.9030909799E-005 
1080000000.000 -9.5467345091E-004 +1.6253871145E-003  +1.6033147404E-004 +3.3106427873E-004  +5.9969775612E-004 +6.3906768337E-003  +9.4663701020E-005 -4.9213667808E-005 
	+2.2474812795E-005 +4.1995538049E-004  -6.0117826797E-004 -4.6761534177E-003  +7.2506314609E-005 +1.6609519662E-004  +5.3408381063E-004 +3.5407021642E-003 
	+5.5555341532E-004 +6.4855902456E-003  +9.1296915343E-006 +1.2367931777E-004  +3.6982073652E-005 +1.2761391699E-003  -3.7292007619E-005 +1.3974729518E-004 
	-9.1719266493E-005 -9.1433699708E-005  +5.1644915948E-004 +3.6655792501E-003  +1.4137542166E-004 +2.0236862474E-004  -1.2592897110E-004 +2.9530978645E-004 
1085000000.000 -1.1056107469E-003 +1.4396548504E-003  +8.2592137915E-005 +2.6978351525E-004  +5.2957207663E-004 +6.4393663779E-003  -2.4870008929E-005 -6.2263294240E-005 
	+1.3684721489E-004 +3.0778846121E-004  -4.9606780522E-004 -4.9116509035E-003  +1.2212223737E-005 +1.1136104149E-004  +6.1884860042E-004 +3.4263075795E-003 
	+5.6233891519E-004 +6.5405243076E-003  +6.8448043749E-006 +1.8297432689E-004  -4.3836393161E-005 +1.4828917338E-003  -2.0946953737E-004 +1.3717637921E-004 
	-3.4430900996E-005 -4.1545983549E-005  +3.2037956407E-004 +3.5171005875E-003  +1.9992978196E-005 +1.2657583284E-004  -8.3081693447E-005 +1.5733539476E-004 
1090000000.000 -1.0154350894E-003 +1.5746194404E-003  +7.3147093644E-005 +4.2107320041E-004  +5.6105991825E-004 +6.5103168599E-003  +4.7570403694E-005 -9.6735675470E-006 
	+1.7237034626E-004 +3.3007966704E-004  -5.5458716815E-004 -4.6919276938E-003  +5.8805511799E-005 +2.4566872526E-005  +4.7212306526E-004 +3.5104586277E-003 
	+4.4984350097E-004 +6.4333030023E-003  +2.8560949431E-005 +2.2348455968E-004  -1.6184816195E-004 +1.4248300577E-003  +1.5175759472E-005 +2.9661654844E-004 
	+8.3074875874E-005 -8.7279884610E-005  +4.8175730626E-004 +3.5396034364E-003  -9.2925263743E-005 +2.3504115234E-004  -3.0374982089E-005 +1.6525531828E-004 
1095000000.000 -9.5092982519E-004 +1.2483890168E-003  +1.2852517830E-004 +1.3961916557E-004  +5.8706075652E-004 +6.4768148586E-003  -1.0120122897E-004 +1.0054912855E-004 
	+9.7756608739E-005 +4.0906210779E-004  -4.0556027670E-004 -4.7779697925E-003  +3.0214729122E-005 +1.2528675143E-004  +2.7900710120E-004 +3.6060533021E-003 
	+5.4268172244E-004 +6.4676236361E-003  +5.9794594563E-005 +1.3320104335E-004  -3.5050717997E-005 +1.5810981859E-003  +7.5844778621E-005 +2.3443659302E-004 
	-4.0711685870E-005 -1.4719634783E-004  +4.2501382995E-004 +3.6804422271E-003  +7.6921802247E-005 +3.0378202791E-004  -1.3118819334E-004 -4.5583106839E-005 
1100000000.000 -9.0707442723E-004 +1.3590260642E-003  +5.1658109442E-005 +2.7791142929E-004  +6.4019236015E-004 +6.5353666432E-003  +9.3100250524E-005 -7.4223207776E-005 
	+5.7610686781E-005 +4.1778423474E-004  -4.6864652541E-004 -4.6117780730E-003  +8.3908253146E-006 +2.1292916790E-004  +3.8291583769E-004 +3.6300502252E-003 
	+5.4913462372E-004 +6.5016387962E-003  -4.9672082241E-005 +1.3734601089E-004  -1.5228093253E-004 +1.5880806604E-003  +9.0947032731E-006 +1.6126083210E-004 
	+2.5292552891E-005 -2.8615600968E-005  +4.4446863467E-004 +3.6345093977E-003  -4.4312091632E-005 +2.1170185937E-004  -7.4816860433E-005 -4.0677041397E-005 
1105000000.000 -1.0337048443E-003 +1.5602374915E-003  +7.9677425674E-005 +4.1877580225E-004  +5.0373503473E-004 +6.6102328710E-003  +7.1300215495E-005 +5.6912183936E-005 
	+1.5142880147E-004 +3.5600175033E-004  -5.3796864813E-004 -4.8170932569E-003  -4.4566942847E-007 +1.8555809220E-004  +3.9671960985E-004 +3.6022125278E-003 
	+4.4699700084E-004 +6.4707989804E-003  +9.7462589110E-006 +1.3973530440E-004  -8.2550424850E-005 +1.6856092261E-003  -1.6605808923E-005 +1.3873512216E-004 
	-4.4110998715E-005 -2.2602143872E-005  +5.1445572171E-004 +3.5479052458E-003  +8.9096020019E-006 +2.0531831251E-004  +8.0948091636E-005 +7.7296826930E-005 
1110000000.000 -1.0100636864E-003 +1.5318265650E-003  +9.3983617262E-005 +3.5421794746E-004  +4.8659194726E-004 +6.5114237368E-003  +3.0612274713E-005 -6.3230079832E-005 
	+1.6146956477E-004 +3.3686045208E-004  -3.2424984965E-004 -4.8351995647E-003  +8.3177270426E-005 +1.1017871293E-004  +3.5722390749E-004 +3.5177131649E-003 
	+5.8401649585E-004 +6.5936823376E-003  +6.8252767960E-005 +1.8174329307E-004  -1.1722710769E-004 +1.3911341084E-003  -1.7397094780E-005 +2.1697771444E-004 
	-1.1647041538E-004 +4.4988104491E-005  +4.2805456906E-004 +3.7594966125E-003  +5.2646064432E-005 +2.8414151166E-004  -3.5894172470E-005 +2.1201586060E-004 
1115000000.000 -8.9890434174E-004 +1.5955077251E-003  +1.3755926921E-004 +3.5746258800E-004  +6.1390717747E-004 +6.6105425358E-003  -6.6443491960E-005 -6.3170016801E-005 
	+8.6189058493E-005 +4.1365381912E-004  -5.6121748639E-004 -4.9079107121E-003  +2.1012043362E-005 +1.1908062152E-004  +3.8622258580E-004 +3.5398902837E-003 
	+4.7088795691E-004 +6.6950256005E-003  +2.3867867640E-005 +1.0072538134E-004  -1.0402357475E-005 +1.4690157259E-003  +7.0920390272E-007 +2.0920606039E-004 
	+7.4032926932E-005 -1.1800784705E-004  +4.7138836817E-004 +3.4722944256E-003  -1.2706304915E-005 +2.0097891684E-004  -2.1891086362E-004 -5.2630886785E-005 
1120000000.000 -1.1039768578E-003 +1.4313502470E-003  +9.5162438811E-005 +5.1611935487E-004  +5.0215795636E-004 +6.5845213830E-003  +2.8837728678E-005 -2.5291039492E-005 
	+1.1388843996E-004 +3.2911248854E-004  -4.3302343693E-004 -4.8382445239E-003  +1.4832480701E-005 +7.5041796663E-005  +5.2064284682E-004 +3.6297289189E-003 
	+4.9930863315E-004 +6.7618000321E-003  +6.7540291639E-005 +2.2814606200E-004  +1.3218219101E-004 +1.4664066257E-003  +9.8011718364E-005 +2.1952528914E-004 
	+5.9772883105E-005 +4.4833890570E-005  +3.2847168040E-004 +3.4654585179E-003  +1.1930543405E-004 +2.0699443121E-004  -1.1513534992E-004 +6.3819366915E-005 
1125000000.000 -8.7051809533E-004 +1.5577700688E-003  -1.4468913832E-005 +2.9060078668E-004  +5.7848665165E-004 +6.6984333098E-003  +1.1736129090E-004 +3.0023482395E-005 
	+2.1416612435E-004 +4.6530299005E-004  -5.5625033565E-004 -4.8639872111E-003  -1.6564438283E-006 +1.0574937914E-004  +4.1093782056E-004 +3.8348608650E-003 
	+5.7906383881E-004 +6.6932318732E-003  -2.1698666387E-005 +2.0628125640E-004  -1.2651333236E-004 +1.5646828106E-003  +9.1035370133E-005 +2.5995937176E-004 
	-3.0287157642E-005 +7.1179533734E-006  +4.1352488915E-004 +3.7545601372E-003  +1.3414811292E-005 +7.5233816460E-005  -2.1005341841E-004 +7.7935095760E-005 
1130000000.000 -7.2065001586E-004 +1.3176356442E-003  +1.6302810400E-004 +3.2281538006E-004  +5.5412756046E-004 +6.6957846284E-003  +3.9620623284E-005 -2.1923877284E-005 
	+4.9558875617E-005 +4.0083649219E-004  -6.0399714857E-004 -4.7395094298E-003  -3.8671256334E-005 +1.2872135267E-004  +4.0541141061E-004 +3.7179586943E-003 
	+4.2758541531E-004 +6.7787636071E-003  +6.9054578489E-005 +7.1886934165E-005  -5.8193036239E-005 +1.4644080075E-003  -2.5425537387E-005 +3.2131906482E-004 
	+6.4342129917E-005 -7.3444767622E-005  +5.6350982049E-004 +3.7253766786E-003  +3.3937667467E-005 +2.1794058557E-004  -2.0744411449E-004 +1.0632485646E-004 
1135000000.000 -9.4988656929E-004 +1.5279796207E-003  +1.2227561092E-004 +3.9953493979E-004  +5.7474256027E-004 +6.7246560939E-003  -6.5891319537E-005 +1.0785838822E-004 
	+2.3233916727E-004 +4.3687230209E-004  -2.8888465022E-004 -4.8832902685E-003  -5.6654989748E-005 +2.9327263474E-004  +3.9874663344E-004 +3.7650454324E-003 
	+5.8866647305E-004 +6.6607939079E-003  +5.3419134929E-005 +2.2330537831E-005  -7.7740995039E-005 +1.5066821361E-003  -1.3810876226E-005 +1.5326340508E-004 
	+1.5079796140E-004 -1.2428528862E-004  +4.3434480904E-004 +3.6378807854E-003  +1.1026390712E-004 +2.3306136427E-004  -1.6030401457E-004 -1.7282487534E-004 
1140000000.000 -1.0330901714E-003 +1.5047123889E-003  +5.1106988394E-005 +3.5738758743E-004  +5.2381638670E-004 +6.7889387719E-003  -1.7497348381E-005 +1.7825300347E-006 
	-1.5145765246E-005 +4.8313336447E-004  -3.7067025551E-004 -4.9371826462E-003  +3.5497909266E-005 +1.1942697165E-004  +2.2959876515E-004 +3.7861643359E-003 
	+5.1209301455E-004 +6.8297437392E-003  +3.6751727748E-005 +1.7116320669E-004  -1.5610961418E-004 +1.5804519644E-003  -1.2104927009E-004 +2.5996091426E-004 
	+6.1624807131E-005 -1.3065057283E-004  +4.7966482816E-004 +3.6879065447E-003  -3.9999295041E-006 +6.0066890001E-005  -2.7378267259E-004 +7.9749937868E-005 
1145000000.000 -9.3048677081E-004 +1.5669502318E-003  +6.3704806962E-005 +3.7287207670E-004  +5.5738823721E-004 +6.8961628713E-003  +1.0374601516E-005 +6.7578230301E-007 
	+1.3403630874E-004 +3.6625014036E-004  -8.3446124336E-004 -4.9738530070E-003  -4.4709882786E-005 +6.6006898123E-005  +5.6419888278E-004 +3.8177792449E-003 
	+3.8204176235E-004 +6.7873625085E-003  +3.6618333979E-005 +1.3754409156E-004  -1.4839140931E-004 +1.4379064087E-003  -1.4102212162E-006 +2.9846769758E-004 
	+7.5979682151E-005 +9.8446529591E-005  +4.5762685477E-004 +3.7515012082E-003  +2.3480566597E-005 +2.6687578065E-004  -7.7967262769E-005 -8.5001942352E-005 
1150000000.000 -8.6614931934E-004 +1.6824851045E-003  +1.3170238526E-004 +4.1402553325E-004  +5.4026016733E-004 +6.8183825351E-003  -1.1347405234E-005 +1.2778179553E-005 
	+9.6086820122E-005 +3.6710285349E-004  -4.6856462723E-004 -5.0771930255E-003  +5.4939599067E-005 +1.0468842083E-004  +5.8329274179E-004 +3.6624267232E-003 
