!Created with mwavepy.
# GHz S RI R 50.0 
!freq	ReS11	ImS11	
500.0	0.0530865747136	-0.211515444489	
! Port Impedance	50.00000000000000	0.00000000000000	
501.25	0.0483976721376	-0.199478316618	
! Port Impedance	50.00000000000000	0.00000000000000	
502.5	0.0592195523109	-0.200926863014	
! Port Impedance	50.00000000000000	0.00000000000000	
503.75	0.0507977985676	-0.201859344476	
! Port Impedance	50.00000000000000	0.00000000000000	
505.0	0.0510125952161	-0.204767123039	
! Port Impedance	50.00000000000000	0.00000000000000	
506.25	0.0507499558654	-0.203229927051	
! Port Impedance	50.00000000000000	0.00000000000000	
507.5	0.0503997016859	-0.203717492138	
! Port Impedance	50.00000000000000	0.00000000000000	
508.75	0.0472670726933	-0.200199241847	
! Port Impedance	50.00000000000000	0.00000000000000	
510.0	0.0543442105979	-0.204006975194	
! Port Impedance	50.00000000000000	0.00000000000000	
511.25	0.0539180056306	-0.202794570778	
! Port Impedance	50.00000000000000	0.00000000000000	
512.5	0.0520136145334	-0.199299070085	
! Port Impedance	50.00000000000000	0.00000000000000	
513.75	0.0536285818648	-0.204547321316	
! Port Impedance	50.00000000000000	0.00000000000000	
515.0	0.050074649287	-0.204063951473	
! Port Impedance	50.00000000000000	0.00000000000000	
516.25	0.0490027093258	-0.207223551931	
! Port Impedance	50.00000000000000	0.00000000000000	
517.5	0.0497057212981	-0.206287612761	
! Port Impedance	50.00000000000000	0.00000000000000	
518.75	0.0506878977945	-0.204899912053	
! Port Impedance	50.00000000000000	0.00000000000000	
520.0	0.0518771292415	-0.206640936559	
! Port Impedance	50.00000000000000	0.00000000000000	
521.25	0.0544221128256	-0.206307775254	
! Port Impedance	50.00000000000000	0.00000000000000	
522.5	0.0530675992858	-0.207166825824	
! Port Impedance	50.00000000000000	0.00000000000000	
523.75	0.0501083689391	-0.211202827671	
! Port Impedance	50.00000000000000	0.00000000000000	
525.0	0.0519609340754	-0.206137711496	
! Port Impedance	50.00000000000000	0.00000000000000	
526.25	0.0519432469222	-0.206989644209	
! Port Impedance	50.00000000000000	0.00000000000000	
527.5	0.0518119845832	-0.207288431992	
! Port Impedance	50.00000000000000	0.00000000000000	
528.75	0.0528498135561	-0.208451119169	
! Port Impedance	50.00000000000000	0.00000000000000	
530.0	0.052259606475	-0.208525722009	
! Port Impedance	50.00000000000000	0.00000000000000	
531.25	0.0500747120948	-0.208069283953	
! Port Impedance	50.00000000000000	0.00000000000000	
532.5	0.0504588594653	-0.207667497922	
! Port Impedance	50.00000000000000	0.00000000000000	
533.75	0.0507714515759	-0.206938093426	
! Port Impedance	50.00000000000000	0.00000000000000	
535.0	0.0505541023031	-0.206927580707	
! Port Impedance	50.00000000000000	0.00000000000000	
536.25	0.0505816899353	-0.20731560084	
! Port Impedance	50.00000000000000	0.00000000000000	
537.5	0.0505031091564	-0.207213597087	
! Port Impedance	50.00000000000000	0.00000000000000	
538.75	0.0503286001626	-0.206509051403	
! Port Impedance	50.00000000000000	0.00000000000000	
540.0	0.051050006892	-0.206433030351	
! Port Impedance	50.00000000000000	0.00000000000000	
541.25	0.0512696308908	-0.207081621738	
! Port Impedance	50.00000000000000	0.00000000000000	
542.5	0.0500019456051	-0.208112369355	
! Port Impedance	50.00000000000000	0.00000000000000	
543.75	0.0503186198686	-0.209544412674	
! Port Impedance	50.00000000000000	0.00000000000000	
545.0	0.049508774058	-0.20853388943	
! Port Impedance	50.00000000000000	0.00000000000000	
546.25	0.049040247376	-0.207982886504	
! Port Impedance	50.00000000000000	0.00000000000000	
547.5	0.0492278521499	-0.208600805276	
! Port Impedance	50.00000000000000	0.00000000000000	
548.75	0.0487188845596	-0.208755993063	
! Port Impedance	50.00000000000000	0.00000000000000	
550.0	0.0472446030897	-0.20778927623	
! Port Impedance	50.00000000000000	0.00000000000000	
551.25	0.0468387795314	-0.206169684044	
! Port Impedance	50.00000000000000	0.00000000000000	
552.5	0.0472252575753	-0.207706710565	
! Port Impedance	50.00000000000000	0.00000000000000	
553.75	0.0500469580914	-0.204900873613	
! Port Impedance	50.00000000000000	0.00000000000000	
555.0	0.0488338156798	-0.204257704814	
! Port Impedance	50.00000000000000	0.00000000000000	
556.25	0.048771459552	-0.205558631461	
! Port Impedance	50.00000000000000	0.00000000000000	
557.5	0.053326566467	-0.20475377868	
! Port Impedance	50.00000000000000	0.00000000000000	
558.75	0.0519027410331	-0.207602564711	
! Port Impedance	50.00000000000000	0.00000000000000	
560.0	0.0471462685288	-0.208919059271	
! Port Impedance	50.00000000000000	0.00000000000000	
561.25	0.046276106919	-0.208105478193	
! Port Impedance	50.00000000000000	0.00000000000000	
562.5	0.0465505900263	-0.206556903336	
! Port Impedance	50.00000000000000	0.00000000000000	
563.75	0.0472172062396	-0.206557679784	
! Port Impedance	50.00000000000000	0.00000000000000	
565.0	0.0491982225879	-0.207319700705	
! Port Impedance	50.00000000000000	0.00000000000000	
566.25	0.0463638225615	-0.20731392017	
! Port Impedance	50.00000000000000	0.00000000000000	
567.5	0.0471909977301	-0.206309417212	
! Port Impedance	50.00000000000000	0.00000000000000	
568.75	0.0460494930162	-0.207563071658	
! Port Impedance	50.00000000000000	0.00000000000000	
570.0	0.0451345196092	-0.208259107993	
! Port Impedance	50.00000000000000	0.00000000000000	
571.25	0.0440811657845	-0.208680484311	
! Port Impedance	50.00000000000000	0.00000000000000	
572.5	0.0434095487693	-0.207102726186	
! Port Impedance	50.00000000000000	0.00000000000000	
573.75	0.0430447596588	-0.207275764797	
! Port Impedance	50.00000000000000	0.00000000000000	
575.0	0.0428778885062	-0.207093948245	
! Port Impedance	50.00000000000000	0.00000000000000	
576.25	0.0427633454801	-0.206823675781	
! Port Impedance	50.00000000000000	0.00000000000000	
577.5	0.042182569167	-0.207205319879	
! Port Impedance	50.00000000000000	0.00000000000000	
578.75	0.0418933066336	-0.206751572572	
! Port Impedance	50.00000000000000	0.00000000000000	
580.0	0.0421377854604	-0.206854545874	
! Port Impedance	50.00000000000000	0.00000000000000	
581.25	0.0415130412932	-0.206612436144	
! Port Impedance	50.00000000000000	0.00000000000000	
582.5	0.0414044497366	-0.206535688074	
! Port Impedance	50.00000000000000	0.00000000000000	
583.75	0.0409848796122	-0.206451401071	
! Port Impedance	50.00000000000000	0.00000000000000	
585.0	0.0406317055998	-0.206322981963	
! Port Impedance	50.00000000000000	0.00000000000000	
586.25	0.0403755806668	-0.206213581856	
! Port Impedance	50.00000000000000	0.00000000000000	
587.5	0.0401572151867	-0.206657832186	
! Port Impedance	50.00000000000000	0.00000000000000	
588.75	0.0391407977708	-0.205828299794	
! Port Impedance	50.00000000000000	0.00000000000000	
590.0	0.0393259327913	-0.205773175409	
! Port Impedance	50.00000000000000	0.00000000000000	
591.25	0.0390102859934	-0.205859440681	
! Port Impedance	50.00000000000000	0.00000000000000	
592.5	0.0389178254182	-0.205699529744	
! Port Impedance	50.00000000000000	0.00000000000000	
593.75	0.038678910498	-0.205463803462	
! Port Impedance	50.00000000000000	0.00000000000000	
595.0	0.0384957538189	-0.205312939331	
! Port Impedance	50.00000000000000	0.00000000000000	
596.25	0.0386468180724	-0.205259376014	
! Port Impedance	50.00000000000000	0.00000000000000	
597.5	0.0377290141685	-0.205312366376	
! Port Impedance	50.00000000000000	0.00000000000000	
598.75	0.0375449593628	-0.205079209741	
! Port Impedance	50.00000000000000	0.00000000000000	
600.0	0.0371165099918	-0.204824515074	
! Port Impedance	50.00000000000000	0.00000000000000	
601.25	0.0374217807203	-0.20366707752	
! Port Impedance	50.00000000000000	0.00000000000000	
602.5	0.0363067190473	-0.204694254953	
! Port Impedance	50.00000000000000	0.00000000000000	
603.75	0.0357491385312	-0.204455986654	
! Port Impedance	50.00000000000000	0.00000000000000	
605.0	0.0355032713692	-0.20422272972	
! Port Impedance	50.00000000000000	0.00000000000000	
606.25	0.0355460577651	-0.203939361418	
! Port Impedance	50.00000000000000	0.00000000000000	
607.5	0.0352147131159	-0.203734032385	
! Port Impedance	50.00000000000000	0.00000000000000	
608.75	0.034917100498	-0.203661403786	
! Port Impedance	50.00000000000000	0.00000000000000	
610.0	0.0348002310028	-0.203489804538	
! Port Impedance	50.00000000000000	0.00000000000000	
611.25	0.0342908574225	-0.203363294166	
! Port Impedance	50.00000000000000	0.00000000000000	
612.5	0.0325920872965	-0.203069285076	
! Port Impedance	50.00000000000000	0.00000000000000	
613.75	0.0345403117171	-0.203190040107	
! Port Impedance	50.00000000000000	0.00000000000000	
615.0	0.0335203002243	-0.202866209877	
! Port Impedance	50.00000000000000	0.00000000000000	
616.25	0.0332147512389	-0.202652735407	
! Port Impedance	50.00000000000000	0.00000000000000	
617.5	0.0328458493408	-0.202436071126	
! Port Impedance	50.00000000000000	0.00000000000000	
618.75	0.0327748871762	-0.202291286983	
! Port Impedance	50.00000000000000	0.00000000000000	
620.0	0.03231698519	-0.202315892061	
! Port Impedance	50.00000000000000	0.00000000000000	
621.25	0.0318557556411	-0.202012634168	
! Port Impedance	50.00000000000000	0.00000000000000	
622.5	0.0315604696146	-0.201650686781	
! Port Impedance	50.00000000000000	0.00000000000000	
623.75	0.0313486621535	-0.201510163915	
! Port Impedance	50.00000000000000	0.00000000000000	
625.0	0.0312142693368	-0.201134716857	
! Port Impedance	50.00000000000000	0.00000000000000	
626.25	0.0307004978877	-0.2012188283	
! Port Impedance	50.00000000000000	0.00000000000000	
627.5	0.0312097044167	-0.201342572072	
! Port Impedance	50.00000000000000	0.00000000000000	
628.75	0.0300138288451	-0.200728937192	
! Port Impedance	50.00000000000000	0.00000000000000	
630.0	0.0299935218729	-0.199282755695	
! Port Impedance	50.00000000000000	0.00000000000000	
631.25	0.0302723087485	-0.200051281842	
! Port Impedance	50.00000000000000	0.00000000000000	
632.5	0.027708013944	-0.199838125072	
! Port Impedance	50.00000000000000	0.00000000000000	
633.75	0.0285823849979	-0.200095433347	
! Port Impedance	50.00000000000000	0.00000000000000	
635.0	0.0284121352187	-0.199592798065	
! Port Impedance	50.00000000000000	0.00000000000000	
636.25	0.0280860412335	-0.19950236116	
! Port Impedance	50.00000000000000	0.00000000000000	
637.5	0.0279882020593	-0.199315743553	
! Port Impedance	50.00000000000000	0.00000000000000	
638.75	0.027962942469	-0.198731461287	
! Port Impedance	50.00000000000000	0.00000000000000	
640.0	0.0277633867101	-0.198736981398	
! Port Impedance	50.00000000000000	0.00000000000000	
641.25	0.0271455223559	-0.198698733945	
! Port Impedance	50.00000000000000	0.00000000000000	
642.5	0.0269388234267	-0.198375171408	
! Port Impedance	50.00000000000000	0.00000000000000	
643.75	0.0265633777106	-0.198019842742	
! Port Impedance	50.00000000000000	0.00000000000000	
645.0	0.026246137291	-0.198019482245	
! Port Impedance	50.00000000000000	0.00000000000000	
646.25	0.0257765416957	-0.197698365357	
! Port Impedance	50.00000000000000	0.00000000000000	
647.5	0.0256370715659	-0.197479271034	
! Port Impedance	50.00000000000000	0.00000000000000	
648.75	0.0252148811682	-0.197168059167	
! Port Impedance	50.00000000000000	0.00000000000000	
650.0	0.024954160391	-0.196876042736	
! Port Impedance	50.00000000000000	0.00000000000000	
651.25	0.0248190381593	-0.196729980723	
! Port Impedance	50.00000000000000	0.00000000000000	
652.5	0.0247178968089	-0.196740844569	
! Port Impedance	50.00000000000000	0.00000000000000	
653.75	0.023834465645	-0.196369804983	
! Port Impedance	50.00000000000000	0.00000000000000	
655.0	0.022837406504	-0.197047443164	
! Port Impedance	50.00000000000000	0.00000000000000	
656.25	0.022411392987	-0.196394021547	
! Port Impedance	50.00000000000000	0.00000000000000	
657.5	0.0237971199526	-0.195421301523	
! Port Impedance	50.00000000000000	0.00000000000000	
658.75	0.0233523858349	-0.195416965607	
! Port Impedance	50.00000000000000	0.00000000000000	
660.0	0.0227539985993	-0.195137181849	
! Port Impedance	50.00000000000000	0.00000000000000	
661.25	0.0222627845985	-0.194836468379	
! Port Impedance	50.00000000000000	0.00000000000000	
662.5	0.0221463054955	-0.194385612531	
! Port Impedance	50.00000000000000	0.00000000000000	
663.75	0.0222828435978	-0.194032697342	
! Port Impedance	50.00000000000000	0.00000000000000	
665.0	0.0220421795899	-0.194520155595	
! Port Impedance	50.00000000000000	0.00000000000000	
666.25	0.0210783434064	-0.194017493486	
! Port Impedance	50.00000000000000	0.00000000000000	
667.5	0.0208361289332	-0.193427713883	
! Port Impedance	50.00000000000000	0.00000000000000	
668.75	0.0204480799881	-0.193238981619	
! Port Impedance	50.00000000000000	0.00000000000000	
670.0	0.020213879984	-0.19298457565	
! Port Impedance	50.00000000000000	0.00000000000000	
671.25	0.0199000273919	-0.192987557235	
! Port Impedance	50.00000000000000	0.00000000000000	
672.5	0.0194701736773	-0.192790258481	
! Port Impedance	50.00000000000000	0.00000000000000	
673.75	0.019057659031	-0.192310698629	
! Port Impedance	50.00000000000000	0.00000000000000	
675.0	0.0188457614744	-0.192113808492	
! Port Impedance	50.00000000000000	0.00000000000000	
676.25	0.018604626841	-0.192175814472	
! Port Impedance	50.00000000000000	0.00000000000000	
677.5	0.0178092069773	-0.191415328771	
! Port Impedance	50.00000000000000	0.00000000000000	
678.75	0.0175539280038	-0.191420280117	
! Port Impedance	50.00000000000000	0.00000000000000	
680.0	0.01811837203	-0.19092384947	
! Port Impedance	50.00000000000000	0.00000000000000	
681.25	0.0176450835626	-0.190809746566	
! Port Impedance	50.00000000000000	0.00000000000000	
682.5	0.0173616770489	-0.190999664856	
! Port Impedance	50.00000000000000	0.00000000000000	
683.75	0.0170880352062	-0.190527522631	
! Port Impedance	50.00000000000000	0.00000000000000	
685.0	0.0166373605868	-0.189915159177	
! Port Impedance	50.00000000000000	0.00000000000000	
686.25	0.0166297275635	-0.18924748425	
! Port Impedance	50.00000000000000	0.00000000000000	
687.5	0.0166747907119	-0.189394534288	
! Port Impedance	50.00000000000000	0.00000000000000	
688.75	0.0160180016464	-0.189594641061	
! Port Impedance	50.00000000000000	0.00000000000000	
690.0	0.0156842828258	-0.189025796711	
! Port Impedance	50.00000000000000	0.00000000000000	
691.25	0.0151061101088	-0.188545368939	
! Port Impedance	50.00000000000000	0.00000000000000	
692.5	0.0135306679761	-0.188358777835	
! Port Impedance	50.00000000000000	0.00000000000000	
693.75	0.010807686603	-0.187521704284	
! Port Impedance	50.00000000000000	0.00000000000000	
695.0	0.0130716904644	-0.188012406507	
! Port Impedance	50.00000000000000	0.00000000000000	
696.25	0.0134162874894	-0.188295482491	
! Port Impedance	50.00000000000000	0.00000000000000	
697.5	0.0127949061097	-0.187812826979	
! Port Impedance	50.00000000000000	0.00000000000000	
698.75	0.0130015083493	-0.18705206472	
! Port Impedance	50.00000000000000	0.00000000000000	
700.0	0.0132480450772	-0.187042452914	
! Port Impedance	50.00000000000000	0.00000000000000	
701.25	0.012946374368	-0.186705243667	
! Port Impedance	50.00000000000000	0.00000000000000	
702.5	0.0127941105969	-0.186326526624	
! Port Impedance	50.00000000000000	0.00000000000000	
703.75	0.0116833001831	-0.186252615571	
! Port Impedance	50.00000000000000	0.00000000000000	
705.0	0.0124374053313	-0.185858182643	
! Port Impedance	50.00000000000000	0.00000000000000	
706.25	0.0121152450714	-0.185563996169	
! Port Impedance	50.00000000000000	0.00000000000000	
707.5	0.011892939728	-0.185199421394	
! Port Impedance	50.00000000000000	0.00000000000000	
708.75	0.0120221546934	-0.184801609114	
! Port Impedance	50.00000000000000	0.00000000000000	
710.0	0.0115889774877	-0.184696054511	
! Port Impedance	50.00000000000000	0.00000000000000	
711.25	0.0109517625638	-0.184383151912	
! Port Impedance	50.00000000000000	0.00000000000000	
712.5	0.0107197312078	-0.183809650395	
! Port Impedance	50.00000000000000	0.00000000000000	
713.75	0.01077475312	-0.183625346663	
! Port Impedance	50.00000000000000	0.00000000000000	
715.0	0.00881595588534	-0.183145698636	
! Port Impedance	50.00000000000000	0.00000000000000	
716.25	0.00915802336189	-0.183096268581	
! Port Impedance	50.00000000000000	0.00000000000000	
717.5	0.00942470249214	-0.18313747117	
! Port Impedance	50.00000000000000	0.00000000000000	
718.75	0.00922653455194	-0.182875459708	
! Port Impedance	50.00000000000000	0.00000000000000	
720.0	0.00974166827473	-0.182523479536	
! Port Impedance	50.00000000000000	0.00000000000000	
721.25	0.00864008138724	-0.181969808254	
! Port Impedance	50.00000000000000	0.00000000000000	
722.5	0.00837694748965	-0.182071967767	
! Port Impedance	50.00000000000000	0.00000000000000	
723.75	0.00770799557704	-0.181792901916	
! Port Impedance	50.00000000000000	0.00000000000000	
725.0	0.00762843706116	-0.181691080873	
! Port Impedance	50.00000000000000	0.00000000000000	
726.25	0.00724498043092	-0.181054685437	
! Port Impedance	50.00000000000000	0.00000000000000	
727.5	0.00747227760949	-0.180798254038	
! Port Impedance	50.00000000000000	0.00000000000000	
728.75	0.00669323043092	-0.180710757561	
! Port Impedance	50.00000000000000	0.00000000000000	
730.0	0.00651862473867	-0.180452968625	
! Port Impedance	50.00000000000000	0.00000000000000	
731.25	0.00596968900413	-0.179483565255	
! Port Impedance	50.00000000000000	0.00000000000000	
732.5	0.00645808553843	-0.179340434029	
! Port Impedance	50.00000000000000	0.00000000000000	
733.75	0.00622852357773	-0.179397471197	
! Port Impedance	50.00000000000000	0.00000000000000	
735.0	0.00653367389283	-0.178964091442	
! Port Impedance	50.00000000000000	0.00000000000000	
736.25	0.00622323637937	-0.178734763269	
! Port Impedance	50.00000000000000	0.00000000000000	
737.5	0.00570716706068	-0.178372700561	
! Port Impedance	50.00000000000000	0.00000000000000	
738.75	0.00454800191995	-0.17828503662	
! Port Impedance	50.00000000000000	0.00000000000000	
740.0	0.00511878523292	-0.177795327308	
! Port Impedance	50.00000000000000	0.00000000000000	
741.25	0.0052981495574	-0.177731535904	
! Port Impedance	50.00000000000000	0.00000000000000	
742.5	0.00494662285433	-0.177048434968	
! Port Impedance	50.00000000000000	0.00000000000000	
743.75	0.0047791375705	-0.176975956141	
! Port Impedance	50.00000000000000	0.00000000000000	
745.0	0.00456985835777	-0.176370579316	
! Port Impedance	50.00000000000000	0.00000000000000	
746.25	0.00391786379699	-0.176756834014	
! Port Impedance	50.00000000000000	0.00000000000000	
747.5	0.00416619361558	-0.176066171859	
! Port Impedance	50.00000000000000	0.00000000000000	
748.75	0.00358502120695	-0.175402283983	
! Port Impedance	50.00000000000000	0.00000000000000	
750.0	0.00352775405747	-0.175700544226	
! Port Impedance	50.00000000000000	0.00000000000000	
