!Created with skrf (http://scikit-rf.org).
# GHz S RI R 50.0 
!freq ReS11 ImS11
330.0 0.201375690906 0.979514079078
330.85 0.260733343401 0.965410857427
331.7 0.318836117335 0.947809859773
332.55 0.37549182593 0.926825705654
333.4 0.430517889949 0.902582044157
334.25 0.483741619252 0.87521085791
335.1 0.535000453867 0.844851770645
335.95 0.584142165884 0.811651359906
336.8 0.631025023445 0.775762476398
337.65 0.67551791816 0.737343571372
338.5 0.717500457249 0.696558033366
339.35 0.756863021727 0.653573535527
340.2 0.793506791964 0.60856139469
341.05 0.827343741933 0.561695943269
341.9 0.858296603476 0.513153914982
342.75 0.886298801906 0.463113845333
343.6 0.911294364265 0.411755487709
344.45 0.933237801549 0.359259245894
345.3 0.952093966217 0.305805623711
346.15 0.967837886274 0.251574692472
347.0 0.980454577227 0.196745576813
347.85 0.989938833189 0.141495959465
348.7 0.996294998413 0.0860016054339
349.55 0.999536720499 0.0304359060066
350.4 0.999686686524 -0.0250305570457
351.25 0.996776343329 -0.0802304267656
352.1 0.990845603161 -0.134999965545
352.95 0.981942535874 -0.189179428695
353.8 0.970123048868 -0.242613416891
354.65 0.955450555906 -0.295151207382
355.5 0.937995635963 -0.346647063906
356.35 0.917835683207 -0.396960525281
357.2 0.895054549213 -0.445956672708
358.05 0.869742178468 -0.493506375838
358.9 0.841994238225 -0.539486517715
359.75 0.811911743708 -0.58378019873
360.6 0.77960067968 -0.626276919774
361.45 0.745171619325 -0.666872744796
362.3 0.708739341398 -0.705470443006
363.15 0.670422446542 -0.741979611022
364.0 0.630342973679 -0.776316775249
364.85 0.588626017305 -0.80840547484
365.7 0.545399346536 -0.838176325601
366.55 0.500793026703 -0.865567065227
367.4 0.454939044252 -0.890522580295
368.25 0.407970935704 -0.912994915441
369.1 0.360023421372 -0.93294326519
369.95 0.31123204452 -0.950333948917
370.8 0.261732816614 -0.965140369432
371.65 0.211661869274 -0.97734295572
372.5 0.161155113519 -0.986929090354
373.35 0.110347906866 -0.993893022136
374.2 0.0593747287972 -0.998235764527
375.05 0.00836886509365 -0.999964980435
375.9 -0.0425378984964 -0.999094853951
376.75 -0.0932155728292 -0.995645949614
377.6 -0.14353625177 -0.989645059821
378.45 -0.193374388064 -0.981125040982
379.3 -0.24260705832 -0.97012463903
380.15 -0.29111421682 -0.956688304917
381.0 -0.338778937835 -0.940866000703
381.85 -0.385487646233 -0.922712996875
382.7 -0.431130336129 -0.902289661511
383.55 -0.475600777393 -0.879661241924
384.4 -0.51879670984 -0.854897639404
385.25 -0.560620024977 -0.828073177681
386.1 -0.600976935178 -0.799266365728
386.95 -0.639778130209 -0.768559655528
387.8 -0.67693892105 -0.736039195402
388.65 -0.712379370961 -0.70179457951
389.5 -0.746024413808 -0.665918594126
390.35 -0.777803959638 -0.628506961275
391.2 -0.807652987571 -0.589658080304
392.05 -0.83551162604 -0.549472767981
392.9 -0.861325220493 -0.508053997665
393.75 -0.885044388647 -0.465506638109
394.6 -0.906625063427 -0.421937192441
395.45 -0.926028523737 -0.377453537838
396.3 -0.943221413233 -0.332164666422
397.15 -0.958175747292 -0.28618042788
398.0 -0.970868908366 -0.239611274293
398.85 -0.981283629962 -0.192568007646
399.7 -0.989407969478 -0.145161530488
400.55 -0.995235270153 -0.09750260019
401.4 -0.998764112405 -0.0497015872076
402.25 -0.999998254842 -0.00186823779216
403.1 -0.998946565238 0.0458885584752
403.95 -0.9956229418 0.0934609959369
404.8 -0.990046225038 0.140742574539
405.65 -0.982240100581 0.18762831559
406.5 -0.972232993278 0.234014971279
407.35 -0.960057952948 0.279801227626
408.2 -0.945752532139 0.324887900596
409.05 -0.929358656261 0.369178125073
409.9 -0.910922486493 0.412577536472
410.75 -0.890494275824 0.454994444719
411.6 -0.868128218641 0.496340000401
412.45 -0.843882294254 0.536528352881
413.3 -0.817818104746 0.575476800184
414.15 -0.790000707581 0.613105930506
415.0 -0.760498443343 0.649339755192
415.85 -0.729382759043 0.684105833049
416.7 -0.696728027384 0.717335385895
417.55 -0.662611362407 0.748963405253
418.4 -0.627112431922 0.778928750097
419.25 -0.590313267132 0.80717423562
420.1 -0.552298069859 0.833646712961
420.95 -0.513153017785 0.858297139887
421.8 -0.472966068092 0.881080642412
422.65 -0.431826759915 0.90195656737
423.5 -0.389826015999 0.920888525963
424.35 -0.347055943946 0.937844428342
425.2 -0.303609637432 0.95279650926
426.05 -0.25958097779 0.965721344887
426.9 -0.215064436307 0.976599860862
427.75 -0.170154877621 0.985417331704
428.6 -0.124947364554 0.992163371674
429.45 -0.0795369647545 0.996831917245
430.3 -0.034018559466 0.999421201302
431.15 0.0115133452265 0.999933719244
432.0 0.0569648043638 0.998376187148
432.85 0.102242616973 0.994759492176
433.7 0.147254505522 0.989098635427
434.55 0.19190929167 0.981412667419
435.4 0.236117068044 0.971724616431
436.25 0.279789365757 0.960061409916
437.1 0.322839317418 0.94645378922
437.95 0.365181815383 0.930936217855
438.8 0.406733665012 0.913546783556
439.65 0.447413732708 0.894327094404
440.5 0.487143088525 0.873322169249
441.35 0.525845143155 0.850580322733
442.2 0.56344577909 0.826153045159
443.05 0.599873475805 0.800094877515
443.9 0.635059428788 0.772463281915
444.75 0.668937662277 0.743318507766
445.6 0.701445135564 0.712723453939
446.45 0.732521842745 0.680743527257
447.3 0.762110905814 0.647446497588
448.15 0.790158660994 0.612902349854
449.0 0.816614738233 0.577183133244
449.85 0.841432133788 0.540362807963
450.7 0.864567275846 0.502517089796
451.55 0.885980083135 0.463723292803
452.4 0.905634016495 0.424060170456
453.25 0.923496123387 0.383607755512
454.1 0.939537075345 0.342447198925
454.95 0.953731198362 0.300660608113
455.8 0.966056496243 0.25833088485
456.65 0.976494666945 0.215541563109
457.5 0.985031111958 0.172376647126
458.35 0.991654938765 0.128920449982
459.2 0.996358956461 0.0852574329882
460.05 0.999139664606 0.0414720461472
460.9 0.999997235385 -0.00235143002638
461.75 0.998935489194 -0.046129041066
462.6 0.995961863743 -0.0897773132248
463.45 0.991087376804 -0.133213406004
464.3 0.984326582727 -0.176355262288
465.15 0.975697522861 -0.219121755842
466.0 0.965221670029 -0.261432835936
466.85 0.952923867215 -0.303209668865
467.7 0.938832260606 -0.344374776145
468.55 0.922978227196 -0.38485216918
469.4 0.905396297089 -0.42456748017
470.25 0.886124070718 -0.463448089104
471.1 0.865202131161 -0.501423246604
471.95 0.842673951743 -0.538424192486
472.8 0.81858579915 -0.574384269831
473.65 0.792986632245 -0.609239034436
474.5 0.765927996811 -0.64292635947
475.35 0.737463916441 -0.675386535213
476.2 0.707650779798 -0.706562363738
477.05 0.676547224471 -0.736399248411
477.9 0.644214017662 -0.76484527811
478.75 0.610713933941 -0.791851306048
479.6 0.576111630298 -0.81737102312
480.45 0.540473518741 -0.841361025684
481.3 0.50386763668 -0.863780877715
482.15 0.466363515332 -0.884593167262
483.0 0.428032046404 -0.903763557161
483.85 0.388945347288 -0.921260829962
484.7 0.349176625022 -0.937056927053
485.55 0.308800039248 -0.951126981933
486.4 0.267890564431 -0.963449347651
487.25 0.226523851564 -0.974005618399
488.1 0.18477608961 -0.982780645266
488.95 0.14272386692 -0.989762546175
489.8 0.100444032867 -0.99494271004
490.65 0.0580135599212 -0.99831579516
491.5 0.0155094064132 -0.999879721923
492.35 -0.026991619793 -0.999635659859
493.2 -0.069412996492 -0.997588009109
494.05 -0.111678620969 -0.993744376396
494.9 -0.153712942256 -0.988115545563
495.75 -0.195441091594 -0.980715442785
496.6 -0.236789010904 -0.971561096543
497.45 -0.277683579045 -0.960672592473
498.3 -0.318052735684 -0.948073023202
499.15 -0.357825602562 -0.933788433293
500.0 -0.396932601985 -0.917847759425
