<Qucs Dataset 0.0.15>
<indep frequency 101>
  +7.50000000000e+10
  +7.53500000000e+10
  +7.57000000000e+10
  +7.60500000000e+10
  +7.64000000000e+10
  +7.67500000000e+10
  +7.71000000000e+10
  +7.74500000000e+10
  +7.78000000000e+10
  +7.81500000000e+10
  +7.85000000000e+10
  +7.88500000000e+10
  +7.92000000000e+10
  +7.95500000000e+10
  +7.99000000000e+10
  +8.02500000000e+10
  +8.06000000000e+10
  +8.09500000000e+10
  +8.13000000000e+10
  +8.16500000000e+10
  +8.20000000000e+10
  +8.23500000000e+10
  +8.27000000000e+10
  +8.30500000000e+10
  +8.34000000000e+10
  +8.37500000000e+10
  +8.41000000000e+10
  +8.44500000000e+10
  +8.48000000000e+10
  +8.51500000000e+10
  +8.55000000000e+10
  +8.58500000000e+10
  +8.62000000000e+10
  +8.65500000000e+10
  +8.69000000000e+10
  +8.72500000000e+10
  +8.76000000000e+10
  +8.79500000000e+10
  +8.83000000000e+10
  +8.86500000000e+10
  +8.90000000000e+10
  +8.93500000000e+10
  +8.97000000000e+10
  +9.00500000000e+10
  +9.04000000000e+10
  +9.07500000000e+10
  +9.11000000000e+10
  +9.14500000000e+10
  +9.18000000000e+10
  +9.21500000000e+10
  +9.25000000000e+10
  +9.28500000000e+10
  +9.32000000000e+10
  +9.35500000000e+10
  +9.39000000000e+10
  +9.42500000000e+10
  +9.46000000000e+10
  +9.49500000000e+10
  +9.53000000000e+10
  +9.56500000000e+10
  +9.60000000000e+10
  +9.63500000000e+10
  +9.67000000000e+10
  +9.70500000000e+10
  +9.74000000000e+10
  +9.77500000000e+10
  +9.81000000000e+10
  +9.84500000000e+10
  +9.88000000000e+10
  +9.91500000000e+10
  +9.95000000000e+10
  +9.98500000000e+10
  +1.00200000000e+11
  +1.00550000000e+11
  +1.00900000000e+11
  +1.01250000000e+11
  +1.01600000000e+11
  +1.01950000000e+11
  +1.02300000000e+11
  +1.02650000000e+11
  +1.03000000000e+11
  +1.03350000000e+11
  +1.03700000000e+11
  +1.04050000000e+11
  +1.04400000000e+11
  +1.04750000000e+11
  +1.05100000000e+11
  +1.05450000000e+11
  +1.05800000000e+11
  +1.06150000000e+11
  +1.06500000000e+11
  +1.06850000000e+11
  +1.07200000000e+11
  +1.07550000000e+11
  +1.07900000000e+11
  +1.08250000000e+11
  +1.08600000000e+11
  +1.08950000000e+11
  +1.09300000000e+11
  +1.09650000000e+11
  +1.10000000000e+11
</indep>
<dep S[1,1] frequency>
  +9.90099009901e-03
  +9.90099009901e-03
  +9.90099009901e-03
  +9.90099009901e-03
  +9.90099009901e-03
  +9.90099009901e-03
  +9.90099009901e-03
  +9.90099009901e-03
  +9.90099009901e-03
  +9.90099009901e-03
  +9.90099009901e-03
  +9.90099009901e-03
  +9.90099009901e-03
  +9.90099009901e-03
  +9.90099009901e-03
  +9.90099009901e-03
  +9.90099009901e-03
  +9.90099009901e-03
  +9.90099009901e-03
  +9.90099009901e-03
  +9.90099009901e-03
  +9.90099009901e-03
  +9.90099009901e-03
  +9.90099009901e-03
  +9.90099009901e-03
  +9.90099009901e-03
  +9.90099009901e-03
  +9.90099009901e-03
  +9.90099009901e-03
  +9.90099009901e-03
  +9.90099009901e-03
  +9.90099009901e-03
  +9.90099009901e-03
  +9.90099009901e-03
  +9.90099009901e-03
  +9.90099009901e-03
  +9.90099009901e-03
  +9.90099009901e-03
  +9.90099009901e-03
  +9.90099009901e-03
  +9.90099009901e-03
  +9.90099009901e-03
  +9.90099009901e-03
  +9.90099009901e-03
  +9.90099009901e-03
  +9.90099009901e-03
  +9.90099009901e-03
  +9.90099009901e-03
  +9.90099009901e-03
  +9.90099009901e-03
  +9.90099009901e-03
  +9.90099009901e-03
  +9.90099009901e-03
  +9.90099009901e-03
  +9.90099009901e-03
  +9.90099009901e-03
  +9.90099009901e-03
  +9.90099009901e-03
  +9.90099009901e-03
  +9.90099009901e-03
  +9.90099009901e-03
  +9.90099009901e-03
  +9.90099009901e-03
  +9.90099009901e-03
  +9.90099009901e-03
  +9.90099009901e-03
  +9.90099009901e-03
  +9.90099009901e-03
  +9.90099009901e-03
  +9.90099009901e-03
  +9.90099009901e-03
  +9.90099009901e-03
  +9.90099009901e-03
  +9.90099009901e-03
  +9.90099009901e-03
  +9.90099009901e-03
  +9.90099009901e-03
  +9.90099009901e-03
  +9.90099009901e-03
  +9.90099009901e-03
  +9.90099009901e-03
  +9.90099009901e-03
  +9.90099009901e-03
  +9.90099009901e-03
  +9.90099009901e-03
  +9.90099009901e-03
  +9.90099009901e-03
  +9.90099009901e-03
  +9.90099009901e-03
  +9.90099009901e-03
  +9.90099009901e-03
  +9.90099009901e-03
  +9.90099009901e-03
  +9.90099009901e-03
  +9.90099009901e-03
  +9.90099009901e-03
  +9.90099009901e-03
  +9.90099009901e-03
  +9.90099009901e-03
  +9.90099009901e-03
  +9.90099009901e-03
</dep>
<dep S[1,2] frequency>
  +9.90099009901e-01
  +9.90099009901e-01
  +9.90099009901e-01
  +9.90099009901e-01
  +9.90099009901e-01
  +9.90099009901e-01
  +9.90099009901e-01
  +9.90099009901e-01
  +9.90099009901e-01
  +9.90099009901e-01
  +9.90099009901e-01
  +9.90099009901e-01
  +9.90099009901e-01
  +9.90099009901e-01
  +9.90099009901e-01
  +9.90099009901e-01
  +9.90099009901e-01
  +9.90099009901e-01
  +9.90099009901e-01
  +9.90099009901e-01
  +9.90099009901e-01
  +9.90099009901e-01
  +9.90099009901e-01
  +9.90099009901e-01
  +9.90099009901e-01
  +9.90099009901e-01
  +9.90099009901e-01
  +9.90099009901e-01
  +9.90099009901e-01
  +9.90099009901e-01
  +9.90099009901e-01
  +9.90099009901e-01
  +9.90099009901e-01
  +9.90099009901e-01
  +9.90099009901e-01
  +9.90099009901e-01
  +9.90099009901e-01
  +9.90099009901e-01
  +9.90099009901e-01
  +9.90099009901e-01
  +9.90099009901e-01
  +9.90099009901e-01
  +9.90099009901e-01
  +9.90099009901e-01
  +9.90099009901e-01
  +9.90099009901e-01
  +9.90099009901e-01
  +9.90099009901e-01
  +9.90099009901e-01
  +9.90099009901e-01
  +9.90099009901e-01
  +9.90099009901e-01
  +9.90099009901e-01
  +9.90099009901e-01
  +9.90099009901e-01
  +9.90099009901e-01
  +9.90099009901e-01
  +9.90099009901e-01
  +9.90099009901e-01
  +9.90099009901e-01
  +9.90099009901e-01
  +9.90099009901e-01
  +9.90099009901e-01
  +9.90099009901e-01
  +9.90099009901e-01
  +9.90099009901e-01
  +9.90099009901e-01
  +9.90099009901e-01
  +9.90099009901e-01
  +9.90099009901e-01
  +9.90099009901e-01
  +9.90099009901e-01
  +9.90099009901e-01
  +9.90099009901e-01
  +9.90099009901e-01
  +9.90099009901e-01
  +9.90099009901e-01
  +9.90099009901e-01
  +9.90099009901e-01
  +9.90099009901e-01
  +9.90099009901e-01
  +9.90099009901e-01
  +9.90099009901e-01
  +9.90099009901e-01
  +9.90099009901e-01
  +9.90099009901e-01
  +9.90099009901e-01
  +9.90099009901e-01
  +9.90099009901e-01
  +9.90099009901e-01
  +9.90099009901e-01
  +9.90099009901e-01
  +9.90099009901e-01
  +9.90099009901e-01
  +9.90099009901e-01
  +9.90099009901e-01
  +9.90099009901e-01
  +9.90099009901e-01
  +9.90099009901e-01
  +9.90099009901e-01
  +9.90099009901e-01
</dep>
<dep S[2,1] frequency>
  +9.90099009901e-01
  +9.90099009901e-01
  +9.90099009901e-01
  +9.90099009901e-01
  +9.90099009901e-01
  +9.90099009901e-01
  +9.90099009901e-01
  +9.90099009901e-01
  +9.90099009901e-01
  +9.90099009901e-01
  +9.90099009901e-01
  +9.90099009901e-01
  +9.90099009901e-01
  +9.90099009901e-01
  +9.90099009901e-01
  +9.90099009901e-01
  +9.90099009901e-01
  +9.90099009901e-01
  +9.90099009901e-01
  +9.90099009901e-01
  +9.90099009901e-01
  +9.90099009901e-01
  +9.90099009901e-01
  +9.90099009901e-01
  +9.90099009901e-01
  +9.90099009901e-01
  +9.90099009901e-01
  +9.90099009901e-01
  +9.90099009901e-01
  +9.90099009901e-01
  +9.90099009901e-01
  +9.90099009901e-01
  +9.90099009901e-01
  +9.90099009901e-01
  +9.90099009901e-01
  +9.90099009901e-01
  +9.90099009901e-01
  +9.90099009901e-01
  +9.90099009901e-01
  +9.90099009901e-01
  +9.90099009901e-01
  +9.90099009901e-01
  +9.90099009901e-01
  +9.90099009901e-01
  +9.90099009901e-01
  +9.90099009901e-01
  +9.90099009901e-01
  +9.90099009901e-01
  +9.90099009901e-01
  +9.90099009901e-01
  +9.90099009901e-01
  +9.90099009901e-01
  +9.90099009901e-01
  +9.90099009901e-01
  +9.90099009901e-01
  +9.90099009901e-01
  +9.90099009901e-01
  +9.90099009901e-01
  +9.90099009901e-01
  +9.90099009901e-01
  +9.90099009901e-01
  +9.90099009901e-01
  +9.90099009901e-01
  +9.90099009901e-01
  +9.90099009901e-01
  +9.90099009901e-01
  +9.90099009901e-01
  +9.90099009901e-01
  +9.90099009901e-01
  +9.90099009901e-01
  +9.90099009901e-01
  +9.90099009901e-01
  +9.90099009901e-01
  +9.90099009901e-01
  +9.90099009901e-01
  +9.90099009901e-01
  +9.90099009901e-01
  +9.90099009901e-01
  +9.90099009901e-01
  +9.90099009901e-01
  +9.90099009901e-01
  +9.90099009901e-01
  +9.90099009901e-01
  +9.90099009901e-01
  +9.90099009901e-01
  +9.90099009901e-01
  +9.90099009901e-01
  +9.90099009901e-01
  +9.90099009901e-01
  +9.90099009901e-01
  +9.90099009901e-01
  +9.90099009901e-01
  +9.90099009901e-01
  +9.90099009901e-01
  +9.90099009901e-01
  +9.90099009901e-01
  +9.90099009901e-01
  +9.90099009901e-01
  +9.90099009901e-01
  +9.90099009901e-01
  +9.90099009901e-01
</dep>
<dep S[2,2] frequency>
  +9.90099009901e-03
  +9.90099009901e-03
  +9.90099009901e-03
  +9.90099009901e-03
  +9.90099009901e-03
  +9.90099009901e-03
  +9.90099009901e-03
  +9.90099009901e-03
  +9.90099009901e-03
  +9.90099009901e-03
  +9.90099009901e-03
  +9.90099009901e-03
  +9.90099009901e-03
  +9.90099009901e-03
  +9.90099009901e-03
  +9.90099009901e-03
  +9.90099009901e-03
  +9.90099009901e-03
  +9.90099009901e-03
  +9.90099009901e-03
  +9.90099009901e-03
  +9.90099009901e-03
  +9.90099009901e-03
  +9.90099009901e-03
  +9.90099009901e-03
  +9.90099009901e-03
  +9.90099009901e-03
  +9.90099009901e-03
  +9.90099009901e-03
  +9.90099009901e-03
  +9.90099009901e-03
  +9.90099009901e-03
  +9.90099009901e-03
  +9.90099009901e-03
  +9.90099009901e-03
  +9.90099009901e-03
  +9.90099009901e-03
  +9.90099009901e-03
  +9.90099009901e-03
  +9.90099009901e-03
  +9.90099009901e-03
  +9.90099009901e-03
  +9.90099009901e-03
  +9.90099009901e-03
  +9.90099009901e-03
  +9.90099009901e-03
  +9.90099009901e-03
  +9.90099009901e-03
  +9.90099009901e-03
  +9.90099009901e-03
  +9.90099009901e-03
  +9.90099009901e-03
  +9.90099009901e-03
  +9.90099009901e-03
  +9.90099009901e-03
  +9.90099009901e-03
  +9.90099009901e-03
  +9.90099009901e-03
  +9.90099009901e-03
  +9.90099009901e-03
  +9.90099009901e-03
  +9.90099009901e-03
  +9.90099009901e-03
  +9.90099009901e-03
  +9.90099009901e-03
  +9.90099009901e-03
  +9.90099009901e-03
  +9.90099009901e-03
  +9.90099009901e-03
  +9.90099009901e-03
  +9.90099009901e-03
  +9.90099009901e-03
  +9.90099009901e-03
  +9.90099009901e-03
  +9.90099009901e-03
  +9.90099009901e-03
  +9.90099009901e-03
  +9.90099009901e-03
  +9.90099009901e-03
  +9.90099009901e-03
  +9.90099009901e-03
  +9.90099009901e-03
  +9.90099009901e-03
  +9.90099009901e-03
  +9.90099009901e-03
  +9.90099009901e-03
  +9.90099009901e-03
  +9.90099009901e-03
  +9.90099009901e-03
  +9.90099009901e-03
  +9.90099009901e-03
  +9.90099009901e-03
  +9.90099009901e-03
  +9.90099009901e-03
  +9.90099009901e-03
  +9.90099009901e-03
  +9.90099009901e-03
  +9.90099009901e-03
  +9.90099009901e-03
  +9.90099009901e-03
  +9.90099009901e-03
</dep>
