! Created Thu Nov 11 11:09:06 2010
!
!Created with skrf (http://scikit-rf.org).
# GHz S RI R 50.0 
!freq ReS11 ImS11 ReS21 ImS21 ReS12 ImS12 ReS22 ImS22
1.0 0.0217920488 -0.151514165 0.926746562 -0.170089428 0.926746562 -0.170089428 0.0234769169 -0.121728077
1.1 0.0165040395 -0.165812914 0.92149708 -0.186257735 0.92149708 -0.186257735 0.0185387559 -0.133078528
1.2 0.0107648639 -0.179877134 0.915799359 -0.202194824 0.915799359 -0.202194824 0.0131812086 -0.144202856
1.3 0.00458796245 -0.193689477 0.909666648 -0.217883591 0.909666648 -0.217883591 0.00741732005 -0.155084364
1.4 -0.00201241022 -0.207233534 0.903113 -0.233307859 0.903113 -0.233307859 0.00126092481 -0.165707267
1.5 -0.00902126279 -0.220493878 0.896153194 -0.248452419 0.896153194 -0.248452419 -0.00527342815 -0.176056739
1.6 -0.0164229462 -0.233456102 0.888802657 -0.263303067 0.888802657 -0.263303067 -0.0121705523 -0.186118942
1.7 -0.0242012341 -0.246106845 0.881077385 -0.277846632 0.881077385 -0.277846632 -0.0194147015 -0.195881054
1.8 -0.0323394035 -0.258433812 0.872993865 -0.292070992 0.872993865 -0.292070992 -0.0269896489 -0.20533129
1.9 -0.040820316 -0.270425789 0.86456899 -0.305965092 0.86456899 -0.305965092 -0.0348787654 -0.214458915
2.0 -0.0496264972 -0.282072647 0.855819989 -0.319518948 0.855819989 -0.319518948 -0.0430650972 -0.223254251
2.1 -0.0587402162 -0.293365349 0.846764339 -0.332723649 0.846764339 -0.332723649 -0.0515314426 -0.231708675
2.2 -0.0681435613 -0.304295936 0.837419697 -0.34557135 0.837419697 -0.34557135 -0.0602604264 -0.239814618
2.3 -0.0778185151 -0.314857522 0.827803826 -0.358055262 0.827803826 -0.358055262 -0.0692345719 -0.24756555
2.4 -0.0877470254 -0.325044271 0.817934521 -0.370169633 0.817934521 -0.370169633 -0.0784363707 -0.254955964
2.5 -0.0979110734 -0.334851383 0.807829543 -0.38190973 0.807829543 -0.38190973 -0.0878483484 -0.261981354
2.6 -0.108292738 -0.344275057 0.797506558 -0.393271808 0.797506558 -0.393271808 -0.0974531277 -0.268638191
2.7 -0.118874258 -0.353312469 0.786983076 -0.404253084 0.786983076 -0.404253084 -0.107233487 -0.274923893
2.8 -0.129638084 -0.361961736 0.776276394 -0.414851699 0.776276394 -0.414851699 -0.117172415 -0.28083679
2.9 -0.140566938 -0.370221873 0.765403545 -0.425066685 0.765403545 -0.425066685 -0.127253163 -0.286376087
3.0 -0.151643853 -0.37809276 0.754381252 -0.434897925 0.754381252 -0.434897925 -0.137459289 -0.291541829
3.1 -0.162852223 -0.385575098 0.743225885 -0.444346108 0.743225885 -0.444346108 -0.147774702 -0.296334855
3.2 -0.174175838 -0.392670361 0.73195342 -0.453412691 0.73195342 -0.453412691 -0.158183698 -0.300756761
3.3 -0.18559892 -0.399380756 0.72057941 -0.462099849 0.72057941 -0.462099849 -0.168670994 -0.304809851
3.4 -0.197106154 -0.405709176 0.709118951 -0.470410434 0.709118951 -0.470410434 -0.179221761 -0.308497093
3.5 -0.208682712 -0.41165915 0.697586656 -0.478347927 0.697586656 -0.478347927 -0.189821641 -0.311822077
3.6 -0.220314276 -0.417234801 0.685996638 -0.485916392 0.685996638 -0.485916392 -0.200456779 -0.314788968
3.7 -0.231987057 -0.422440796 0.674362488 -0.493120433 0.674362488 -0.493120433 -0.21111383 -0.317402459
3.8 -0.243687807 -0.427282304 0.662697261 -0.499965144 0.662697261 -0.499965144 -0.221779981 -0.319667729
3.9 -0.25540383 -0.431764945 0.65101347 -0.506456068 0.65101347 -0.506456068 -0.232442955 -0.321590397
4.0 -0.267122992 -0.435894753 0.639323073 -0.512599152 0.639323073 -0.512599152 -0.243091024 -0.323176481
4.1 -0.278833723 -0.439678128 0.627637473 -0.518400707 0.627637473 -0.518400707 -0.253713008 -0.324432355
4.2 -0.290525016 -0.443121794 0.615967514 -0.523867363 0.615967514 -0.523867363 -0.26429828 -0.32536471
4.3 -0.302186433 -0.446232764 0.604323484 -0.529006032 0.604323484 -0.529006032 -0.274836761 -0.325980511
4.4 -0.313808091 -0.449018296 0.592715119 -0.533823872 0.592715119 -0.533823872 -0.285318921 -0.326286966
4.5 -0.325380667 -0.451485861 0.581151606 -0.538328246 0.581151606 -0.538328246 -0.295735769 -0.326291485
4.6 -0.336895381 -0.453643105 0.569641596 -0.542526693 0.569641596 -0.542526693 -0.306078848 -0.32600165
4.7 -0.348343991 -0.455497816 0.558193207 -0.546426891 0.558193207 -0.546426891 -0.316340223 -0.325425179
4.8 -0.359718783 -0.457057896 0.54681404 -0.550036629 0.54681404 -0.550036629 -0.326512475 -0.324569899
4.9 -0.371012554 -0.458331329 0.535511189 -0.55336378 0.535511189 -0.55336378 -0.336588682 -0.323443717
5.0 -0.382218603 -0.459326156 0.524291255 -0.556416268 0.524291255 -0.556416268 -0.346562412 -0.322054594
5.1 -0.393330711 -0.460050447 0.513160362 -0.55920205 0.513160362 -0.55920205 -0.356427705 -0.320410518
5.2 -0.404343131 -0.46051228 0.502124168 -0.561729087 0.502124168 -0.561729087 -0.366179059 -0.318519482
5.3 -0.415250571 -0.460719717 0.491187886 -0.564005329 0.491187886 -0.564005329 -0.375811416 -0.316389467
5.4 -0.426048174 -0.460680787 0.480356297 -0.566038688 0.480356297 -0.566038688 -0.385320141 -0.314028416
5.5 -0.436731504 -0.460403466 0.469633767 -0.567837028 0.469633767 -0.567837028 -0.394701013 -0.311444222
5.6 -0.447296528 -0.459895661 0.459024264 -0.569408141 0.459024264 -0.569408141 -0.403950201 -0.308644708
5.7 -0.457739599 -0.459165194 0.448531377 -0.570759739 0.448531377 -0.570759739 -0.413064254 -0.305637616
5.8 -0.46805744 -0.458219791 0.43815833 -0.571899436 0.43815833 -0.571899436 -0.422040077 -0.30243059
5.9 -0.478247124 -0.457067068 0.427908001 -0.572834738 0.427908001 -0.572834738 -0.430874921 -0.299031169
6.0 -0.488306058 -0.455714521 0.417782938 -0.573573034 0.417782938 -0.573573034 -0.439566362 -0.295446772
6.1 -0.498231968 -0.454169517 0.407785376 -0.574121584 0.407785376 -0.574121584 -0.448112285 -0.291684692
6.2 -0.50802288 -0.452439285 0.397917252 -0.574487513 0.397917252 -0.574487513 -0.456510871 -0.287752088
6.3 -0.517677105 -0.450530911 0.388180225 -0.574677805 0.388180225 -0.574677805 -0.464760577 -0.283655977
6.4 -0.527193223 -0.44845133 0.378575685 -0.574699294 0.378575685 -0.574699294 -0.472860125 -0.279403228
6.5 -0.536570068 -0.446207322 0.369104775 -0.57455866 0.369104775 -0.57455866 -0.480808482 -0.27500056
6.6 -0.545806711 -0.443805508 0.359768402 -0.574262429 0.359768402 -0.574262429 -0.48860485 -0.270454533
6.7 -0.554902449 -0.441252346 0.350567252 -0.573816966 0.350567252 -0.573816966 -0.496248649 -0.26577155
6.8 -0.563856787 -0.438554131 0.341501803 -0.573228471 0.341501803 -0.573228471 -0.503739503 -0.260957854
6.9 -0.572669427 -0.435716992 0.332572341 -0.572502983 0.332572341 -0.572502983 -0.511077231 -0.256019523
7.0 -0.581340254 -0.432746888 0.32377897 -0.571646376 0.32377897 -0.571646376 -0.518261829 -0.250962471
7.1 -0.589869325 -0.429649612 0.315121627 -0.570664355 0.315121627 -0.570664355 -0.525293461 -0.245792449
7.2 -0.598256856 -0.426430791 0.306600089 -0.569562463 0.306600089 -0.569562463 -0.532172445 -0.240515042
7.3 -0.606503207 -0.423095882 0.298213992 -0.568346078 0.298213992 -0.568346078 -0.538899247 -0.235135674
7.4 -0.61460888 -0.419650178 0.289962834 -0.567020412 0.289962834 -0.567020412 -0.545474462 -0.229659605
7.5 -0.622574499 -0.416098808 0.28184599 -0.565590518 0.28184599 -0.565590518 -0.551898812 -0.224091931
7.6 -0.630400804 -0.412446737 0.273862721 -0.564061285 0.273862721 -0.564061285 -0.558173132 -0.218437594
7.7 -0.638088646 -0.408698769 0.26601218 -0.562437446 0.26601218 -0.562437446 -0.564298362 -0.212701374
7.8 -0.645638968 -0.404859552 0.258293427 -0.560723576 0.258293427 -0.560723576 -0.570275537 -0.206887897
7.9 -0.653052807 -0.400933576 0.250705433 -0.558924099 0.250705433 -0.558924099 -0.57610578 -0.201001638
8.0 -0.660331279 -0.39692518 0.243247086 -0.557043285 0.243247086 -0.557043285 -0.581790296 -0.19504692
8.1 -0.667475575 -0.392838552 0.235917204 -0.555085259 0.235917204 -0.555085259 -0.58733036 -0.189027919
8.2 -0.674486952 -0.388677733 0.228714538 -0.553053998 0.228714538 -0.553053998 -0.592727314 -0.182948667
8.3 -0.681366728 -0.384446621 0.221637782 -0.55095334 0.221637782 -0.55095334 -0.59798256 -0.176813057
8.4 -0.688116272 -0.380148975 0.214685573 -0.548786983 0.214685573 -0.548786983 -0.603097551 -0.170624842
8.5 -0.694737004 -0.375788416 0.207856505 -0.546558491 0.207856505 -0.546558491 -0.608073788 -0.164387641
8.6 -0.701230384 -0.371368431 0.201149127 -0.544271297 0.201149127 -0.544271297 -0.612912815 -0.158104943
8.7 -0.707597911 -0.366892377 0.194561954 -0.541928703 0.194561954 -0.541928703 -0.617616212 -0.151780107
8.8 -0.713841113 -0.362363488 0.188093469 -0.539533889 0.188093469 -0.539533889 -0.622185589 -0.145416371
8.9 -0.719961549 -0.357784872 0.181742126 -0.537089914 0.181742126 -0.537089914 -0.626622587 -0.13901685
9.0 -0.7259608 -0.353159518 0.175506358 -0.534599717 0.175506358 -0.534599717 -0.630928868 -0.132584542
9.1 -0.731840464 -0.348490301 0.169384578 -0.532066124 0.169384578 -0.532066124 -0.635106115 -0.126122332
9.2 -0.737602159 -0.343779982 0.163375184 -0.529491851 0.163375184 -0.529491851 -0.639156024 -0.119632993
9.3 -0.743247512 -0.339031216 0.157476562 -0.526879507 0.157476562 -0.526879507 -0.643080307 -0.113119192
9.4 -0.74877816 -0.33424655 0.151687088 -0.524231595 0.151687088 -0.524231595 -0.646880684 -0.106583493
9.5 -0.754195746 -0.329428431 0.146005134 -0.521550518 0.146005134 -0.521550518 -0.65055888 -0.100028356
9.6 -0.759501917 -0.324579205 0.140429065 -0.518838584 0.140429065 -0.518838584 -0.654116628 -0.0934561481
9.7 -0.76469832 -0.319701126 0.13495725 -0.516098004 0.13495725 -0.516098004 -0.657555658 -0.0868691394
9.8 -0.769786601 -0.314796354 0.129588056 -0.513330899 0.129588056 -0.513330899 -0.660877701 -0.0802695102
9.9 -0.774768403 -0.309866961 0.124319855 -0.510539304 0.124319855 -0.510539304 -0.664084486 -0.0736593524
10.0 -0.779645363 -0.304914933 0.119151023 -0.507725166 0.119151023 -0.507725166 -0.667177736 -0.0670406733
