!Created with skrf (http://scikit-rf.org).
# GHz S RI R 50.0 
!freq ReS11 ImS11 ReS21 ImS21 ReS12 ImS12 ReS22 ImS22
500.0 0.0 0.0 0.983134851889 -0.182882101369 0.983134851889 -0.182882101369 0.0 0.0
501.25 0.0 0.0 0.974507157375 -0.224356413382 0.974507157375 -0.224356413382 0.0 0.0
502.5 0.0 0.0 0.964175549306 -0.265264980955 0.964175549306 -0.265264980955 0.0 0.0
503.75 0.0 0.0 0.952178180102 -0.305543308448 0.952178180102 -0.305543308448 0.0 0.0
505.0 0.0 0.0 0.938555192388 -0.345129179935 0.938555192388 -0.345129179935 0.0 0.0
506.25 0.0 0.0 0.92334860799 -0.383962691056 0.92334860799 -0.383962691056 0.0 0.0
507.5 0.0 0.0 0.906602218162 -0.421986277057 0.906602218162 -0.421986277057 0.0 0.0
508.75 0.0 0.0 0.888361475065 -0.459144737115 0.888361475065 -0.459144737115 0.0 0.0
510.0 0.0 0.0 0.868673384576 -0.495385255059 0.868673384576 -0.495385255059 0.0 0.0
511.25 0.0 0.0 0.847586400448 -0.530657416584 0.847586400448 -0.530657416584 0.0 0.0
512.5 0.0 0.0 0.825150319884 -0.564913223066 0.825150319884 -0.564913223066 0.0 0.0
513.75 0.0 0.0 0.801416180558 -0.598107102065 0.801416180558 -0.598107102065 0.0 0.0
515.0 0.0 0.0 0.776436159124 -0.63019591462 0.776436159124 -0.63019591462 0.0 0.0
516.25 0.0 0.0 0.750263471272 -0.661138959429 0.750263471272 -0.661138959429 0.0 0.0
517.5 0.0 0.0 0.722952273336 -0.690897974001 0.722952273336 -0.690897974001 0.0 0.0
518.75 0.0 0.0 0.694557565529 -0.71943713288 0.694557565529 -0.71943713288 0.0 0.0
520.0 0.0 0.0 0.665135096813 -0.746723043027 0.665135096813 -0.746723043027 0.0 0.0
521.25 0.0 0.0 0.634741271454 -0.772724736444 0.634741271454 -0.772724736444 0.0 0.0
522.5 0.0 0.0 0.60343305729 -0.797413660135 0.60343305729 -0.797413660135 0.0 0.0
523.75 0.0 0.0 0.571267895741 -0.820763663484 0.571267895741 -0.820763663484 0.0 0.0
525.0 0.0 0.0 0.538303613598 -0.842750983142 0.538303613598 -0.842750983142 0.0 0.0
526.25 0.0 0.0 0.504598336612 -0.8633542255 0.504598336612 -0.8633542255 0.0 0.0
527.5 0.0 0.0 0.47021040492 -0.882554346828 0.47021040492 -0.882554346828 0.0 0.0
528.75 0.0 0.0 0.435198290318 -0.900334631181 0.435198290318 -0.900334631181 0.0 0.0
530.0 0.0 0.0 0.399620515421 -0.916680666129 0.399620515421 -0.916680666129 0.0 0.0
531.25 0.0 0.0 0.36353557473 -0.931580316401 0.36353557473 -0.931580316401 0.0 0.0
532.5 0.0 0.0 0.327001857608 -0.945023695534 0.327001857608 -0.945023695534 0.0 0.0
533.75 0.0 0.0 0.290077573218 -0.957003135583 0.290077573218 -0.957003135583 0.0 0.0
535.0 0.0 0.0 0.25282067741 -0.967513154988 0.25282067741 -0.967513154988 0.0 0.0
536.25 0.0 0.0 0.215288801589 -0.976550424663 0.215288801589 -0.976550424663 0.0 0.0
537.5 0.0 0.0 0.177539183581 -0.984113732398 0.177539183581 -0.984113732398 0.0 0.0
538.75 0.0 0.0 0.139628600499 -0.990203945621 0.139628600499 -0.990203945621 0.0 0.0
540.0 0.0 0.0 0.101613303633 -0.994823972633 0.101613303633 -0.994823972633 0.0 0.0
541.25 0.0 0.0 0.0635489553649 -0.997978722354 0.0635489553649 -0.997978722354 0.0 0.0
542.5 0.0 0.0 0.0254905681288 -0.999675062676 0.0254905681288 -0.999675062676 0.0 0.0
543.75 0.0 0.0 -0.0125075545901 -0.99992177748 -0.0125075545901 -0.99992177748 0.0 0.0
545.0 0.0 0.0 -0.0503918751984 -0.9987295224 -0.0503918751984 -0.9987295224 0.0 0.0
546.25 0.0 0.0 -0.088109676882 -0.996110779401 -0.088109676882 -0.996110779401 0.0 0.0
547.5 0.0 0.0 -0.125609116433 -0.992079810231 -0.125609116433 -0.992079810231 0.0 0.0
548.75 0.0 0.0 -0.162839275012 -0.986652608831 -0.162839275012 -0.986652608831 0.0 0.0
550.0 0.0 0.0 -0.199750206849 -0.97984685276 -0.199750206849 -0.97984685276 0.0 0.0
551.25 0.0 0.0 -0.23629298588 -0.971681853707 -0.23629298588 -0.971681853707 0.0 0.0
552.5 0.0 0.0 -0.272419750322 -0.962178507157 -0.272419750322 -0.962178507157 0.0 0.0
553.75 0.0 0.0 -0.308083745195 -0.951359241268 -0.308083745195 -0.951359241268 0.0 0.0
555.0 0.0 0.0 -0.343239362783 -0.939247965042 -0.343239362783 -0.939247965042 0.0 0.0
556.25 0.0 0.0 -0.37784218106 -0.925870015829 -0.37784218106 -0.925870015829 0.0 0.0
557.5 0.0 0.0 -0.411849000066 -0.91125210625 -0.411849000066 -0.91125210625 0.0 0.0
558.75 0.0 0.0 -0.44521787626 -0.895422270585 -0.44521787626 -0.895422270585 0.0 0.0
560.0 0.0 0.0 -0.477908154847 -0.878409810698 -0.477908154847 -0.878409810698 0.0 0.0
561.25 0.0 0.0 -0.509880500102 -0.860245241553 -0.509880500102 -0.860245241553 0.0 0.0
562.5 0.0 0.0 -0.54109692369 -0.84096023638 -0.54109692369 -0.84096023638 0.0 0.0
563.75 0.0 0.0 -0.571520811007 -0.820587571552 -0.571520811007 -0.820587571552 0.0 0.0
565.0 0.0 0.0 -0.601116945547 -0.799161071234 -0.601116945547 -0.799161071234 0.0 0.0
566.25 0.0 0.0 -0.629851531326 -0.77671555185 -0.629851531326 -0.77671555185 0.0 0.0
567.5 0.0 0.0 -0.657692213359 -0.753286766435 -0.657692213359 -0.753286766435 0.0 0.0
568.75 0.0 0.0 -0.684608096224 -0.72891134892 -0.684608096224 -0.72891134892 0.0 0.0
570.0 0.0 0.0 -0.710569760725 -0.703626758405 -0.710569760725 -0.703626758405 0.0 0.0
571.25 0.0 0.0 -0.735549278682 -0.677471223471 -0.735549278682 -0.677471223471 0.0 0.0
572.5 0.0 0.0 -0.759520225855 -0.650483686587 -0.759520225855 -0.650483686587 0.0 0.0
573.75 0.0 0.0 -0.782457693042 -0.622703748664 -0.782457693042 -0.622703748664 0.0 0.0
575.0 0.0 0.0 -0.804338295352 -0.594171613787 -0.804338295352 -0.594171613787 0.0 0.0
576.25 0.0 0.0 -0.825140179709 -0.564928034205 -0.825140179709 -0.564928034205 0.0 0.0
577.5 0.0 0.0 -0.844843030571 -0.5350142556 -0.844843030571 -0.5350142556 0.0 0.0
578.75 0.0 0.0 -0.863428073935 -0.504471962691 -0.863428073935 -0.504471962691 0.0 0.0
580.0 0.0 0.0 -0.880878079611 -0.473343225219 -0.880878079611 -0.473343225219 0.0 0.0
581.25 0.0 0.0 -0.897177361829 -0.441670444359 -0.897177361829 -0.441670444359 0.0 0.0
582.5 0.0 0.0 -0.912311778187 -0.409496299593 -0.912311778187 -0.409496299593 0.0 0.0
583.75 0.0 0.0 -0.926268726971 -0.376863696096 -0.926268726971 -0.376863696096 0.0 0.0
585.0 0.0 0.0 -0.939037142886 -0.343815712673 -0.939037142886 -0.343815712673 0.0 0.0
586.25 0.0 0.0 -0.950607491222 -0.310395550279 -0.950607491222 -0.310395550279 0.0 0.0
587.5 0.0 0.0 -0.960971760487 -0.276646481176 -0.960971760487 -0.276646481176 0.0 0.0
588.75 0.0 0.0 -0.97012345354 -0.242611798749 -0.97012345354 -0.242611798749 0.0 0.0
590.0 0.0 0.0 -0.978057577258 -0.208334768025 -0.978057577258 -0.208334768025 0.0 0.0
591.25 0.0 0.0 -0.984770630771 -0.173858576929 -0.984770630771 -0.173858576929 0.0 0.0
592.5 0.0 0.0 -0.99026059229 -0.13922628831 -0.99026059229 -0.13922628831 0.0 0.0
593.75 0.0 0.0 -0.994526904584 -0.104480792775 -0.994526904584 -0.104480792775 0.0 0.0
595.0 0.0 0.0 -0.997570459109 -0.0696647623483 -0.997570459109 -0.0696647623483 0.0 0.0
596.25 0.0 0.0 -0.99939357886 -0.0348206050067 -0.99939357886 -0.0348206050067 0.0 0.0
597.5 0.0 0.0 -0.999999999954 9.57989732291e-06 -0.999999999954 9.57989732291e-06 0.0 0.0
598.75 0.0 0.0 -0.999394851995 0.0347840452876 -0.999394851995 0.0347840452876 0.0 0.0
600.0 0.0 0.0 -0.997584637253 0.0694614390669 -0.997584637253 0.0694614390669 0.0 0.0
601.25 0.0 0.0 -0.994577208699 0.104000845844 -0.994577208699 0.104000845844 0.0 0.0
602.5 0.0 0.0 -0.990381746927 0.138361827663 -0.990381746927 0.138361827663 0.0 0.0
603.75 0.0 0.0 -0.985008736003 0.172504463704 -0.985008736003 0.172504463704 0.0 0.0
605.0 0.0 0.0 -0.978469938286 0.206389388949 -0.978469938286 0.206389388949 0.0 0.0
606.25 0.0 0.0 -0.970778368249 0.239977831769 -0.970778368249 0.239977831769 0.0 0.0
607.5 0.0 0.0 -0.961948265345 0.273231650436 -0.961948265345 0.273231650436 0.0 0.0
608.75 0.0 0.0 -0.951995065959 0.306113368525 -0.951995065959 0.306113368525 0.0 0.0
610.0 0.0 0.0 -0.940935374478 0.338586209194 -0.940935374478 0.338586209194 0.0 0.0
611.25 0.0 0.0 -0.928786933523 0.370614128328 -0.928786933523 0.370614128328 0.0 0.0
612.5 0.0 0.0 -0.915568593386 0.402161846532 -0.915568593386 0.402161846532 0.0 0.0
613.75 0.0 0.0 -0.901300280698 0.433194879949 -0.901300280698 0.433194879949 0.0 0.0
615.0 0.0 0.0 -0.886002966388 0.463679569909 -0.886002966388 0.463679569909 0.0 0.0
616.25 0.0 0.0 -0.869698632955 0.493583111377 -0.869698632955 0.493583111377 0.0 0.0
617.5 0.0 0.0 -0.852410241096 0.522873580203 -0.852410241096 0.522873580203 0.0 0.0
618.75 0.0 0.0 -0.83416169574 0.551519959167 -0.83416169574 0.551519959167 0.0 0.0
620.0 0.0 0.0 -0.814977811517 0.57949216279 -0.814977811517 0.57949216279 0.0 0.0
621.25 0.0 0.0 -0.794884277699 0.606761060935 -0.794884277699 0.606761060935 0.0 0.0
622.5 0.0 0.0 -0.773907622667 0.633298501165 -0.773907622667 0.633298501165 0.0 0.0
623.75 0.0 0.0 -0.752075177928 0.659077329867 -0.752075177928 0.659077329867 0.0 0.0
625.0 0.0 0.0 -0.729415041729 0.684071412135 -0.729415041729 0.684071412135 0.0 0.0
626.25 0.0 0.0 -0.705956042301 0.70825565041 -0.705956042301 0.70825565041 0.0 0.0
627.5 0.0 0.0 -0.681727700785 0.731606001877 -0.681727700785 0.731606001877 0.0 0.0
628.75 0.0 0.0 -0.656760193856 0.754099494607 -0.656760193856 0.754099494607 0.0 0.0
630.0 0.0 0.0 -0.631084316106 0.775714242466 -0.631084316106 0.775714242466 0.0 0.0
631.25 0.0 0.0 -0.60473144221 0.796429458773 -0.60473144221 0.796429458773 0.0 0.0
632.5 0.0 0.0 -0.577733488916 0.816225468719 -0.577733488916 0.816225468719 0.0 0.0
633.75 0.0 0.0 -0.550122876896 0.835083720543 -0.550122876896 0.835083720543 0.0 0.0
635.0 0.0 0.0 -0.5219324925 0.852986795485 -0.5219324925 0.852986795485 0.0 0.0
636.25 0.0 0.0 -0.493195649439 0.869918416505 -0.493195649439 0.869918416505 0.0 0.0
637.5 0.0 0.0 -0.463946050439 0.885863455777 -0.463946050439 0.885863455777 0.0 0.0
638.75 0.0 0.0 -0.434217748911 0.900807940979 -0.434217748911 0.900807940979 0.0 0.0
640.0 0.0 0.0 -0.404045110647 0.914739060368 -0.404045110647 0.914739060368 0.0 0.0
641.25 0.0 0.0 -0.373462775607 0.927645166664 -0.373462775607 0.927645166664 0.0 0.0
642.5 0.0 0.0 -0.34250561981 0.93951577975 -0.34250561981 0.93951577975 0.0 0.0
643.75 0.0 0.0 -0.311208717366 0.950341588186 -0.311208717366 0.950341588186 0.0 0.0
645.0 0.0 0.0 -0.279607302695 0.960114449573 -0.279607302695 0.960114449573 0.0 0.0
646.25 0.0 0.0 -0.24773673295 0.968827389759 -0.24773673295 0.968827389759 0.0 0.0
647.5 0.0 0.0 -0.215632450679 0.976474600906 -0.215632450679 0.976474600906 0.0 0.0
648.75 0.0 0.0 -0.183329946773 0.983051438439 -0.183329946773 0.983051438439 0.0 0.0
650.0 0.0 0.0 -0.150864723703 0.988554416885 -0.150864723703 0.988554416885 0.0 0.0
651.25 0.0 0.0 -0.118272259108 0.992981204618 -0.118272259108 0.992981204618 0.0 0.0
652.5 0.0 0.0 -0.0855879697339 0.996330617535 -0.0855879697339 0.996330617535 0.0 0.0
653.75 0.0 0.0 -0.0528471757771 0.998602611659 -0.0528471757771 0.998602611659 0.0 0.0
655.0 0.0 0.0 -0.0200850656432 0.999798274723 -0.0200850656432 0.999798274723 0.0 0.0
656.25 0.0 0.0 0.0126633388412 0.99991981671 0.0126633388412 0.99991981671 0.0 0.0
657.5 0.0 0.0 0.0453632167399 0.99897055941 0.0453632167399 0.99897055941 0.0 0.0
658.75 0.0 0.0 0.0779799818166 0.996954924977 0.0779799818166 0.996954924977 0.0 0.0
660.0 0.0 0.0 0.110479315814 0.993878423539 0.110479315814 0.993878423539 0.0 0.0
661.25 0.0 0.0 0.14282720118 0.989747639857 0.14282720118 0.989747639857 0.0 0.0
662.5 0.0 0.0 0.174989953217 0.984570219067 0.174989953217 0.984570219067 0.0 0.0
663.75 0.0 0.0 0.206934251627 0.978354851526 0.206934251627 0.978354851526 0.0 0.0
665.0 0.0 0.0 0.238627171436 0.971111256784 0.238627171436 0.971111256784 0.0 0.0
666.25 0.0 0.0 0.270036213273 0.962850166704 0.270036213273 0.962850166704 0.0 0.0
667.5 0.0 0.0 0.301129332977 0.953583307751 0.301129332977 0.953583307751 0.0 0.0
668.75 0.0 0.0 0.331874970522 0.943323382484 0.331874970522 0.943323382484 0.0 0.0
670.0 0.0 0.0 0.362242078237 0.932084050263 0.362242078237 0.932084050263 0.0 0.0
671.25 0.0 0.0 0.392200148293 0.919879907205 0.392200148293 0.919879907205 0.0 0.0
672.5 0.0 0.0 0.421719239452 0.906726465411 0.421719239452 0.906726465411 0.0 0.0
673.75 0.0 0.0 0.450770003057 0.892640131488 0.450770003057 0.892640131488 0.0 0.0
675.0 0.0 0.0 0.479323708242 0.8776381844 0.479323708242 0.8776381844 0.0 0.0
676.25 0.0 0.0 0.50735226635 0.861738752656 0.50735226635 0.861738752656 0.0 0.0
677.5 0.0 0.0 0.534828254547 0.844960790888 0.534828254547 0.844960790888 0.0 0.0
678.75 0.0 0.0 0.56172493861 0.827324055823 0.56172493861 0.827324055823 0.0 0.0
680.0 0.0 0.0 0.58801629489 0.808849081686 0.58801629489 0.808849081686 0.0 0.0
681.25 0.0 0.0 0.613677031418 0.789557155062 0.613677031418 0.789557155062 0.0 0.0
682.5 0.0 0.0 0.638682608167 0.769470289241 0.638682608167 0.769470289241 0.0 0.0
683.75 0.0 0.0 0.66300925643 0.748611198078 0.66300925643 0.748611198078 0.0 0.0
685.0 0.0 0.0 0.686633997339 0.727003269386 0.686633997339 0.727003269386 0.0 0.0
686.25 0.0 0.0 0.709534659483 0.704670537906 0.709534659483 0.704670537906 0.0 0.0
687.5 0.0 0.0 0.731689895637 0.681637657867 0.731689895637 0.681637657867 0.0 0.0
688.75 0.0 0.0 0.753079198595 0.657929875172 0.753079198595 0.657929875172 0.0 0.0
690.0 0.0 0.0 0.773682916083 0.633572999236 0.773682916083 0.633572999236 0.0 0.0
691.25 0.0 0.0 0.793482264774 0.608593374504 0.793482264774 0.608593374504 0.0 0.0
692.5 0.0 0.0 0.812459343368 0.583017851677 0.812459343368 0.583017851677 0.0 0.0
693.75 0.0 0.0 0.830597144766 0.55687375868 0.830597144766 0.55687375868 0.0 0.0
695.0 0.0 0.0 0.84787956731 0.530188871383 0.84787956731 0.530188871383 0.0 0.0
696.25 0.0 0.0 0.864291425094 0.50299138413 0.864291425094 0.50299138413 0.0 0.0
697.5 0.0 0.0 0.879818457355 0.475309880075 0.879818457355 0.475309880075 0.0 0.0
698.75 0.0 0.0 0.894447336925 0.44717330138 0.894447336925 0.44717330138 0.0 0.0
700.0 0.0 0.0 0.908165677761 0.418610919277 0.908165677761 0.418610919277 0.0 0.0
701.25 0.0 0.0 0.920962041539 0.38965230404 0.920962041539 0.38965230404 0.0 0.0
702.5 0.0 0.0 0.932825943332 0.360327294896 0.932825943332 0.360327294896 0.0 0.0
703.75 0.0 0.0 0.94374785635 0.330665969878 0.94374785635 0.330665969878 0.0 0.0
705.0 0.0 0.0 0.953719215769 0.300698615682 0.953719215769 0.300698615682 0.0 0.0
706.25 0.0 0.0 0.96273242164 0.270455697523 0.96273242164 0.270455697523 0.0 0.0
707.5 0.0 0.0 0.970780840884 0.239967829038 0.970780840884 0.239967829038 0.0 0.0
708.75 0.0 0.0 0.977858808376 0.209265742257 0.977858808376 0.209265742257 0.0 0.0
710.0 0.0 0.0 0.983961627137 0.178380257656 0.983961627137 0.178380257656 0.0 0.0
711.25 0.0 0.0 0.989085567626 0.147342254337 0.989085567626 0.147342254337 0.0 0.0
712.5 0.0 0.0 0.993227866142 0.116182640348 0.993227866142 0.116182640348 0.0 0.0
713.75 0.0 0.0 0.996386722353 0.0849323231718 0.996386722353 0.0849323231718 0.0 0.0
715.0 0.0 0.0 0.99856129595 0.0536221804059 0.99856129595 0.0536221804059 0.0 0.0
716.25 0.0 0.0 0.999751702446 0.0222830306625 0.999751702446 0.0222830306625 0.0 0.0
717.5 0.0 0.0 0.999959008123 -0.00905439529063 0.999959008123 -0.00905439529063 0.0 0.0
718.75 0.0 0.0 0.999185224131 -0.0403594831252 0.999185224131 -0.0403594831252 0.0 0.0
720.0 0.0 0.0 0.997433299774 -0.0716017632575 0.997433299774 -0.0716017632575 0.0 0.0
721.25 0.0 0.0 0.994707114967 -0.102750938844 0.994707114967 -0.102750938844 0.0 0.0
722.5 0.0 0.0 0.991011471896 -0.13377691344 0.991011471896 -0.13377691344 0.0 0.0
723.75 0.0 0.0 0.986352085885 -0.16464981831 0.986352085885 -0.16464981831 0.0 0.0
725.0 0.0 0.0 0.980735575487 -0.195340039351 0.980735575487 -0.195340039351 0.0 0.0
726.25 0.0 0.0 0.974169451813 -0.225818243627 0.974169451813 -0.225818243627 0.0 0.0
727.5 0.0 0.0 0.966662107111 -0.256055405482 0.966662107111 -0.256055405482 0.0 0.0
728.75 0.0 0.0 0.958222802617 -0.28602283221 0.958222802617 -0.28602283221 0.0 0.0
730.0 0.0 0.0 0.948861655684 -0.31569218928 0.948861655684 -0.31569218928 0.0 0.0
731.25 0.0 0.0 0.938589626217 -0.345035525067 0.938589626217 -0.345035525067 0.0 0.0
732.5 0.0 0.0 0.927418502414 -0.374025295107 0.927418502414 -0.374025295107 0.0 0.0
733.75 0.0 0.0 0.915360885855 -0.402634385823 0.915360885855 -0.402634385823 0.0 0.0
735.0 0.0 0.0 0.902430175927 -0.430836137732 0.902430175927 -0.430836137732 0.0 0.0
736.25 0.0 0.0 0.888640553632 -0.458604368101 0.888640553632 -0.458604368101 0.0 0.0
737.5 0.0 0.0 0.874006964769 -0.485913393039 0.874006964769 -0.485913393039 0.0 0.0
738.75 0.0 0.0 0.858545102536 -0.512738049019 0.858545102536 -0.512738049019 0.0 0.0
740.0 0.0 0.0 0.842271389544 -0.539053713795 0.842271389544 -0.539053713795 0.0 0.0
741.25 0.0 0.0 0.825202959287 -0.564836326721 0.825202959287 -0.564836326721 0.0 0.0
742.5 0.0 0.0 0.80735763707 -0.590062408448 0.80735763707 -0.590062408448 0.0 0.0
743.75 0.0 0.0 0.788753920426 -0.614709079982 0.788753920426 -0.614709079982 0.0 0.0
745.0 0.0 0.0 0.769410959031 -0.6387540811 0.769410959031 -0.6387540811 0.0 0.0
746.25 0.0 0.0 0.749348534157 -0.662175788108 0.749348534157 -0.662175788108 0.0 0.0
747.5 0.0 0.0 0.728587037658 -0.684953230927 0.728587037658 -0.684953230927 0.0 0.0
748.75 0.0 0.0 0.707147450533 -0.707066109501 0.707147450533 -0.707066109501 0.0 0.0
750.0 0.0 0.0 0.685051321077 -0.728494809515 0.685051321077 -0.728494809515 0.0 0.0
