!Created with skrf (http://scikit-rf.org).
# GHz S RI R 50.0 
!freq ReS11 ImS11 ReS21 ImS21 ReS12 ImS12 ReS22 ImS22
330.0 0.0 0.0 -0.631911508478 0.775040544393 -0.631911508478 0.775040544393 0.0 0.0
331.7 0.0 0.0 -0.583593986717 0.812045601347 -0.583593986717 0.812045601347 0.0 0.0
333.4 0.0 0.0 -0.533611333299 0.845729829777 -0.533611333299 0.845729829777 0.0 0.0
335.1 0.0 0.0 -0.48218230273 0.876070902915 -0.48218230273 0.876070902915 0.0 0.0
336.8 0.0 0.0 -0.429520067375 0.903057313642 -0.429520067375 0.903057313642 0.0 0.0
338.5 0.0 0.0 -0.375832105301 0.926687772998 -0.375832105301 0.926687772998 0.0 0.0
340.2 0.0 0.0 -0.321320095883 0.946970641563 -0.321320095883 0.946970641563 0.0 0.0
341.9 0.0 0.0 -0.266179823168 0.963923389974 -0.266179823168 0.963923389974 0.0 0.0
343.6 0.0 0.0 -0.210601087052 0.977572085389 -0.210601087052 0.977572085389 0.0 0.0
345.3 0.0 0.0 -0.154767622232 0.987950901163 -0.154767622232 0.987950901163 0.0 0.0
347.0 0.0 0.0 -0.0988570249741 0.995101647377 -0.0988570249741 0.995101647377 0.0 0.0
348.7 0.0 0.0 -0.0430406876512 0.999073320236 -0.0430406876512 0.999073320236 0.0 0.0
350.4 0.0 0.0 0.0125162589394 0.999921668563 0.0125162589394 0.999921668563 0.0 0.0
352.1 0.0 0.0 0.0676549955263 0.997708775936 0.0676549955263 0.997708775936 0.0 0.0
353.8 0.0 0.0 0.122223056606 0.992502657142 0.122223056606 0.992502657142 0.0 0.0
355.5 0.0 0.0 0.176074365024 0.984376867862 0.176074365024 0.984376867862 0.0 0.0
357.2 0.0 0.0 0.229069258945 0.97341012662 0.229069258945 0.97341012662 0.0 0.0
358.9 0.0 0.0 0.281074511273 0.959685948169 0.281074511273 0.959685948169 0.0 0.0
360.6 0.0 0.0 0.33196334159 0.943292287597 0.33196334159 0.943292287597 0.0 0.0
362.3 0.0 0.0 0.38161542068 0.924321194552 0.38161542068 0.924321194552 0.0 0.0
364.0 0.0 0.0 0.429916867732 0.902868477044 0.429916867732 0.902868477044 0.0 0.0
365.7 0.0 0.0 0.476760240301 0.879033374377 0.476760240301 0.879033374377 0.0 0.0
367.4 0.0 0.0 0.522044517138 0.852918238828 0.522044517138 0.852918238828 0.0 0.0
369.1 0.0 0.0 0.565675073973 0.824628225739 0.565675073973 0.824628225739 0.0 0.0
370.8 0.0 0.0 0.60756365238 0.794270991732 0.60756365238 0.794270991732 0.0 0.0
372.5 0.0 0.0 0.647628321833 0.761956400826 0.647628321833 0.761956400826 0.0 0.0
374.2 0.0 0.0 0.685793435082 0.727796238242 0.685793435082 0.727796238242 0.0 0.0
375.9 0.0 0.0 0.721989576966 0.691903931736 0.721989576966 0.691903931736 0.0 0.0
377.6 0.0 0.0 0.756153506826 0.654394280319 0.756153506826 0.654394280319 0.0 0.0
379.3 0.0 0.0 0.788228094628 0.615383190248 0.788228094628 0.615383190248 0.0 0.0
381.0 0.0 0.0 0.818162250973 0.574987418195 0.818162250973 0.574987418195 0.0 0.0
382.7 0.0 0.0 0.845910851133 0.53332432153 0.845910851133 0.53332432153 0.0 0.0
384.4 0.0 0.0 0.87143465327 0.490511615642 0.87143465327 0.490511615642 0.0 0.0
386.1 0.0 0.0 0.894700211014 0.446667138271 0.894700211014 0.446667138271 0.0 0.0
387.8 0.0 0.0 0.915679780559 0.401908620802 0.915679780559 0.401908620802 0.0 0.0
389.5 0.0 0.0 0.934351222455 0.356353466514 0.934351222455 0.356353466514 0.0 0.0
391.2 0.0 0.0 0.950697898276 0.310118535748 0.950697898276 0.310118535748 0.0 0.0
392.9 0.0 0.0 0.964708562337 0.26331993801 0.964708562337 0.26331993801 0.0 0.0
394.6 0.0 0.0 0.976377248667 0.216072830977 0.976377248667 0.216072830977 0.0 0.0
396.3 0.0 0.0 0.985703153397 0.168491226429 0.985703153397 0.168491226429 0.0 0.0
398.0 0.0 0.0 0.99269051279 0.1206878031 0.99269051279 0.1206878031 0.0 0.0
399.7 0.0 0.0 0.997348477083 0.0727737264476 0.997348477083 0.0727737264476 0.0 0.0
401.4 0.0 0.0 0.999690980355 0.024858475361 0.999690980355 0.024858475361 0.0 0.0
403.1 0.0 0.0 0.999736606621 -0.022950324201 0.999736606621 -0.022950324201 0.0 0.0
404.8 0.0 0.0 0.997508452355 -0.0705470586271 0.997508452355 -0.0705470586271 0.0 0.0
406.5 0.0 0.0 0.993033985641 -0.117828279124 0.993033985641 -0.117828279124 0.0 0.0
408.2 0.0 0.0 0.986344902186 -0.164692847236 0.986344902186 -0.164692847236 0.0 0.0
409.9 0.0 0.0 0.977476978372 -0.21104207342 0.977476978372 -0.21104207342 0.0 0.0
411.6 0.0 0.0 0.966469921581 -0.256779848663 0.966469921581 -0.256779848663 0.0 0.0
413.3 0.0 0.0 0.953367218008 -0.301812769158 0.953367218008 -0.301812769158 0.0 0.0
415.0 0.0 0.0 0.938215978158 -0.346050254051 0.938215978158 -0.346050254051 0.0 0.0
416.7 0.0 0.0 0.921066780256 -0.389404656249 0.921066780256 -0.389404656249 0.0 0.0
418.4 0.0 0.0 0.901973511785 -0.431791366332 0.901973511785 -0.431791366332 0.0 0.0
420.1 0.0 0.0 0.880993209355 -0.47312890957 0.880993209355 -0.47312890957 0.0 0.0
421.8 0.0 0.0 0.858185897138 -0.513339036071 0.858185897138 -0.513339036071 0.0 0.0
423.5 0.0 0.0 0.833614424059 -0.552346804101 0.833614424059 -0.552346804101 0.0 0.0
425.2 0.0 0.0 0.807344299984 -0.590080656592 0.807344299984 -0.590080656592 0.0 0.0
426.9 0.0 0.0 0.779443531087 -0.626472490893 0.779443531087 -0.626472490893 0.0 0.0
428.6 0.0 0.0 0.749982454646 -0.661457721795 0.749982454646 -0.661457721795 0.0 0.0
430.3 0.0 0.0 0.719033573439 -0.694975337884 0.719033573439 -0.694975337884 0.0 0.0
432.0 0.0 0.0 0.686671389981 -0.726967951276 0.686671389981 -0.726967951276 0.0 0.0
433.7 0.0 0.0 0.652972240788 -0.757381840792 0.652972240788 -0.757381840792 0.0 0.0
435.4 0.0 0.0 0.618014130889 -0.786166988637 0.618014130889 -0.786166988637 0.0 0.0
437.1 0.0 0.0 0.581876568776 -0.813277110651 0.581876568776 -0.813277110651 0.0 0.0
438.8 0.0 0.0 0.544640402003 -0.838669680211 0.544640402003 -0.838669680211 0.0 0.0
440.5 0.0 0.0 0.506387653619 -0.862305945858 0.506387653619 -0.862305945858 0.0 0.0
442.2 0.0 0.0 0.467201359646 -0.884150942738 0.467201359646 -0.884150942738 0.0 0.0
443.9 0.0 0.0 0.427165407783 -0.904173497949 0.427165407783 -0.904173497949 0.0 0.0
445.6 0.0 0.0 0.386364377522 -0.922346229884 0.386364377522 -0.922346229884 0.0 0.0
447.3 0.0 0.0 0.344883381874 -0.938645541675 0.344883381874 -0.938645541675 0.0 0.0
449.0 0.0 0.0 0.302807910867 -0.953051608842 0.302807910867 -0.953051608842 0.0 0.0
450.7 0.0 0.0 0.260223677011 -0.965548361255 0.260223677011 -0.965548361255 0.0 0.0
452.4 0.0 0.0 0.217216462895 -0.976123459531 0.217216462895 -0.976123459531 0.0 0.0
454.1 0.0 0.0 0.17387197108 -0.984768265976 0.17387197108 -0.984768265976 0.0 0.0
455.8 0.0 0.0 0.130275676466 -0.991477810201 0.130275676466 -0.991477810201 0.0 0.0
457.5 0.0 0.0 0.0865126812723 -0.99625074955 0.0865126812723 -0.99625074955 0.0 0.0
459.2 0.0 0.0 0.0426675728094 -0.99908932445 0.0426675728094 -0.99908932445 0.0 0.0
460.9 0.0 0.0 -0.00117571582579 -0.999999308846 -0.00117571582579 -0.999999308846 0.0 0.0
462.6 0.0 0.0 -0.044934041979 -0.998989955841 -0.044934041979 -0.998989955841 0.0 0.0
464.3 0.0 0.0 -0.0885251864524 -0.996073938703 -0.0885251864524 -0.996073938703 0.0 0.0
466.0 0.0 0.0 -0.13186798317 -0.991267287372 -0.13186798317 -0.991267287372 0.0 0.0
467.7 0.0 0.0 -0.174882445365 -0.984589320632 -0.174882445365 -0.984589320632 0.0 0.0
469.4 0.0 0.0 -0.217489888169 -0.976062574093 -0.217489888169 -0.976062574093 0.0 0.0
471.1 0.0 0.0 -0.259613047476 -0.965712724147 -0.259613047476 -0.965712724147 0.0 0.0
472.8 0.0 0.0 -0.301176194984 -0.953568508066 -0.301176194984 -0.953568508066 0.0 0.0
474.5 0.0 0.0 -0.342105249294 -0.939661640382 -0.342105249294 -0.939661640382 0.0 0.0
476.2 0.0 0.0 -0.382327882976 -0.924026725749 -0.382327882976 -0.924026725749 0.0 0.0
477.9 0.0 0.0 -0.421773625502 -0.906701168429 -0.421773625502 -0.906701168429 0.0 0.0
479.6 0.0 0.0 -0.46037396196 -0.887725078585 -0.46037396196 -0.887725078585 0.0 0.0
481.3 0.0 0.0 -0.498062427473 -0.867141175553 -0.498062427473 -0.867141175553 0.0 0.0
483.0 0.0 0.0 -0.534774697231 -0.844994688268 -0.534774697231 -0.844994688268 0.0 0.0
484.7 0.0 0.0 -0.57044867209 -0.821333253017 -0.57044867209 -0.821333253017 0.0 0.0
486.4 0.0 0.0 -0.605024559654 -0.796206808697 -0.605024559654 -0.796206808697 0.0 0.0
488.1 0.0 0.0 -0.638444950795 -0.769667489767 -0.638444950795 -0.769667489767 0.0 0.0
489.8 0.0 0.0 -0.670654891555 -0.741769517056 -0.670654891555 -0.741769517056 0.0 0.0
491.5 0.0 0.0 -0.701601950392 -0.71256908662 -0.701601950392 -0.71256908662 0.0 0.0
493.2 0.0 0.0 -0.731236280723 -0.682124256829 -0.731236280723 -0.682124256829 0.0 0.0
494.9 0.0 0.0 -0.759510678745 -0.650494833855 -0.759510678745 -0.650494833855 0.0 0.0
496.6 0.0 0.0 -0.786380636493 -0.617742255757 -0.786380636493 -0.617742255757 0.0 0.0
498.3 0.0 0.0 -0.811804390135 -0.583929475329 -0.811804390135 -0.583929475329 0.0 0.0
500.0 0.0 0.0 -0.835742963472 -0.549120841899 -0.835742963472 -0.549120841899 0.0 0.0
