!Created with skrf (http://scikit-rf.org).
# GHz S RI R 50.0 
!freq ReS11 ImS11 ReS21 ImS21 ReS12 ImS12 ReS22 ImS22
330.0 0.0 0.0 -0.631911508478 0.775040544393 -0.631911508478 0.775040544393 0.0 0.0
330.85 0.0 0.0 -0.607974776039 0.79395634118 -0.607974776039 0.79395634118 0.0 0.0
331.7 0.0 0.0 -0.583593986717 0.812045601347 -0.583593986717 0.812045601347 0.0 0.0
332.55 0.0 0.0 -0.558796999845 0.829304475428 -0.558796999845 0.829304475428 0.0 0.0
333.4 0.0 0.0 -0.533611333299 0.845729829777 -0.533611333299 0.845729829777 0.0 0.0
334.25 0.0 0.0 -0.508064159702 0.861319226318 -0.508064159702 0.861319226318 0.0 0.0
335.1 0.0 0.0 -0.48218230273 0.876070902915 -0.48218230273 0.876070902915 0.0 0.0
335.95 0.0 0.0 -0.45599223355 0.889983754313 -0.45599223355 0.889983754313 0.0 0.0
336.8 0.0 0.0 -0.429520067375 0.903057313642 -0.429520067375 0.903057313642 0.0 0.0
337.65 0.0 0.0 -0.40279156014 0.91529173441 -0.40279156014 0.91529173441 0.0 0.0
338.5 0.0 0.0 -0.375832105301 0.926687772998 -0.375832105301 0.926687772998 0.0 0.0
339.35 0.0 0.0 -0.348666730756 0.937246771594 -0.348666730756 0.937246771594 0.0 0.0
340.2 0.0 0.0 -0.321320095883 0.946970641563 -0.321320095883 0.946970641563 0.0 0.0
341.05 0.0 0.0 -0.293816488703 0.955861847218 -0.293816488703 0.955861847218 0.0 0.0
341.9 0.0 0.0 -0.266179823168 0.963923389974 -0.266179823168 0.963923389974 0.0 0.0
342.75 0.0 0.0 -0.238433636567 0.971158792862 -0.238433636567 0.971158792862 0.0 0.0
343.6 0.0 0.0 -0.210601087052 0.977572085389 -0.210601087052 0.977572085389 0.0 0.0
344.45 0.0 0.0 -0.182704951289 0.983167788719 -0.182704951289 0.983167788719 0.0 0.0
345.3 0.0 0.0 -0.154767622232 0.987950901163 -0.154767622232 0.987950901163 0.0 0.0
346.15 0.0 0.0 -0.126811107017 0.991926883967 -0.126811107017 0.991926883967 0.0 0.0
347.0 0.0 0.0 -0.0988570249741 0.995101647377 -0.0988570249741 0.995101647377 0.0 0.0
347.85 0.0 0.0 -0.0709266057672 0.997481536969 -0.0709266057672 0.997481536969 0.0 0.0
348.7 0.0 0.0 -0.0430406876512 0.999073320236 -0.0430406876512 0.999073320236 0.0 0.0
349.55 0.0 0.0 -0.015219715851 0.999884173417 -0.015219715851 0.999884173417 0.0 0.0
350.4 0.0 0.0 0.0125162589394 0.999921668563 0.0125162589394 0.999921668563 0.0 0.0
351.25 0.0 0.0 0.0401475819363 0.999193760822 0.0401475819363 0.999193760822 0.0 0.0
352.1 0.0 0.0 0.0676549955263 0.997708775936 0.0676549955263 0.997708775936 0.0 0.0
352.95 0.0 0.0 0.0950196404068 0.995475397957 0.0950196404068 0.995475397957 0.0 0.0
353.8 0.0 0.0 0.122223056606 0.992502657142 0.122223056606 0.992502657142 0.0 0.0
354.65 0.0 0.0 0.149247184386 0.988799918059 0.149247184386 0.988799918059 0.0 0.0
355.5 0.0 0.0 0.176074365024 0.984376867862 0.176074365024 0.984376867862 0.0 0.0
356.35 0.0 0.0 0.20268734148 0.979243504754 0.20268734148 0.979243504754 0.0 0.0
357.2 0.0 0.0 0.229069258945 0.97341012662 0.229069258945 0.97341012662 0.0 0.0
358.05 0.0 0.0 0.255203665267 0.966887319823 0.255203665267 0.966887319823 0.0 0.0
358.9 0.0 0.0 0.281074511273 0.959685948169 0.281074511273 0.959685948169 0.0 0.0
359.75 0.0 0.0 0.306666150962 0.951817142026 0.306666150962 0.951817142026 0.0 0.0
360.6 0.0 0.0 0.33196334159 0.943292287597 0.33196334159 0.943292287597 0.0 0.0
361.45 0.0 0.0 0.356951243642 0.934123016344 0.356951243642 0.934123016344 0.0 0.0
362.3 0.0 0.0 0.38161542068 0.924321194552 0.38161542068 0.924321194552 0.0 0.0
363.15 0.0 0.0 0.405941839096 0.913898913048 0.405941839096 0.913898913048 0.0 0.0
364.0 0.0 0.0 0.429916867732 0.902868477044 0.429916867732 0.902868477044 0.0 0.0
364.85 0.0 0.0 0.453527277402 0.891242396126 0.453527277402 0.891242396126 0.0 0.0
365.7 0.0 0.0 0.476760240301 0.879033374377 0.476760240301 0.879033374377 0.0 0.0
366.55 0.0 0.0 0.499603329301 0.866254300625 0.499603329301 0.866254300625 0.0 0.0
367.4 0.0 0.0 0.522044517138 0.852918238828 0.522044517138 0.852918238828 0.0 0.0
368.25 0.0 0.0 0.544072175495 0.839038418579 0.544072175495 0.839038418579 0.0 0.0
369.1 0.0 0.0 0.565675073973 0.824628225739 0.565675073973 0.824628225739 0.0 0.0
369.95 0.0 0.0 0.586842378957 0.809701193194 0.586842378957 0.809701193194 0.0 0.0
370.8 0.0 0.0 0.60756365238 0.794270991732 0.60756365238 0.794270991732 0.0 0.0
371.65 0.0 0.0 0.627828850375 0.778351421041 0.627828850375 0.778351421041 0.0 0.0
372.5 0.0 0.0 0.647628321833 0.761956400826 0.647628321833 0.761956400826 0.0 0.0
373.35 0.0 0.0 0.666952806851 0.745099962041 0.666952806851 0.745099962041 0.0 0.0
374.2 0.0 0.0 0.685793435082 0.727796238242 0.685793435082 0.727796238242 0.0 0.0
375.05 0.0 0.0 0.704141723983 0.71005945705 0.704141723983 0.71005945705 0.0 0.0
375.9 0.0 0.0 0.721989576966 0.691903931736 0.721989576966 0.691903931736 0.0 0.0
376.75 0.0 0.0 0.739329281454 0.673344052907 0.739329281454 0.673344052907 0.0 0.0
377.6 0.0 0.0 0.756153506826 0.654394280319 0.756153506826 0.654394280319 0.0 0.0
378.45 0.0 0.0 0.772455302287 0.635069134794 0.772455302287 0.635069134794 0.0 0.0
379.3 0.0 0.0 0.788228094628 0.615383190248 0.788228094628 0.615383190248 0.0 0.0
380.15 0.0 0.0 0.803465685894 0.595351065834 0.803465685894 0.595351065834 0.0 0.0
381.0 0.0 0.0 0.818162250973 0.574987418195 0.818162250973 0.574987418195 0.0 0.0
381.85 0.0 0.0 0.832312335074 0.554306933822 0.832312335074 0.554306933822 0.0 0.0
382.7 0.0 0.0 0.845910851133 0.53332432153 0.845910851133 0.53332432153 0.0 0.0
383.55 0.0 0.0 0.858953077121 0.512054305034 0.858953077121 0.512054305034 0.0 0.0
384.4 0.0 0.0 0.87143465327 0.490511615642 0.87143465327 0.490511615642 0.0 0.0
385.25 0.0 0.0 0.883351579208 0.468710985055 0.883351579208 0.468710985055 0.0 0.0
386.1 0.0 0.0 0.894700211014 0.446667138271 0.894700211014 0.446667138271 0.0 0.0
386.95 0.0 0.0 0.905477258193 0.424394786602 0.905477258193 0.424394786602 0.0 0.0
387.8 0.0 0.0 0.915679780559 0.401908620802 0.915679780559 0.401908620802 0.0 0.0
388.65 0.0 0.0 0.92530518505 0.379223304294 0.92530518505 0.379223304294 0.0 0.0
389.5 0.0 0.0 0.934351222455 0.356353466514 0.934351222455 0.356353466514 0.0 0.0
390.35 0.0 0.0 0.942815984071 0.33331369636 0.942815984071 0.33331369636 0.0 0.0
391.2 0.0 0.0 0.950697898276 0.310118535748 0.950697898276 0.310118535748 0.0 0.0
392.05 0.0 0.0 0.957995727036 0.286782473279 0.957995727036 0.286782473279 0.0 0.0
392.9 0.0 0.0 0.964708562337 0.26331993801 0.964708562337 0.26331993801 0.0 0.0
393.75 0.0 0.0 0.970835822538 0.239745293335 0.970835822538 0.239745293335 0.0 0.0
394.6 0.0 0.0 0.976377248667 0.216072830977 0.976377248667 0.216072830977 0.0 0.0
395.45 0.0 0.0 0.981332900635 0.192316765082 0.981332900635 0.192316765082 0.0 0.0
396.3 0.0 0.0 0.985703153397 0.168491226429 0.985703153397 0.168491226429 0.0 0.0
397.15 0.0 0.0 0.989488693036 0.144610256739 0.989488693036 0.144610256739 0.0 0.0
398.0 0.0 0.0 0.99269051279 0.1206878031 0.99269051279 0.1206878031 0.0 0.0
398.85 0.0 0.0 0.995309909014 0.0967377124962 0.995309909014 0.0967377124962 0.0 0.0
399.7 0.0 0.0 0.997348477083 0.0727737264476 0.997348477083 0.0727737264476 0.0 0.0
400.55 0.0 0.0 0.998808107234 0.0488094757561 0.998808107234 0.0488094757561 0.0 0.0
401.4 0.0 0.0 0.999690980355 0.024858475361 0.999690980355 0.024858475361 0.0 0.0
402.25 0.0 0.0 0.99999956371 0.000934119303625 0.99999956371 0.000934119303625 0.0 0.0
403.1 0.0 0.0 0.999736606621 -0.022950324201 0.999736606621 -0.022950324201 0.0 0.0
403.95 0.0 0.0 0.998905136087 -0.0467817175828 0.998905136087 -0.0467817175828 0.0 0.0
404.8 0.0 0.0 0.997508452355 -0.0705470586271 0.997508452355 -0.0705470586271 0.0 0.0
405.65 0.0 0.0 0.995550124449 -0.0942334850763 0.995550124449 -0.0942334850763 0.0 0.0
406.5 0.0 0.0 0.993033985641 -0.117828279124 0.993033985641 -0.117828279124 0.0 0.0
407.35 0.0 0.0 0.989964128882 -0.141318871797 0.989964128882 -0.141318871797 0.0 0.0
408.2 0.0 0.0 0.986344902186 -0.164692847236 0.986344902186 -0.164692847236 0.0 0.0
409.05 0.0 0.0 0.982180903974 -0.187937946859 0.982180903974 -0.187937946859 0.0 0.0
409.9 0.0 0.0 0.977476978372 -0.21104207342 0.977476978372 -0.21104207342 0.0 0.0
410.75 0.0 0.0 0.972238210477 -0.233993294964 0.972238210477 -0.233993294964 0.0 0.0
411.6 0.0 0.0 0.966469921581 -0.256779848663 0.966469921581 -0.256779848663 0.0 0.0
412.45 0.0 0.0 0.960177664355 -0.279390144553 0.960177664355 -0.279390144553 0.0 0.0
413.3 0.0 0.0 0.953367218008 -0.301812769158 0.953367218008 -0.301812769158 0.0 0.0
414.15 0.0 0.0 0.946044583405 -0.32403648901 0.946044583405 -0.32403648901 0.0 0.0
415.0 0.0 0.0 0.938215978158 -0.346050254051 0.938215978158 -0.346050254051 0.0 0.0
415.85 0.0 0.0 0.929887831688 -0.367843200941 0.929887831688 -0.367843200941 0.0 0.0
416.7 0.0 0.0 0.921066780256 -0.389404656249 0.921066780256 -0.389404656249 0.0 0.0
417.55 0.0 0.0 0.911759661974 -0.410724139534 0.911759661974 -0.410724139534 0.0 0.0
418.4 0.0 0.0 0.901973511785 -0.431791366332 0.901973511785 -0.431791366332 0.0 0.0
419.25 0.0 0.0 0.891715556422 -0.452596251017 0.891715556422 -0.452596251017 0.0 0.0
420.1 0.0 0.0 0.880993209355 -0.47312890957 0.880993209355 -0.47312890957 0.0 0.0
420.95 0.0 0.0 0.869814065702 -0.493379662235 0.869814065702 -0.493379662235 0.0 0.0
421.8 0.0 0.0 0.858185897138 -0.513339036071 0.858185897138 -0.513339036071 0.0 0.0
422.65 0.0 0.0 0.84611664678 -0.53299776739 0.84611664678 -0.53299776739 0.0 0.0
423.5 0.0 0.0 0.833614424059 -0.552346804101 0.833614424059 -0.552346804101 0.0 0.0
424.35 0.0 0.0 0.820687499584 -0.571377307939 0.820687499584 -0.571377307939 0.0 0.0
425.2 0.0 0.0 0.807344299984 -0.590080656592 0.807344299984 -0.590080656592 0.0 0.0
426.05 0.0 0.0 0.793593402754 -0.608448445725 0.793593402754 -0.608448445725 0.0 0.0
426.9 0.0 0.0 0.779443531087 -0.626472490893 0.779443531087 -0.626472490893 0.0 0.0
427.75 0.0 0.0 0.764903548698 -0.644144829359 0.764903548698 -0.644144829359 0.0 0.0
428.6 0.0 0.0 0.749982454646 -0.661457721795 0.749982454646 -0.661457721795 0.0 0.0
429.45 0.0 0.0 0.734689378157 -0.678403653898 0.734689378157 -0.678403653898 0.0 0.0
430.3 0.0 0.0 0.719033573439 -0.694975337884 0.719033573439 -0.694975337884 0.0 0.0
431.15 0.0 0.0 0.703024414503 -0.71116571389 0.703024414503 -0.71116571389 0.0 0.0
432.0 0.0 0.0 0.686671389981 -0.726967951276 0.686671389981 -0.726967951276 0.0 0.0
432.85 0.0 0.0 0.669984097956 -0.742375449814 0.669984097956 -0.742375449814 0.0 0.0
433.7 0.0 0.0 0.652972240788 -0.757381840792 0.652972240788 -0.757381840792 0.0 0.0
434.55 0.0 0.0 0.635645619953 -0.771980988001 0.635645619953 -0.771980988001 0.0 0.0
435.4 0.0 0.0 0.618014130889 -0.786166988637 0.618014130889 -0.786166988637 0.0 0.0
436.25 0.0 0.0 0.60008775785 -0.799934174091 0.60008775785 -0.799934174091 0.0 0.0
437.1 0.0 0.0 0.581876568776 -0.813277110651 0.581876568776 -0.813277110651 0.0 0.0
437.95 0.0 0.0 0.563390710172 -0.826190600099 0.563390710172 -0.826190600099 0.0 0.0
438.8 0.0 0.0 0.544640402003 -0.838669680211 0.544640402003 -0.838669680211 0.0 0.0
439.65 0.0 0.0 0.525635932606 -0.850709625168 0.525635932606 -0.850709625168 0.0 0.0
440.5 0.0 0.0 0.506387653619 -0.862305945858 0.506387653619 -0.862305945858 0.0 0.0
441.35 0.0 0.0 0.48690597493 -0.873454390096 0.48690597493 -0.873454390096 0.0 0.0
442.2 0.0 0.0 0.467201359646 -0.884150942738 0.467201359646 -0.884150942738 0.0 0.0
443.05 0.0 0.0 0.447284319083 -0.894391825713 0.447284319083 -0.894391825713 0.0 0.0
443.9 0.0 0.0 0.427165407783 -0.904173497949 0.427165407783 -0.904173497949 0.0 0.0
444.75 0.0 0.0 0.40685521855 -0.913492655219 0.40685521855 -0.913492655219 0.0 0.0
445.6 0.0 0.0 0.386364377522 -0.922346229884 0.386364377522 -0.922346229884 0.0 0.0
446.45 0.0 0.0 0.36570353926 -0.930731390559 0.36570353926 -0.930731390559 0.0 0.0
447.3 0.0 0.0 0.344883381874 -0.938645541675 0.344883381874 -0.938645541675 0.0 0.0
448.15 0.0 0.0 0.323914602176 -0.946086322963 0.323914602176 -0.946086322963 0.0 0.0
449.0 0.0 0.0 0.302807910867 -0.953051608842 0.302807910867 -0.953051608842 0.0 0.0
449.85 0.0 0.0 0.281574027755 -0.95953950773 0.281574027755 -0.95953950773 0.0 0.0
450.7 0.0 0.0 0.260223677011 -0.965548361255 0.260223677011 -0.965548361255 0.0 0.0
451.55 0.0 0.0 0.238767582457 -0.971076743398 0.238767582457 -0.971076743398 0.0 0.0
452.4 0.0 0.0 0.217216462895 -0.976123459531 0.217216462895 -0.976123459531 0.0 0.0
453.25 0.0 0.0 0.19558102747 -0.980687545395 0.19558102747 -0.980687545395 0.0 0.0
454.1 0.0 0.0 0.17387197108 -0.984768265976 0.17387197108 -0.984768265976 0.0 0.0
454.95 0.0 0.0 0.152099969819 -0.988365114308 0.152099969819 -0.988365114308 0.0 0.0
455.8 0.0 0.0 0.130275676466 -0.991477810201 0.130275676466 -0.991477810201 0.0 0.0
456.65 0.0 0.0 0.108409716019 -0.99410629888 0.108409716019 -0.99410629888 0.0 0.0
457.5 0.0 0.0 0.0865126812723 -0.99625074955 0.0865126812723 -0.99625074955 0.0 0.0
458.35 0.0 0.0 0.064595128436 -0.997911553888 0.064595128436 -0.997911553888 0.0 0.0
459.2 0.0 0.0 0.0426675728094 -0.99908932445 0.0426675728094 -0.99908932445 0.0 0.0
460.05 0.0 0.0 0.0207404844967 -0.999784893016 0.0207404844967 -0.999784893016 0.0 0.0
460.9 0.0 0.0 -0.00117571582579 -0.999999308846 -0.00117571582579 -0.999999308846 0.0 0.0
461.75 0.0 0.0 -0.0230706610922 -0.999733836877 -0.0230706610922 -0.999733836877 0.0 0.0
462.6 0.0 0.0 -0.044934041979 -0.998989955841 -0.044934041979 -0.998989955841 0.0 0.0
463.45 0.0 0.0 -0.066755610984 -0.997769356315 -0.066755610984 -0.997769356315 0.0 0.0
464.3 0.0 0.0 -0.0885251864524 -0.996073938703 -0.0885251864524 -0.996073938703 0.0 0.0
465.15 0.0 0.0 -0.110232656548 -0.993905811146 -0.110232656548 -0.993905811146 0.0 0.0
466.0 0.0 0.0 -0.13186798317 -0.991267287372 -0.13186798317 -0.991267287372 0.0 0.0
466.85 0.0 0.0 -0.153421205812 -0.988160884475 -0.153421205812 -0.988160884475 0.0 0.0
467.7 0.0 0.0 -0.174882445365 -0.984589320632 -0.174882445365 -0.984589320632 0.0 0.0
468.55 0.0 0.0 -0.196241907864 -0.980555512757 -0.196241907864 -0.980555512757 0.0 0.0
469.4 0.0 0.0 -0.217489888169 -0.976062574093 -0.217489888169 -0.976062574093 0.0 0.0
470.25 0.0 0.0 -0.238616773595 -0.971113811744 -0.238616773595 -0.971113811744 0.0 0.0
471.1 0.0 0.0 -0.259613047476 -0.965712724147 -0.259613047476 -0.965712724147 0.0 0.0
471.95 0.0 0.0 -0.280469292666 -0.959862998491 -0.280469292666 -0.959862998491 0.0 0.0
472.8 0.0 0.0 -0.301176194984 -0.953568508066 -0.301176194984 -0.953568508066 0.0 0.0
473.65 0.0 0.0 -0.321724546588 -0.946833309576 -0.321724546588 -0.946833309576 0.0 0.0
474.5 0.0 0.0 -0.342105249294 -0.939661640382 -0.342105249294 -0.939661640382 0.0 0.0
475.35 0.0 0.0 -0.36230931782 -0.932057915701 -0.36230931782 -0.932057915701 0.0 0.0
476.2 0.0 0.0 -0.382327882976 -0.924026725749 -0.382327882976 -0.924026725749 0.0 0.0
477.05 0.0 0.0 -0.402152194778 -0.91557283284 -0.402152194778 -0.91557283284 0.0 0.0
477.9 0.0 0.0 -0.421773625502 -0.906701168429 -0.421773625502 -0.906701168429 0.0 0.0
478.75 0.0 0.0 -0.441183672669 -0.897416830113 -0.441183672669 -0.897416830113 0.0 0.0
479.6 0.0 0.0 -0.46037396196 -0.887725078585 -0.46037396196 -0.887725078585 0.0 0.0
480.45 0.0 0.0 -0.479336250068 -0.877631334542 -0.479336250068 -0.877631334542 0.0 0.0
481.3 0.0 0.0 -0.498062427473 -0.867141175553 -0.498062427473 -0.867141175553 0.0 0.0
482.15 0.0 0.0 -0.516544521154 -0.856260332881 -0.516544521154 -0.856260332881 0.0 0.0
483.0 0.0 0.0 -0.534774697231 -0.844994688268 -0.534774697231 -0.844994688268 0.0 0.0
483.85 0.0 0.0 -0.552745263531 -0.833350270681 -0.552745263531 -0.833350270681 0.0 0.0
484.7 0.0 0.0 -0.57044867209 -0.821333253017 -0.57044867209 -0.821333253017 0.0 0.0
485.55 0.0 0.0 -0.587877521577 -0.808949948776 -0.587877521577 -0.808949948776 0.0 0.0
486.4 0.0 0.0 -0.605024559654 -0.796206808697 -0.605024559654 -0.796206808697 0.0 0.0
487.25 0.0 0.0 -0.621882685253 -0.783110417363 -0.621882685253 -0.783110417363 0.0 0.0
488.1 0.0 0.0 -0.638444950795 -0.769667489767 -0.638444950795 -0.769667489767 0.0 0.0
488.95 0.0 0.0 -0.654704564319 -0.75588486786 -0.654704564319 -0.75588486786 0.0 0.0
489.8 0.0 0.0 -0.670654891555 -0.741769517056 -0.670654891555 -0.741769517056 0.0 0.0
490.65 0.0 0.0 -0.686289457911 -0.727328522719 -0.686289457911 -0.727328522719 0.0 0.0
491.5 0.0 0.0 -0.701601950392 -0.71256908662 -0.701601950392 -0.71256908662 0.0 0.0
492.35 0.0 0.0 -0.716586219444 -0.69749852337 -0.716586219444 -0.69749852337 0.0 0.0
493.2 0.0 0.0 -0.731236280723 -0.682124256829 -0.731236280723 -0.682124256829 0.0 0.0
494.05 0.0 0.0 -0.745546316794 -0.666453816491 -0.745546316794 -0.666453816491 0.0 0.0
494.9 0.0 0.0 -0.759510678745 -0.650494833855 -0.759510678745 -0.650494833855 0.0 0.0
495.75 0.0 0.0 -0.773123887742 -0.634255038768 -0.773123887742 -0.634255038768 0.0 0.0
496.6 0.0 0.0 -0.786380636493 -0.617742255757 -0.786380636493 -0.617742255757 0.0 0.0
497.45 0.0 0.0 -0.799275790652 -0.600964400341 -0.799275790652 -0.600964400341 0.0 0.0
498.3 0.0 0.0 -0.811804390135 -0.583929475329 -0.811804390135 -0.583929475329 0.0 0.0
499.15 0.0 0.0 -0.82396165037 -0.566645567104 -0.82396165037 -0.566645567104 0.0 0.0
500.0 0.0 0.0 -0.835742963472 -0.549120841899 -0.835742963472 -0.549120841899 0.0 0.0
