!Created with skrf (http://scikit-rf.org).
# GHz S RI R 50.0 
!freq ReS11 ImS11
500.0 -0.05053742 -0.023728
500.625 -0.01608756 -0.156178
501.25 0.0552676 0.07635579
501.875 -0.1644636 -0.212161
502.5 0.1840014 0.08633388
503.125 -0.1752481 -0.1767325
503.75 0.08394364 -0.04907695
504.375 -0.1961755 0.04430821
505.0 -0.08302867 -0.09106641
505.625 -0.08432042 0.2304688
506.25 -0.1180861 -0.09505957
506.875 -0.1025089 0.3690656
507.5 -0.04899871 -0.1875209
508.125 -0.04614164 0.213383
508.75 -0.2720944 -0.06605991
509.375 0.1458549 0.1451899
510.0 -0.3432677 0.1221182
510.625 0.1905949 -0.1176773
511.25 0.01262089 0.1999702
511.875 0.05921182 -0.1854562
512.5 0.1075691 -0.01796321
513.125 -0.1993104 0.07155178
513.75 0.04133513 -0.1642122
514.375 0.06399959 0.2843488
515.0 -0.08424065 -0.3440332
515.625 -0.04421835 0.153891
516.25 -0.2528667 -0.216668
516.875 0.005514405 0.1420313
517.5 -0.3194853 -0.1130765
518.125 0.009584203 0.2614244
518.75 -0.2928821 -0.2029841
519.375 0.08070532 0.2372314
520.0 -0.1842808 0.01258123
520.625 0.1899035 -0.05477315
521.25 -0.1741738 0.1422073
521.875 0.04819505 -0.1176567
522.5 -0.05423981 0.2762737
523.125 0.05899605 -0.2199335
523.75 0.05595283 0.6207716
524.375 0.0549783 -0.1896012
525.0 0.06870572 0.3090784
525.625 0.02146155 -0.1150633
526.25 0.1772054 0.2431443
526.875 -0.0458869 -0.2184545
527.5 0.1522584 0.1310197
528.125 -0.1478607 -0.005704147
528.75 0.2520992 -0.07848423
529.375 -0.1093502 0.0949982
530.0 -0.1563223 -0.2686424
530.625 0.1751924 0.2237271
531.25 -0.3630761 -0.2611155
531.875 0.1920229 0.3603307
532.5 -0.2551483 0.05298854
533.125 0.3490451 0.05277842
533.75 -0.1786762 0.06922008
534.375 0.235209 -0.1267426
535.0 -0.2561904 0.1699111
535.625 0.2211944 0.04491244
536.25 -0.1139344 0.1542842
536.875 0.2507963 -0.1513877
537.5 -0.129899 0.09356823
538.125 0.1764839 -0.2088432
538.75 -0.1259331 0.2018337
539.375 0.2581521 -0.2491465
540.0 -0.3117962 0.1884826
540.625 0.1686409 -0.1836998
541.25 -0.1928166 0.2664423
541.875 0.1820246 -0.1261504
542.5 0.00117512 0.2560441
543.125 0.145862 -0.3089285
543.75 0.03323429 0.1334932
544.375 -0.1429897 -0.2918261
545.0 0.1045755 0.1194351
545.625 -0.2525093 0.05215538
546.25 0.1763191 -0.05867279
546.875 -0.1455747 0.2045903
547.5 0.2299236 -0.1715974
548.125 -0.3559389 0.1157883
548.75 0.1903062 0.03191771
549.375 -0.342023 0.09770648
550.0 0.1501497 0.19361
550.625 -0.2665397 0.05012799
551.25 0.1322631 0.2682162
551.875 -0.1823393 -0.06708083
552.5 0.2456537 0.2315051
553.125 -0.1311813 -0.1003885
553.75 0.2251502 0.0880044
554.375 -0.1664826 -0.04326573
555.0 0.1912737 -0.01127601
555.625 -0.1839087 0.08916519
556.25 0.3179238 0.04615
556.875 -0.1186843 -0.1013723
557.5 0.247772 0.005191293
558.125 -0.1447994 -0.1915035
558.75 0.1225879 0.04730311
559.375 -0.1697693 -0.17398
560.0 0.1023061 0.1144195
560.625 -0.1966417 -0.1211783
561.25 0.1816348 0.1590864
561.875 -0.143451 -0.08564575
562.5 0.1986991 -0.04524759
563.125 -0.2125839 0.02955652
563.75 0.04821889 -0.1214179
564.375 -0.150075 0.2673697
565.0 0.2107004 -0.07419036
565.625 -0.1315043 0.1667421
566.25 0.2573119 -0.05871335
566.875 -0.1565421 0.0004760537
567.5 0.1888506 -0.005679052
568.125 -0.1899818 -0.08864621
568.75 0.1624155 0.06131626
569.375 -0.2046791 -0.1683481
570.0 0.06317564 0.1744489
570.625 -0.1860381 -0.08248357
571.25 0.1503622 0.2043315
571.875 -0.08685818 -0.03936594
572.5 0.2340943 -0.02310687
573.125 -0.2173922 0.01063927
573.75 0.2394603 -0.07829211
574.375 -0.1875106 0.08712732
575.0 0.2088022 -0.1459728
575.625 -0.1870479 0.05451496
576.25 0.1125284 -0.1313789
576.875 -0.1512463 0.1168313
577.5 0.1073071 -0.1638603
578.125 -0.2647931 0.07760863
578.75 0.1411348 -0.009359275
579.375 -0.2164322 0.1280406
580.0 0.2217048 0.04318467
580.625 -0.1306501 0.04362607
581.25 0.1948248 -0.08360206
581.875 -0.1984995 0.05611748
582.5 0.2447051 0.02567131
583.125 -0.2127851 -0.08138371
583.75 0.1999248 0.1095943
584.375 -0.1618931 -0.102326
585.0 0.1754805 0.1541702
585.625 -0.08946202 -0.1007598
586.25 0.2252267 0.1088245
586.875 -0.1240565 -0.2255488
587.5 0.1168222 0.1168124
588.125 -0.1836061 -0.1892448
588.75 0.1149548 0.1874909
589.375 -0.1435153 -0.1433115
590.0 0.1581172 0.1062452
590.625 -0.2175025 -0.08637662
591.25 0.2153159 0.09005276
591.875 -0.1773292 -0.2000757
592.5 0.06664451 0.2089504
593.125 -0.1172849 -0.1884704
593.75 -0.0453622 0.2726328
594.375 0.06041134 -0.1314187
595.0 -0.03274983 0.225956
595.625 0.2170158 -0.1754948
596.25 -0.2184972 0.01293187
596.875 0.2038146 -0.06710738
597.5 -0.2992787 -0.04974382
598.125 0.1706824 0.1022574
598.75 -0.2174734 -0.01612548
599.375 0.2057525 0.09759609
600.0 -0.201619 -0.03739207
600.625 0.2470148 0.2102027
601.25 -0.07866222 -0.1844296
601.875 0.17919 0.1794857
602.5 -0.02866306 -0.2849166
603.125 -0.01779323 0.1747101
603.75 -0.01355826 -0.2094295
604.375 -0.02520183 0.2347121
605.0 0.1538778 -0.2086295
605.625 -0.2040823 0.1094668
606.25 0.2474369 -0.04117694
606.875 -0.2348619 -0.02815963
607.5 0.2340152 0.07248738
608.125 -0.1736224 -0.0853648
608.75 0.2125045 0.02242204
609.375 -0.2395927 -0.1453039
610.0 0.1417874 0.1776353
610.625 -0.1118175 -0.2482955
611.25 0.04272515 0.2200595
611.875 0.02931014 -0.2685897
612.5 -0.1293106 0.1681547
613.125 -0.003722269 -0.1963701
613.75 -0.1739302 0.2501925
614.375 0.1543768 -0.1193049
615.0 -0.2082997 0.1865363
615.625 0.2251639 -0.06017595
616.25 -0.2352305 0.1063118
616.875 0.2622292 0.07197935
617.5 -0.1249909 0.008179735
618.125 0.269826 -0.04027489
618.75 -0.2374344 -0.1017347
619.375 0.1746218 0.1313342
620.0 -0.1599039 -0.1832461
620.625 0.1332953 0.2533613
621.25 0.0008548923 -0.2083155
621.875 0.03257042 0.1924002
622.5 -0.01066127 -0.1964529
623.125 0.03397695 0.2090591
623.75 0.1121414 -0.2603557
624.375 -0.1184313 0.136202
625.0 0.1383643 -0.2087452
625.625 -0.2615611 0.1087826
626.25 0.1853452 -0.04032755
626.875 -0.1681139 0.0453461
627.5 0.2156236 -0.02881389
628.125 -0.2518679 -0.06705514
628.75 0.144458 0.104146
629.375 -0.1901489 -0.1710312
630.0 -0.007508128 0.257806
630.625 0.07022961 -0.179014
631.25 -0.1168825 0.1549652
631.875 0.05927123 -0.1422482
632.5 -0.1486763 0.2033778
633.125 0.1940108 -0.05420072
633.75 -0.1896399 0.1083464
634.375 0.2548051 -0.02083068
635.0 -0.2200449 0.0003284889
635.625 0.2302418 0.05797706
636.25 -0.1189578 -0.01842391
636.875 0.2474708 0.01340917
637.5 -0.1591485 -0.1641675
638.125 0.1535529 0.1068993
638.75 -0.1088349 -0.2102555
639.375 -0.003594014 0.2213737
640.0 0.1951416 -0.1607655
640.625 -0.1200121 0.01301405
641.25 0.1638185 -0.1175821
641.875 -0.2155308 -0.06570605
642.5 0.1608971 0.0399176
643.125 -0.16317 -0.1661109
643.75 0.09379477 0.1737866
644.375 -0.07486343 -0.246193
645.0 -0.06733373 0.1857226
645.625 -0.02877656 -0.1557265
646.25 0.00340173 0.2147137
646.875 0.03116794 -0.2030536
647.5 -0.1475572 0.1894605
648.125 0.1287877 -0.1024465
648.75 -0.2209249 0.1320226
649.375 0.2263205 0.1274417
650.0 -0.07348723 -0.09664377
650.625 0.1294033 0.1242628
651.25 -0.007977587 -0.2180011
651.875 -0.0989192 0.1751188
652.5 0.1331122 -0.1410269
653.125 -0.2421131 0.04992938
653.75 0.198439 0.1058485
654.375 -0.1406281 -0.1544774
655.0 0.0627653 0.1814522
655.625 -0.08243582 -0.1409288
656.25 0.1012627 0.2333216
656.875 0.007265308 -0.2379271
657.5 0.02849155 0.2038568
658.125 0.01508621 -0.2497154
658.75 -0.1163765 0.2462704
659.375 0.1590264 -0.153536
660.0 -0.03810329 0.1342904
660.625 0.05116715 -0.2577193
661.25 -0.1203199 0.1969822
661.875 0.02997675 -0.2034911
662.5 -0.1042231 0.2631865
663.125 0.1856017 -0.1529789
663.75 -0.2715628 0.02923653
664.375 0.1202916 0.1650594
665.0 -0.1156925 -0.1395713
665.625 -0.06863202 0.2669097
666.25 0.1654703 -0.1298339
666.875 -0.2149047 0.1164633
667.5 0.2328304 -0.01437764
668.125 -0.2773112 -0.04555815
668.75 0.1579471 0.2380958
669.375 -0.06393787 -0.0961055
670.0 0.181339 0.172788
670.625 -0.0247287 -0.2323063
671.25 0.07492207 0.1872245
671.875 -0.05149329 -0.2581255
672.5 0.09434523 0.2220195
673.125 -0.0973487 -0.2911585
673.75 -0.0695872 0.2297771
674.375 0.03994159 -0.1682404
675.0 -0.1865457 0.1665593
675.625 0.2425761 -0.01940819
676.25 -0.2007361 -0.09886166
676.875 0.1783199 0.1282519
677.5 -0.143087 -0.2703274
678.125 -0.08424364 0.2742023
678.75 0.1092654 -0.1575748
679.375 -0.09664419 0.1670281
680.0 0.1361809 -0.1760944
680.625 -0.1917256 0.1469283
681.25 0.1798315 -0.1263066
681.875 -0.1795505 0.1630925
682.5 0.2339487 -0.1698624
683.125 -0.3083659 0.005666063
683.75 0.1650108 0.1304625
684.375 -0.1453886 -0.1111965
685.0 -0.07124186 0.3003044
685.625 0.2198516 -0.04248868
686.25 -0.2121726 -0.0003659905
686.875 0.2163782 0.1910601
687.5 -0.07100801 -0.2654856
688.125 -0.09011088 0.2897324
688.75 0.1562283 -0.1138721
689.375 -0.1204918 0.1591868
690.0 0.2676408 -0.0560232
690.625 -0.1989279 -0.01549093
691.25 0.2523038 -0.04988272
691.875 -0.2548063 0.09853183
692.5 0.2186744 -0.2146521
693.125 -0.2000531 0.2634621
693.75 0.06699467 -0.1654257
694.375 0.02079772 0.2698309
695.0 0.234138 -0.1789075
695.625 -0.2039015 -0.05089956
696.25 0.03426521 0.2479057
696.875 0.2267005 -0.1179301
697.5 -0.2592167 -0.1733476
698.125 -0.02472415 0.2638136
698.75 0.0164217 -0.1426671
699.375 -0.04741601 0.2160018
700.0 0.1325541 -0.1581706
700.625 -0.20396 0.09270064
701.25 0.1818744 9.99133e-05
701.875 -0.2296762 0.09007069
702.5 0.3558438 -0.01294133
703.125 -0.2297474 -0.02571008
703.75 0.08219952 -0.1495523
704.375 -0.1016754 0.2139947
705.0 0.1560449 -0.1848589
705.625 -0.2597302 -0.01457244
706.25 0.1125973 0.1095983
706.875 0.001882154 -0.2864298
707.5 -0.3206252 0.02396281
708.125 0.1012266 0.157175
708.75 -0.05591609 -0.1430295
709.375 -0.03651998 0.1901786
710.0 0.1789006 -0.1175381
710.625 -0.1605746 -0.02256673
711.25 0.1867133 0.05073636
711.875 -0.1894614 -0.1706888
712.5 0.1426966 0.2134985
713.125 -0.1545561 -0.1573249
713.75 0.1398313 0.00145168
714.375 -0.1881953 0.1394533
715.0 0.2325821 -0.1005077
715.625 -0.1837578 0.04296785
716.25 0.2496848 0.04827236
716.875 -0.1180306 -0.2786982
717.5 -0.2175438 0.2088045
718.125 0.1804106 -0.005219805
718.75 -0.1469265 0.05895346
719.375 0.2173413 0.1034538
720.0 -0.001716496 -0.2003649
720.625 -0.1785618 0.08651872
721.25 0.1421557 0.1676007
721.875 0.1375603 -0.2385755
722.5 -0.3152192 -0.009192221
723.125 0.1817503 0.03414847
723.75 -0.07628271 0.1890998
724.375 0.03940482 -0.3110723
725.0 0.01212998 0.2237153
725.625 -0.08123159 -0.1691823
726.25 0.0803958 0.2358854
726.875 0.1742053 -0.2562444
727.5 -0.2876388 -0.0204856
728.125 0.1662876 0.1092909
728.75 -0.1776868 -0.1731043
729.375 0.1420012 0.1559523
730.0 -0.2003038 -0.1635187
730.625 0.01057278 0.263174
731.25 0.0632268 -0.1377653
731.875 -0.2989819 0.05776209
732.5 -0.01437373 0.339043
733.125 0.1180973 -0.0488243
733.75 -0.09565862 0.1924521
734.375 0.2451713 -0.1498364
735.0 -0.1794323 0.1957289
735.625 0.1512645 -0.1897446
736.25 -0.08349442 0.2152582
736.875 0.2364911 -0.204714
737.5 -0.2441527 -0.08778134
738.125 0.1319632 0.1163145
738.75 -0.06383571 -0.2004654
739.375 0.04584236 0.1825544
740.0 -0.06468373 -0.2867896
740.625 -0.05483264 0.2485893
741.25 -0.004864521 -0.1584992
741.875 -0.2761423 0.1351851
742.5 -0.04722019 0.3158744
743.125 0.1124529 0.06465755
743.75 -0.154947 0.04728784
744.375 0.2291261 0.192458
745.0 -0.04128984 -0.1917703
745.625 0.149819 0.06849977
746.25 -0.2056392 -0.1345175
746.875 0.1401083 0.1310844
747.5 -0.103288 -0.1246317
748.125 0.03979473 0.1205517
748.75 -0.04926073 -0.01693728
749.375 0.1491325 -0.08859656
750.0 -0.1532515 0.1595636
