!Created with skrf (http://scikit-rf.org).
# GHz S RI R 50.0 
!freq ReS11 ImS11
500.0 -0.987908666366 0.0639978197671
500.625 -0.987873097236 0.064140236301
501.25 -0.987837641618 0.0642839971811
501.875 -0.987802290099 0.0644290898578
502.5 -0.987767033354 0.0645755016932
503.125 -0.987731862147 0.064723219962
503.75 -0.987696767329 0.0648722318529
504.375 -0.987661739844 0.0650225244694
505.0 -0.987626770729 0.0651740848307
505.625 -0.987591851114 0.0653268998731
506.25 -0.987556972222 0.0654809564508
506.875 -0.987522125375 0.0656362413371
507.5 -0.98748730199 0.0657927412258
508.125 -0.987452493583 0.0659504427319
508.75 -0.987417691772 0.0661093323932
509.375 -0.987382888272 0.0662693966712
510.0 -0.987348074903 0.0664306219526
510.625 -0.987313243588 0.0665929945502
511.25 -0.987278386354 0.0667565007045
511.875 -0.987243495333 0.066921126585
512.5 -0.987208562765 0.0670868582912
513.125 -0.987173580997 0.0672536818542
513.75 -0.987138542486 0.0674215832379
514.375 -0.987103439799 0.0675905483406
515.0 -0.987068265614 0.0677605629963
515.625 -0.987033012722 0.0679316129759
516.25 -0.986997674026 0.0681036839888
516.875 -0.986962242544 0.0682767616847
517.5 -0.986926711412 0.0684508316546
518.125 -0.986891073881 0.0686258794323
518.75 -0.986855323317 0.0688018904965
519.375 -0.986819453209 0.0689788502717
520.0 -0.986783457164 0.06915674413
520.625 -0.986747328908 0.069335557393
521.25 -0.986711062291 0.0695152753328
521.875 -0.986674651285 0.0696958831742
522.5 -0.986638089984 0.0698773660959
523.125 -0.986601372607 0.0700597092324
523.75 -0.986564493499 0.070242897676
524.375 -0.986527447131 0.0704269164776
525.0 -0.986490228101 0.0706117506495
525.625 -0.986452831133 0.0707973851663
526.25 -0.986415251082 0.0709838049671
526.875 -0.98637748293 0.0711709949571
527.5 -0.986339521792 0.0713589400097
528.125 -0.986301362912 0.0715476249678
528.75 -0.986263001665 0.071737034646
529.375 -0.98622443356 0.0719271538325
530.0 -0.986185654238 0.0721179672906
530.625 -0.986146659475 0.0723094597611
531.25 -0.986107445179 0.0725016159636
531.875 -0.986068007394 0.072694420599
532.5 -0.986028342301 0.072887858351
533.125 -0.985988446216 0.0730819138882
533.75 -0.985948315589 0.0732765718661
534.375 -0.985907947012 0.0734718169292
535.0 -0.985867337212 0.0736676337127
535.625 -0.985826483053 0.0738640068445
536.25 -0.98578538154 0.0740609209475
536.875 -0.985744029816 0.0742583606416
537.5 -0.985702425162 0.0744563105456
538.125 -0.985660565003 0.074654755279
538.75 -0.985618446898 0.0748536794648
539.375 -0.985576068552 0.0750530677308
540.0 -0.985533427807 0.0752529047124
540.625 -0.985490522648 0.0754531750539
541.25 -0.985447351201 0.0756538634115
541.875 -0.985403911733 0.0758549544548
542.5 -0.985360202651 0.076056432869
543.125 -0.985316222508 0.0762582833575
543.75 -0.985271969994 0.0764604906434
544.375 -0.985227443945 0.0766630394723
545.0 -0.985182643337 0.076865914614
545.625 -0.985137567289 0.077069100865
546.25 -0.98509221506 0.0772725830503
546.875 -0.985046586054 0.0774763460261
547.5 -0.985000679816 0.0776803746816
548.125 -0.984954496033 0.0778846539415
548.75 -0.984908034532 0.078089168768
549.375 -0.984861295285 0.0782939041631
550.0 -0.984814278403 0.0784988451708
550.625 -0.984766984141 0.0787039768795
551.25 -0.984719412891 0.0789092844239
551.875 -0.98467156519 0.0791147529876
552.5 -0.984623441714 0.0793203678051
553.125 -0.984575043279 0.0795261141642
553.75 -0.98452637084 0.0797319774081
554.375 -0.984477425495 0.0799379429379
555.0 -0.984428208476 0.0801439962143
555.625 -0.984378721159 0.0803501227608
556.25 -0.984328965054 0.0805563081648
556.875 -0.984278941812 0.080762538081
557.5 -0.984228653218 0.0809687982326
558.125 -0.984178101195 0.0811750744144
558.75 -0.984127287804 0.0813813524946
559.375 -0.984076215237 0.081587618417
560.0 -0.984024885825 0.0817938582037
560.625 -0.98397330203 0.0820000579568
561.25 -0.983921466449 0.082206203861
561.875 -0.98386938181 0.0824122821857
562.5 -0.983817050974 0.0826182792872
563.125 -0.983764476933 0.0828241816111
563.75 -0.983711662807 0.0830299756943
564.375 -0.983658611846 0.0832356481675
565.0 -0.983605327431 0.0834411857569
565.625 -0.983551813066 0.0836465752872
566.25 -0.983498072383 0.0838518036829
566.875 -0.98344410914 0.0840568579713
567.5 -0.983389927219 0.0842617252841
568.125 -0.983335530623 0.0844663928599
568.75 -0.983280923479 0.0846708480461
569.375 -0.983226110035 0.0848750783013
570.0 -0.983171094658 0.0850790711975
570.625 -0.983115881833 0.0852828144218
571.25 -0.983060476162 0.0854862957791
571.875 -0.983004882365 0.0856895031937
572.5 -0.982949105273 0.0858924247118
573.125 -0.982893149835 0.0860950485033
573.75 -0.982837021108 0.0862973628641
574.375 -0.982780724261 0.0864993562178
575.0 -0.982724264572 0.0867010171184
575.625 -0.982667647426 0.0869023342515
576.25 -0.982610878316 0.0871032964371
576.875 -0.982553962838 0.0873038926311
577.5 -0.982496906691 0.0875041119274
578.125 -0.982439715677 0.0877039435601
578.75 -0.982382395696 0.0879033769052
579.375 -0.982324952748 0.0881024014824
580.0 -0.982267392928 0.0883010069576
580.625 -0.982209722427 0.0884991831442
581.25 -0.982151947529 0.0886969200053
581.875 -0.98209407461 0.0888942076555
582.5 -0.982036110134 0.0890910363627
583.125 -0.981978060653 0.0892873965501
583.75 -0.981919932808 0.0894832787976
584.375 -0.98186173332 0.0896786738443
585.0 -0.981803468995 0.0898735725894
585.625 -0.981745146718 0.0900679660947
586.25 -0.981686773454 0.0902618455859
586.875 -0.981628356242 0.0904552024543
587.5 -0.981569902197 0.0906480282589
588.125 -0.981511418507 0.0908403147274
588.75 -0.981452912427 0.0910320537585
589.375 -0.981394391285 0.0912232374229
590.0 -0.981335862471 0.0914138579655
590.625 -0.981277333442 0.0916039078065
591.25 -0.981218811714 0.091793379543
591.875 -0.981160304865 0.0919822659508
592.5 -0.98110182053 0.0921705599856
593.125 -0.981043366399 0.0923582547846
593.75 -0.980984950213 0.0925453436678
594.375 -0.980926579767 0.0927318201397
595.0 -0.980868262904 0.0929176778904
595.625 -0.980810007509 0.0931029107969
596.25 -0.980751821517 0.093287512925
596.875 -0.980693712899 0.0934714785297
597.5 -0.980635689668 0.0936548020572
598.125 -0.980577759872 0.0938374781461
598.75 -0.980519931594 0.0940195016281
599.375 -0.98046221295 0.0942008675298
600.0 -0.980404612082 0.0943815710732
600.625 -0.98034713716 0.0945616076777
601.25 -0.980289796381 0.0947409729604
601.875 -0.98023259796 0.0949196627376
602.5 -0.980175550132 0.0950976730257
603.125 -0.980118661151 0.0952750000422
603.75 -0.980061939281 0.0954516402068
604.375 -0.9800053928 0.0956275901423
605.0 -0.979949029995 0.0958028466753
605.625 -0.979892859157 0.0959774068375
606.25 -0.979836888583 0.0961512678662
606.875 -0.979781126568 0.0963244272053
607.5 -0.979725581409 0.0964968825061
608.125 -0.979670261393 0.0966686316278
608.75 -0.979615174805 0.0968396726388
609.375 -0.979560329917 0.0970100038166
610.0 -0.979505734988 0.0971796236491
610.625 -0.979451398263 0.0973485308351
611.25 -0.979397327967 0.0975167242846
611.875 -0.979343532304 0.0976842031196
612.5 -0.979290019457 0.0978509666748
613.125 -0.979236797577 0.0980170144975
613.75 -0.979183874789 0.0981823463488
614.375 -0.979131259186 0.0983469622035
615.0 -0.979078958822 0.0985108622506
615.625 -0.979026981717 0.0986740468937
616.25 -0.978975335846 0.0988365167514
616.875 -0.978924029144 0.0989982726575
617.5 -0.978873069496 0.099159315661
618.125 -0.978822464738 0.099319647027
618.75 -0.978772222655 0.099479268236
619.375 -0.978722350973 0.0996381809847
620.0 -0.978672857362 0.0997963871858
620.625 -0.978623749429 0.0999538889682
621.25 -0.978575034719 0.100110688677
621.875 -0.978526720706 0.100266788873
622.5 -0.978478814797 0.100422192334
623.125 -0.978431324322 0.100576902053
623.75 -0.978384256537 0.10073092124
624.375 -0.978337618618 0.10088425332
625.0 -0.978291417659 0.101036901932
625.625 -0.978245660669 0.101188870934
626.25 -0.978200354566 0.101340164396
626.875 -0.978155506179 0.101490786605
627.5 -0.978111122242 0.101640742061
628.125 -0.978067209391 0.101790035477
628.75 -0.978023774163 0.101938671783
629.375 -0.977980822989 0.10208665612
630.0 -0.977938362195 0.102233993841
630.625 -0.977896397997 0.102380690514
631.25 -0.9778549365 0.102526751915
631.875 -0.977813983689 0.102672184034
632.5 -0.977773545435 0.10281699307
633.125 -0.977733627485 0.102961185431
633.75 -0.977694235461 0.103104767737
634.375 -0.977655374858 0.103247746812
635.0 -0.977617051038 0.103390129691
635.625 -0.977579269232 0.103531923612
636.25 -0.977542034532 0.103673136023
636.875 -0.97750535189 0.103813774573
637.5 -0.977469226117 0.103953847117
638.125 -0.977433661874 0.104093361711
638.75 -0.977398663676 0.104232326615
639.375 -0.977364235885 0.104370750288
640.0 -0.977330382707 0.104508641389
640.625 -0.97729710819 0.104646008775
641.25 -0.977264416221 0.104782861501
641.875 -0.977232310522 0.104919208817
642.5 -0.977200794649 0.10505506017
643.125 -0.977169871985 0.105190425197
643.75 -0.977139545742 0.105325313729
644.375 -0.977109818955 0.105459735787
645.0 -0.977080694479 0.105593701582
645.625 -0.977052174987 0.105727221511
646.25 -0.977024262966 0.105860306159
646.875 -0.976996960715 0.105992966295
647.5 -0.976970270343 0.10612521287
648.125 -0.976944193762 0.106257057018
648.75 -0.976918732688 0.106388510051
649.375 -0.976893888638 0.106519583459
650.0 -0.976869662923 0.106650288909
650.625 -0.97684605665 0.106780638243
651.25 -0.976823070717 0.106910643473
651.875 -0.976800705809 0.107040316785
652.5 -0.976778962397 0.107169670529
653.125 -0.976757840733 0.107298717225
653.75 -0.97673734085 0.107427469558
654.375 -0.976717462556 0.107555940374
655.0 -0.976698205434 0.107684142678
655.625 -0.976679568837 0.107812089636
656.25 -0.976661551885 0.10793979457
656.875 -0.976644153466 0.108067270953
657.5 -0.976627372227 0.108194532411
658.125 -0.976611206577 0.108321592722
658.75 -0.976595654681 0.108448465806
659.375 -0.976580714458 0.108575165729
660.0 -0.976566383578 0.108701706702
660.625 -0.976552659459 0.108828103071
661.25 -0.976539539267 0.108954369322
661.875 -0.976527019909 0.109080520073
662.5 -0.976515098034 0.109206570075
663.125 -0.976503770027 0.109332534208
663.75 -0.976493032011 0.109458427477
664.375 -0.976482879838 0.109584265012
665.0 -0.976473309094 0.109710062063
665.625 -0.976464315089 0.109835833998
666.25 -0.976455892859 0.109961596298
666.875 -0.976448037164 0.110087364559
667.5 -0.976440742481 0.110213154483
668.125 -0.976434003006 0.11033898188
668.75 -0.97642781265 0.110464862662
669.375 -0.976422165036 0.110590812839
670.0 -0.976417053497 0.110716848521
670.625 -0.976412471073 0.110842985909
671.25 -0.976408410511 0.110969241292
671.875 -0.97640486426 0.11109563105
672.5 -0.976401824468 0.111222171644
673.125 -0.976399282984 0.111348879613
673.75 -0.976397231353 0.111475771575
674.375 -0.976395660811 0.111602864221
675.0 -0.976394562288 0.111730174309
675.625 -0.976393926404 0.111857718665
676.25 -0.976393743465 0.111985514176
676.875 -0.976394003463 0.112113577788
677.5 -0.976394696072 0.1122419265
678.125 -0.97639581065 0.112370577364
678.75 -0.976397336231 0.112499547478
679.375 -0.976399261529 0.112628853983
680.0 -0.976401574932 0.112758514059
680.625 -0.976404264501 0.112888544923
681.25 -0.976407317969 0.11301896382
681.875 -0.976410722739 0.113149788026
682.5 -0.976414465883 0.113281034837
683.125 -0.976418534138 0.113412721569
683.75 -0.976422913906 0.113544865552
684.375 -0.976427591251 0.113677484129
685.0 -0.9764325519 0.113810594644
685.625 -0.97643778124 0.113944214449
686.25 -0.976443264314 0.114078360888
686.875 -0.976448985824 0.114213051301
687.5 -0.976454930127 0.114348303016
688.125 -0.976461081233 0.114484133344
688.75 -0.976467422806 0.114620559575
689.375 -0.976473938161 0.114757598975
690.0 -0.976480610263 0.11489526878
690.625 -0.976487421727 0.115033586191
691.25 -0.976494354813 0.115172568368
691.875 -0.976501391433 0.115312232428
692.5 -0.97650851314 0.11545259544
693.125 -0.976515701135 0.115593674417
693.75 -0.976522936262 0.115735486314
694.375 -0.976530199007 0.115878048022
695.0 -0.9765374695 0.116021376363
695.625 -0.976544727513 0.116165488084
696.25 -0.976551952458 0.116310399855
696.875 -0.976559123387 0.11645612826
697.5 -0.976566218994 0.116602689792
698.125 -0.976573217611 0.116750100854
698.75 -0.976580097209 0.116898377743
699.375 -0.976586835398 0.117047536655
700.0 -0.976593409427 0.117197593673
700.625 -0.976599796182 0.117348564765
701.25 -0.976605972188 0.117500465778
701.875 -0.97661191361 0.117653312428
702.5 -0.976617596248 0.117807120304
703.125 -0.976622995541 0.117961904853
703.75 -0.976628086568 0.118117681379
704.375 -0.976632844046 0.118274465037
705.0 -0.97663724233 0.118432270826
705.625 -0.976641255416 0.118591113586
706.25 -0.976644856939 0.11875100799
706.875 -0.976648020175 0.118911968537
707.5 -0.97665071804 0.119074009549
708.125 -0.976652923093 0.119237145165
708.75 -0.976654607537 0.119401389333
709.375 -0.976655743215 0.119566755805
710.0 -0.976656301619 0.119733258134
710.625 -0.976656253884 0.119900909662
711.25 -0.976655570793 0.120069723519
711.875 -0.976654222776 0.120239712617
712.5 -0.976652179915 0.12041088964
713.125 -0.97664941194 0.120583267041
713.75 -0.976645888237 0.120756857038
714.375 -0.976641577843 0.120931671601
715.0 -0.976636449454 0.121107722453
715.625 -0.976630471423 0.12128502106
716.25 -0.976623611761 0.121463578627
716.875 -0.976615838143 0.12164340609
717.5 -0.976607117909 0.12182451411
718.125 -0.976597418063 0.122006913069
718.75 -0.976586705279 0.12219061306
719.375 -0.976574945902 0.122375623885
720.0 -0.976562105951 0.122561955046
720.625 -0.976548151122 0.12274961574
721.25 -0.97653304679 0.122938614851
721.875 -0.976516758012 0.123128960948
722.5 -0.97649924953 0.123320662273
723.125 -0.976480485777 0.123513726739
723.75 -0.976460430874 0.123708161924
724.375 -0.976439048639 0.12390397506
725.0 -0.976416302591 0.124101173033
725.625 -0.976392155946 0.124299762372
726.25 -0.976366571631 0.124499749247
726.875 -0.97633951228 0.124701139459
727.5 -0.976310940242 0.124903938436
728.125 -0.976280817584 0.125108151225
728.75 -0.976249106094 0.125313782489
729.375 -0.976215767286 0.125520836499
730.0 -0.976180762409 0.125729317127
730.625 -0.976144052443 0.125939227842
731.25 -0.97610559811 0.126150571702
731.875 -0.976065359877 0.12636335135
732.5 -0.976023297962 0.126577569006
733.125 -0.975979372336 0.126793226464
733.75 -0.975933542733 0.127010325084
734.375 -0.975885768651 0.127228865784
735.0 -0.975836009359 0.127448849039
735.625 -0.975784223905 0.127670274874
736.25 -0.975730371116 0.127893142854
736.875 -0.97567440961 0.128117452085
737.5 -0.975616297799 0.128343201204
738.125 -0.975555993896 0.128570388373
738.75 -0.975493455919 0.128799011278
739.375 -0.975428641701 0.129029067119
740.0 -0.975361508893 0.129260552607
740.625 -0.975292014974 0.129493463958
741.25 -0.975220117255 0.129727796887
741.875 -0.975145772886 0.129963546607
742.5 -0.975068938867 0.130200707818
743.125 -0.974989572049 0.130439274706
743.75 -0.974907629146 0.130679240937
744.375 -0.974823066741 0.130920599652
745.0 -0.974735841291 0.131163343464
745.625 -0.974645909141 0.131407464451
746.25 -0.974553226525 0.131652954153
746.875 -0.974457749577 0.131899803566
747.5 -0.974359434339 0.132148003141
748.125 -0.974258236768 0.132397542776
748.75 -0.974154112748 0.132648411816
749.375 -0.974047018092 0.132900599043
750.0 -0.973936908556 0.13315409268
