!Created with skrf (http://scikit-rf.org).
# GHz S RI R 50.0 
!freq ReS11 ImS11
500.0 -0.468919041369 0.855880861958
500.625 -0.467804495952 0.856427173643
501.25 -0.466687356218 0.856973348928
501.875 -0.46556763588 0.857519356942
502.5 -0.46444534889 0.858065166982
503.125 -0.463320509443 0.858610748514
503.75 -0.462193131974 0.859156071178
504.375 -0.461063231153 0.859701104789
505.0 -0.459930821887 0.860245819339
505.625 -0.458795919315 0.860790185007
506.25 -0.45765853881 0.861334172154
506.875 -0.456518695972 0.861877751331
507.5 -0.45537640663 0.862420893279
508.125 -0.454231686838 0.862963568936
508.75 -0.453084552871 0.863505749436
509.375 -0.451935021229 0.864047406115
510.0 -0.450783108626 0.864588510513
510.625 -0.449628831995 0.865129034376
511.25 -0.448472208482 0.86566894966
511.875 -0.447313255445 0.866208228535
512.5 -0.44615199045 0.866746843384
513.125 -0.44498843127 0.867284766811
513.75 -0.443822595881 0.867821971641
514.375 -0.442654502462 0.868358430922
515.0 -0.441484169387 0.86889411793
515.625 -0.440311615229 0.86942900617
516.25 -0.439136858753 0.869963069381
516.875 -0.437959918913 0.870496281536
517.5 -0.436780814852 0.871028616845
518.125 -0.435599565897 0.87156004976
518.75 -0.434416191555 0.872090554975
519.375 -0.433230711512 0.87262010743
520.0 -0.432043145631 0.873148682313
520.625 -0.430853513946 0.873676255062
521.25 -0.429661836658 0.87420280137
521.875 -0.428468134139 0.874728297181
522.5 -0.427272426919 0.875252718702
523.125 -0.42607473569 0.875776042395
523.75 -0.424875081299 0.876298244989
524.375 -0.423673484747 0.876819303473
525.0 -0.422469967185 0.877339195105
525.625 -0.421264549907 0.877857897413
526.25 -0.420057254353 0.878375388192
526.875 -0.4188481021 0.878891645514
527.5 -0.417637114863 0.879406647723
528.125 -0.416424314486 0.879920373441
528.75 -0.415209722945 0.880432801568
529.375 -0.413993362338 0.880943911286
530.0 -0.412775254885 0.881453682058
530.625 -0.411555422924 0.881962093631
531.25 -0.410333888907 0.882469126039
531.875 -0.409110675396 0.882974759603
532.5 -0.407885805059 0.883478974932
533.125 -0.406659300666 0.883981752926
533.75 -0.405431185087 0.884483074778
534.375 -0.404201481286 0.884982921973
535.0 -0.402970212317 0.885481276294
535.625 -0.401737401324 0.885978119815
536.25 -0.40050307153 0.886473434913
536.875 -0.39926724624 0.886967204259
537.5 -0.398029948833 0.887459410828
538.125 -0.396791202761 0.887950037892
538.75 -0.39555103154 0.888439069029
539.375 -0.39430945875 0.888926488116
540.0 -0.393066508033 0.889412279338
540.625 -0.391822203081 0.889896427181
541.25 -0.390576567641 0.89037891644
541.875 -0.389329625505 0.890859732214
542.5 -0.388081400506 0.891338859911
543.125 -0.386831916519 0.891816285245
543.75 -0.385581197449 0.89229199424
544.375 -0.384329267236 0.892765973227
545.0 -0.38307614984 0.893238208849
545.625 -0.381821869249 0.893708688057
546.25 -0.380566449464 0.894177398112
546.875 -0.3793099145 0.894644326586
547.5 -0.378052288382 0.895109461363
548.125 -0.376793595141 0.895572790635
548.75 -0.375533858806 0.896034302908
549.375 -0.374273103404 0.896493986997
550.0 -0.373011352953 0.896951832028
550.625 -0.37174863146 0.89740782744
551.25 -0.370484962915 0.897861962982
551.875 -0.369220371288 0.898314228711
552.5 -0.367954880523 0.898764614998
553.125 -0.366688514536 0.899213112523
553.75 -0.365421297209 0.899659712276
554.375 -0.364153252387 0.900104405555
555.0 -0.362884403872 0.900547183968
555.625 -0.361614775421 0.900988039431
556.25 -0.360344390739 0.901426964169
556.875 -0.35907327348 0.901863950711
557.5 -0.357801447236 0.902298991897
558.125 -0.356528935537 0.902732080867
558.75 -0.355255761845 0.903163211071
559.375 -0.353981949553 0.903592376259
560.0 -0.352707521975 0.904019570486
560.625 -0.351432502349 0.904444788108
561.25 -0.350156913827 0.904868023781
561.875 -0.348880779472 0.905289272464
562.5 -0.347604122258 0.905708529409
563.125 -0.346326965059 0.906125790171
563.75 -0.345049330652 0.906541050597
564.375 -0.343771241708 0.90695430683
565.0 -0.342492720789 0.907365555306
565.625 -0.341213790346 0.907774792753
566.25 -0.339934472712 0.908182016188
566.875 -0.338654790099 0.908587222919
567.5 -0.337374764598 0.908990410537
568.125 -0.336094418166 0.909391576922
568.75 -0.334813772633 0.909790720236
569.375 -0.333532849689 0.910187838923
570.0 -0.332251670885 0.910582931705
570.625 -0.330970257627 0.910975997586
571.25 -0.329688631175 0.911367035841
571.875 -0.328406812636 0.911756046023
572.5 -0.327124822961 0.912143027955
573.125 -0.325842682941 0.91252798173
573.75 -0.324560413207 0.912910907709
574.375 -0.323278034221 0.913291806518
575.0 -0.321995566273 0.913670679046
575.625 -0.320713029483 0.914047526443
576.25 -0.31943044379 0.914422350119
576.875 -0.318147828953 0.914795151737
577.5 -0.316865204545 0.915165933217
578.125 -0.315582589954 0.915534696727
578.75 -0.314300004371 0.915901444685
579.375 -0.313017466796 0.916266179755
580.0 -0.311734996029 0.916628904845
580.625 -0.310452610668 0.916989623101
581.25 -0.309170329104 0.917348337911
581.875 -0.307888169521 0.917705052894
582.5 -0.306606149891 0.918059771904
583.125 -0.30532428797 0.918412499023
583.75 -0.304042601296 0.918763238561
584.375 -0.302761107186 0.91911199505
585.0 -0.30147982273 0.919458773243
585.625 -0.300198764793 0.919803578111
586.25 -0.298917950008 0.92014641484
586.875 -0.297637394774 0.920487288827
587.5 -0.296357115252 0.920826205676
588.125 -0.295077127366 0.921163171198
588.75 -0.293797446796 0.921498191406
589.375 -0.292518088975 0.921831272509
590.0 -0.291239069091 0.922162420914
590.625 -0.289960402077 0.92249164322
591.25 -0.288682102616 0.922818946214
591.875 -0.287404185133 0.923144336866
592.5 -0.286126663794 0.923467822333
593.125 -0.284849552502 0.923789409945
593.75 -0.283572864899 0.924109107211
594.375 -0.282296614357 0.92442692181
595.0 -0.281020813981 0.924742861588
595.625 -0.279745476604 0.925056934557
596.25 -0.278470614785 0.925369148888
596.875 -0.277196240806 0.92567951291
597.5 -0.275922366671 0.925988035106
598.125 -0.274649004104 0.926294724106
598.75 -0.273376164545 0.926599588691
599.375 -0.27210385915 0.926902637778
600.0 -0.270832098787 0.927203880428
600.625 -0.269560894034 0.927503325833
601.25 -0.268290255179 0.927800983318
601.875 -0.267020192218 0.928096862334
602.5 -0.265750714848 0.928390972455
603.125 -0.264481832473 0.928683323374
603.75 -0.263213554195 0.928973924902
604.375 -0.261945888819 0.929262786958
605.0 -0.260678844843 0.929549919569
605.625 -0.259412430466 0.929835332868
606.25 -0.258146653578 0.930119037085
606.875 -0.256881521762 0.930401042546
607.5 -0.255617042293 0.930681359669
608.125 -0.254353222136 0.930959998959
608.75 -0.253090067944 0.931236971005
609.375 -0.251827586057 0.931512286473
610.0 -0.250565782498 0.931785956106
610.625 -0.249304662979 0.932057990719
611.25 -0.24804423289 0.932328401191
611.875 -0.246784497306 0.932597198466
612.5 -0.245525460981 0.932864393546
613.125 -0.244267128349 0.933129997487
613.75 -0.243009503522 0.933394021395
614.375 -0.241752590289 0.933656476421
615.0 -0.240496392116 0.933917373761
615.625 -0.239240912143 0.934176724646
616.25 -0.237986153186 0.93443454034
616.875 -0.236732117734 0.934690832136
617.5 -0.235478807949 0.934945611354
618.125 -0.234226225663 0.935198889331
618.75 -0.232974372383 0.935450677423
619.375 -0.231723249283 0.935700986997
620.0 -0.23047285721 0.935949829426
620.625 -0.229223196678 0.936197216089
621.25 -0.227974267871 0.93644315836
621.875 -0.226726070641 0.936687667612
622.5 -0.22547860451 0.936930755205
623.125 -0.224231868665 0.937172432486
623.75 -0.22298586196 0.937412710783
624.375 -0.221740582919 0.937651601401
625.0 -0.22049602973 0.937889115619
625.625 -0.219252200248 0.938125264682
626.25 -0.218009091996 0.938360059801
626.875 -0.21676670216 0.938593512145
627.5 -0.215525027594 0.93882563284
628.125 -0.21428406482 0.939056432961
628.75 -0.213043810021 0.93928592353
629.375 -0.211804259052 0.93951411551
630.0 -0.21056540743 0.939741019803
630.625 -0.20932725034 0.939966647242
631.25 -0.208089782633 0.940191008591
631.875 -0.206852998828 0.940414114536
632.5 -0.20561689311 0.940635975683
633.125 -0.204381459331 0.940856602555
633.75 -0.203146691013 0.941076005583
634.375 -0.201912581343 0.941294195107
635.0 -0.20067912318 0.941511181367
635.625 -0.199446309049 0.941726974501
636.25 -0.198214131148 0.941941584541
636.875 -0.196982581341 0.942155021405
637.5 -0.195751651168 0.942367294896
638.125 -0.194521331836 0.942578414699
638.75 -0.193291614228 0.942788390371
639.375 -0.192062488896 0.942997231339
640.0 -0.190833946071 0.9432049469
640.625 -0.189605975654 0.943411546209
641.25 -0.188378567225 0.943617038278
641.875 -0.187151710038 0.943821431975
642.5 -0.185925393026 0.944024736013
643.125 -0.184699604801 0.944226958949
643.75 -0.183474333653 0.94442810918
644.375 -0.182249567555 0.944628194938
645.0 -0.181025294159 0.944827224283
645.625 -0.179801500804 0.945025205103
646.25 -0.178578174509 0.945222145107
646.875 -0.177355301982 0.945418051818
647.5 -0.176132869617 0.945612932575
648.125 -0.174910863497 0.94580679452
648.75 -0.173689269392 0.945999644603
649.375 -0.172468072767 0.946191489569
650.0 -0.171247258778 0.946382335959
650.625 -0.170026812276 0.946572190102
651.25 -0.168806717807 0.946761058114
651.875 -0.167586959616 0.94694894589
652.5 -0.166367521646 0.947135859101
653.125 -0.165148387542 0.947321803192
653.75 -0.163929540653 0.947506783371
654.375 -0.162710964029 0.947690804612
655.0 -0.161492640431 0.947873871645
655.625 -0.160274552327 0.948055988954
656.25 -0.159056681893 0.948237160773
656.875 -0.157839011022 0.948417391079
657.5 -0.156621521318 0.948596683588
658.125 -0.155404194105 0.948775041755
658.75 -0.154187010422 0.948952468762
659.375 -0.152969951034 0.94912896752
660.0 -0.151752996424 0.94930454066
660.625 -0.150536126806 0.949479190532
661.25 -0.14931932212 0.949652919196
661.875 -0.148102562035 0.949825728425
662.5 -0.146885825955 0.949997619691
663.125 -0.145669093019 0.950168594167
663.75 -0.144452342106 0.950338652723
664.375 -0.143235551832 0.950507795914
665.0 -0.14201870056 0.950676023986
665.625 -0.140801766397 0.950843336863
666.25 -0.139584727201 0.951009734146
666.875 -0.138367560581 0.95117521511
667.5 -0.137150243899 0.951339778694
668.125 -0.135932754278 0.951503423504
668.75 -0.1347150686 0.951666147803
669.375 -0.13349716351 0.951827949507
670.0 -0.132279015421 0.951988826182
670.625 -0.131060600517 0.95214877504
671.25 -0.129841894754 0.952307792933
671.875 -0.128622873866 0.952465876349
672.5 -0.127403513364 0.952623021408
673.125 -0.126183788547 0.952779223855
673.75 -0.124963674498 0.952934479061
674.375 -0.12374314609 0.953088782011
675.0 -0.122522177993 0.953242127307
675.625 -0.121300744672 0.953394509159
676.25 -0.120078820395 0.953545921379
676.875 -0.118856379235 0.953696357384
677.5 -0.117633395073 0.953845810183
678.125 -0.116409841606 0.953994272377
678.75 -0.115185692346 0.954141736154
679.375 -0.113960920626 0.954288193285
680.0 -0.112735499604 0.954433635116
680.625 -0.111509402271 0.954578052571
681.25 -0.110282601447 0.954721436138
681.875 -0.109055069793 0.954863775873
682.5 -0.107826779812 0.955005061392
683.125 -0.106597703854 0.955145281864
683.75 -0.105367814122 0.955284426013
684.375 -0.104137082672 0.955422482106
685.0 -0.102905481424 0.955559437957
685.625 -0.101672982162 0.955695280914
686.25 -0.100439556543 0.955829997862
686.875 -0.0992051760967 0.955963575215
687.5 -0.0979698122351 0.956095998911
688.125 -0.0967334362555 0.956227254409
688.75 -0.0954960193463 0.956357326688
689.375 -0.0942575325921 0.956486200234
690.0 -0.0930179469791 0.956613859046
690.625 -0.0917772334002 0.956740286625
691.25 -0.0905353626612 0.956865465971
691.875 -0.0892923054859 0.95698937958
692.5 -0.0880480325219 0.957112009442
693.125 -0.0868025143465 0.957233337031
693.75 -0.0855557214723 0.957353343305
694.375 -0.0843076243538 0.957472008702
695.0 -0.0830581933925 0.957589313134
695.625 -0.0818073989439 0.957705235985
696.25 -0.0805552113235 0.957819756105
696.875 -0.0793016008128 0.957932851809
697.5 -0.0780465376661 0.958044500868
698.125 -0.076789992117 0.95815468051
698.75 -0.0755319343848 0.958263367414
699.375 -0.0742723346814 0.958370537708
700.0 -0.0730111632183 0.958476166961
700.625 -0.071748390213 0.958580230184
701.25 -0.0704839858965 0.958682701823
701.875 -0.0692179205203 0.958783555757
702.5 -0.0679501643636 0.958882765294
703.125 -0.0666806877405 0.958980303168
703.75 -0.0654094610077 0.959076141533
704.375 -0.064136454572 0.959170251963
705.0 -0.0628616388976 0.959262605446
705.625 -0.0615849845143 0.959353172381
706.25 -0.0603064620253 0.959441922578
706.875 -0.0590260421149 0.959528825249
707.5 -0.0577436955567 0.959613849009
708.125 -0.0564593932221 0.95969696187
708.75 -0.0551731060883 0.959778131243
709.375 -0.0538848052466 0.959857323927
710.0 -0.0525944619114 0.959934506115
710.625 -0.0513020474283 0.960009643384
711.25 -0.0500075332835 0.960082700695
711.875 -0.048710891112 0.960153642392
712.5 -0.047412092707 0.960222432195
713.125 -0.0461111100291 0.960289033202
713.75 -0.0448079152152 0.960353407885
714.375 -0.0435024805881 0.960415518085
715.0 -0.0421947786658 0.960475325014
715.625 -0.0408847821711 0.960532789249
716.25 -0.0395724640417 0.960587870732
716.875 -0.0382577974392 0.960640528769
717.5 -0.03694075576 0.960690722025
718.125 -0.0356213126445 0.960738408524
718.75 -0.0342994419878 0.960783545649
719.375 -0.0329751179501 0.960826090137
720.0 -0.0316483149666 0.960865998078
720.625 -0.0303190077585 0.960903224918
721.25 -0.0289871713433 0.960937725452
721.875 -0.027652781046 0.960969453826
722.5 -0.0263158125097 0.960998363536
723.125 -0.0249762417066 0.961024407427
723.75 -0.0236340449494 0.96104753769
724.375 -0.0222891989024 0.961067705867
725.0 -0.0209416805927 0.961084862842
725.625 -0.019591467422 0.961098958851
726.25 -0.0182385371782 0.961109943472
726.875 -0.0168828680468 0.961117765631
727.5 -0.015524438623 0.961122373603
728.125 -0.0141632279239 0.961123715007
728.75 -0.0127992154 0.961121736812
729.375 -0.0114323809478 0.961116385332
730.0 -0.010062704922 0.961107606232
730.625 -0.00869016814794 0.961095344529
731.25 -0.00731475193405 0.961079544589
731.875 -0.00593643808455 0.96106015013
732.5 -0.00455520891216 0.961037104226
733.125 -0.00317104725092 0.961010349306
733.75 -0.0017839364692 0.960979827158
734.375 -0.00039386048267 0.960945478929
735.0 0.000999196232485 0.960907245129
735.625 0.00239524862637 0.960865065633
736.25 0.003794311062 0.960818879685
736.875 0.00519639730191 0.960768625898
737.5 0.00660152049458 0.96071424226
738.125 0.00800969316088 0.960655666138
738.75 0.00942092718031 0.960592834278
739.375 0.0108352337773 0.960525682814
740.0 0.0122526235072 0.960454147267
740.625 0.0136731062426 0.960378162552
741.25 0.015096691159 0.960297662986
741.875 0.016523386721 0.960212582285
742.5 0.0179532006681 0.960122853577
743.125 0.0193861400003 0.960028409403
743.75 0.020822210964 0.959929181723
744.375 0.0222614190378 0.959825101925
745.0 0.0237037689177 0.959716100828
745.625 0.0251492645033 0.95960210869
746.25 0.0265979088828 0.959483055214
746.875 0.0280497043185 0.959358869558
747.5 0.0295046522329 0.959229480337
748.125 0.0309627531934 0.959094815637
748.75 0.0324240068979 0.958954803018
749.375 0.0338884121608 0.958809369526
750.0 0.0353559668973 0.958658441697
