!Created with skrf (http://scikit-rf.org).
# GHz S RI R 50.0 
!freq ReS11 ImS11
500.0 0.456374891621 0.842226452644
500.625 0.458412886591 0.84126491669
501.25 0.460451133279 0.840289255042
501.875 0.462489533307 0.8392995344
502.5 0.46452798926 0.838295823171
503.125 0.466566404705 0.837278191453
503.75 0.468604684208 0.836246711021
504.375 0.470642733353 0.835201455309
505.0 0.472680458757 0.83414249939
505.625 0.474717768086 0.833069919963
506.25 0.476754570074 0.831983795333
506.875 0.478790774532 0.830884205391
507.5 0.480826292368 0.829771231599
508.125 0.482861035594 0.828644956965
508.75 0.484894917342 0.82750546603
509.375 0.486927851876 0.826352844843
510.0 0.488959754601 0.825187180942
510.625 0.490990542074 0.824008563336
511.25 0.493020132013 0.822817082481
511.875 0.495048443306 0.821612830259
512.5 0.497075396017 0.820395899958
513.125 0.499100911394 0.819166386247
513.75 0.501124911876 0.817924385158
514.375 0.503147321095 0.816669994058
515.0 0.505168063883 0.815403311633
515.625 0.507187066276 0.814124437858
516.25 0.509204255513 0.812833473976
516.875 0.511219560042 0.811530522476
517.5 0.513232909516 0.810215687067
518.125 0.515244234797 0.808889072653
518.75 0.517253467956 0.80755078531
519.375 0.519260542265 0.806200932259
520.0 0.521265392202 0.804839621844
520.625 0.523267953442 0.803466963503
521.25 0.525268162855 0.802083067743
521.875 0.527265958502 0.800688046116
522.5 0.529261279624 0.799282011191
523.125 0.531254066643 0.797865076527
523.75 0.533244261146 0.796437356645
524.375 0.535231805882 0.794998967005
525.0 0.53721664475 0.793550023975
525.625 0.539198722789 0.792090644803
526.25 0.541177986169 0.790620947591
526.875 0.543154382175 0.789141051266
527.5 0.545127859198 0.787651075551
528.125 0.547098366719 0.786151140935
528.75 0.549065855298 0.784641368647
529.375 0.551030276553 0.783121880622
530.0 0.552991583151 0.781592799475
530.625 0.554949728786 0.78005424847
531.25 0.556904668165 0.778506351489
531.875 0.558856356987 0.776949232999
532.5 0.56080475193 0.775383018026
533.125 0.562749810622 0.773807832119
533.75 0.564691491631 0.77222380132
534.375 0.566629754437 0.770631052133
535.0 0.568564559415 0.769029711489
535.625 0.570495867811 0.767419906715
536.25 0.572423641719 0.7658017655
536.875 0.574347844062 0.764175415862
537.5 0.576268438562 0.762540986112
538.125 0.578185389721 0.760898604824
538.75 0.580098662795 0.759248400795
539.375 0.58200822377 0.757590503014
540.0 0.583914039335 0.755925040624
540.625 0.585816076856 0.754252142886
541.25 0.587714304353 0.752571939145
541.875 0.589608690472 0.75088455879
542.5 0.591499204457 0.749190131219
543.125 0.593385816126 0.7474887858
543.75 0.595268495843 0.745780651834
544.375 0.597147214491 0.744065858514
545.0 0.599021943443 0.742344534891
545.625 0.600892654538 0.740616809828
546.25 0.602759320054 0.738882811964
546.875 0.604621912677 0.737142669676
547.5 0.606480405477 0.73539651103
548.125 0.608334771879 0.733644463751
548.75 0.610184985641 0.731886655169
549.375 0.612031020821 0.730123212189
550.0 0.613872851755 0.72835426124
550.625 0.615710453029 0.726579928234
551.25 0.617543799456 0.724800338527
551.875 0.619372866048 0.723015616867
552.5 0.621197627993 0.72122588736
553.125 0.623018060628 0.719431273417
553.75 0.624834139421 0.717631897716
554.375 0.626645839944 0.715827882149
555.0 0.628453137848 0.714019347787
555.625 0.63025600885 0.712206414825
556.25 0.632054428703 0.710389202541
556.875 0.633848373181 0.708567829249
557.5 0.63563781806 0.706742412254
558.125 0.637422739097 0.704913067802
558.75 0.639203112015 0.703079911038
559.375 0.640978912485 0.701243055956
560.0 0.642750116113 0.699402615354
560.625 0.644516698425 0.697558700787
561.25 0.646278634851 0.69571142252
561.875 0.64803590072 0.693860889483
562.5 0.649788471242 0.692007209222
563.125 0.651536321503 0.690150487856
563.75 0.653279426457 0.688290830028
564.375 0.655017760916 0.686428338863
565.0 0.656751299548 0.684563115918
565.625 0.658480016872 0.682695261142
566.25 0.660203887257 0.680824872828
566.875 0.661922884915 0.67895204757
567.5 0.663636983908 0.677076880221
568.125 0.665346158149 0.675199463851
568.75 0.667050381399 0.673319889699
569.375 0.668749627279 0.671438247142
570.0 0.670443869273 0.669554623646
570.625 0.672133080736 0.667669104729
571.25 0.673817234902 0.665781773927
571.875 0.675496304897 0.663892712751
572.5 0.67717026375 0.662002000652
573.125 0.678839084405 0.660109714989
573.75 0.68050273974 0.658215930994
574.375 0.682161202579 0.656320721736
575.0 0.683814445713 0.654424158097
575.625 0.685462441918 0.652526308736
576.25 0.687105163974 0.650627240064
576.875 0.68874258469 0.64872701622
577.5 0.690374676926 0.64682569904
578.125 0.692001413616 0.64492334804
578.75 0.693622767793 0.643020020394
579.375 0.69523871262 0.641115770912
580.0 0.696849221411 0.639210652023
580.625 0.698454267664 0.637304713764
581.25 0.70005382509 0.63539800376
581.875 0.701647867642 0.633490567219
582.5 0.703236369547 0.631582446919
583.125 0.704819305337 0.6296736832
583.75 0.706396649882 0.627764313962
584.375 0.707968378423 0.625854374661
585.0 0.709534466604 0.62394389831
585.625 0.711094890508 0.622032915476
586.25 0.71264962669 0.62012145429
586.875 0.714198652208 0.618209540448
587.5 0.715741944665 0.616297197223
588.125 0.717279482234 0.614384445477
588.75 0.718811243699 0.612471303668
589.375 0.720337208488 0.610557787871
590.0 0.721857356701 0.608643911795
590.625 0.723371669153 0.606729686801
591.25 0.724880127397 0.604815121925
591.875 0.726382713766 0.602900223901
592.5 0.727879411394 0.600984997191
593.125 0.729370204258 0.599069444009
593.75 0.7308550772 0.597153564358
594.375 0.73233401596 0.595237356054
595.0 0.733807007202 0.593320814769
595.625 0.735274038544 0.591403934064
596.25 0.736735098581 0.589486705425
596.875 0.738190176913 0.587569118311
597.5 0.739639264164 0.585651160186
598.125 0.741082352009 0.583732816572
598.75 0.742519433191 0.581814071087
599.375 0.743950501541 0.579894905499
600.0 0.745375551996 0.577975299767
600.625 0.746794580616 0.576055232095
601.25 0.748207584595 0.574134678982
601.875 0.749614562277 0.572213615274
602.5 0.751015513164 0.570292014216
603.125 0.752410437927 0.568369847507
603.75 0.753799338413 0.566447085355
604.375 0.755182217648 0.564523696533
605.0 0.756559079844 0.562599648433
605.625 0.757929930398 0.560674907126
606.25 0.759294775891 0.558749437418
606.875 0.760653624091 0.556823202906
607.5 0.762006483941 0.554896166041
608.125 0.76335336556 0.55296828818
608.75 0.764694280231 0.551039529649
609.375 0.766029240395 0.549109849799
610.0 0.767358259634 0.547179207067
610.625 0.768681352662 0.545247559028
611.25 0.769998535311 0.543314862461
611.875 0.77130982451 0.541381073401
612.5 0.772615238266 0.539446147194
613.125 0.773914795651 0.537510038561
613.75 0.775208516771 0.535572701646
614.375 0.776496422748 0.533634090077
615.0 0.777778535695 0.531694157015
615.625 0.779054878686 0.529752855213
616.25 0.780325475731 0.527810137064
616.875 0.781590351747 0.525865954654
617.5 0.782849532526 0.523920259816
618.125 0.784103044703 0.521973004174
618.75 0.785350915723 0.520024139196
619.375 0.786593173811 0.518073616237
620.0 0.787829847932 0.516121386592
620.625 0.789060967754 0.514167401532
621.25 0.790286563618 0.512211612354
621.875 0.791506666494 0.510253970421
622.5 0.792721307945 0.508294427204
623.125 0.793930520086 0.50633293432
623.75 0.795134335548 0.50436944357
624.375 0.796332787435 0.502403906978
625.0 0.797525909281 0.500436276826
625.625 0.798713735016 0.498466505684
626.25 0.799896298916 0.496494546449
626.875 0.801073635569 0.494520352371
627.5 0.802245779828 0.492543877085
628.125 0.80341276677 0.49056507464
628.75 0.804574631657 0.488583899524
629.375 0.805731409891 0.486600306691
630.0 0.806883136971 0.484614251583
630.625 0.808029848455 0.482625690159
631.25 0.809171579916 0.480634578908
631.875 0.810308366903 0.478640874875
632.5 0.811440244895 0.47664453568
633.125 0.812567249266 0.474645519533
633.75 0.813689415241 0.472643785252
634.375 0.81480677786 0.470639292278
635.0 0.815919371933 0.468632000689
635.625 0.817027232006 0.466621871215
636.25 0.818130392323 0.464608865248
636.875 0.819228886784 0.462592944852
637.5 0.820322748913 0.460574072775
638.125 0.821412011819 0.458552212457
638.75 0.822496708162 0.45652732804
639.375 0.823576870116 0.454499384371
640.0 0.824652529339 0.452468347011
640.625 0.825723716935 0.450434182241
641.25 0.826790463427 0.448396857063
641.875 0.82785279872 0.446356339211
642.5 0.828910752074 0.444312597145
643.125 0.829964352074 0.442265600061
643.75 0.8310136266 0.440215317889
644.375 0.832058602799 0.438161721296
645.0 0.833099307058 0.436104781685
645.625 0.834135764981 0.434044471199
646.25 0.835168001358 0.431980762717
646.875 0.836196040144 0.429913629853
647.5 0.837219904438 0.427843046959
648.125 0.838239616454 0.425768989121
648.75 0.839255197507 0.423691432157
649.375 0.840266667987 0.421610352616
650.0 0.841274047342 0.419525727776
650.625 0.842277354057 0.41743753564
651.25 0.84327660564 0.415345754935
651.875 0.8442718186 0.413250365108
652.5 0.845263008436 0.411151346325
653.125 0.84625018962 0.409048679464
653.75 0.847233375579 0.406942346117
654.375 0.848212578689 0.404832328582
655.0 0.849187810257 0.402718609863
655.625 0.850159080511 0.400601173666
656.25 0.851126398589 0.398480004394
656.875 0.852089772531 0.396355087147
657.5 0.853049209265 0.394226407715
658.125 0.854004714605 0.39209395258
658.75 0.854956293238 0.389957708907
659.375 0.855903948723 0.387817664546
660.0 0.856847683477 0.385673808027
660.625 0.857787498778 0.383526128559
661.25 0.858723394755 0.381374616023
661.875 0.859655370387 0.379219260977
662.5 0.860583423499 0.377060054649
663.125 0.861507550759 0.374896988935
663.75 0.862427747677 0.372730056398
664.375 0.863344008606 0.37055925027
665.0 0.864256326735 0.368384564445
665.625 0.865164694099 0.36620599348
666.25 0.86606910157 0.364023532597
666.875 0.866969538866 0.361837177679
667.5 0.867865994549 0.359646925271
668.125 0.868758456029 0.357452772578
668.75 0.869646909566 0.355254717469
669.375 0.870531340276 0.353052758474
670.0 0.871411732131 0.350846894785
670.625 0.872288067971 0.348637126259
671.25 0.873160329501 0.346423453418
671.875 0.874028497303 0.344205877447
672.5 0.874892550838 0.341984400202
673.125 0.875752468457 0.339759024207
673.75 0.876608227404 0.337529752658
674.375 0.877459803825 0.335296589424
675.0 0.878307172779 0.333059539053
675.625 0.879150308243 0.330818606769
676.25 0.87998918312 0.328573798481
676.875 0.880823769254 0.326325120783
677.5 0.881654037432 0.324072580958
678.125 0.882479957402 0.321816186983
678.75 0.883301497878 0.319555947532
679.375 0.88411862655 0.317291871977
680.0 0.884931310102 0.315023970401
680.625 0.885739514217 0.312752253592
681.25 0.88654320359 0.310476733056
681.875 0.887342341944 0.308197421017
682.5 0.888136892038 0.305914330426
683.125 0.888926815682 0.303627474962
683.75 0.889712073751 0.30133686904
684.375 0.890492626197 0.299042527818
685.0 0.891268432062 0.296744467198
685.625 0.892039449496 0.294442703838
686.25 0.892805635765 0.292137255154
686.875 0.893566947273 0.289828139324
687.5 0.894323339571 0.287515375302
688.125 0.895074767376 0.285198982815
688.75 0.895821184583 0.282878982378
689.375 0.896562544284 0.280555395295
690.0 0.897298798783 0.278228243666
690.625 0.898029899611 0.275897550395
691.25 0.898755797542 0.273563339199
691.875 0.899476442614 0.271225634609
692.5 0.900191784141 0.268884461982
693.125 0.900901770731 0.266539847507
693.75 0.901606350307 0.264191818207
694.375 0.90230547012 0.261840401954
695.0 0.90299907677 0.259485627469
695.625 0.903687116222 0.257127524333
696.25 0.904369533826 0.254766122989
696.875 0.905046274334 0.252401454757
697.5 0.905717281919 0.250033551832
698.125 0.906382500194 0.247662447296
698.75 0.907041872233 0.245288175124
699.375 0.907695340586 0.242910770188
700.0 0.908342847301 0.240530268268
700.625 0.908984333945 0.238146706053
701.25 0.909619741622 0.235760121153
701.875 0.910249010991 0.233370552102
702.5 0.91087208229 0.230978038362
703.125 0.911488895354 0.228582620336
703.75 0.912099389637 0.226184339366
704.375 0.91270350423 0.223783237745
705.0 0.913301177884 0.221379358719
705.625 0.913892349032 0.218972746493
706.25 0.914476955806 0.216563446237
706.875 0.915054936063 0.214151504091
707.5 0.915626227401 0.211736967171
708.125 0.916190767187 0.209319883571
708.75 0.916748492573 0.206900302369
709.375 0.91729934052 0.204478273634
710.0 0.917843247821 0.202053848424
710.625 0.918380151122 0.199627078797
711.25 0.918909986943 0.197198017807
711.875 0.9194326917 0.194766719516
712.5 0.919948201732 0.19233323899
713.125 0.920456453318 0.189897632305
713.75 0.9209573827 0.187459956551
714.375 0.921450926111 0.185020269829
715.0 0.92193701979 0.182578631261
715.625 0.922415600011 0.180135100986
716.25 0.922886603103 0.177689740161
716.875 0.923349965473 0.175242610968
717.5 0.92380562363 0.172793776609
718.125 0.924253514208 0.170343301309
718.75 0.924693573987 0.167891250316
719.375 0.925125739919 0.165437689903
720.0 0.92554994915 0.162982687364
720.625 0.925966139042 0.160526311015
721.25 0.926374247198 0.158068630194
721.875 0.926774211485 0.155609715257
722.5 0.927165970056 0.15314963758
723.125 0.927549461375 0.150688469554
723.75 0.92792462424 0.148226284581
724.375 0.928291397803 0.145763157078
725.0 0.928649721599 0.143299162464
725.625 0.928999535564 0.140834377165
726.25 0.929340780061 0.138368878606
726.875 0.929673395903 0.135902745208
727.5 0.929997324375 0.13343605638
728.125 0.930312507257 0.13096889252
728.75 0.930618886847 0.128501335002
729.375 0.930916405988 0.126033466178
730.0 0.931205008082 0.123565369364
730.625 0.931484637123 0.121097128839
731.25 0.93175523771 0.118628829836
731.875 0.932016755078 0.116160558533
732.5 0.932269135114 0.113692402048
733.125 0.932512324383 0.111224448426
733.75 0.932746270149 0.108756786637
734.375 0.932970920396 0.106289506559
735.0 0.933186223852 0.103822698977
735.625 0.933392130008 0.101356455565
736.25 0.933588589143 0.09889086888
736.875 0.933775552343 0.0964260323501
737.5 0.933952971522 0.0939620402637
738.125 0.934120799443 0.0914989877573
738.75 0.934278989741 0.0890369708039
739.375 0.934427496941 0.0865760862
740.0 0.934566276481 0.0841164315533
740.625 0.934695284727 0.081658105269
741.25 0.934814478999 0.0792012065364
741.875 0.934923817588 0.0767458353147
742.5 0.935023259774 0.0742920923184
743.125 0.935112765847 0.0718400790028
743.75 0.935192297125 0.0693898975484
744.375 0.935261815973 0.0669416508453
745.0 0.935321285821 0.0644954424773
745.625 0.935370671182 0.0620513767054
746.25 0.935409937669 0.0596095584511
746.875 0.935439052013 0.057170093279
747.5 0.935457982082 0.0547330873796
748.125 0.935466696891 0.0522986475512
748.75 0.935465166626 0.0498668811817
749.375 0.935453362656 0.0474378962301
750.0 0.93543125755 0.0450118012075
