!Created with skrf (http://scikit-rf.org).
# GHz S RI R 50.0 
!freq ReS11 ImS11
500.0 0.938161211805 0.0641142567382
500.625 0.938313470586 0.0604387799775
501.25 0.938448452693 0.0567670108103
501.875 0.938566313062 0.0530989861026
502.5 0.938667204312 0.0494347398973
503.125 0.938751276711 0.0457743035036
503.75 0.938818678152 0.0421177055868
504.375 0.938869554126 0.0384649722562
505.0 0.938904047701 0.0348161271536
505.625 0.938922299501 0.0311711915408
506.25 0.938924447687 0.0275301843858
506.875 0.938910627941 0.0238931224491
507.5 0.938880973457 0.0202600203687
508.125 0.93883561492 0.0166308907448
508.75 0.938774680505 0.0130057442228
509.375 0.938698295865 0.00938458957655
510.0 0.938606584126 0.00576743378969
510.625 0.938499665883 0.00215428213668
511.25 0.938377659199 -0.00145486173734
511.875 0.938240679603 -0.00505999573764
512.5 0.938088840091 -0.00866111924206
513.125 0.937922251133 -0.012258233024
513.75 0.937741020674 -0.0158513391769
514.375 0.93754525414 -0.0194404410389
515.0 0.93733505445 -0.0230255431198
515.625 0.937110522021 -0.0266066510281
516.25 0.936871754782 -0.0301837713996
516.875 0.936618848184 -0.0337569118271
517.5 0.936351895215 -0.0373260807913
518.125 0.936070986416 -0.0408912875924
518.75 0.935776209895 -0.0444525422836
519.375 0.935467651344 -0.0480098556053
520.0 0.935145394063 -0.0515632389205
520.625 0.934809518973 -0.0551127041515
521.25 0.934460104643 -0.0586582637176
521.875 0.934097227308 -0.0621999304746
522.5 0.933720960893 -0.0657377176546
523.125 0.933331377039 -0.0692716388077
523.75 0.932928545128 -0.0728017077448
524.375 0.932512532307 -0.0763279384812
525.0 0.932083403515 -0.0798503451821
525.625 0.931641221514 -0.0833689421088
526.25 0.931186046915 -0.0868837435663
526.875 0.930717938209 -0.0903947638521
527.5 0.930236951796 -0.0939020172062
528.125 0.929743142017 -0.0974055177626
528.75 0.929236561185 -0.100905279502
529.375 0.928717259617 -0.104401316203
530.0 0.92818528567 -0.107893641403
530.625 0.927640685771 -0.111382268347
531.25 0.927083504452 -0.11486720995
531.875 0.926513784386 -0.118348478754
532.5 0.925931566422 -0.121826086887
533.125 0.92533688962 -0.125300046027
533.75 0.924729791288 -0.128770367359
534.375 0.924110307018 -0.132237061544
535.0 0.923478470723 -0.13570013868
535.625 0.922834314676 -0.139159608268
536.25 0.922177869547 -0.14261547918
536.875 0.921509164438 -0.146067759628
537.5 0.920828226927 -0.149516457131
538.125 0.920135083104 -0.152961578487
538.75 0.919429757608 -0.156403129744
539.375 0.918712273669 -0.159841116172
540.0 0.917982653149 -0.163275542239
540.625 0.917240916575 -0.166706411585
541.25 0.916487083186 -0.170133726997
541.875 0.91572117097 -0.173557490388
542.5 0.914943196703 -0.176977702775
543.125 0.91415317599 -0.180394364257
543.75 0.913351123306 -0.183807473998
544.375 0.912537052034 -0.187217030208
545.0 0.911710974509 -0.190623030123
545.625 0.910872902056 -0.194025469994
546.25 0.910022845028 -0.197424345067
546.875 0.909160812851 -0.200819649572
547.5 0.908286814062 -0.20421137671
548.125 0.907400856347 -0.207599518639
548.75 0.906502946585 -0.210984066464
549.375 0.905593090885 -0.21436501023
550.0 0.904671294628 -0.217742338907
550.625 0.903737562504 -0.221116040389
551.25 0.902791898555 -0.224486101481
551.875 0.90183430621 -0.227852507899
552.5 0.900864788329 -0.23121524426
553.125 0.899883347237 -0.234574294081
553.75 0.898889984766 -0.237929639776
554.375 0.897884702294 -0.24128126265
555.0 0.89686750078 -0.244629142905
555.625 0.895838380805 -0.247973259633
556.25 0.894797342605 -0.251313590822
556.875 0.893744386115 -0.254650113352
557.5 0.892679511001 -0.257982803003
558.125 0.891602716698 -0.261311634455
558.75 0.890514002444 -0.264636581294
559.375 0.889413367321 -0.267957616015
560.0 0.888300810286 -0.27127471003
560.625 0.887176330207 -0.274587833675
561.25 0.886039925897 -0.277896956213
561.875 0.884891596152 -0.28120204585
562.5 0.883731339778 -0.284503069737
563.125 0.882559155631 -0.287799993984
563.75 0.881375042644 -0.291092783669
564.375 0.880178999864 -0.294381402851
565.0 0.878971026479 -0.297665814579
565.625 0.877751121856 -0.300945980908
566.25 0.876519285562 -0.304221862913
566.875 0.875275517403 -0.307493420699
567.5 0.874019817449 -0.310760613419
568.125 0.872752186064 -0.314023399291
568.75 0.871472623933 -0.31728173561
569.375 0.870181132094 -0.320535578769
570.0 0.868877711959 -0.323784884274
570.625 0.867562365345 -0.327029606762
571.25 0.866235094499 -0.33026970002
571.875 0.864895902121 -0.333505117007
572.5 0.863544791394 -0.336735809868
573.125 0.862181765999 -0.33996172996
573.75 0.86080683015 -0.343182827868
574.375 0.859419988603 -0.34639905343
575.0 0.858021246692 -0.349610355756
575.625 0.856610610337 -0.352816683252
576.25 0.855188086076 -0.356017983643
576.875 0.853753681074 -0.359214203994
577.5 0.852307403152 -0.362405290734
578.125 0.850849260798 -0.365591189682
578.75 0.849379263188 -0.368771846068
579.375 0.847897420202 -0.37194720456
580.0 0.846403742439 -0.375117209289
580.625 0.844898241236 -0.378281803873
581.25 0.843380928676 -0.381440931441
581.875 0.84185181761 -0.384594534663
582.5 0.84031092166 -0.387742555773
583.125 0.838758255243 -0.390884936596
583.75 0.837193833571 -0.394021618575
584.375 0.83561767267 -0.397152542796
585.0 0.834029789385 -0.400277650018
585.625 0.832430201392 -0.403396880698
586.25 0.830818927205 -0.406510175016
586.875 0.829195986181 -0.409617472908
587.5 0.827561398533 -0.412718714089
588.125 0.82591518533 -0.41581383808
588.75 0.824257368504 -0.41890278424
589.375 0.822587970856 -0.42198549179
590.0 0.820907016057 -0.425061899841
590.625 0.819214528652 -0.428131947421
591.25 0.817510534061 -0.431195573507
591.875 0.815795058582 -0.434252717046
592.5 0.814068129391 -0.437303316988
593.125 0.812329774539 -0.440347312311
593.75 0.810580022954 -0.443384642048
594.375 0.808818904437 -0.446415245315
595.0 0.80704644966 -0.44943906134
595.625 0.805262690163 -0.452456029485
596.25 0.803467658349 -0.455466089278
596.875 0.801661387479 -0.458469180437
597.5 0.799843911667 -0.461465242897
598.125 0.798015265873 -0.464454216836
598.75 0.796175485895 -0.4674360427
599.375 0.794324608363 -0.470410661231
600.0 0.792462670727 -0.473378013491
600.625 0.790589711253 -0.476338040887
601.25 0.788705769007 -0.479290685195
601.875 0.786810883847 -0.482235888586
602.5 0.784905096414 -0.485173593651
603.125 0.782988448113 -0.488103743421
603.75 0.781060981109 -0.491026281394
604.375 0.779122738307 -0.493941151556
605.0 0.777173763339 -0.496848298405
605.625 0.775214100552 -0.499747666971
606.25 0.77324379499 -0.50263920284
606.875 0.771262892379 -0.505522852173
607.5 0.769271439112 -0.50839856173
608.125 0.767269482229 -0.511266278886
608.75 0.7652570694 -0.514125951654
609.375 0.76323424891 -0.516977528703
610.0 0.761201069635 -0.519820959377
610.625 0.759157581028 -0.522656193712
611.25 0.757103833095 -0.525483182457
611.875 0.755039876376 -0.528301877086
612.5 0.752965761927 -0.531112229819
613.125 0.750881541295 -0.533914193636
613.75 0.748787266497 -0.536707722292
614.375 0.74668299 -0.539492770331
615.0 0.744568764697 -0.542269293103
615.625 0.742444643883 -0.545037246775
616.25 0.740310681234 -0.547796588344
616.875 0.738166930781 -0.550547275649
617.5 0.73601344689 -0.553289267384
618.125 0.733850284231 -0.556022523107
618.75 0.731677497759 -0.558747003251
619.375 0.729495142689 -0.561462669135
620.0 0.727303274464 -0.564169482969
620.625 0.72510194874 -0.566867407866
621.25 0.722891221349 -0.569556407846
621.875 0.720671148283 -0.572236447846
622.5 0.71844178566 -0.574907493724
623.125 0.716203189703 -0.577569512264
623.75 0.713955416709 -0.580222471182
624.375 0.711698523028 -0.582866339129
625.0 0.709432565027 -0.585501085693
625.625 0.707157599074 -0.588126681406
626.25 0.704873681501 -0.590743097737
626.875 0.702580868583 -0.593350307103
627.5 0.700279216508 -0.595948282861
628.125 0.697968781352 -0.598536999314
628.75 0.695649619046 -0.601116431703
629.375 0.693321785357 -0.603686556212
630.0 0.690985335852 -0.606247349959
630.625 0.688640325877 -0.608798790997
631.25 0.686286810525 -0.611340858308
631.875 0.683924844612 -0.613873531797
632.5 0.681554482649 -0.61639679229
633.125 0.679175778813 -0.618910621522
633.75 0.676788786921 -0.621415002136
634.375 0.674393560404 -0.623909917669
635.0 0.671990152278 -0.62639535255
635.625 0.669578615118 -0.628871292084
636.25 0.667159001035 -0.631337722448
636.875 0.664731361643 -0.633794630675
637.5 0.662295748038 -0.636242004648
638.125 0.659852210769 -0.638679833083
638.75 0.657400799816 -0.641108105517
639.375 0.654941564559 -0.643526812299
640.0 0.652474553757 -0.64593594457
640.625 0.649999815524 -0.648335494251
641.25 0.647517397298 -0.650725454027
641.875 0.645027345825 -0.65310581733
642.5 0.642529707127 -0.655476578325
643.125 0.640024526484 -0.657837731888
643.75 0.637511848408 -0.66018927359
644.375 0.634991716621 -0.662531199681
645.0 0.632464174031 -0.664863507065
645.625 0.629929262712 -0.667186193283
646.25 0.627387023878 -0.669499256492
646.875 0.624837497867 -0.671802695445
647.5 0.622280724117 -0.674096509465
648.125 0.619716741144 -0.676380698426
648.75 0.617145586524 -0.678655262731
649.375 0.614567296874 -0.680920203284
650.0 0.611981907832 -0.683175521467
650.625 0.609389454035 -0.685421219118
651.25 0.606789969106 -0.687657298504
651.875 0.604183485635 -0.689883762292
652.5 0.601570035158 -0.692100613528
653.125 0.598949648146 -0.694307855606
653.75 0.596322353985 -0.696505492242
654.375 0.593688180961 -0.698693527445
655.0 0.591047156247 -0.700871965491
655.625 0.588399305886 -0.70304081089
656.25 0.58574465478 -0.70520006836
656.875 0.583083226674 -0.707349742796
657.5 0.580415044146 -0.709489839239
658.125 0.577740128592 -0.711620362845
658.75 0.575058500218 -0.713741318855
659.375 0.572370178028 -0.715852712562
660.0 0.569675179811 -0.717954549281
660.625 0.566973522138 -0.720046834313
661.25 0.564265220347 -0.722129572915
661.875 0.561550288539 -0.724202770266
662.5 0.558828739567 -0.726266431432
663.125 0.556100585035 -0.728320561335
663.75 0.553365835284 -0.730365164715
664.375 0.550624499397 -0.732400246098
665.0 0.547876585182 -0.734425809759
665.625 0.545122099181 -0.73644185969
666.25 0.542361046658 -0.738448399559
666.875 0.539593431598 -0.740445432678
667.5 0.536819256711 -0.742432961968
668.125 0.534038523424 -0.744410989918
668.75 0.531251231885 -0.74637951855
669.375 0.528457380962 -0.748338549386
670.0 0.525656968248 -0.750288083403
670.625 0.522849990059 -0.752228121004
671.25 0.520036441437 -0.754158661973
671.875 0.517216316159 -0.756079705443
672.5 0.514389606737 -0.757991249854
673.125 0.511556304425 -0.759893292915
673.75 0.508716399225 -0.761785831569
674.375 0.505869879897 -0.763668861951
675.0 0.503016733962 -0.76554237935
675.625 0.500156947716 -0.767406378173
676.25 0.497290506236 -0.7692608519
676.875 0.494417393394 -0.771105793053
677.5 0.491537591866 -0.772941193149
678.125 0.488651083145 -0.774767042668
678.75 0.485757847556 -0.776583331008
679.375 0.482857864268 -0.778390046449
680.0 0.479951111312 -0.780187176112
680.625 0.477037565593 -0.781974705922
681.25 0.47411720291 -0.783752620567
681.875 0.471189997975 -0.785520903457
682.5 0.468255924428 -0.787279536689
683.125 0.465314954862 -0.789028501006
683.75 0.462367060839 -0.790767775754
684.375 0.459412212914 -0.792497338851
685.0 0.456450380657 -0.79421716674
685.625 0.453481532679 -0.795927234354
686.25 0.450505636655 -0.797627515079
686.875 0.447522659348 -0.799317980712
687.5 0.444532566638 -0.800998601423
688.125 0.441535323552 -0.80266934572
688.75 0.438530894287 -0.804330180406
689.375 0.435519242245 -0.805981070547
690.0 0.432500330059 -0.807621979428
690.625 0.429474119631 -0.809252868522
691.25 0.42644057216 -0.810873697449
691.875 0.423399648178 -0.812484423941
692.5 0.420351307585 -0.814085003804
693.125 0.417295509682 -0.815675390883
693.75 0.414232213216 -0.817255537029
694.375 0.411161376408 -0.818825392058
695.0 0.408082957002 -0.82038490372
695.625 0.404996912299 -0.821934017664
696.25 0.401903199201 -0.823472677406
696.875 0.398801774254 -0.82500082429
697.5 0.395692593689 -0.826518397461
698.125 0.392575613472 -0.828025333828
698.75 0.389450789345 -0.829521568037
699.375 0.386318076876 -0.831007032434
700.0 0.383177431507 -0.83248165704
700.625 0.380028808602 -0.833945369515
701.25 0.376872163498 -0.835398095137
701.875 0.373707451559 -0.836839756763
702.5 0.370534628226 -0.838270274811
703.125 0.367353649071 -0.839689567226
703.75 0.364164469853 -0.841097549458
704.375 0.360967046576 -0.842494134433
705.0 0.357761335542 -0.843879232532
705.625 0.354547293414 -0.845252751564
706.25 0.351324877273 -0.846614596747
706.875 0.34809404468 -0.847964670683
707.5 0.344854753736 -0.849302873337
708.125 0.341606963148 -0.850629102022
708.75 0.33835063229 -0.851943251374
709.375 0.335085721271 -0.853245213339
710.0 0.331812191001 -0.854534877155
710.625 0.328530003255 -0.855812129338
711.25 0.325239120747 -0.857076853666
711.875 0.321939507195 -0.85832893117
712.5 0.318631127395 -0.859568240116
713.125 0.31531394729 -0.860794656004
713.75 0.311987934047 -0.862008051553
714.375 0.308653056126 -0.863208296695
715.0 0.305309283357 -0.864395258572
715.625 0.301956587016 -0.865568801529
716.25 0.298594939904 -0.866728787114
716.875 0.295224316419 -0.867875074074
717.5 0.291844692641 -0.869007518361
718.125 0.288456046409 -0.870125973127
718.75 0.285058357401 -0.871230288736
719.375 0.281651607216 -0.872320312765
720.0 0.278235779456 -0.873395890015
720.625 0.274810859812 -0.874456862518
721.25 0.271376836141 -0.875503069551
721.875 0.267933698559 -0.87653434765
722.5 0.26448143952 -0.877550530623
723.125 0.261020053904 -0.878551449572
723.75 0.257549539107 -0.879536932909
724.375 0.25406989512 -0.880506806382
725.0 0.250581124627 -0.881460893097
725.625 0.247083233084 -0.882399013546
726.25 0.243576228814 -0.883320985633
726.875 0.240060123093 -0.88422662471
727.5 0.23653493024 -0.88511574361
728.125 0.23300066771 -0.885988152679
728.75 0.229457356176 -0.88684365982
729.375 0.22590501963 -0.887682070532
730.0 0.222343685463 -0.888503187953
730.625 0.218773384564 -0.889306812909
731.25 0.215194151403 -0.890092743961
731.875 0.211606024127 -0.890860777457
732.5 0.208009044649 -0.89161070759
733.125 0.204403258733 -0.89234232645
733.75 0.200788716092 -0.893055424089
734.375 0.19716547047 -0.893749788583
735.0 0.193533579737 -0.894425206094
735.625 0.18989310597 -0.895081460945
736.25 0.186244115549 -0.895718335688
736.875 0.182586679237 -0.896335611181
737.5 0.178920872272 -0.896933066662
738.125 0.175246774448 -0.897510479835
738.75 0.171564470202 -0.89806762695
739.375 0.167874048695 -0.898604282891
740.0 0.164175603896 -0.899120221266
740.625 0.160469234666 -0.8996152145
741.25 0.156755044828 -0.900089033933
741.875 0.153033143257 -0.900541449916
742.5 0.149303643947 -0.900972231913
743.125 0.145566666092 -0.90138114861
743.75 0.141822334154 -0.901767968022
744.375 0.13807077794 -0.902132457603
745.0 0.134312132664 -0.90247438436
745.625 0.13054653902 -0.902793514976
746.25 0.126774143246 -0.903089615923
746.875 0.122995097181 -0.903362453593
747.5 0.119209558332 -0.903611794418
748.125 0.115417689926 -0.903837405004
748.75 0.111619660969 -0.904039052265
749.375 0.107815646291 -0.90421650355
750.0 0.104005826604 -0.904369526793
