! Created Fri Apr 29 09:55:23 2022
# hz S ma R 50
! 2 Port Network Data from SP1.SP block
! freq  magS11  angS11  magS21  angS21  magS12  angS12  magS22  angS22  
!     
           1000000    0.000235343982        -54.2357805        0.999797881       -0.227562691        0.999797881       -0.227562691     0.000235343982        -54.2357805
           2000000    0.000371075301        -72.8302032        0.999759952        -0.45348009        0.999759952        -0.45348009     0.000371075301        -72.8302032
           3000000    0.000514030102         -81.034729        0.999722275       -0.678768729        0.999722275       -0.678768729     0.000514030102         -81.034729
           4000000    0.000656042455        -85.6803137        0.999684738       -0.903646819        0.999684738       -0.903646819     0.000656042455        -85.6803137
           5000000    0.000795708319        -88.7338859         0.99964728        -1.12821831         0.99964728        -1.12821831     0.000795708319        -88.7338859
           6000000    0.000932873179        -90.9407048        0.999609864        -1.35254452        0.999609864        -1.35254452     0.000932873179        -90.9407048
           7000000     0.00106766752        -92.6423969        0.999572464        -1.57666594        0.999572464        -1.57666594      0.00106766752        -92.6423969
           8000000     0.00120028109        -94.0174321        0.999535062        -1.80061137        0.999535062        -1.80061137      0.00120028109        -94.0174321
           9000000     0.00133090205        -95.1682501        0.999497644        -2.02440226        0.999497644        -2.02440226      0.00133090205        -95.1682501
          10000000     0.00145970089        -96.1579648        0.999460199        -2.24805529        0.999460199        -2.24805529      0.00145970089        -96.1579648
          11000000      0.0015868278        -97.0276653        0.999422722         -2.4715837        0.999422722         -2.4715837       0.0015868278        -97.0276653
          12000000     0.00171241402        -97.8053095        0.999385205        -2.69499833        0.999385205        -2.69499833      0.00171241402        -97.8053095
          13000000     0.00183657424        -98.5106198        0.999347644        -2.91830816        0.999347644        -2.91830816      0.00183657424        -98.5106198
          14000000     0.00195940907        -99.1579351        0.999310038        -3.14152077        0.999310038        -3.14152077      0.00195940907        -99.1579351
          15000000     0.00208100719         -99.757949        0.999272383        -3.36464263        0.999272383        -3.36464263      0.00208100719         -99.757949
          16000000     0.00220144715        -100.318813         0.99923468        -3.58767935         0.99923468        -3.58767935      0.00220144715        -100.318813
          17000000     0.00232079893        -100.846859        0.999196927        -3.81063582        0.999196927        -3.81063582      0.00232079893        -100.846859
          18000000     0.00243912513         -101.34709        0.999159125        -4.03351634        0.999159125        -4.03351634      0.00243912513         -101.34709
          19000000     0.00255648205        -101.823514        0.999121275        -4.25632474        0.999121275        -4.25632474      0.00255648205        -101.823514
          20000000     0.00267292052        -102.279386        0.999083378        -4.47906443        0.999083378        -4.47906443      0.00267292052        -102.279386
          21000000     0.00278848661        -102.717379        0.999045434         -4.7017385        0.999045434         -4.7017385      0.00278848661        -102.717379
          22000000     0.00290322221        -103.139714        0.999007447        -4.92434972        0.999007447        -4.92434972      0.00290322221        -103.139714
          23000000     0.00301716551         -103.54825        0.998969418        -5.14690063        0.998969418        -5.14690063      0.00301716551         -103.54825
          24000000     0.00313035148        -103.944558        0.998931349        -5.36939355        0.998931349        -5.36939355      0.00313035148        -103.944558
          25000000     0.00324281216        -104.329978        0.998893242        -5.59183061        0.998893242        -5.59183061      0.00324281216        -104.329978
          26000000     0.00335457699        -104.705656        0.998855101        -5.81421378        0.998855101        -5.81421378      0.00335457699        -104.705656
          27000000      0.0034656731        -105.072585        0.998816928        -6.03654488        0.998816928        -6.03654488       0.0034656731        -105.072585
          28000000     0.00357612549        -105.431623        0.998778726        -6.25882561        0.998778726        -6.25882561      0.00357612549        -105.431623
          29000000     0.00368595726        -105.783523        0.998740496        -6.48105756        0.998740496        -6.48105756      0.00368595726        -105.783523
          30000000     0.00379518978        -106.128944        0.998702243        -6.70324221        0.998702243        -6.70324221      0.00379518978        -106.128944
          31000000     0.00390384284        -106.468467        0.998663969        -6.92538096        0.998663969        -6.92538096      0.00390384284        -106.468467
          32000000     0.00401193479        -106.802605        0.998625677        -7.14747512        0.998625677        -7.14747512      0.00401193479        -106.802605
          33000000     0.00411948265        -107.131816         0.99858737        -7.36952594         0.99858737        -7.36952594      0.00411948265        -107.131816
          34000000     0.00422650223        -107.456508         0.99854905         -7.5915346         0.99854905         -7.5915346      0.00422650223        -107.456508
          35000000     0.00433300824        -107.777044         0.99851072        -7.81350222         0.99851072        -7.81350222      0.00433300824        -107.777044
          36000000     0.00443901433        -108.093751        0.998472384        -8.03542986        0.998472384        -8.03542986      0.00443901433        -108.093751
          37000000     0.00454453323        -108.406925        0.998434042        -8.25731854        0.998434042        -8.25731854      0.00454453323        -108.406925
          38000000     0.00464957678        -108.716831        0.998395699        -8.47916924        0.998395699        -8.47916924      0.00464957678        -108.716831
          39000000     0.00475415601        -109.023709        0.998357356        -8.70098288        0.998357356        -8.70098288      0.00475415601        -109.023709
          40000000     0.00485828121        -109.327776        0.998319017        -8.92276035        0.998319017        -8.92276035      0.00485828121        -109.327776
          41000000     0.00496196195        -109.629232        0.998280682        -9.14450251        0.998280682        -9.14450251      0.00496196195        -109.629232
          42000000     0.00506520719        -109.928254        0.998242355        -9.36621019        0.998242355        -9.36621019      0.00506520719        -109.928254
          43000000     0.00516802525        -110.225009        0.998204038        -9.58788417        0.998204038        -9.58788417      0.00516802525        -110.225009
          44000000     0.00527042393        -110.519645        0.998165732        -9.80952521        0.998165732        -9.80952521      0.00527042393        -110.519645
          45000000     0.00537241049          -110.8123         0.99812744        -10.0311341         0.99812744        -10.0311341      0.00537241049          -110.8123
          46000000     0.00547399172        -111.103099        0.998089164        -10.2527114        0.998089164        -10.2527114      0.00547399172        -111.103099
          47000000     0.00557517396        -111.392158        0.998050904         -10.474258        0.998050904         -10.474258      0.00557517396        -111.392158
          48000000     0.00567596314        -111.679582        0.998012663        -10.6957744        0.998012663        -10.6957744      0.00567596314        -111.679582
          49000000     0.00577636479        -111.965469        0.997974443        -10.9172613        0.997974443        -10.9172613      0.00577636479        -111.965469
          50000000      0.0058763841        -112.249908        0.997936245        -11.1387193        0.997936245        -11.1387193       0.0058763841        -112.249908
          51000000     0.00597602591        -112.532982        0.997898069         -11.360149        0.997898069         -11.360149      0.00597602591        -112.532982
          52000000     0.00607529475        -112.814767        0.997859918        -11.5815511        0.997859918        -11.5815511      0.00607529475        -112.814767
          53000000     0.00617419488        -113.095334        0.997821793         -11.802926        0.997821793         -11.802926      0.00617419488        -113.095334
          54000000     0.00627273026        -113.374747        0.997783694        -12.0242743        0.997783694        -12.0242743      0.00627273026        -113.374747
          55000000     0.00637090463        -113.653066        0.997745623        -12.2455965        0.997745623        -12.2455965      0.00637090463        -113.653066
          56000000     0.00646872147        -113.930348         0.99770758        -12.4668932         0.99770758        -12.4668932      0.00646872147        -113.930348
          57000000     0.00656618406        -114.206645        0.997669567        -12.6881649        0.997669567        -12.6881649      0.00656618406        -114.206645
          58000000     0.00666329548        -114.482003        0.997631585        -12.9094119        0.997631585        -12.9094119      0.00666329548        -114.482003
          59000000      0.0067600586        -114.756468        0.997593633        -13.1306349        0.997593633        -13.1306349       0.0067600586        -114.756468
          60000000     0.00685647614        -115.030081        0.997555712        -13.3518343        0.997555712        -13.3518343      0.00685647614        -115.030081
          61000000     0.00695255064         -115.30288        0.997517824        -13.5730104        0.997517824        -13.5730104      0.00695255064         -115.30288
          62000000      0.0070482845        -115.574902        0.997479968        -13.7941638        0.997479968        -13.7941638       0.0070482845        -115.574902
          63000000     0.00714367996        -115.846179        0.997442145        -14.0152948        0.997442145        -14.0152948      0.00714367996        -115.846179
          64000000     0.00723873916        -116.116743        0.997404356        -14.2364039        0.997404356        -14.2364039      0.00723873916        -116.116743
          65000000     0.00733346409        -116.386622          0.9973666        -14.4574914          0.9973666        -14.4574914      0.00733346409        -116.386622
          66000000     0.00742785663        -116.655845        0.997328879        -14.6785577        0.997328879        -14.6785577      0.00742785663        -116.655845
          67000000     0.00752191856        -116.924435        0.997291191        -14.8996033        0.997291191        -14.8996033      0.00752191856        -116.924435
          68000000     0.00761565157        -117.192418        0.997253538        -15.1206284        0.997253538        -15.1206284      0.00761565157        -117.192418
          69000000     0.00770905722        -117.459814        0.997215919        -15.3416334        0.997215919        -15.3416334      0.00770905722        -117.459814
          70000000     0.00780213703        -117.726646        0.997178335        -15.5626187        0.997178335        -15.5626187      0.00780213703        -117.726646
          71000000     0.00789489241        -117.992932        0.997140786        -15.7835846        0.997140786        -15.7835846      0.00789489241        -117.992932
          72000000     0.00798732471         -118.25869        0.997103271        -16.0045314        0.997103271        -16.0045314      0.00798732471         -118.25869
          73000000      0.0080794352        -118.523938         0.99706579        -16.2254595         0.99706579        -16.2254595       0.0080794352        -118.523938
          74000000     0.00817122508        -118.788692        0.997028345         -16.446369        0.997028345         -16.446369      0.00817122508        -118.788692
          75000000     0.00826269549        -119.052967        0.996990933        -16.6672605        0.996990933        -16.6672605      0.00826269549        -119.052967
          76000000     0.00835384754        -119.316778        0.996953556         -16.888134        0.996953556         -16.888134      0.00835384754        -119.316778
          77000000     0.00844468224        -119.580137        0.996916214          -17.10899        0.996916214          -17.10899      0.00844468224        -119.580137
          78000000     0.00853520059        -119.843058        0.996878905        -17.3298286        0.996878905        -17.3298286      0.00853520059        -119.843058
          79000000     0.00862540352        -120.105553         0.99684163        -17.5506502         0.99684163        -17.5506502      0.00862540352        -120.105553
          80000000     0.00871529193        -120.367633        0.996804389         -17.771455        0.996804389         -17.771455      0.00871529193        -120.367633
          81000000     0.00880486665        -120.629308        0.996767182        -17.9922432        0.996767182        -17.9922432      0.00880486665        -120.629308
          82000000      0.0088941285         -120.89059        0.996730007        -18.2130152        0.996730007        -18.2130152       0.0088941285         -120.89059
          83000000     0.00898307825        -121.151487        0.996692866        -18.4337712        0.996692866        -18.4337712      0.00898307825        -121.151487
          84000000     0.00907171665        -121.412009        0.996655758        -18.6545113        0.996655758        -18.6545113      0.00907171665        -121.412009
          85000000      0.0091600444        -121.672165        0.996618682        -18.8752358        0.996618682        -18.8752358       0.0091600444        -121.672165
          86000000     0.00924806217        -121.931963        0.996581638         -19.095945        0.996581638         -19.095945      0.00924806217        -121.931963
          87000000      0.0093357706         -122.19141        0.996544626         -19.316639        0.996544626         -19.316639       0.0093357706         -122.19141
          88000000     0.00942317032        -122.450514        0.996507646        -19.5373181        0.996507646        -19.5373181      0.00942317032        -122.450514
          89000000     0.00951026192        -122.709283        0.996470698        -19.7579824        0.996470698        -19.7579824      0.00951026192        -122.709283
          90000000     0.00959704596        -122.967723         0.99643378        -19.9786323         0.99643378        -19.9786323      0.00959704596        -122.967723
          91000000     0.00968352298        -123.225841        0.996396893        -20.1992678        0.996396893        -20.1992678      0.00968352298        -123.225841
          92000000      0.0097696935        -123.483643        0.996360037        -20.4198891        0.996360037        -20.4198891       0.0097696935        -123.483643
          93000000     0.00985555803        -123.741135        0.996323211        -20.6404965        0.996323211        -20.6404965      0.00985555803        -123.741135
          94000000     0.00994111704        -123.998323        0.996286414        -20.8610902        0.996286414        -20.8610902      0.00994111704        -123.998323
          95000000       0.010026371        -124.255212        0.996249648        -21.0816702        0.996249648        -21.0816702        0.010026371        -124.255212
          96000000      0.0101113203        -124.511807         0.99621291        -21.3022368         0.99621291        -21.3022368       0.0101113203        -124.511807
          97000000      0.0101959654        -124.768115        0.996176201        -21.5227902        0.996176201        -21.5227902       0.0101959654        -124.768115
          98000000      0.0102803068        -125.024139        0.996139521        -21.7433305        0.996139521        -21.7433305       0.0102803068        -125.024139
          99000000      0.0103643447        -125.279885        0.996102869        -21.9638578        0.996102869        -21.9638578       0.0103643447        -125.279885
         100000000      0.0104480796        -125.535356        0.996066245        -22.1843724        0.996066245        -22.1843724       0.0104480796        -125.535356
         101000000      0.0105315118        -125.790558        0.996029649        -22.4048744        0.996029649        -22.4048744       0.0105315118        -125.790558
         102000000      0.0106146417        -126.045494        0.995993079        -22.6253639        0.995993079        -22.6253639       0.0106146417        -126.045494
         103000000      0.0106974696        -126.300169        0.995956537        -22.8458411        0.995956537        -22.8458411       0.0106974696        -126.300169
         104000000      0.0107799958        -126.554587        0.995920022        -23.0663061        0.995920022        -23.0663061       0.0107799958        -126.554587
         105000000      0.0108622206        -126.808751        0.995883533        -23.2867591        0.995883533        -23.2867591       0.0108622206        -126.808751
         106000000      0.0109441443        -127.062666         0.99584707        -23.5072001         0.99584707        -23.5072001       0.0109441443        -127.062666
         107000000      0.0110257672        -127.316334        0.995810632        -23.7276295        0.995810632        -23.7276295       0.0110257672        -127.316334
         108000000      0.0111070895         -127.56976        0.995774221        -23.9480472        0.995774221        -23.9480472       0.0111070895         -127.56976
         109000000      0.0111881116        -127.822947        0.995737834        -24.1684533        0.995737834        -24.1684533       0.0111881116        -127.822947
         110000000      0.0112688335        -128.075898        0.995701472        -24.3888482        0.995701472        -24.3888482       0.0112688335        -128.075898
         111000000      0.0113492557        -128.328616        0.995665135        -24.6092317        0.995665135        -24.6092317       0.0113492557        -128.328616
         112000000      0.0114293783        -128.581105        0.995628823        -24.8296042        0.995628823        -24.8296042       0.0114293783        -128.581105
         113000000      0.0115092014        -128.833367        0.995592534        -25.0499656        0.995592534        -25.0499656       0.0115092014        -128.833367
         114000000      0.0115887254        -129.085406        0.995556269        -25.2703161        0.995556269        -25.2703161       0.0115887254        -129.085406
         115000000      0.0116679504        -129.337224        0.995520028        -25.4906559        0.995520028        -25.4906559       0.0116679504        -129.337224
         116000000      0.0117468765        -129.588825         0.99548381        -25.7109849         0.99548381        -25.7109849       0.0117468765        -129.588825
