!Created with mwavepy.
# GHz S RI R 50.0 
!freq	ReS11	ImS11	
500.0	0.008034898784	0.06230322539	
! Port Impedance	50.00000000000000	0.00000000000000	
501.25	0.1059080094	-0.02575677505	
! Port Impedance	50.00000000000000	0.00000000000000	
502.5	0.09403551025	-0.06720920233	
! Port Impedance	50.00000000000000	0.00000000000000	
503.75	-0.03445152107	-0.07182523427	
! Port Impedance	50.00000000000000	0.00000000000000	
505.0	-0.0809294725	-0.01069048735	
! Port Impedance	50.00000000000000	0.00000000000000	
506.25	-0.0862872325	0.05084822259	
! Port Impedance	50.00000000000000	0.00000000000000	
507.5	-0.0290710973	0.1678974035	
! Port Impedance	50.00000000000000	0.00000000000000	
508.75	0.1486369266	0.1452049123	
! Port Impedance	50.00000000000000	0.00000000000000	
510.0	0.2157738048	0.01946717322	
! Port Impedance	50.00000000000000	0.00000000000000	
511.25	-0.04098452236	-0.1372749283	
! Port Impedance	50.00000000000000	0.00000000000000	
512.5	-0.1018479827	-0.001284692011	
! Port Impedance	50.00000000000000	0.00000000000000	
513.75	-0.02230364601	0.1558047657	
! Port Impedance	50.00000000000000	0.00000000000000	
515.0	0.1557462396	0.1160837931	
! Port Impedance	50.00000000000000	0.00000000000000	
516.25	0.2007173855	0.09350409856	
! Port Impedance	50.00000000000000	0.00000000000000	
517.5	0.1976341798	0.01765942318	
! Port Impedance	50.00000000000000	0.00000000000000	
518.75	0.1861478245	-0.003124705599	
! Port Impedance	50.00000000000000	0.00000000000000	
520.0	0.08389037192	-0.1142180777	
! Port Impedance	50.00000000000000	0.00000000000000	
521.25	-0.04771661815	-0.1132131633	
! Port Impedance	50.00000000000000	0.00000000000000	
522.5	-0.09072402816	-0.05436612345	
! Port Impedance	50.00000000000000	0.00000000000000	
523.75	-0.2867475737	-0.08945378809	
! Port Impedance	50.00000000000000	0.00000000000000	
525.0	-0.1521818456	-0.03717940003	
! Port Impedance	50.00000000000000	0.00000000000000	
526.25	-0.1437067466	0.03295350256	
! Port Impedance	50.00000000000000	0.00000000000000	
527.5	-0.02288989747	0.1268450714	
! Port Impedance	50.00000000000000	0.00000000000000	
528.75	0.1079088269	0.07060303251	
! Port Impedance	50.00000000000000	0.00000000000000	
530.0	0.07385127196	-0.1359679031	
! Port Impedance	50.00000000000000	0.00000000000000	
531.25	-0.07080246075	-0.2710264355	
! Port Impedance	50.00000000000000	0.00000000000000	
532.5	-0.2270706532	-0.122842446	
! Port Impedance	50.00000000000000	0.00000000000000	
533.75	-0.2135775805	-0.0320737415	
! Port Impedance	50.00000000000000	0.00000000000000	
535.0	-0.1677959765	0.03373351577	
! Port Impedance	50.00000000000000	0.00000000000000	
536.25	-0.1358809988	0.05451365365	
! Port Impedance	50.00000000000000	0.00000000000000	
537.5	-0.1681183469	0.07558086718	
! Port Impedance	50.00000000000000	0.00000000000000	
538.75	-0.04824782332	0.1824190292	
! Port Impedance	50.00000000000000	0.00000000000000	
540.0	-0.005135329166	0.2248431842	
! Port Impedance	50.00000000000000	0.00000000000000	
541.25	0.06104527185	0.1508144336	
! Port Impedance	50.00000000000000	0.00000000000000	
542.5	0.0404273149	0.128457163	
! Port Impedance	50.00000000000000	0.00000000000000	
543.75	0.1199134736	0.06867102468	
! Port Impedance	50.00000000000000	0.00000000000000	
545.0	0.1293527192	-0.0837580429	
! Port Impedance	50.00000000000000	0.00000000000000	
546.25	0.03015934126	-0.1632767628	
! Port Impedance	50.00000000000000	0.00000000000000	
547.5	0.001042940765	-0.1824700231	
! Port Impedance	50.00000000000000	0.00000000000000	
548.75	0.03025870693	-0.1848715193	
! Port Impedance	50.00000000000000	0.00000000000000	
550.0	0.1198463957	-0.1899574208	
! Port Impedance	50.00000000000000	0.00000000000000	
551.25	0.1558178174	-0.142384049	
! Port Impedance	50.00000000000000	0.00000000000000	
552.5	0.08067384345	-0.1603387838	
! Port Impedance	50.00000000000000	0.00000000000000	
553.75	0.03976413135	-0.1411278455	
! Port Impedance	50.00000000000000	0.00000000000000	
555.0	-0.04943293322	-0.1309804784	
! Port Impedance	50.00000000000000	0.00000000000000	
556.25	-0.0441160955	-0.121338275	
! Port Impedance	50.00000000000000	0.00000000000000	
557.5	-0.05926886939	-0.08177211983	
! Port Impedance	50.00000000000000	0.00000000000000	
558.75	-0.009649835545	-0.08996563048	
! Port Impedance	50.00000000000000	0.00000000000000	
560.0	0.03099374138	-0.1043079969	
! Port Impedance	50.00000000000000	0.00000000000000	
561.25	-0.07930800252	-0.1177938178	
! Port Impedance	50.00000000000000	0.00000000000000	
562.5	-0.1444476583	-0.03216461335	
! Port Impedance	50.00000000000000	0.00000000000000	
563.75	-0.1369600494	0.06247231379	
! Port Impedance	50.00000000000000	0.00000000000000	
565.0	-0.1454770682	0.04308370491	
! Port Impedance	50.00000000000000	0.00000000000000	
566.25	-0.1546952157	-0.004118254851	
! Port Impedance	50.00000000000000	0.00000000000000	
567.5	-0.1421543305	-0.04715549469	
! Port Impedance	50.00000000000000	0.00000000000000	
568.75	-0.09083108961	-0.08974494498	
! Port Impedance	50.00000000000000	0.00000000000000	
570.0	-0.04909864918	-0.1089200238	
! Port Impedance	50.00000000000000	0.00000000000000	
571.25	-0.1178182626	-0.1051108787	
! Port Impedance	50.00000000000000	0.00000000000000	
572.5	-0.1706193903	-0.04129497268	
! Port Impedance	50.00000000000000	0.00000000000000	
573.75	-0.1677500038	0.0779669359	
! Port Impedance	50.00000000000000	0.00000000000000	
575.0	-0.1257174446	0.1305207884	
! Port Impedance	50.00000000000000	0.00000000000000	
576.25	-0.125410412	0.1158344264	
! Port Impedance	50.00000000000000	0.00000000000000	
577.5	-0.06918181545	0.1348827315	
! Port Impedance	50.00000000000000	0.00000000000000	
578.75	-0.09613539885	0.08367262944	
! Port Impedance	50.00000000000000	0.00000000000000	
580.0	-0.1193756211	0.04025685208	
! Port Impedance	50.00000000000000	0.00000000000000	
581.25	-0.1525392474	0.02049423895	
! Port Impedance	50.00000000000000	0.00000000000000	
582.5	-0.1640171189	0.02722172375	
! Port Impedance	50.00000000000000	0.00000000000000	
583.75	-0.1653241368	0.01066558568	
! Port Impedance	50.00000000000000	0.00000000000000	
585.0	-0.1536528575	-0.0678324795	
! Port Impedance	50.00000000000000	0.00000000000000	
586.25	-0.1544035606	-0.06594437763	
! Port Impedance	50.00000000000000	0.00000000000000	
587.5	-0.1539186409	-0.01144360527	
! Port Impedance	50.00000000000000	0.00000000000000	
588.75	-0.1450146467	0.003471648603	
! Port Impedance	50.00000000000000	0.00000000000000	
590.0	-0.1552303678	0.005429108616	
! Port Impedance	50.00000000000000	0.00000000000000	
591.25	-0.1724921763	0.02180725025	
! Port Impedance	50.00000000000000	0.00000000000000	
592.5	-0.1710330004	0.005690892358	
! Port Impedance	50.00000000000000	0.00000000000000	
593.75	-0.1447358	-0.0605679608	
! Port Impedance	50.00000000000000	0.00000000000000	
595.0	-0.09566600771	-0.1181815715	
! Port Impedance	50.00000000000000	0.00000000000000	
596.25	-0.07160102116	-0.1260483261	
! Port Impedance	50.00000000000000	0.00000000000000	
597.5	0.03157663107	-0.1326976811	
! Port Impedance	50.00000000000000	0.00000000000000	
598.75	0.06856635496	-0.1373055215	
! Port Impedance	50.00000000000000	0.00000000000000	
600.0	0.1014623359	-0.1465098204	
! Port Impedance	50.00000000000000	0.00000000000000	
601.25	0.06779393586	-0.1806685529	
! Port Impedance	50.00000000000000	0.00000000000000	
602.5	0.07686212713	-0.1367847501	
! Port Impedance	50.00000000000000	0.00000000000000	
603.75	0.08874534337	-0.1025002836	
! Port Impedance	50.00000000000000	0.00000000000000	
605.0	0.1363363519	-0.04833361322	
! Port Impedance	50.00000000000000	0.00000000000000	
606.25	0.128490715	0.07747542526	
! Port Impedance	50.00000000000000	0.00000000000000	
607.5	0.1159500925	0.1043806575	
! Port Impedance	50.00000000000000	0.00000000000000	
608.75	0.1102880932	0.1302073012	
! Port Impedance	50.00000000000000	0.00000000000000	
610.0	0.08740657885	0.1574579336	
! Port Impedance	50.00000000000000	0.00000000000000	
611.25	0.01756717982	0.1619525779	
! Port Impedance	50.00000000000000	0.00000000000000	
612.5	-0.03735506628	0.1435469166	
! Port Impedance	50.00000000000000	0.00000000000000	
613.75	-0.0845383849	0.1258255713	
! Port Impedance	50.00000000000000	0.00000000000000	
615.0	-0.1273579565	0.1043371119	
! Port Impedance	50.00000000000000	0.00000000000000	
616.25	-0.1636994924	0.02328145582	
! Port Impedance	50.00000000000000	0.00000000000000	
617.5	-0.1711674719	-0.02413722805	
! Port Impedance	50.00000000000000	0.00000000000000	
618.75	-0.1625428628	-0.00207244317	
! Port Impedance	50.00000000000000	0.00000000000000	
620.0	-0.1294776817	-0.07075226427	
! Port Impedance	50.00000000000000	0.00000000000000	
621.25	-0.09704013287	-0.129898458	
! Port Impedance	50.00000000000000	0.00000000000000	
622.5	-0.07848836313	-0.1678742058	
! Port Impedance	50.00000000000000	0.00000000000000	
623.75	-0.04373582203	-0.1698884032	
! Port Impedance	50.00000000000000	0.00000000000000	
625.0	0.06654345639	-0.1467697109	
! Port Impedance	50.00000000000000	0.00000000000000	
626.25	0.1157880772	-0.0969039491	
! Port Impedance	50.00000000000000	0.00000000000000	
627.5	0.1439064752	-0.03571997285	
! Port Impedance	50.00000000000000	0.00000000000000	
628.75	0.1583216344	0.05871269294	
! Port Impedance	50.00000000000000	0.00000000000000	
630.0	0.1328066158	0.1336606405	
! Port Impedance	50.00000000000000	0.00000000000000	
631.25	0.07790407712	0.1595893551	
! Port Impedance	50.00000000000000	0.00000000000000	
632.5	0.04797673534	0.150845815	
! Port Impedance	50.00000000000000	0.00000000000000	
633.75	-0.03651742125	0.1428264899	
! Port Impedance	50.00000000000000	0.00000000000000	
635.0	-0.09819340328	0.1277340387	
! Port Impedance	50.00000000000000	0.00000000000000	
636.25	-0.1404741176	0.1028360018	
! Port Impedance	50.00000000000000	0.00000000000000	
637.5	-0.1822110885	0.04520133387	
! Port Impedance	50.00000000000000	0.00000000000000	
638.75	-0.1816257426	-0.02824720845	
! Port Impedance	50.00000000000000	0.00000000000000	
640.0	-0.08808781415	-0.1258127049	
! Port Impedance	50.00000000000000	0.00000000000000	
641.25	0.01769665487	-0.1437577148	
! Port Impedance	50.00000000000000	0.00000000000000	
642.5	0.1256656186	-0.1093745251	
! Port Impedance	50.00000000000000	0.00000000000000	
643.75	0.1700970053	-0.0514969371	
! Port Impedance	50.00000000000000	0.00000000000000	
645.0	0.1626332515	-0.004830645453	
! Port Impedance	50.00000000000000	0.00000000000000	
646.25	0.1635089538	0.02369494006	
! Port Impedance	50.00000000000000	0.00000000000000	
647.5	0.1453910231	0.08971649817	
! Port Impedance	50.00000000000000	0.00000000000000	
648.75	0.07448515757	0.1530989246	
! Port Impedance	50.00000000000000	0.00000000000000	
650.0	-0.02558337164	0.1659274068	
! Port Impedance	50.00000000000000	0.00000000000000	
651.25	-0.1150384773	0.1145898752	
! Port Impedance	50.00000000000000	0.00000000000000	
652.5	-0.1439846149	-0.01745341705	
! Port Impedance	50.00000000000000	0.00000000000000	
653.75	-0.05090578903	-0.1502796836	
! Port Impedance	50.00000000000000	0.00000000000000	
655.0	0.02092002441	-0.1842797423	
! Port Impedance	50.00000000000000	0.00000000000000	
656.25	0.06303313186	-0.1794295004	
! Port Impedance	50.00000000000000	0.00000000000000	
657.5	0.07372170817	-0.1658844917	
! Port Impedance	50.00000000000000	0.00000000000000	
658.75	0.09887616211	-0.1266553556	
! Port Impedance	50.00000000000000	0.00000000000000	
660.0	0.1249875499	-0.09196516229	
! Port Impedance	50.00000000000000	0.00000000000000	
661.25	0.133578628	-0.1270840654	
! Port Impedance	50.00000000000000	0.00000000000000	
662.5	0.1841500171	-0.09539406794	
! Port Impedance	50.00000000000000	0.00000000000000	
663.75	0.1753866743	0.07137494218	
! Port Impedance	50.00000000000000	0.00000000000000	
665.0	0.01040282506	0.1633798666	
! Port Impedance	50.00000000000000	0.00000000000000	
666.25	-0.1612613344	0.06290098269	
! Port Impedance	50.00000000000000	0.00000000000000	
667.5	-0.193665591	-0.013285971	
! Port Impedance	50.00000000000000	0.00000000000000	
668.75	-0.1541865847	-0.1118951001	
! Port Impedance	50.00000000000000	0.00000000000000	
670.0	-0.07785867246	-0.1582845684	
! Port Impedance	50.00000000000000	0.00000000000000	
671.25	-0.02320281553	-0.166641369	
! Port Impedance	50.00000000000000	0.00000000000000	
672.5	0.01270773359	-0.1782988789	
! Port Impedance	50.00000000000000	0.00000000000000	
673.75	0.09183437372	-0.1717220029	
! Port Impedance	50.00000000000000	0.00000000000000	
675.0	0.1875590898	-0.05916698686	
! Port Impedance	50.00000000000000	0.00000000000000	
676.25	0.1496671626	0.09791727465	
! Port Impedance	50.00000000000000	0.00000000000000	
677.5	0.05610856381	0.1639747999	
! Port Impedance	50.00000000000000	0.00000000000000	
678.75	-0.02856059698	0.1936287436	
! Port Impedance	50.00000000000000	0.00000000000000	
680.0	-0.1063684571	0.1707262048	
! Port Impedance	50.00000000000000	0.00000000000000	
681.25	-0.1289406933	0.1269768928	
! Port Impedance	50.00000000000000	0.00000000000000	
682.5	-0.1700307357	0.03425673426	
! Port Impedance	50.00000000000000	0.00000000000000	
683.75	-0.1446826251	-0.117379874	
! Port Impedance	50.00000000000000	0.00000000000000	
685.0	0.05311489601	-0.205074221	
! Port Impedance	50.00000000000000	0.00000000000000	
686.25	0.2143701697	-0.06788399928	
! Port Impedance	50.00000000000000	0.00000000000000	
687.5	0.1904884203	0.04094299772	
! Port Impedance	50.00000000000000	0.00000000000000	
688.75	0.07768016819	0.1503051795	
! Port Impedance	50.00000000000000	0.00000000000000	
690.0	-0.09198174669	0.1745790912	
! Port Impedance	50.00000000000000	0.00000000000000	
691.25	-0.1380737857	0.1811155205	
! Port Impedance	50.00000000000000	0.00000000000000	
692.5	-0.002671283148	0.2163648899	
! Port Impedance	50.00000000000000	0.00000000000000	
693.75	0.07614875218	0.1967763989	
! Port Impedance	50.00000000000000	0.00000000000000	
695.0	-0.1565271126	0.1472987148	
! Port Impedance	50.00000000000000	0.00000000000000	
696.25	-0.0112404996	-0.2266568107	
! Port Impedance	50.00000000000000	0.00000000000000	
697.5	0.2132344841	-0.06646158224	
! Port Impedance	50.00000000000000	0.00000000000000	
698.75	0.1918523339	0.0503252513	
! Port Impedance	50.00000000000000	0.00000000000000	
700.0	0.1197370014	0.1388600813	
! Port Impedance	50.00000000000000	0.00000000000000	
701.25	0.01494322892	0.202426745	
! Port Impedance	50.00000000000000	0.00000000000000	
702.5	-0.0338655815	0.2078725372	
! Port Impedance	50.00000000000000	0.00000000000000	
703.75	0.0315307323	0.2149829557	
! Port Impedance	50.00000000000000	0.00000000000000	
705.0	-0.1011848348	0.2028065822	
! Port Impedance	50.00000000000000	0.00000000000000	
706.25	-0.2071714225	-0.05704403009	
! Port Impedance	50.00000000000000	0.00000000000000	
707.5	-0.006083172008	-0.2147900288	
! Port Impedance	50.00000000000000	0.00000000000000	
708.75	0.1911415717	-0.09013948667	
! Port Impedance	50.00000000000000	0.00000000000000	
710.0	0.116964033	0.1389712548	
! Port Impedance	50.00000000000000	0.00000000000000	
711.25	-0.1089910082	0.1565229615	
! Port Impedance	50.00000000000000	0.00000000000000	
712.5	-0.1649952522	0.1514290915	
! Port Impedance	50.00000000000000	0.00000000000000	
713.75	-0.03700070653	0.2347932097	
! Port Impedance	50.00000000000000	0.00000000000000	
715.0	-0.04315281704	0.216679469	
! Port Impedance	50.00000000000000	0.00000000000000	
716.25	-0.2015715977	0.09209074161	
! Port Impedance	50.00000000000000	0.00000000000000	
717.5	-0.1835918361	-0.143524572	
! Port Impedance	50.00000000000000	0.00000000000000	
718.75	0.006221111573	-0.2504992073	
! Port Impedance	50.00000000000000	0.00000000000000	
720.0	0.2181058137	-0.01374277177	
! Port Impedance	50.00000000000000	0.00000000000000	
721.25	-0.1390603906	0.1158530855	
! Port Impedance	50.00000000000000	0.00000000000000	
722.5	-0.1403613237	-0.1789116719	
! Port Impedance	50.00000000000000	0.00000000000000	
723.75	-0.2696667726	-0.1231553201	
! Port Impedance	50.00000000000000	0.00000000000000	
725.0	-0.2435275399	-0.05636878232	
! Port Impedance	50.00000000000000	0.00000000000000	
726.25	-0.1419586944	-0.1638903374	
! Port Impedance	50.00000000000000	0.00000000000000	
727.5	0.1286835345	-0.2009839001	
! Port Impedance	50.00000000000000	0.00000000000000	
728.75	0.2590823005	-0.0820951876	
! Port Impedance	50.00000000000000	0.00000000000000	
730.0	0.1751378682	-0.175485	
! Port Impedance	50.00000000000000	0.00000000000000	
731.25	0.167860914	0.05807312497	
! Port Impedance	50.00000000000000	0.00000000000000	
732.5	-0.1377068484	0.1353471402	
! Port Impedance	50.00000000000000	0.00000000000000	
733.75	-0.2485193088	-0.06221427396	
! Port Impedance	50.00000000000000	0.00000000000000	
735.0	-0.2555428079	-0.06009180249	
! Port Impedance	50.00000000000000	0.00000000000000	
736.25	-0.1963123727	-0.09571192685	
! Port Impedance	50.00000000000000	0.00000000000000	
737.5	-0.03663130266	-0.2310285244	
! Port Impedance	50.00000000000000	0.00000000000000	
738.75	0.2228015519	-0.1255361677	
! Port Impedance	50.00000000000000	0.00000000000000	
740.0	0.2376040865	-0.103480859	
! Port Impedance	50.00000000000000	0.00000000000000	
741.25	0.2060318668	0.001500686068	
! Port Impedance	50.00000000000000	0.00000000000000	
742.5	-0.1217723368	0.1473692143	
! Port Impedance	50.00000000000000	0.00000000000000	
743.75	-0.1887277426	-0.1689892368	
! Port Impedance	50.00000000000000	0.00000000000000	
745.0	-0.12071246	-0.229677441	
! Port Impedance	50.00000000000000	0.00000000000000	
746.25	-0.07136177621	-0.1558259349	
! Port Impedance	50.00000000000000	0.00000000000000	
747.5	0.003254564702	-0.1882610991	
! Port Impedance	50.00000000000000	0.00000000000000	
748.75	0.02759780234	-0.2173788901	
! Port Impedance	50.00000000000000	0.00000000000000	
750.0	-0.1934717491	-0.08755238586	
! Port Impedance	50.00000000000000	0.00000000000000	
