!Created with mwavepy.
# GHz S RI R 50.0 
!freq	ReS11	ImS11	
500.0	-0.03231072877	0.05403775345	
! Port Impedance	50.00000000000000	0.00000000000000	
501.25	0.1052127644	0.04992974598	
! Port Impedance	50.00000000000000	0.00000000000000	
502.5	0.1133371648	0.04389589196	
! Port Impedance	50.00000000000000	0.00000000000000	
503.75	0.04046766077	-0.06219175824	
! Port Impedance	50.00000000000000	0.00000000000000	
505.0	-0.03445503375	-0.07338511365	
! Port Impedance	50.00000000000000	0.00000000000000	
506.25	-0.08871486753	-0.03781379837	
! Port Impedance	50.00000000000000	0.00000000000000	
507.5	-0.131684603	0.09001556223	
! Port Impedance	50.00000000000000	0.00000000000000	
508.75	0.02565024369	0.1849233093	
! Port Impedance	50.00000000000000	0.00000000000000	
510.0	0.1349092023	0.1331518607	
! Port Impedance	50.00000000000000	0.00000000000000	
511.25	0.04654426778	-0.1142611512	
! Port Impedance	50.00000000000000	0.00000000000000	
512.5	-0.06717467104	-0.06160721764	
! Port Impedance	50.00000000000000	0.00000000000000	
513.75	-0.1272361304	0.08794349236	
! Port Impedance	50.00000000000000	0.00000000000000	
515.0	0.05431428409	0.1965400467	
! Port Impedance	50.00000000000000	0.00000000000000	
516.25	0.1211055982	0.2034632841	
! Port Impedance	50.00000000000000	0.00000000000000	
517.5	0.1578339045	0.1447977427	
! Port Impedance	50.00000000000000	0.00000000000000	
518.75	0.1560856989	0.1083769856	
! Port Impedance	50.00000000000000	0.00000000000000	
520.0	0.1433127003	-0.03656884384	
! Port Impedance	50.00000000000000	0.00000000000000	
521.25	0.0628871428	-0.1315652432	
! Port Impedance	50.00000000000000	0.00000000000000	
522.5	-0.03557767746	-0.124684323	
! Port Impedance	50.00000000000000	0.00000000000000	
523.75	-0.2140644531	-0.2862510269	
! Port Impedance	50.00000000000000	0.00000000000000	
525.0	-0.1094027624	-0.1486302988	
! Port Impedance	50.00000000000000	0.00000000000000	
526.25	-0.1409412551	-0.07534903812	
! Port Impedance	50.00000000000000	0.00000000000000	
527.5	-0.1095350592	0.08879967541	
! Port Impedance	50.00000000000000	0.00000000000000	
528.75	0.03560493476	0.1484298124	
! Port Impedance	50.00000000000000	0.00000000000000	
530.0	0.1704378547	-0.06067735875	
! Port Impedance	50.00000000000000	0.00000000000000	
531.25	0.1024758194	-0.2880957436	
! Port Impedance	50.00000000000000	0.00000000000000	
532.5	-0.1140148104	-0.2413598961	
! Port Impedance	50.00000000000000	0.00000000000000	
533.75	-0.1382483164	-0.1551645119	
! Port Impedance	50.00000000000000	0.00000000000000	
535.0	-0.14220966	-0.08395519974	
! Port Impedance	50.00000000000000	0.00000000000000	
536.25	-0.1385664213	-0.05255860701	
! Port Impedance	50.00000000000000	0.00000000000000	
537.5	-0.1776803256	-0.05676365577	
! Port Impedance	50.00000000000000	0.00000000000000	
538.75	-0.1487674866	0.09833089933	
! Port Impedance	50.00000000000000	0.00000000000000	
540.0	-0.1493306042	0.1412266535	
! Port Impedance	50.00000000000000	0.00000000000000	
541.25	-0.08785912234	0.1329620046	
! Port Impedance	50.00000000000000	0.00000000000000	
542.5	-0.08078798921	0.1305142354	
! Port Impedance	50.00000000000000	0.00000000000000	
543.75	0.04608312763	0.1597422423	
! Port Impedance	50.00000000000000	0.00000000000000	
545.0	0.1671684435	0.02569778835	
! Port Impedance	50.00000000000000	0.00000000000000	
546.25	0.134314477	-0.1098347495	
! Port Impedance	50.00000000000000	0.00000000000000	
547.5	0.1342087836	-0.144894892	
! Port Impedance	50.00000000000000	0.00000000000000	
548.75	0.1662416114	-0.1311667082	
! Port Impedance	50.00000000000000	0.00000000000000	
550.0	0.2170670487	-0.08512851652	
! Port Impedance	50.00000000000000	0.00000000000000	
551.25	0.2043601747	-0.0310981905	
! Port Impedance	50.00000000000000	0.00000000000000	
552.5	0.1485652442	-0.06442679638	
! Port Impedance	50.00000000000000	0.00000000000000	
553.75	0.1122852713	-0.06046148305	
! Port Impedance	50.00000000000000	0.00000000000000	
555.0	0.04274121574	-0.1204862486	
! Port Impedance	50.00000000000000	0.00000000000000	
556.25	0.04575462566	-0.1058726326	
! Port Impedance	50.00000000000000	0.00000000000000	
557.5	0.02908316536	-0.07104285974	
! Port Impedance	50.00000000000000	0.00000000000000	
558.75	0.07402468217	-0.04788992558	
! Port Impedance	50.00000000000000	0.00000000000000	
560.0	0.1121888818	-0.05776956692	
! Port Impedance	50.00000000000000	0.00000000000000	
561.25	0.02574455855	-0.1465988515	
! Port Impedance	50.00000000000000	0.00000000000000	
562.5	-0.07225562812	-0.116401157	
! Port Impedance	50.00000000000000	0.00000000000000	
563.75	-0.1259327568	-0.05835977938	
! Port Impedance	50.00000000000000	0.00000000000000	
565.0	-0.1300931948	-0.07878145804	
! Port Impedance	50.00000000000000	0.00000000000000	
566.25	-0.09569387037	-0.1138940518	
! Port Impedance	50.00000000000000	0.00000000000000	
567.5	-0.0483162493	-0.1238160605	
! Port Impedance	50.00000000000000	0.00000000000000	
568.75	0.02986208526	-0.123627884	
! Port Impedance	50.00000000000000	0.00000000000000	
570.0	0.07003164899	-0.1251242234	
! Port Impedance	50.00000000000000	0.00000000000000	
571.25	-0.01919108158	-0.1716367266	
! Port Impedance	50.00000000000000	0.00000000000000	
572.5	-0.1015673826	-0.1469649496	
! Port Impedance	50.00000000000000	0.00000000000000	
573.75	-0.1609295989	-0.06231626148	
! Port Impedance	50.00000000000000	0.00000000000000	
575.0	-0.1713036257	0.002358010177	
! Port Impedance	50.00000000000000	0.00000000000000	
576.25	-0.1559215506	-0.003192728017	
! Port Impedance	50.00000000000000	0.00000000000000	
577.5	-0.1260073408	0.01979054017	
! Port Impedance	50.00000000000000	0.00000000000000	
578.75	-0.1057033661	-0.04388154951	
! Port Impedance	50.00000000000000	0.00000000000000	
580.0	-0.1078352196	-0.08871331508	
! Port Impedance	50.00000000000000	0.00000000000000	
581.25	-0.1345659292	-0.1070545666	
! Port Impedance	50.00000000000000	0.00000000000000	
582.5	-0.1293813671	-0.1037403298	
! Port Impedance	50.00000000000000	0.00000000000000	
583.75	-0.109956206	-0.1153264056	
! Port Impedance	50.00000000000000	0.00000000000000	
585.0	-0.06347306142	-0.1524940591	
! Port Impedance	50.00000000000000	0.00000000000000	
586.25	-0.0516202289	-0.1488701055	
! Port Impedance	50.00000000000000	0.00000000000000	
587.5	-0.06800010167	-0.1127012946	
! Port Impedance	50.00000000000000	0.00000000000000	
588.75	-0.07778395459	-0.1184288168	
! Port Impedance	50.00000000000000	0.00000000000000	
590.0	-0.113166298	-0.129687562	
! Port Impedance	50.00000000000000	0.00000000000000	
591.25	-0.1312166985	-0.110436785	
! Port Impedance	50.00000000000000	0.00000000000000	
592.5	-0.1007297542	-0.1190403279	
! Port Impedance	50.00000000000000	0.00000000000000	
593.75	-0.03572392358	-0.142024668	
! Port Impedance	50.00000000000000	0.00000000000000	
595.0	0.03943327441	-0.1404537358	
! Port Impedance	50.00000000000000	0.00000000000000	
596.25	0.06303054007	-0.1244961336	
! Port Impedance	50.00000000000000	0.00000000000000	
597.5	0.1347609829	-0.04868965317	
! Port Impedance	50.00000000000000	0.00000000000000	
598.75	0.1722646411	-0.04101431577	
! Port Impedance	50.00000000000000	0.00000000000000	
600.0	0.1785162701	-0.03222491778	
! Port Impedance	50.00000000000000	0.00000000000000	
601.25	0.1493651063	-0.07277193656	
! Port Impedance	50.00000000000000	0.00000000000000	
602.5	0.1342343506	-0.01313541046	
! Port Impedance	50.00000000000000	0.00000000000000	
603.75	0.1259774106	0.03437206014	
! Port Impedance	50.00000000000000	0.00000000000000	
605.0	0.1049352755	0.09567065915	
! Port Impedance	50.00000000000000	0.00000000000000	
606.25	0.01823973954	0.1538820965	
! Port Impedance	50.00000000000000	0.00000000000000	
607.5	-0.006119239217	0.1687040622	
! Port Impedance	50.00000000000000	0.00000000000000	
608.75	-0.03192963036	0.1706471755	
! Port Impedance	50.00000000000000	0.00000000000000	
610.0	-0.0536561153	0.1485603093	
! Port Impedance	50.00000000000000	0.00000000000000	
611.25	-0.1055785325	0.09810462279	
! Port Impedance	50.00000000000000	0.00000000000000	
612.5	-0.1450072317	0.04770193924	
! Port Impedance	50.00000000000000	0.00000000000000	
613.75	-0.1467311715	-0.01947016722	
! Port Impedance	50.00000000000000	0.00000000000000	
615.0	-0.1497576848	-0.04891428923	
! Port Impedance	50.00000000000000	0.00000000000000	
616.25	-0.1273670942	-0.1134673907	
! Port Impedance	50.00000000000000	0.00000000000000	
617.5	-0.08321231806	-0.1481216058	
! Port Impedance	50.00000000000000	0.00000000000000	
618.75	-0.07093568395	-0.125069619	
! Port Impedance	50.00000000000000	0.00000000000000	
620.0	-0.004322584543	-0.1496480527	
! Port Impedance	50.00000000000000	0.00000000000000	
621.25	0.03866756996	-0.1721210958	
! Port Impedance	50.00000000000000	0.00000000000000	
622.5	0.07417790211	-0.1638149903	
! Port Impedance	50.00000000000000	0.00000000000000	
623.75	0.09750583404	-0.111156474	
! Port Impedance	50.00000000000000	0.00000000000000	
625.0	0.1420628299	-0.01420125453	
! Port Impedance	50.00000000000000	0.00000000000000	
626.25	0.1470127569	0.05104791177	
! Port Impedance	50.00000000000000	0.00000000000000	
627.5	0.1091490576	0.1176166473	
! Port Impedance	50.00000000000000	0.00000000000000	
628.75	0.04829767104	0.1773873212	
! Port Impedance	50.00000000000000	0.00000000000000	
630.0	-0.004758370177	0.1857442338	
! Port Impedance	50.00000000000000	0.00000000000000	
631.25	-0.06875761017	0.1345427609	
! Port Impedance	50.00000000000000	0.00000000000000	
632.5	-0.09979705756	0.0871111635	
! Port Impedance	50.00000000000000	0.00000000000000	
633.75	-0.1517771173	0.03426484786	
! Port Impedance	50.00000000000000	0.00000000000000	
635.0	-0.1735847667	-0.01251931659	
! Port Impedance	50.00000000000000	0.00000000000000	
636.25	-0.1696786965	-0.0626538166	
! Port Impedance	50.00000000000000	0.00000000000000	
637.5	-0.1426905926	-0.1115001449	
! Port Impedance	50.00000000000000	0.00000000000000	
638.75	-0.07766432533	-0.1403079127	
! Port Impedance	50.00000000000000	0.00000000000000	
640.0	0.06603862307	-0.124876334	
! Port Impedance	50.00000000000000	0.00000000000000	
641.25	0.1443963295	-0.04848981877	
! Port Impedance	50.00000000000000	0.00000000000000	
642.5	0.1599850586	0.04280297323	
! Port Impedance	50.00000000000000	0.00000000000000	
643.75	0.1346071339	0.1022359205	
! Port Impedance	50.00000000000000	0.00000000000000	
645.0	0.08717901336	0.1357015277	
! Port Impedance	50.00000000000000	0.00000000000000	
646.25	0.0555515852	0.1491483877	
! Port Impedance	50.00000000000000	0.00000000000000	
647.5	-0.0004015973289	0.1692194276	
! Port Impedance	50.00000000000000	0.00000000000000	
648.75	-0.08088089149	0.1499626645	
! Port Impedance	50.00000000000000	0.00000000000000	
650.0	-0.1402420652	0.06598150844	
! Port Impedance	50.00000000000000	0.00000000000000	
651.25	-0.1336519579	-0.0449897612	
! Port Impedance	50.00000000000000	0.00000000000000	
652.5	-0.04097255177	-0.1400206227	
! Port Impedance	50.00000000000000	0.00000000000000	
653.75	0.1090353721	-0.1376818487	
! Port Impedance	50.00000000000000	0.00000000000000	
655.0	0.1595622462	-0.09714143228	
! Port Impedance	50.00000000000000	0.00000000000000	
656.25	0.1653312366	-0.03794135312	
! Port Impedance	50.00000000000000	0.00000000000000	
657.5	0.1555421535	-0.01533549264	
! Port Impedance	50.00000000000000	0.00000000000000	
658.75	0.1506171639	0.04059548849	
! Port Impedance	50.00000000000000	0.00000000000000	
660.0	0.1501958022	0.08081986236	
! Port Impedance	50.00000000000000	0.00000000000000	
661.25	0.1870984647	0.03616337749	
! Port Impedance	50.00000000000000	0.00000000000000	
662.5	0.1753340633	0.08268886278	
! Port Impedance	50.00000000000000	0.00000000000000	
663.75	0.01702078361	0.1633828293	
! Port Impedance	50.00000000000000	0.00000000000000	
665.0	-0.1416148865	0.06214214174	
! Port Impedance	50.00000000000000	0.00000000000000	
666.25	-0.1438014509	-0.1185855036	
! Port Impedance	50.00000000000000	0.00000000000000	
667.5	-0.09671058762	-0.1755818281	
! Port Impedance	50.00000000000000	0.00000000000000	
668.75	0.008433105963	-0.1781169798	
! Port Impedance	50.00000000000000	0.00000000000000	
670.0	0.09308970511	-0.1288200343	
! Port Impedance	50.00000000000000	0.00000000000000	
671.25	0.1396839551	-0.08789083097	
! Port Impedance	50.00000000000000	0.00000000000000	
672.5	0.1735111863	-0.07599545855	
! Port Impedance	50.00000000000000	0.00000000000000	
673.75	0.1908120512	-0.01199751781	
! Port Impedance	50.00000000000000	0.00000000000000	
675.0	0.1268203555	0.1210361067	
! Port Impedance	50.00000000000000	0.00000000000000	
676.25	-0.02188008245	0.1695250485	
! Port Impedance	50.00000000000000	0.00000000000000	
677.5	-0.1323950637	0.1391398841	
! Port Impedance	50.00000000000000	0.00000000000000	
678.75	-0.1803189899	0.07742485989	
! Port Impedance	50.00000000000000	0.00000000000000	
680.0	-0.177960978	-0.0008772713032	
! Port Impedance	50.00000000000000	0.00000000000000	
681.25	-0.1550136942	-0.05979071852	
! Port Impedance	50.00000000000000	0.00000000000000	
682.5	-0.09310899973	-0.1535513997	
! Port Impedance	50.00000000000000	0.00000000000000	
683.75	0.05217591611	-0.1941120566	
! Port Impedance	50.00000000000000	0.00000000000000	
685.0	0.2042428348	-0.06846409984	
! Port Impedance	50.00000000000000	0.00000000000000	
686.25	0.1581702868	0.1259065185	
! Port Impedance	50.00000000000000	0.00000000000000	
687.5	0.02120469027	0.1654143857	
! Port Impedance	50.00000000000000	0.00000000000000	
688.75	-0.1368434495	0.1316422123	
! Port Impedance	50.00000000000000	0.00000000000000	
690.0	-0.2103682769	0.01050487486	
! Port Impedance	50.00000000000000	0.00000000000000	
691.25	-0.2130044862	-0.01163538747	
! Port Impedance	50.00000000000000	0.00000000000000	
692.5	-0.1823506134	0.07257793351	
! Port Impedance	50.00000000000000	0.00000000000000	
693.75	-0.1555442161	0.1250115045	
! Port Impedance	50.00000000000000	0.00000000000000	
695.0	-0.2069431056	-0.07894478699	
! Port Impedance	50.00000000000000	0.00000000000000	
696.25	0.1878873066	-0.1352934172	
! Port Impedance	50.00000000000000	0.00000000000000	
697.5	0.1462378416	0.1446537503	
! Port Impedance	50.00000000000000	0.00000000000000	
698.75	0.01942086873	0.1761861352	
! Port Impedance	50.00000000000000	0.00000000000000	
700.0	-0.08262238285	0.1704123475	
! Port Impedance	50.00000000000000	0.00000000000000	
701.25	-0.172936768	0.1107117004	
! Port Impedance	50.00000000000000	0.00000000000000	
702.5	-0.1937059978	0.05628195557	
! Port Impedance	50.00000000000000	0.00000000000000	
703.75	-0.177377262	0.1075489994	
! Port Impedance	50.00000000000000	0.00000000000000	
705.0	-0.2205193588	-0.002729210605	
! Port Impedance	50.00000000000000	0.00000000000000	
706.25	-0.03652539441	-0.2137849061	
! Port Impedance	50.00000000000000	0.00000000000000	
707.5	0.1896048424	-0.09540301951	
! Port Impedance	50.00000000000000	0.00000000000000	
708.75	0.1371463563	0.1211783759	
! Port Impedance	50.00000000000000	0.00000000000000	
710.0	-0.09093195068	0.1545449355	
! Port Impedance	50.00000000000000	0.00000000000000	
711.25	-0.2177098318	-0.01966143967	
! Port Impedance	50.00000000000000	0.00000000000000	
712.5	-0.2038397609	-0.06460283233	
! Port Impedance	50.00000000000000	0.00000000000000	
713.75	-0.1920964268	0.05000803382	
! Port Impedance	50.00000000000000	0.00000000000000	
715.0	-0.2173220524	0.02358159175	
! Port Impedance	50.00000000000000	0.00000000000000	
716.25	-0.1817077028	-0.1649125649	
! Port Impedance	50.00000000000000	0.00000000000000	
717.5	0.0424265595	-0.233864501	
! Port Impedance	50.00000000000000	0.00000000000000	
718.75	0.1989721923	-0.1010513759	
! Port Impedance	50.00000000000000	0.00000000000000	
720.0	0.0728057177	0.1741570453	
! Port Impedance	50.00000000000000	0.00000000000000	
721.25	-0.1734155565	-0.1060218544	
! Port Impedance	50.00000000000000	0.00000000000000	
722.5	0.09557385493	-0.2245669452	
! Port Impedance	50.00000000000000	0.00000000000000	
723.75	-0.0149552705	-0.2513884676	
! Port Impedance	50.00000000000000	0.00000000000000	
725.0	-0.02173241356	-0.2223658376	
! Port Impedance	50.00000000000000	0.00000000000000	
726.25	0.1129532645	-0.2104643512	
! Port Impedance	50.00000000000000	0.00000000000000	
727.5	0.2435936286	0.03005077703	
! Port Impedance	50.00000000000000	0.00000000000000	
728.75	0.1816600358	0.1765953451	
! Port Impedance	50.00000000000000	0.00000000000000	
730.0	0.2053590032	0.07921115067	
! Port Impedance	50.00000000000000	0.00000000000000	
731.25	-0.01589338396	0.1830099866	
! Port Impedance	50.00000000000000	0.00000000000000	
732.5	-0.1974943038	-0.06863887584	
! Port Impedance	50.00000000000000	0.00000000000000	
733.75	-0.06620521972	-0.2239376319	
! Port Impedance	50.00000000000000	0.00000000000000	
735.0	-0.01162311792	-0.2337131156	
! Port Impedance	50.00000000000000	0.00000000000000	
736.25	0.03432908512	-0.2407945733	
! Port Impedance	50.00000000000000	0.00000000000000	
737.5	0.1911684244	-0.1384798774	
! Port Impedance	50.00000000000000	0.00000000000000	
738.75	0.1897544226	0.1351735035	
! Port Impedance	50.00000000000000	0.00000000000000	
740.0	0.1691328665	0.1781954764	
! Port Impedance	50.00000000000000	0.00000000000000	
741.25	0.04969251622	0.2043498352	
! Port Impedance	50.00000000000000	0.00000000000000	
742.5	-0.2022326309	-0.06452041261	
! Port Impedance	50.00000000000000	0.00000000000000	
743.75	0.03647039084	-0.2291761154	
! Port Impedance	50.00000000000000	0.00000000000000	
745.0	0.1391413713	-0.1598291757	
! Port Impedance	50.00000000000000	0.00000000000000	
746.25	0.1809899955	-0.09698122017	
! Port Impedance	50.00000000000000	0.00000000000000	
747.5	0.1863461871	-0.08811403121	
! Port Impedance	50.00000000000000	0.00000000000000	
748.75	0.178414086	-0.0825811147	
! Port Impedance	50.00000000000000	0.00000000000000	
750.0	0.01042975207	-0.187370558	
! Port Impedance	50.00000000000000	0.00000000000000	
