!Created with mwavepy.
# GHz S RI R 50.0 
!freq	ReS11	ImS11	
500.0	-0.01148303419	0.002660312039	
! Port Impedance	50.00000000000000	0.00000000000000	
501.25	-0.003592322194	0.01429573356	
! Port Impedance	50.00000000000000	0.00000000000000	
502.5	-0.04606019376	0.02650715876	
! Port Impedance	50.00000000000000	0.00000000000000	
503.75	-0.00782395614	0.03584353514	
! Port Impedance	50.00000000000000	0.00000000000000	
505.0	0.02843224276	0.01550100712	
! Port Impedance	50.00000000000000	0.00000000000000	
506.25	0.03292694222	0.001761924861	
! Port Impedance	50.00000000000000	0.00000000000000	
507.5	0.0177910993	-0.008708367569	
! Port Impedance	50.00000000000000	0.00000000000000	
508.75	0.02073410796	0.004702347916	
! Port Impedance	50.00000000000000	0.00000000000000	
510.0	0.02619566754	-0.02987435319	
! Port Impedance	50.00000000000000	0.00000000000000	
511.25	-0.02855607056	-0.009177099111	
! Port Impedance	50.00000000000000	0.00000000000000	
512.5	-0.003990435992	0.005851403826	
! Port Impedance	50.00000000000000	0.00000000000000	
513.75	-0.002094291391	-0.01822976075	
! Port Impedance	50.00000000000000	0.00000000000000	
515.0	-0.006121448652	0.02371227192	
! Port Impedance	50.00000000000000	0.00000000000000	
516.25	0.006987134542	0.06063327056	
! Port Impedance	50.00000000000000	0.00000000000000	
517.5	0.01878659769	0.03348548002	
! Port Impedance	50.00000000000000	0.00000000000000	
518.75	0.02344942873	0.01402849034	
! Port Impedance	50.00000000000000	0.00000000000000	
520.0	0.01485208217	0.0115069932	
! Port Impedance	50.00000000000000	0.00000000000000	
521.25	0.03534003605	0.01342277894	
! Port Impedance	50.00000000000000	0.00000000000000	
522.5	0.03181050859	-0.02242906391	
! Port Impedance	50.00000000000000	0.00000000000000	
523.75	0.008957142484	-0.1132232983	
! Port Impedance	50.00000000000000	0.00000000000000	
525.0	0.00828319003	-0.05146755149	
! Port Impedance	50.00000000000000	0.00000000000000	
526.25	-0.004895165193	-0.02014837451	
! Port Impedance	50.00000000000000	0.00000000000000	
527.5	-0.02383882452	-0.004994802006	
! Port Impedance	50.00000000000000	0.00000000000000	
528.75	-0.03217787496	0.02880913383	
! Port Impedance	50.00000000000000	0.00000000000000	
530.0	0.03311379031	0.01943529264	
! Port Impedance	50.00000000000000	0.00000000000000	
531.25	0.04846904126	-0.0566567501	
! Port Impedance	50.00000000000000	0.00000000000000	
532.5	-0.01357994658	-0.05365154533	
! Port Impedance	50.00000000000000	0.00000000000000	
533.75	-0.02252782179	-0.01276729983	
! Port Impedance	50.00000000000000	0.00000000000000	
535.0	-0.00773651639	0.0009921378682	
! Port Impedance	50.00000000000000	0.00000000000000	
536.25	-0.008954886529	-0.01330972669	
! Port Impedance	50.00000000000000	0.00000000000000	
537.5	-0.01738094976	-0.01006285996	
! Port Impedance	50.00000000000000	0.00000000000000	
538.75	-0.001254607104	0.02045732932	
! Port Impedance	50.00000000000000	0.00000000000000	
540.0	0.01606943822	0.0009029876574	
! Port Impedance	50.00000000000000	0.00000000000000	
541.25	0.0007304576143	-0.0342671651	
! Port Impedance	50.00000000000000	0.00000000000000	
542.5	-0.03243251553	-0.01537858184	
! Port Impedance	50.00000000000000	0.00000000000000	
543.75	-0.02618311007	0.03447237624	
! Port Impedance	50.00000000000000	0.00000000000000	
545.0	0.02271420208	0.02164755446	
! Port Impedance	50.00000000000000	0.00000000000000	
546.25	0.02481828947	-0.01196916774	
! Port Impedance	50.00000000000000	0.00000000000000	
547.5	0.03665243982	-0.006605936853	
! Port Impedance	50.00000000000000	0.00000000000000	
548.75	0.04336312617	-0.002175299395	
! Port Impedance	50.00000000000000	0.00000000000000	
550.0	0.05565880668	-0.01929946463	
! Port Impedance	50.00000000000000	0.00000000000000	
551.25	0.05600715913	-0.02670414361	
! Port Impedance	50.00000000000000	0.00000000000000	
552.5	0.01183180333	-0.03091121355	
! Port Impedance	50.00000000000000	0.00000000000000	
553.75	-0.01260074809	-0.02112856174	
! Port Impedance	50.00000000000000	0.00000000000000	
555.0	-0.0127129706	-0.0211781445	
! Port Impedance	50.00000000000000	0.00000000000000	
556.25	-0.01308729657	-0.01277821121	
! Port Impedance	50.00000000000000	0.00000000000000	
557.5	-0.0237832597	0.02046310373	
! Port Impedance	50.00000000000000	0.00000000000000	
558.75	-0.01201016544	0.02252215557	
! Port Impedance	50.00000000000000	0.00000000000000	
560.0	0.0239896848	0.01151892751	
! Port Impedance	50.00000000000000	0.00000000000000	
561.25	0.009546134463	-0.01890831224	
! Port Impedance	50.00000000000000	0.00000000000000	
562.5	-0.01068788144	3.359029062e-05	
! Port Impedance	50.00000000000000	0.00000000000000	
563.75	-0.002040739223	0.008602102664	
! Port Impedance	50.00000000000000	0.00000000000000	
565.0	-0.002235074264	-0.005094414075	
! Port Impedance	50.00000000000000	0.00000000000000	
566.25	-0.0007156044457	-0.0008352801681	
! Port Impedance	50.00000000000000	0.00000000000000	
567.5	-0.005460123936	0.01206738609	
! Port Impedance	50.00000000000000	0.00000000000000	
568.75	0.01329467904	0.01700966481	
! Port Impedance	50.00000000000000	0.00000000000000	
570.0	0.03005527434	0.01087394104	
! Port Impedance	50.00000000000000	0.00000000000000	
571.25	0.01381551322	-0.03403038985	
! Port Impedance	50.00000000000000	0.00000000000000	
572.5	-0.01847384437	-0.03196361856	
! Port Impedance	50.00000000000000	0.00000000000000	
573.75	-0.02203805745	0.007468456209	
! Port Impedance	50.00000000000000	0.00000000000000	
575.0	-0.01249700474	0.01972018922	
! Port Impedance	50.00000000000000	0.00000000000000	
576.25	-0.01192697314	0.01415006091	
! Port Impedance	50.00000000000000	0.00000000000000	
577.5	0.01275182496	0.01251573031	
! Port Impedance	50.00000000000000	0.00000000000000	
578.75	0.02616179871	0.00780745451	
! Port Impedance	50.00000000000000	0.00000000000000	
580.0	0.02117167012	-0.0158886247	
! Port Impedance	50.00000000000000	0.00000000000000	
581.25	-0.006905881087	-0.03616407072	
! Port Impedance	50.00000000000000	0.00000000000000	
582.5	-0.01434041443	-0.01883610347	
! Port Impedance	50.00000000000000	0.00000000000000	
583.75	-0.0144436513	0.002172674569	
! Port Impedance	50.00000000000000	0.00000000000000	
585.0	-0.01260892295	-0.01596088645	
! Port Impedance	50.00000000000000	0.00000000000000	
586.25	-0.009955667671	-0.01078005884	
! Port Impedance	50.00000000000000	0.00000000000000	
587.5	-0.01018635062	0.01682533363	
! Port Impedance	50.00000000000000	0.00000000000000	
588.75	0.008412582824	0.007139612169	
! Port Impedance	50.00000000000000	0.00000000000000	
590.0	0.004911726544	-0.02021361388	
! Port Impedance	50.00000000000000	0.00000000000000	
591.25	-0.01424302148	-0.01445956219	
! Port Impedance	50.00000000000000	0.00000000000000	
592.5	-0.01591014265	0.004231640362	
! Port Impedance	50.00000000000000	0.00000000000000	
593.75	-0.008972343177	0.007175766612	
! Port Impedance	50.00000000000000	0.00000000000000	
595.0	-0.0008762435278	0.007554629615	
! Port Impedance	50.00000000000000	0.00000000000000	
596.25	0.00167980466	0.009600823568	
! Port Impedance	50.00000000000000	0.00000000000000	
597.5	0.007694406941	0.01611440251	
! Port Impedance	50.00000000000000	0.00000000000000	
598.75	0.03048337254	0.01421690812	
! Port Impedance	50.00000000000000	0.00000000000000	
600.0	0.02761346611	-0.007796163191	
! Port Impedance	50.00000000000000	0.00000000000000	
601.25	0.007190911538	-0.03773218137	
! Port Impedance	50.00000000000000	0.00000000000000	
602.5	-0.009597011035	-0.01470140956	
! Port Impedance	50.00000000000000	0.00000000000000	
603.75	-0.02216517589	0.005781705016	
! Port Impedance	50.00000000000000	0.00000000000000	
605.0	-0.01636871963	-0.003471194906	
! Port Impedance	50.00000000000000	0.00000000000000	
606.25	-0.008955596786	0.01112469814	
! Port Impedance	50.00000000000000	0.00000000000000	
607.5	-0.01900215621	0.025162669	
! Port Impedance	50.00000000000000	0.00000000000000	
608.75	-0.007220821909	0.01979724591	
! Port Impedance	50.00000000000000	0.00000000000000	
610.0	0.01831089393	0.01563778203	
! Port Impedance	50.00000000000000	0.00000000000000	
611.25	0.009512680239	0.0103244695	
! Port Impedance	50.00000000000000	0.00000000000000	
612.5	-0.007030035322	-0.008721342194	
! Port Impedance	50.00000000000000	0.00000000000000	
613.75	0.01407020911	-0.01026757303	
! Port Impedance	50.00000000000000	0.00000000000000	
615.0	0.002018179589	0.001651507235	
! Port Impedance	50.00000000000000	0.00000000000000	
616.25	-0.01519471288	-0.01931792982	
! Port Impedance	50.00000000000000	0.00000000000000	
617.5	-0.008402599774	-0.01373557786	
! Port Impedance	50.00000000000000	0.00000000000000	
618.75	-0.00352896017	0.02059891585	
! Port Impedance	50.00000000000000	0.00000000000000	
620.0	0.01307580725	0.005922570135	
! Port Impedance	50.00000000000000	0.00000000000000	
621.25	0.01861807867	-0.03008762255	
! Port Impedance	50.00000000000000	0.00000000000000	
622.5	-0.002907766932	-0.02850499909	
! Port Impedance	50.00000000000000	0.00000000000000	
623.75	-0.02625379065	-0.00691965377	
! Port Impedance	50.00000000000000	0.00000000000000	
625.0	-0.01713857094	-0.00380987014	
! Port Impedance	50.00000000000000	0.00000000000000	
626.25	-0.003296855759	0.01323358504	
! Port Impedance	50.00000000000000	0.00000000000000	
627.5	-0.01519229352	0.01548122667	
! Port Impedance	50.00000000000000	0.00000000000000	
628.75	-0.009743220118	0.02148258613	
! Port Impedance	50.00000000000000	0.00000000000000	
630.0	0.008724568241	0.0334724397	
! Port Impedance	50.00000000000000	0.00000000000000	
631.25	0.01796445655	0.01350451117	
! Port Impedance	50.00000000000000	0.00000000000000	
632.5	0.02901636539	-0.01224994219	
! Port Impedance	50.00000000000000	0.00000000000000	
633.75	0.003368325557	-0.0220441241	
! Port Impedance	50.00000000000000	0.00000000000000	
635.0	-0.0136080633	-0.02502671953	
! Port Impedance	50.00000000000000	0.00000000000000	
636.25	-0.01516315442	-0.01666903907	
! Port Impedance	50.00000000000000	0.00000000000000	
637.5	-0.0231450797	-0.002530476137	
! Port Impedance	50.00000000000000	0.00000000000000	
638.75	-0.02234836688	0.008617086266	
! Port Impedance	50.00000000000000	0.00000000000000	
640.0	-0.00246562765	0.01215243051	
! Port Impedance	50.00000000000000	0.00000000000000	
641.25	0.006515890898	0.01810993964	
! Port Impedance	50.00000000000000	0.00000000000000	
642.5	0.01056687711	0.00290670288	
! Port Impedance	50.00000000000000	0.00000000000000	
643.75	0.01242500956	0.001270177822	
! Port Impedance	50.00000000000000	0.00000000000000	
645.0	-0.005775348333	0.009619226733	
! Port Impedance	50.00000000000000	0.00000000000000	
646.25	-0.004221358937	0.0004986240951	
! Port Impedance	50.00000000000000	0.00000000000000	
647.5	0.0001632945061	0.005722950448	
! Port Impedance	50.00000000000000	0.00000000000000	
648.75	-0.007542398511	0.0137359681	
! Port Impedance	50.00000000000000	0.00000000000000	
650.0	-0.005761241532	0.008536120316	
! Port Impedance	50.00000000000000	0.00000000000000	
651.25	0.007448480374	0.011585051	
! Port Impedance	50.00000000000000	0.00000000000000	
652.5	0.01346478832	0.007139763209	
! Port Impedance	50.00000000000000	0.00000000000000	
653.75	0.0244983248	-0.001562732566	
! Port Impedance	50.00000000000000	0.00000000000000	
655.0	0.02383702693	-0.01527230481	
! Port Impedance	50.00000000000000	0.00000000000000	
656.25	0.001160695513	-0.01902148662	
! Port Impedance	50.00000000000000	0.00000000000000	
657.5	-0.01326313714	-0.01605627754	
! Port Impedance	50.00000000000000	0.00000000000000	
658.75	-0.01767162304	0.007848354818	
! Port Impedance	50.00000000000000	0.00000000000000	
660.0	-0.006122934528	0.02526674032	
! Port Impedance	50.00000000000000	0.00000000000000	
661.25	0.02481812128	0.007790519764	
! Port Impedance	50.00000000000000	0.00000000000000	
662.5	0.02688197565	-0.008005020938	
! Port Impedance	50.00000000000000	0.00000000000000	
663.75	0.01284878233	-0.0150314502	
! Port Impedance	50.00000000000000	0.00000000000000	
665.0	0.01264106071	-0.02058895279	
! Port Impedance	50.00000000000000	0.00000000000000	
666.25	-0.001258703773	-0.02488786633	
! Port Impedance	50.00000000000000	0.00000000000000	
667.5	-0.008877881997	-0.02068329261	
! Port Impedance	50.00000000000000	0.00000000000000	
668.75	-0.01172886455	-0.008946212866	
! Port Impedance	50.00000000000000	0.00000000000000	
670.0	-0.007822713939	0.001441939458	
! Port Impedance	50.00000000000000	0.00000000000000	
671.25	0.0003024884511	0.007206135071	
! Port Impedance	50.00000000000000	0.00000000000000	
672.5	0.01330360749	0.006012621981	
! Port Impedance	50.00000000000000	0.00000000000000	
673.75	0.01127503631	-0.001507934133	
! Port Impedance	50.00000000000000	0.00000000000000	
675.0	0.004489968509	-0.009386025153	
! Port Impedance	50.00000000000000	0.00000000000000	
676.25	-0.001842746749	-0.002697389574	
! Port Impedance	50.00000000000000	0.00000000000000	
677.5	-0.02725114753	-0.001022503636	
! Port Impedance	50.00000000000000	0.00000000000000	
678.75	-0.01617817961	0.009373077363	
! Port Impedance	50.00000000000000	0.00000000000000	
680.0	-0.005416795581	0.02210130734	
! Port Impedance	50.00000000000000	0.00000000000000	
681.25	0.006711782054	0.00379622693	
! Port Impedance	50.00000000000000	0.00000000000000	
682.5	0.01984579327	-0.007451123659	
! Port Impedance	50.00000000000000	0.00000000000000	
683.75	0.01734950885	-0.003259034048	
! Port Impedance	50.00000000000000	0.00000000000000	
685.0	0.0216461478	-0.01417526788	
! Port Impedance	50.00000000000000	0.00000000000000	
686.25	0.02740923376	-0.01022581397	
! Port Impedance	50.00000000000000	0.00000000000000	
687.5	0.002361073889	-0.02632823051	
! Port Impedance	50.00000000000000	0.00000000000000	
688.75	-0.01958182852	-0.02611188026	
! Port Impedance	50.00000000000000	0.00000000000000	
690.0	-0.02211688277	-0.005590442307	
! Port Impedance	50.00000000000000	0.00000000000000	
691.25	-0.02237238347	0.01420862185	
! Port Impedance	50.00000000000000	0.00000000000000	
692.5	0.009496743955	-0.001842536654	
! Port Impedance	50.00000000000000	0.00000000000000	
693.75	0.01137074381	-0.01747833889	
! Port Impedance	50.00000000000000	0.00000000000000	
695.0	-0.002471458869	-0.01333348745	
! Port Impedance	50.00000000000000	0.00000000000000	
696.25	0.02712663799	-0.01372969804	
! Port Impedance	50.00000000000000	0.00000000000000	
697.5	0.01098743722	-0.002540236379	
! Port Impedance	50.00000000000000	0.00000000000000	
698.75	0.001644346882	-0.01613637947	
! Port Impedance	50.00000000000000	0.00000000000000	
700.0	-0.0159638717	-0.001489773944	
! Port Impedance	50.00000000000000	0.00000000000000	
701.25	-0.01704161086	0.005891844684	
! Port Impedance	50.00000000000000	0.00000000000000	
702.5	-0.004843706612	0.002199733785	
! Port Impedance	50.00000000000000	0.00000000000000	
703.75	0.00223661049	-0.002279390145	
! Port Impedance	50.00000000000000	0.00000000000000	
705.0	-0.006156537615	0.001059449986	
! Port Impedance	50.00000000000000	0.00000000000000	
706.25	0.005464293332	-0.009113714302	
! Port Impedance	50.00000000000000	0.00000000000000	
707.5	0.008968043999	-0.0003387612619	
! Port Impedance	50.00000000000000	0.00000000000000	
708.75	0.002067176214	-0.01750617563	
! Port Impedance	50.00000000000000	0.00000000000000	
710.0	-0.004186615676	-0.01131165961	
! Port Impedance	50.00000000000000	0.00000000000000	
711.25	-0.02942018763	-0.0185532556	
! Port Impedance	50.00000000000000	0.00000000000000	
712.5	-0.0207561478	0.008305690528	
! Port Impedance	50.00000000000000	0.00000000000000	
713.75	0.0187256069	0.01777979952	
! Port Impedance	50.00000000000000	0.00000000000000	
715.0	0.00826615698	-0.01236404822	
! Port Impedance	50.00000000000000	0.00000000000000	
716.25	-0.0001466997856	-0.02191326514	
! Port Impedance	50.00000000000000	0.00000000000000	
717.5	0.0013352875	-0.01660709608	
! Port Impedance	50.00000000000000	0.00000000000000	
718.75	-0.001923703871	-0.02297499587	
! Port Impedance	50.00000000000000	0.00000000000000	
720.0	0.00249125411	-0.02338992375	
! Port Impedance	50.00000000000000	0.00000000000000	
721.25	0.01337009528	-0.02372808147	
! Port Impedance	50.00000000000000	0.00000000000000	
722.5	0.02313356404	-0.02176558808	
! Port Impedance	50.00000000000000	0.00000000000000	
723.75	-0.03209639604	-0.003209648883	
! Port Impedance	50.00000000000000	0.00000000000000	
725.0	-0.00391272485	0.0189807535	
! Port Impedance	50.00000000000000	0.00000000000000	
726.25	0.02581853048	0.00299536211	
! Port Impedance	50.00000000000000	0.00000000000000	
727.5	0.01244387096	0.01288722142	
! Port Impedance	50.00000000000000	0.00000000000000	
728.75	0.01974081127	0.006613880525	
! Port Impedance	50.00000000000000	0.00000000000000	
730.0	0.006621375204	-0.01688667592	
! Port Impedance	50.00000000000000	0.00000000000000	
731.25	-0.01822467553	-0.01452658359	
! Port Impedance	50.00000000000000	0.00000000000000	
732.5	-0.01189446609	-0.02125221446	
! Port Impedance	50.00000000000000	0.00000000000000	
733.75	-0.0212916799	-0.01914187124	
! Port Impedance	50.00000000000000	0.00000000000000	
735.0	-0.002855182485	0.01989000034	
! Port Impedance	50.00000000000000	0.00000000000000	
736.25	0.02281254717	-0.0006651961141	
! Port Impedance	50.00000000000000	0.00000000000000	
737.5	0.01075221247	-0.01049242988	
! Port Impedance	50.00000000000000	0.00000000000000	
738.75	0.009844429542	-0.003232563709	
! Port Impedance	50.00000000000000	0.00000000000000	
740.0	0.002157676781	0.002852685323	
! Port Impedance	50.00000000000000	0.00000000000000	
741.25	-0.01546101265	-0.005089407029	
! Port Impedance	50.00000000000000	0.00000000000000	
742.5	-0.008457923802	-0.02022449177	
! Port Impedance	50.00000000000000	0.00000000000000	
743.75	-0.02029807735	-0.03581652063	
! Port Impedance	50.00000000000000	0.00000000000000	
745.0	-0.02549324978	-0.00522269332	
! Port Impedance	50.00000000000000	0.00000000000000	
746.25	0.01936742574	0.04704817861	
! Port Impedance	50.00000000000000	0.00000000000000	
747.5	0.02018298232	-0.007337189971	
! Port Impedance	50.00000000000000	0.00000000000000	
748.75	0.007172465888	-0.03365744856	
! Port Impedance	50.00000000000000	0.00000000000000	
750.0	-0.01099859807	0.004637041066	
! Port Impedance	50.00000000000000	0.00000000000000	
