!Created with mwavepy.
# GHz S RI R 50.0 
!freq	ReS11	ImS11	
500.0	-0.510752573815	0.859727752455	
! Port Impedance	50.00000000000000	0.00000000000000	
501.25	-0.504913255859	0.863170089877	
! Port Impedance	50.00000000000000	0.00000000000000	
502.5	-0.499074196681	0.866559257182	
! Port Impedance	50.00000000000000	0.00000000000000	
503.75	-0.493235485578	0.869895830411	
! Port Impedance	50.00000000000000	0.00000000000000	
505.0	-0.487397211825	0.873180369629	
! Port Impedance	50.00000000000000	0.00000000000000	
506.25	-0.481559464668	0.876413419562	
! Port Impedance	50.00000000000000	0.00000000000000	
507.5	-0.475722333325	0.879595510207	
! Port Impedance	50.00000000000000	0.00000000000000	
508.75	-0.469885906985	0.882727157403	
! Port Impedance	50.00000000000000	0.00000000000000	
510.0	-0.464050274804	0.885808863387	
! Port Impedance	50.00000000000000	0.00000000000000	
511.25	-0.458215525905	0.888841117309	
! Port Impedance	50.00000000000000	0.00000000000000	
512.5	-0.452381749379	0.891824395735	
! Port Impedance	50.00000000000000	0.00000000000000	
513.75	-0.446549034278	0.894759163119	
! Port Impedance	50.00000000000000	0.00000000000000	
515.0	-0.440717469619	0.897645872253	
! Port Impedance	50.00000000000000	0.00000000000000	
516.25	-0.43488714438	0.900484964701	
! Port Impedance	50.00000000000000	0.00000000000000	
517.5	-0.429058147496	0.903276871212	
! Port Impedance	50.00000000000000	0.00000000000000	
518.75	-0.423230567864	0.906022012109	
! Port Impedance	50.00000000000000	0.00000000000000	
520.0	-0.417404494336	0.908720797665	
! Port Impedance	50.00000000000000	0.00000000000000	
521.25	-0.411580015718	0.911373628465	
! Port Impedance	50.00000000000000	0.00000000000000	
522.5	-0.405757220772	0.913980895747	
! Port Impedance	50.00000000000000	0.00000000000000	
523.75	-0.399936198212	0.916542981731	
! Port Impedance	50.00000000000000	0.00000000000000	
525.0	-0.394117036701	0.91906025993	
! Port Impedance	50.00000000000000	0.00000000000000	
526.25	-0.388299824855	0.921533095454	
! Port Impedance	50.00000000000000	0.00000000000000	
527.5	-0.382484651234	0.9239618453	
! Port Impedance	50.00000000000000	0.00000000000000	
528.75	-0.376671604347	0.926346858622	
! Port Impedance	50.00000000000000	0.00000000000000	
530.0	-0.370860772648	0.928688476999	
! Port Impedance	50.00000000000000	0.00000000000000	
531.25	-0.365052244532	0.930987034691	
! Port Impedance	50.00000000000000	0.00000000000000	
532.5	-0.359246108341	0.933242858875	
! Port Impedance	50.00000000000000	0.00000000000000	
533.75	-0.353442452352	0.935456269889	
! Port Impedance	50.00000000000000	0.00000000000000	
535.0	-0.347641364786	0.937627581447	
! Port Impedance	50.00000000000000	0.00000000000000	
536.25	-0.341842933798	0.939757100857	
! Port Impedance	50.00000000000000	0.00000000000000	
537.5	-0.336047247483	0.941845129233	
! Port Impedance	50.00000000000000	0.00000000000000	
538.75	-0.330254393867	0.943891961684	
! Port Impedance	50.00000000000000	0.00000000000000	
540.0	-0.324464460913	0.945897887515	
! Port Impedance	50.00000000000000	0.00000000000000	
541.25	-0.318677536512	0.947863190404	
! Port Impedance	50.00000000000000	0.00000000000000	
542.5	-0.312893708489	0.949788148582	
! Port Impedance	50.00000000000000	0.00000000000000	
543.75	-0.307113064597	0.951673035004	
! Port Impedance	50.00000000000000	0.00000000000000	
545.0	-0.301335692516	0.953518117508	
! Port Impedance	50.00000000000000	0.00000000000000	
546.25	-0.295561679852	0.955323658978	
! Port Impedance	50.00000000000000	0.00000000000000	
547.5	-0.289791114136	0.957089917494	
! Port Impedance	50.00000000000000	0.00000000000000	
548.75	-0.284024082823	0.958817146476	
! Port Impedance	50.00000000000000	0.00000000000000	
550.0	-0.278260673289	0.960505594831	
! Port Impedance	50.00000000000000	0.00000000000000	
551.25	-0.27250097283	0.962155507081	
! Port Impedance	50.00000000000000	0.00000000000000	
552.5	-0.266745068662	0.963767123503	
! Port Impedance	50.00000000000000	0.00000000000000	
553.75	-0.260993047918	0.965340680246	
! Port Impedance	50.00000000000000	0.00000000000000	
555.0	-0.255244997647	0.966876409463	
! Port Impedance	50.00000000000000	0.00000000000000	
556.25	-0.249501004812	0.96837453942	
! Port Impedance	50.00000000000000	0.00000000000000	
557.5	-0.24376115629	0.969835294617	
! Port Impedance	50.00000000000000	0.00000000000000	
558.75	-0.238025538871	0.97125889589	
! Port Impedance	50.00000000000000	0.00000000000000	
560.0	-0.232294239252	0.972645560526	
! Port Impedance	50.00000000000000	0.00000000000000	
561.25	-0.226567344042	0.973995502358	
! Port Impedance	50.00000000000000	0.00000000000000	
562.5	-0.220844939755	0.97530893187	
! Port Impedance	50.00000000000000	0.00000000000000	
563.75	-0.215127112814	0.976586056286	
! Port Impedance	50.00000000000000	0.00000000000000	
565.0	-0.209413949543	0.97782707967	
! Port Impedance	50.00000000000000	0.00000000000000	
566.25	-0.203705536173	0.979032203011	
! Port Impedance	50.00000000000000	0.00000000000000	
567.5	-0.198001958834	0.980201624309	
! Port Impedance	50.00000000000000	0.00000000000000	
568.75	-0.192303303557	0.981335538662	
! Port Impedance	50.00000000000000	0.00000000000000	
570.0	-0.186609656272	0.982434138345	
! Port Impedance	50.00000000000000	0.00000000000000	
571.25	-0.180921102807	0.983497612889	
! Port Impedance	50.00000000000000	0.00000000000000	
572.5	-0.175237728887	0.984526149157	
! Port Impedance	50.00000000000000	0.00000000000000	
573.75	-0.169559620128	0.985519931418	
! Port Impedance	50.00000000000000	0.00000000000000	
575.0	-0.163886862044	0.986479141416	
! Port Impedance	50.00000000000000	0.00000000000000	
576.25	-0.158219540038	0.987403958444	
! Port Impedance	50.00000000000000	0.00000000000000	
577.5	-0.152557739405	0.988294559404	
! Port Impedance	50.00000000000000	0.00000000000000	
578.75	-0.146901545326	0.98915111888	
! Port Impedance	50.00000000000000	0.00000000000000	
580.0	-0.141251042874	0.989973809192	
! Port Impedance	50.00000000000000	0.00000000000000	
581.25	-0.135606317006	0.990762800466	
! Port Impedance	50.00000000000000	0.00000000000000	
582.5	-0.129967452563	0.991518260686	
! Port Impedance	50.00000000000000	0.00000000000000	
583.75	-0.124334534272	0.992240355754	
! Port Impedance	50.00000000000000	0.00000000000000	
585.0	-0.11870764674	0.992929249547	
! Port Impedance	50.00000000000000	0.00000000000000	
586.25	-0.113086874455	0.993585103967	
! Port Impedance	50.00000000000000	0.00000000000000	
587.5	-0.107472301785	0.994208079	
! Port Impedance	50.00000000000000	0.00000000000000	
588.75	-0.101864012976	0.994798332759	
! Port Impedance	50.00000000000000	0.00000000000000	
590.0	-0.0962620921495	0.99535602154	
! Port Impedance	50.00000000000000	0.00000000000000	
591.25	-0.0906666233035	0.995881299864	
! Port Impedance	50.00000000000000	0.00000000000000	
592.5	-0.0850776903087	0.99637432053	
! Port Impedance	50.00000000000000	0.00000000000000	
593.75	-0.0794953769088	0.996835234655	
! Port Impedance	50.00000000000000	0.00000000000000	
595.0	-0.0739197667182	0.997264191721	
! Port Impedance	50.00000000000000	0.00000000000000	
596.25	-0.0683509432212	0.997661339614	
! Port Impedance	50.00000000000000	0.00000000000000	
597.5	-0.0627889897703	0.998026824671	
! Port Impedance	50.00000000000000	0.00000000000000	
598.75	-0.0572339895848	0.998360791716	
! Port Impedance	50.00000000000000	0.00000000000000	
600.0	-0.0516860257497	0.9986633841	
! Port Impedance	50.00000000000000	0.00000000000000	
601.25	-0.0461451812141	0.99893474374	
! Port Impedance	50.00000000000000	0.00000000000000	
602.5	-0.04061153879	0.999175011155	
! Port Impedance	50.00000000000000	0.00000000000000	
603.75	-0.0350851811508	0.999384325504	
! Port Impedance	50.00000000000000	0.00000000000000	
605.0	-0.0295661908301	0.999562824619	
! Port Impedance	50.00000000000000	0.00000000000000	
606.25	-0.0240546502201	0.999710645038	
! Port Impedance	50.00000000000000	0.00000000000000	
607.5	-0.0185506415705	0.999827922043	
! Port Impedance	50.00000000000000	0.00000000000000	
608.75	-0.0130542469871	0.999914789687	
! Port Impedance	50.00000000000000	0.00000000000000	
610.0	-0.00756554843026	0.999971380829	
! Port Impedance	50.00000000000000	0.00000000000000	
611.25	-0.00208462771392	0.999997827161	
! Port Impedance	50.00000000000000	0.00000000000000	
612.5	0.00338843349611	0.999994259243	
! Port Impedance	50.00000000000000	0.00000000000000	
613.75	0.0088535536833	0.999960806526	
! Port Impedance	50.00000000000000	0.00000000000000	
615.0	0.0143106514818	0.999897597384	
! Port Impedance	50.00000000000000	0.00000000000000	
616.25	0.0197596456776	0.999804759142	
! Port Impedance	50.00000000000000	0.00000000000000	
617.5	0.0252004552102	0.999682418099	
! Port Impedance	50.00000000000000	0.00000000000000	
618.75	0.0306329991736	0.999530699559	
! Port Impedance	50.00000000000000	0.00000000000000	
620.0	0.0360571968178	0.999349727852	
! Port Impedance	50.00000000000000	0.00000000000000	
621.25	0.0414729675502	0.99913962636	
! Port Impedance	50.00000000000000	0.00000000000000	
622.5	0.0468802309366	0.998900517543	
! Port Impedance	50.00000000000000	0.00000000000000	
623.75	0.0522789067029	0.99863252296	
! Port Impedance	50.00000000000000	0.00000000000000	
625.0	0.0576689147361	0.998335763295	
! Port Impedance	50.00000000000000	0.00000000000000	
626.25	0.0630501750858	0.998010358374	
! Port Impedance	50.00000000000000	0.00000000000000	
627.5	0.0684226079655	0.997656427193	
! Port Impedance	50.00000000000000	0.00000000000000	
628.75	0.0737861337539	0.997274087935	
! Port Impedance	50.00000000000000	0.00000000000000	
630.0	0.079140672996	0.996863457991	
! Port Impedance	50.00000000000000	0.00000000000000	
631.25	0.0844861464047	0.996424653983	
! Port Impedance	50.00000000000000	0.00000000000000	
632.5	0.0898224748619	0.995957791781	
! Port Impedance	50.00000000000000	0.00000000000000	
633.75	0.0951495794199	0.995462986522	
! Port Impedance	50.00000000000000	0.00000000000000	
635.0	0.100467381303	0.994940352631	
! Port Impedance	50.00000000000000	0.00000000000000	
636.25	0.105775801907	0.994390003837	
! Port Impedance	50.00000000000000	0.00000000000000	
637.5	0.111074762804	0.993812053191	
! Port Impedance	50.00000000000000	0.00000000000000	
638.75	0.116364185739	0.993206613086	
! Port Impedance	50.00000000000000	0.00000000000000	
640.0	0.121643992638	0.992573795269	
! Port Impedance	50.00000000000000	0.00000000000000	
641.25	0.1269141056	0.991913710864	
! Port Impedance	50.00000000000000	0.00000000000000	
642.5	0.132174446906	0.991226470382	
! Port Impedance	50.00000000000000	0.00000000000000	
643.75	0.137424939019	0.990512183739	
! Port Impedance	50.00000000000000	0.00000000000000	
645.0	0.14266550458	0.989770960275	
! Port Impedance	50.00000000000000	0.00000000000000	
646.25	0.147896066417	0.989002908761	
! Port Impedance	50.00000000000000	0.00000000000000	
647.5	0.153116547539	0.988208137423	
! Port Impedance	50.00000000000000	0.00000000000000	
648.75	0.158326871143	0.987386753949	
! Port Impedance	50.00000000000000	0.00000000000000	
650.0	0.163526960613	0.986538865505	
! Port Impedance	50.00000000000000	0.00000000000000	
651.25	0.168716739518	0.985664578752	
! Port Impedance	50.00000000000000	0.00000000000000	
652.5	0.173896131621	0.984763999853	
! Port Impedance	50.00000000000000	0.00000000000000	
653.75	0.179065060873	0.983837234493	
! Port Impedance	50.00000000000000	0.00000000000000	
655.0	0.184223451416	0.982884387885	
! Port Impedance	50.00000000000000	0.00000000000000	
656.25	0.189371227586	0.981905564788	
! Port Impedance	50.00000000000000	0.00000000000000	
657.5	0.194508313915	0.980900869516	
! Port Impedance	50.00000000000000	0.00000000000000	
658.75	0.199634635129	0.97987040595	
! Port Impedance	50.00000000000000	0.00000000000000	
660.0	0.20475011615	0.97881427755	
! Port Impedance	50.00000000000000	0.00000000000000	
661.25	0.209854682099	0.977732587368	
! Port Impedance	50.00000000000000	0.00000000000000	
662.5	0.214948258296	0.976625438055	
! Port Impedance	50.00000000000000	0.00000000000000	
663.75	0.220030770263	0.975492931875	
! Port Impedance	50.00000000000000	0.00000000000000	
665.0	0.225102143721	0.974335170715	
! Port Impedance	50.00000000000000	0.00000000000000	
666.25	0.230162304595	0.973152256095	
! Port Impedance	50.00000000000000	0.00000000000000	
667.5	0.235211179014	0.971944289179	
! Port Impedance	50.00000000000000	0.00000000000000	
668.75	0.240248693314	0.97071137078	
! Port Impedance	50.00000000000000	0.00000000000000	
670.0	0.245274774034	0.969453601377	
! Port Impedance	50.00000000000000	0.00000000000000	
671.25	0.250289347924	0.968171081119	
! Port Impedance	50.00000000000000	0.00000000000000	
672.5	0.25529234194	0.966863909838	
! Port Impedance	50.00000000000000	0.00000000000000	
673.75	0.260283683251	0.965532187052	
! Port Impedance	50.00000000000000	0.00000000000000	
675.0	0.265263299235	0.964176011981	
! Port Impedance	50.00000000000000	0.00000000000000	
676.25	0.270231117482	0.96279548355	
! Port Impedance	50.00000000000000	0.00000000000000	
677.5	0.275187065799	0.961390700401	
! Port Impedance	50.00000000000000	0.00000000000000	
678.75	0.280131072203	0.959961760898	
! Port Impedance	50.00000000000000	0.00000000000000	
680.0	0.28506306493	0.958508763138	
! Port Impedance	50.00000000000000	0.00000000000000	
681.25	0.289982972433	0.957031804957	
! Port Impedance	50.00000000000000	0.00000000000000	
682.5	0.294890723383	0.955530983937	
! Port Impedance	50.00000000000000	0.00000000000000	
683.75	0.299786246668	0.954006397415	
! Port Impedance	50.00000000000000	0.00000000000000	
685.0	0.304669471401	0.952458142491	
! Port Impedance	50.00000000000000	0.00000000000000	
686.25	0.309540326912	0.950886316031	
! Port Impedance	50.00000000000000	0.00000000000000	
687.5	0.314398742758	0.94929101468	
! Port Impedance	50.00000000000000	0.00000000000000	
688.75	0.319244648716	0.947672334864	
! Port Impedance	50.00000000000000	0.00000000000000	
690.0	0.324077974793	0.946030372797	
! Port Impedance	50.00000000000000	0.00000000000000	
691.25	0.328898651217	0.944365224491	
! Port Impedance	50.00000000000000	0.00000000000000	
692.5	0.333706608446	0.942676985759	
! Port Impedance	50.00000000000000	0.00000000000000	
693.75	0.338501777168	0.940965752222	
! Port Impedance	50.00000000000000	0.00000000000000	
695.0	0.343284088298	0.939231619315	
! Port Impedance	50.00000000000000	0.00000000000000	
696.25	0.348053472983	0.937474682295	
! Port Impedance	50.00000000000000	0.00000000000000	
697.5	0.352809862601	0.935695036244	
! Port Impedance	50.00000000000000	0.00000000000000	
698.75	0.357553188764	0.933892776075	
! Port Impedance	50.00000000000000	0.00000000000000	
700.0	0.362283383317	0.932067996539	
! Port Impedance	50.00000000000000	0.00000000000000	
701.25	0.367000378342	0.93022079223	
! Port Impedance	50.00000000000000	0.00000000000000	
702.5	0.371704106155	0.928351257589	
! Port Impedance	50.00000000000000	0.00000000000000	
703.75	0.376394499312	0.926459486911	
! Port Impedance	50.00000000000000	0.00000000000000	
705.0	0.381071490604	0.924545574349	
! Port Impedance	50.00000000000000	0.00000000000000	
706.25	0.385735013064	0.922609613919	
! Port Impedance	50.00000000000000	0.00000000000000	
707.5	0.390384999966	0.920651699505	
! Port Impedance	50.00000000000000	0.00000000000000	
708.75	0.395021384824	0.918671924863	
! Port Impedance	50.00000000000000	0.00000000000000	
710.0	0.399644101395	0.916670383628	
! Port Impedance	50.00000000000000	0.00000000000000	
711.25	0.404253083682	0.914647169314	
! Port Impedance	50.00000000000000	0.00000000000000	
712.5	0.40884826593	0.912602375323	
! Port Impedance	50.00000000000000	0.00000000000000	
713.75	0.413429582632	0.910536094949	
! Port Impedance	50.00000000000000	0.00000000000000	
715.0	0.417996968527	0.908448421377	
! Port Impedance	50.00000000000000	0.00000000000000	
716.25	0.422550358602	0.906339447693	
! Port Impedance	50.00000000000000	0.00000000000000	
717.5	0.427089688094	0.904209266887	
! Port Impedance	50.00000000000000	0.00000000000000	
718.75	0.431614892489	0.902057971852	
! Port Impedance	50.00000000000000	0.00000000000000	
720.0	0.436125907526	0.899885655394	
! Port Impedance	50.00000000000000	0.00000000000000	
721.25	0.440622669194	0.897692410234	
! Port Impedance	50.00000000000000	0.00000000000000	
722.5	0.445105113736	0.89547832901	
! Port Impedance	50.00000000000000	0.00000000000000	
723.75	0.449573177651	0.893243504279	
! Port Impedance	50.00000000000000	0.00000000000000	
725.0	0.454026797691	0.890988028527	
! Port Impedance	50.00000000000000	0.00000000000000	
726.25	0.458465910865	0.888711994166	
! Port Impedance	50.00000000000000	0.00000000000000	
727.5	0.46289045444	0.88641549354	
! Port Impedance	50.00000000000000	0.00000000000000	
728.75	0.467300365941	0.884098618929	
! Port Impedance	50.00000000000000	0.00000000000000	
730.0	0.471695583152	0.881761462548	
! Port Impedance	50.00000000000000	0.00000000000000	
731.25	0.476076044117	0.879404116557	
! Port Impedance	50.00000000000000	0.00000000000000	
732.5	0.480441687143	0.877026673058	
! Port Impedance	50.00000000000000	0.00000000000000	
733.75	0.484792450798	0.8746292241	
! Port Impedance	50.00000000000000	0.00000000000000	
735.0	0.489128273913	0.872211861682	
! Port Impedance	50.00000000000000	0.00000000000000	
736.25	0.493449095585	0.869774677757	
! Port Impedance	50.00000000000000	0.00000000000000	
737.5	0.497754855173	0.867317764232	
! Port Impedance	50.00000000000000	0.00000000000000	
738.75	0.502045492306	0.864841212972	
! Port Impedance	50.00000000000000	0.00000000000000	
740.0	0.506320946878	0.862345115805	
! Port Impedance	50.00000000000000	0.00000000000000	
741.25	0.510581159052	0.859829564519	
! Port Impedance	50.00000000000000	0.00000000000000	
742.5	0.514826069259	0.85729465087	
! Port Impedance	50.00000000000000	0.00000000000000	
743.75	0.519055618202	0.854740466582	
! Port Impedance	50.00000000000000	0.00000000000000	
745.0	0.523269746853	0.852167103348	
! Port Impedance	50.00000000000000	0.00000000000000	
746.25	0.527468396458	0.849574652834	
! Port Impedance	50.00000000000000	0.00000000000000	
747.5	0.531651508533	0.846963206683	
! Port Impedance	50.00000000000000	0.00000000000000	
748.75	0.53581902487	0.844332856513	
! Port Impedance	50.00000000000000	0.00000000000000	
750.0	0.539970887537	0.841683693921	
! Port Impedance	50.00000000000000	0.00000000000000	
