!Created with skrf (http://scikit-rf.org).
# GHz S RI R 50.0 
!freq ReS11 ImS11 ReS21 ImS21 ReS12 ImS12 ReS22 ImS22
500.0 0.0498081681736 0.115615703416 -0.612788235945 0.208116875932 -0.612788235945 0.208116875932 0.0420714460264 0.0247206557374
500.625 0.0469298016698 0.0883997770332 -0.435867937514 0.485863500153 -0.435867937514 0.485863500153 0.0542882260274 -0.0285999645557
501.25 0.0265258826071 0.0817295794393 0.142047453302 -0.641273342653 0.142047453302 -0.641273342653 0.0208133694015 -0.0769066370012
501.875 0.00734617815888 0.0904379338712 0.186985236549 0.628399269084 0.186985236549 0.628399269084 -0.0287582994591 -0.0767180623479
502.5 0.00966429574673 0.109257457032 0.472535400026 0.457068266545 0.472535400026 0.457068266545 -0.0568178461948 -0.0172212882759
503.125 0.0181529959543 0.123560509753 -0.635203817408 -0.173520273805 -0.635203817408 -0.173520273805 -0.0283462476502 0.0387872242872
503.75 0.0362722515638 0.119283910448 0.63939404891 -0.154397781128 0.63939404891 -0.154397781128 0.0294149177559 0.0449457818705
504.375 0.0501239253987 0.110188631607 -0.486097416893 0.446668969044 -0.486097416893 0.446668969044 0.066076792959 -0.0013291141427
505.0 0.0466477840132 0.0941927998325 0.2132838679 -0.628275383917 0.2132838679 -0.628275383917 0.0470975306524 -0.0509583635456
505.625 0.0377987098821 0.0795711250607 0.116436202387 0.653713742995 0.116436202387 0.653713742995 -0.00314489295283 -0.0608272042643
506.25 0.0229362697904 0.0834792898066 -0.418968267678 -0.517324156797 -0.418968267678 -0.517324156797 -0.0440171664453 -0.0173781444261
506.875 0.00682337028388 0.0947114118372 -0.617849355897 -0.251395828783 -0.617849355897 -0.251395828783 -0.0262533659012 0.0436599562584
507.5 0.0113786925674 0.111049238285 0.660060260692 -0.0743944751764 0.660060260692 -0.0743944751764 0.0263620428188 0.0591518317049
508.125 0.0295052489513 0.123141112519 0.545943322457 -0.381060275838 0.545943322457 -0.381060275838 0.0757076395934 0.0240768017721
508.75 0.0492375348596 0.114877154796 -0.299167876923 0.595079348333 -0.299167876923 0.595079348333 0.0764338281945 -0.0344001002293
509.375 0.0602837487422 0.0951073865317 -0.0211625665783 -0.66855531212 -0.0211625665783 -0.66855531212 0.0280123507795 -0.0597790983642
510.0 0.0505264821461 0.0783320702863 -0.342036327739 -0.581087412824 -0.342036327739 -0.581087412824 -0.0249707529691 -0.0330431538582
510.625 0.0250794809201 0.0694659452184 -0.575974709494 -0.347965223893 -0.575974709494 -0.347965223893 -0.0333497077856 0.024388210049
511.25 0.0106390790492 0.0850309262806 0.672095559568 0.0301108003581 0.672095559568 0.0301108003581 0.0154312142423 0.0575651537392
511.875 0.0115244369254 0.112275523366 -0.606382436157 0.29358245172 -0.606382436157 0.29358245172 0.0746819093694 0.0374634183926
512.5 0.0311146354528 0.122358268891 0.397265288774 -0.5401875296 0.397265288774 -0.5401875296 0.0938993873699 -0.00812696726869
513.125 0.0623429790094 0.113106007523 0.096933768593 -0.665701345764 0.096933768593 -0.665701345764 0.0609525557021 -0.052195135332
513.75 0.0710712825835 0.0853006175963 0.232729119355 0.637417661372 0.232729119355 0.637417661372 -0.00315139376202 -0.0505880891847
514.375 0.0521401580503 0.0609110256641 -0.509143849748 -0.452935178971 -0.509143849748 -0.452935178971 -0.0314143005206 -0.00165668647638
515.0 0.0228628268976 0.0604912152015 0.664745837248 0.155667378485 0.664745837248 0.155667378485 0.000925600178206 0.0481894941521
515.625 0.00311306139179 0.08118712507 0.657066069479 -0.177326217507 0.657066069479 -0.177326217507 0.0609299726809 0.0548619828824
516.25 0.011943056208 0.108469254984 -0.49481737792 0.462816355149 -0.49481737792 0.462816355149 0.0933840939829 0.00872136044239
516.875 0.0394382906956 0.121968689808 -0.222290573179 0.640511291545 -0.222290573179 0.640511291545 0.0719276104506 -0.0445906306557
517.5 0.0624428228108 0.107730340882 -0.0993344582609 -0.67143176516 -0.0993344582609 -0.67143176516 0.0212693109984 -0.0641700581934
518.125 0.0692476761091 0.0771817412621 -0.405569410589 -0.548097262726 -0.405569410589 -0.548097262726 -0.0221539163457 -0.0240767196812
518.75 0.0496683430131 0.0598613461645 0.618883205291 0.296587221525 0.618883205291 0.296587221525 -0.0177514360836 0.0360805194644
519.375 0.019696026266 0.0635376600709 -0.685476397335 0.0287239462668 -0.685476397335 0.0287239462668 0.0317785398615 0.0645886597946
520.0 0.00949828760209 0.0865834801656 0.588690462278 -0.346429905874 0.588690462278 -0.346429905874 0.0834878572604 0.035740542346
520.625 0.024040552955 0.111141441942 -0.359424936961 0.577234080973 -0.359424936961 0.577234080973 0.0917009877245 -0.0214722626299
521.25 0.0509378529806 0.114246235447 0.0522457566615 -0.677877694986 0.0522457566615 -0.677877694986 0.0543635401684 -0.0570375912953
521.875 0.0728076640797 0.0935231020285 -0.269266746436 -0.627260181894 -0.269266746436 -0.627260181894 -0.00267350870251 -0.0416383422743
522.5 0.06555630175 0.0669319810423 0.52942158269 0.43566110258 0.52942158269 0.43566110258 -0.0279958679522 0.00597652162429
523.125 0.0411714653468 0.0507808701171 -0.673157780033 -0.137175574217 -0.673157780033 -0.137175574217 0.00639375128287 0.0542290844148
523.75 0.0179440911752 0.0610499936327 0.65945871248 -0.192378800922 0.65945871248 -0.192378800922 0.0636370841995 0.0546476367523
524.375 0.00989116813438 0.0882752876305 0.494583941778 -0.474503719651 0.494583941778 -0.474503719651 0.0992496733506 0.0144494507541
525.0 0.0277018635437 0.108441796979 0.220908760881 -0.648489933786 0.220908760881 -0.648489933786 0.080088471696 -0.037035134593
525.625 0.0573393240119 0.105998188551 0.102391512053 0.676701975288 0.102391512053 0.676701975288 0.0228015054348 -0.054790838438
526.25 0.0708943249099 0.088011944567 -0.401243535703 -0.556506752383 -0.401243535703 -0.556506752383 -0.0211623429728 -0.0226362006286
526.875 0.0625809402074 0.062802641449 0.612786126913 0.310782562753 0.612786126913 0.310782562753 -0.0174210862979 0.0353103553492
527.5 0.0434991334776 0.0528290286504 -0.688438136963 0.00723150036598 -0.688438136963 0.00723150036598 0.0330903543203 0.069223103693
528.125 0.0252492690727 0.0638577464584 0.607333200934 -0.32404133357 0.607333200934 -0.32404133357 0.0850194550097 0.046475728359
528.75 0.0233435287619 0.0824252098164 -0.390567053112 0.563505143101 -0.390567053112 0.563505143101 0.0978469748005 -0.00432941903328
529.375 0.0385949770611 0.0964912287801 0.0896841131909 -0.679342728438 0.0896841131909 -0.679342728438 0.0648940601887 -0.0471494793699
530.0 0.0555551852862 0.0944058838702 0.228400621146 0.646832841443 0.228400621146 0.646832841443 0.0132983805199 -0.0435989651158
530.625 0.0634968055505 0.0759933731489 -0.496383963148 -0.472028686757 -0.496383963148 -0.472028686757 -0.01206182419 -0.000466561116664
531.25 0.0568202121864 0.059762412228 -0.66007163989 -0.192378771797 -0.66007163989 -0.192378771797 0.00329683924157 0.050443850407
531.875 0.0406547177649 0.057551933898 0.67690133881 -0.130083785064 0.67690133881 -0.130083785064 0.0566395530817 0.0677242764783
532.5 0.028026116269 0.0656555242611 -0.541864672193 0.424316702444 -0.541864672193 0.424316702444 0.0982998061501 0.0337365559923
533.125 0.0306831148298 0.0794929930956 0.288183646323 -0.62300116794 0.288183646323 -0.62300116794 0.094576179694 -0.0188746308422
533.75 0.0430289332692 0.0871163141686 0.0244832956302 0.684840640124 0.0244832956302 0.684840640124 0.0522213843736 -0.0473941413296
534.375 0.0530495728295 0.0811325021136 -0.332308402937 -0.600688010337 -0.332308402937 -0.600688010337 0.00382145310276 -0.0281427700576
535.0 0.0548880123797 0.0701773143459 0.568767608911 0.385331225249 0.568767608911 0.385331225249 -0.00487987397609 0.0225095166883
535.625 0.0483232920866 0.0615885288512 0.682523966434 0.0891548613085 0.682523966434 0.0891548613085 0.0259549434767 0.0647655582764
536.25 0.0387551541919 0.0604128140609 -0.649097165363 0.229694640197 -0.649097165363 0.229694640197 0.0779899522956 0.0623559520547
536.875 0.0343638223058 0.0685741874452 0.473605603222 -0.497990620597 0.473605603222 -0.497990620597 0.107501781163 0.0188316041493
537.5 0.0357243647049 0.0792791045608 0.199429667086 -0.658347983051 0.199429667086 -0.658347983051 0.0934827927398 -0.0285417169117
538.125 0.0441412742177 0.0813576504278 0.116057685744 0.676556936914 0.116057685744 0.676556936914 0.0481606472841 -0.0454309423608
538.75 0.0519956175093 0.0775473180663 -0.407246489024 -0.552553622967 -0.407246489024 -0.552553622967 0.00650644133949 -0.0173185435847
539.375 0.0530049681978 0.0711081993079 -0.613933907891 -0.310421999536 -0.613933907891 -0.310421999536 0.00639856480666 0.0343301860705
540.0 0.0495510897124 0.065685527358 0.688418311799 0.00218484893874 0.688418311799 0.00218484893874 0.0450515220962 0.0662823606058
540.625 0.0465566372769 0.0657931011005 -0.617953542776 0.306423743821 -0.617953542776 0.306423743821 0.097952645258 0.0564015312234
541.25 0.0481818867123 0.0666894869735 -0.414157001511 0.550887056508 -0.414157001511 0.550887056508 0.117630996292 0.00765227467661
541.875 0.0511233765142 0.0661527932857 0.122738015838 -0.678599479321 0.122738015838 -0.678599479321 0.0939132966493 -0.0374394627775
542.5 0.0511083161458 0.0653607709433 -0.194271746133 -0.664081146636 -0.194271746133 -0.664081146636 0.0400662274953 -0.044477503263
543.125 0.0478205242141 0.0628246423332 0.46849734379 0.507534441122 0.46849734379 0.507534441122 0.00923657164268 -0.00675018355924
543.75 0.0459352269381 0.0617909711329 -0.646627123324 -0.24409020855 -0.646627123324 -0.24409020855 0.0199511258789 0.0465391270278
544.375 0.0461205048459 0.0667225163971 0.686619347713 -0.0717705849393 0.686619347713 -0.0717705849393 0.0689693035513 0.0669922966083
545.0 0.0482410718739 0.0682819071854 -0.5836602921 0.368828106799 -0.5836602921 0.368828106799 0.116129062782 0.0472858064098
545.625 0.0530506377704 0.0655124872917 0.358656699071 -0.589768879902 0.358656699071 -0.589768879902 0.126226707144 -0.00433924818911
546.25 0.058111428515 0.0603248638558 -0.0591561796745 0.687321751807 -0.0591561796745 0.687321751807 0.0966608399804 -0.0420255179765
546.875 0.0535420491364 0.0535291075451 -0.25227842339 -0.644136431294 -0.25227842339 -0.644136431294 0.046830050415 -0.0440311638928
547.5 0.0430608497769 0.0521149215464 -0.512006485296 -0.464127458932 -0.512006485296 -0.464127458932 0.0203685824595 -0.000446625297906
548.125 0.0366650340214 0.0593877778801 -0.664763874189 -0.188728219705 -0.664763874189 -0.188728219705 0.0370412695301 0.0475491031974
548.75 0.0387652042861 0.0693370699982 -0.678873957036 0.125993845177 -0.678873957036 0.125993845177 0.0863367066613 0.0648397166103
549.375 0.0503232675344 0.0725677638922 -0.55159084885 0.41113912049 -0.55159084885 0.41113912049 0.12826212584 0.0353953988578
550.0 0.0636896670683 0.0668962556725 -0.314595902974 0.613479721268 -0.314595902974 0.613479721268 0.136286725862 -0.0164933292696
550.625 0.0661797777937 0.0522438635326 -0.0108211313925 0.690662185268 -0.0108211313925 0.690662185268 0.10039367615 -0.0503846199009
551.25 0.055648768321 0.03793665219 0.29431668654 0.625131355176 0.29431668654 0.625131355176 0.0552800521288 -0.0459905892859
551.875 0.0396696398261 0.0380623653869 -0.54106538328 -0.428423775226 -0.54106538328 -0.428423775226 0.0325178083422 6.37380260342e-05
552.5 0.0289845604997 0.0518632852698 0.673311418001 0.144489010979 0.673311418001 0.144489010979 0.0559148480258 0.0406533977346
553.125 0.0307626944984 0.0667365358593 -0.665977446294 0.165714899534 -0.665977446294 0.165714899534 0.104039726652 0.0492426108139
553.75 0.0464068709221 0.0739619086945 -0.522528861085 0.43938900629 -0.522528861085 0.43938900629 0.139835752832 0.0166115241903
554.375 0.0647589040402 0.0673992203783 0.278107390826 -0.621163446719 0.278107390826 -0.621163446719 0.139497789731 -0.0305736782774
555.0 0.0690525558906 0.048430516181 0.0207560525756 0.680004555351 0.0207560525756 0.680004555351 0.102877727486 -0.0584800214423
555.625 0.0552741246361 0.0333128701447 -0.315857685439 -0.601159730196 -0.315857685439 -0.601159730196 0.0609392553683 -0.0469321102676
556.25 0.0332189428056 0.0338469487882 -0.546501174095 -0.402486857785 -0.546501174095 -0.402486857785 0.0432932564432 -0.00541468554351
556.875 0.0215643549022 0.0510186537538 -0.663508772644 -0.124601281602 -0.663508772644 -0.124601281602 0.0667391750833 0.0289946963764
557.5 0.0281099366834 0.0722433753882 -0.650630648973 0.174021874694 -0.650630648973 0.174021874694 0.109718326509 0.0364300551828
558.125 0.0493781063195 0.0836404777496 -0.510510469061 0.438704617343 -0.510510469061 0.438704617343 0.146446867799 0.00520090562014
558.75 0.0718339652328 0.0739787166413 -0.273890833197 0.616648774185 -0.273890833197 0.616648774185 0.147652734932 -0.038724629886
559.375 0.0796006456441 0.0485000629834 0.0192366739488 0.678555319931 0.0192366739488 0.678555319931 0.112440329228 -0.0691767120661
560.0 0.065583937738 0.0258249125969 0.313678060297 0.605143573835 0.313678060297 0.605143573835 0.0703493536103 -0.0601613887316
560.625 0.0370971821875 0.0224357069592 -0.550170076217 -0.409488454187 -0.550170076217 -0.409488454187 0.0494993496869 -0.0186917818977
561.25 0.0155401123295 0.0435785998288 0.674085133688 0.125827066971 0.674085133688 0.125827066971 0.0756245953262 0.0210732274952
561.875 0.0199405319447 0.0742256862969 -0.660856590121 0.178547523113 -0.660856590121 0.178547523113 0.12132214315 0.0286064693049
562.5 0.0499598371989 0.0907292276163 0.517619145744 -0.446619203306 0.517619145744 -0.446619203306 0.158142432121 -0.005620754379
563.125 0.0844653370297 0.0786368216571 -0.274160962024 0.625675840237 -0.274160962024 0.625675840237 0.156804360651 -0.0532794662238
563.75 0.0967450578701 0.0447845757906 -0.0226245329614 -0.686607989274 -0.0226245329614 -0.686607989274 0.119465446294 -0.0852818610591
564.375 0.0789165897107 0.0108632677408 0.318778547586 0.612268994393 0.318778547586 0.612268994393 0.074853992633 -0.0766804967245
565.0 0.0409321605331 0.00074522595617 0.554820332223 0.413657884066 0.554820332223 0.413657884066 0.0547938958617 -0.0364654497613
565.625 0.00809344066735 0.0247251585351 0.679007136947 0.127728363424 0.679007136947 0.127728363424 0.0821637427172 0.00558037829701
566.25 0.00605349202931 0.0662669396755 0.664516190352 -0.176960552242 0.664516190352 -0.176960552242 0.129550239554 0.011394396162
566.875 0.0370680153249 0.0952125774297 0.522219286425 -0.443756703667 0.522219286425 -0.443756703667 0.166124371151 -0.0248187651107
567.5 0.0815437953676 0.0905582050274 0.282386840905 -0.623046240607 0.282386840905 -0.623046240607 0.16252555838 -0.0718300553462
568.125 0.109180493306 0.0528460446356 -0.0106983790233 -0.687270723374 -0.0106983790233 -0.687270723374 0.126938741727 -0.104568367219
568.75 0.0974648643779 0.00627941403076 -0.307192440638 -0.618761507644 -0.307192440638 -0.618761507644 0.0803320216507 -0.0960610918597
569.375 0.052777470107 -0.0175128654426 -0.54688886705 -0.427192682469 -0.54688886705 -0.427192682469 0.0565500314109 -0.0585518103878
570.0 0.00434513558723 0.00143407651048 -0.678336554682 -0.145330360856 -0.678336554682 -0.145330360856 0.0796572538797 -0.0149364051439
570.625 -0.0099697536061 0.0503846137281 0.67122402253 -0.160244727191 0.67122402253 -0.160244727191 0.12276069174 -0.00600679051451
571.25 0.0172892176789 0.0936776412325 -0.534962624096 0.430169908609 -0.534962624096 0.430169908609 0.162253653283 -0.039157451854
571.875 0.0700888083859 0.101037847827 0.300503630349 -0.614952012262 0.300503630349 -0.614952012262 0.162187863398 -0.0872043466769
572.5 0.110069852208 0.0657940931676 -0.0121776963135 0.686042786907 -0.0121776963135 0.686042786907 0.129514392507 -0.122773546382
573.125 0.110595052706 0.0104918148091 -0.283146259974 -0.628911401224 -0.283146259974 -0.628911401224 0.0830727338274 -0.117677822637
573.75 0.0676960269659 -0.0289264039256 0.528416207097 0.4493570777 0.528416207097 0.4493570777 0.0570125685722 -0.0834839560828
574.375 0.00749917813469 -0.0214534005132 -0.672526929312 -0.174919619439 -0.672526929312 -0.174919619439 0.0729271650038 -0.039490139328
575.0 -0.0268818167537 0.0305774616036 0.678033860624 -0.131258829152 0.678033860624 -0.131258829152 0.113311293266 -0.0270981477724
575.625 -0.00962260038576 0.0899470533581 -0.553938347872 0.405602299209 -0.553938347872 0.405602299209 0.15389334245 -0.0515737441924
576.25 0.0479756803579 0.116263389919 -0.329071703175 0.597050662457 -0.329071703175 0.597050662457 0.156419653034 -0.0965616037083
576.875 0.105306206055 0.0946277980719 -0.0509027601466 0.683345982541 -0.0509027601466 0.683345982541 0.12781189775 -0.133185728047
577.5 0.121707475032 0.0343543191826 0.244207873605 0.641034238023 0.244207873605 0.641034238023 0.0767035114746 -0.134286078018
578.125 0.0939761729666 -0.0210046983311 0.497457414159 0.479282805511 0.497457414159 0.479282805511 0.0483172106855 -0.10833400113
578.75 0.027899924652 -0.0353682908771 0.659342130158 0.218791980666 0.659342130158 0.218791980666 0.0586418582872 -0.0604631323096
579.375 -0.024908303988 0.00764095661384 -0.685058333513 0.0861338258148 -0.685058333513 0.0861338258148 0.0982081406164 -0.0436426949608
580.0 -0.0256048286309 0.0755401708489 -0.579426787944 0.368915484503 -0.579426787944 0.368915484503 0.14224349255 -0.0616662238556
580.625 0.0254675682358 0.124292590565 -0.367106770948 0.573458010967 -0.367106770948 0.573458010967 0.156340019718 -0.109665981728
581.25 0.0965339344952 0.120123495545 0.0951942252845 -0.673066602493 0.0951942252845 -0.673066602493 0.133511671251 -0.154774270051
581.875 0.14221375315 0.0617957472723 -0.195879889463 -0.653875356944 -0.195879889463 -0.653875356944 0.0805781092738 -0.161289563826
582.5 0.13200313539 -0.00982970537728 -0.455416303563 -0.516633887105 -0.455416303563 -0.516633887105 0.0403339737694 -0.137125831754
583.125 0.0685334634959 -0.0516151008173 -0.639011452343 -0.272828332901 -0.639011452343 -0.272828332901 0.0350583700756 -0.0873510764113
583.75 -0.00282237178046 -0.0326292297864 -0.693368048784 0.0276174239548 -0.693368048784 0.0276174239548 0.0717928408585 -0.0589736134298
584.375 -0.0345743432717 0.0341134450335 -0.611089348774 0.323149975183 -0.611089348774 0.323149975183 0.120946768695 -0.068133847403
585.0 -0.00239233343635 0.101652832637 -0.414577768677 0.542861923945 -0.414577768677 0.542861923945 0.138829556368 -0.110330226847
585.625 0.0677735976144 0.123861982186 -0.149645912718 0.663453576956 -0.149645912718 0.663453576956 0.12107445763 -0.158021737211
586.25 0.133906897448 0.085833212008 0.138395767763 0.665691475577 0.138395767763 0.665691475577 0.0794456945256 -0.176277711882
586.875 0.150237133945 0.0089396646868 0.403438139598 0.553216435482 0.403438139598 0.553216435482 0.035484274623 -0.158838095251
587.5 0.102897395482 -0.0560604740433 -0.604447465816 -0.332819472945 -0.604447465816 -0.332819472945 0.021410259635 -0.113762527406
588.125 0.0222052898622 -0.0644462013425 0.688903782546 0.0415125422553 0.688903782546 0.0415125422553 0.0466330866233 -0.0811565192627
588.75 -0.0368598224997 -0.009199758416 -0.640203759337 0.257444037391 -0.640203759337 0.257444037391 0.0933418634211 -0.0794910848318
589.375 -0.0351013806771 0.069287665363 0.467004997309 -0.497824140036 0.467004997309 -0.497824140036 0.116481509354 -0.112896246684
590.0 0.024639468984 0.121945321532 -0.216599655942 0.642223608454 -0.216599655942 0.642223608454 0.106609115084 -0.159005823554
590.625 0.104594175756 0.111957299599 -0.0675665456965 -0.670668333503 -0.0675665456965 -0.670668333503 0.0678090572303 -0.182276760582
591.25 0.15162768412 0.0478326154981 0.339718476722 0.588103960287 0.339718476722 0.588103960287 0.0226549493967 -0.173646914201
591.875 0.136757382129 -0.0310018040096 0.558726787972 0.395404380954 0.558726787972 0.395404380954 0.00378723889128 -0.133529623474
592.5 0.0658622672151 -0.0765522386477 0.676248865156 0.123713818178 0.676248865156 0.123713818178 0.016586890158 -0.0964194669216
