!Created with skrf (http://scikit-rf.org).
# GHz S RI R 50.0 
!freq ReS11 ImS11 ReS21 ImS21 ReS12 ImS12 ReS22 ImS22
500.0 0.04980816817355356 0.11561570341576799 -0.6127882359446168 0.20811687593188538 -0.6127882359446166 0.2081168759318853 0.04207144602636813 0.024720655737364476
500.625 0.04692980166983312 0.08839977703323318 -0.4358679375142825 0.48586350015328006 -0.4358679375142826 0.48586350015328017 0.05428822602743402 -0.028599964555704984
501.25 0.02652588260711622 0.08172957943929876 0.14204745330244037 -0.641273342653483 0.14204745330244042 -0.6412733426534832 0.020813369401489486 -0.0769066370011543
501.875 0.007346178158879502 0.09043793387119894 0.18698523654925953 0.628399269083664 0.1869852365492596 0.6283992690836642 -0.02875829945915 -0.07671806234791631
502.5 0.009664295746727863 0.10925745703227838 0.4725354000257204 0.4570682665448644 0.4725354000257205 0.4570682665448645 -0.05681784619484544 -0.01722128827592576
503.125 0.018152995954331855 0.12356050975283236 -0.6352038174083776 -0.1735202738046503 -0.6352038174083776 -0.1735202738046503 -0.028346247650212823 0.03878722428721949
503.75 0.036272251563794156 0.11928391044764974 0.6393940489102022 -0.15439778112838254 0.639394048910202 -0.15439778112838248 0.029414917755931587 0.04494578187053898
504.375 0.05012392539869032 0.11018863160681416 -0.48609741689282904 0.4466689690440933 -0.4860974168928292 0.4466689690440935 0.06607679295899166 -0.0013291141427039426
505.0 0.04664778401319121 0.09419279983249007 0.2132838678999927 -0.6282753839173835 0.2132838678999927 -0.6282753839173835 0.04709753065244489 -0.05095836354555116
505.625 0.03779870988211409 0.07957112506072808 0.11643620238698711 0.6537137429947387 0.11643620238698711 0.6537137429947388 -0.0031448929528300473 -0.060827204264316065
506.25 0.022936269790394703 0.08347928980664625 -0.4189682676777629 -0.5173241567972289 -0.418968267677763 -0.517324156797229 -0.04401716644527605 -0.0173781444261257
506.875 0.00682337028387868 0.09471141183718335 -0.6178493558967612 -0.2513958287829053 -0.6178493558967612 -0.25139582878290523 -0.026253365901161188 0.04365995625842882
507.5 0.011378692567350177 0.11104923828452466 0.6600602606922544 -0.07439447517643216 0.6600602606922544 -0.07439447517643227 0.026362042818827966 0.05915183170487123
508.125 0.029505248951346916 0.12314111251944544 0.5459433224565494 -0.38106027583845126 0.5459433224565495 -0.3810602758384512 0.07570763959340249 0.02407680177209724
508.75 0.04923753485964921 0.11487715479589031 -0.2991678769227703 0.5950793483326456 -0.2991678769227703 0.5950793483326455 0.07643382819451969 -0.03440010022925971
509.375 0.060283748742231726 0.09510738653171197 -0.021162566578293532 -0.6685553121202168 -0.021162566578293518 -0.6685553121202167 0.02801235077947716 -0.05977909836420577
510.0 0.050526482146111606 0.07833207028630491 -0.342036327739341 -0.5810874128242327 -0.3420363277393407 -0.5810874128242327 -0.02497075296911324 -0.03304315385821223
510.625 0.02507948092005538 0.0694659452183634 -0.5759747094938251 -0.34796522389283496 -0.5759747094938251 -0.3479652238928351 -0.03334970778560223 0.024388210048977225
511.25 0.010639079049239643 0.08503092628064746 0.6720955595675492 0.030110800358103134 0.672095559567549 0.030110800358102964 0.015431214242282467 0.0575651537392093
511.875 0.011524436925379827 0.11227552336551178 -0.6063824361569073 0.2935824517197809 -0.6063824361569073 0.2935824517197808 0.07468190936939131 0.037463418392626194
512.5 0.031114635452760886 0.1223582688914274 0.3972652887739163 -0.5401875295995916 0.39726528877391654 -0.5401875295995918 0.0938993873699189 -0.008126967268687616
513.125 0.06234297900937864 0.11310600752297498 0.09693376859301997 -0.6657013457635742 0.09693376859302005 -0.6657013457635742 0.06095255570205541 -0.0521951353320431
513.75 0.07107128258348779 0.08530061759634491 0.2327291193552631 0.6374176613716478 0.23272911935526308 0.6374176613716477 -0.0031513937620222393 -0.05058808918470001
514.375 0.0521401580503183 0.06091102566413582 -0.5091438497477762 -0.4529351789711549 -0.5091438497477762 -0.4529351789711549 -0.03141430052057731 -0.0016566864763834926
515.0 0.02286282689763068 0.060491215201536844 0.6647458372482038 0.15566737848462997 0.6647458372482038 0.15566737848462991 0.0009256001782058504 0.04818949415212147
515.625 0.003113061391792099 0.08118712507002801 0.6570660694790429 -0.17732621750723535 0.6570660694790428 -0.1773262175072353 0.06092997268085559 0.05486198288235339
516.25 0.011943056208033459 0.10846925498421403 -0.4948173779201871 0.4628163551486541 -0.494817377920187 0.462816355148654 0.0933840939828963 0.008721360442389282
516.875 0.039438290695614664 0.12196868980765685 -0.22229057317868609 0.6405112915453909 -0.22229057317868614 0.6405112915453907 0.07192761045058205 -0.04459063065565586
517.5 0.06244282281084041 0.10773034088160104 -0.09933445826094395 -0.6714317651596945 -0.09933445826094392 -0.6714317651596944 0.021269310998383605 -0.0641700581934465
518.125 0.06924767610905933 0.07718174126212116 -0.40556941058899043 -0.5480972627264835 -0.4055694105889905 -0.5480972627264836 -0.022153916345680705 -0.024076719681219657
518.75 0.049668343013139216 0.05986134616454751 0.6188832052905819 0.29658722152508993 0.618883205290582 0.29658722152508993 -0.017751436083615867 0.036080519464353124
519.375 0.01969602626599103 0.06353766007093611 -0.6854763973348849 0.028723946266797355 -0.685476397334885 0.02872394626679749 0.03177853986146931 0.06458865979464525
520.0 0.009498287602088679 0.08658348016559192 0.5886904622777744 -0.3464299058737402 0.5886904622777742 -0.3464299058737402 0.0834878572603658 0.03574054234596791
520.625 0.024040552954967556 0.11114144194239653 -0.35942493696103883 0.577234080972628 -0.3594249369610389 0.5772340809726281 0.09170098772453328 -0.02147226262993779
521.25 0.05093785298060022 0.11424623544718425 0.052245756661453514 -0.6778776949863631 0.052245756661453514 -0.6778776949863632 0.05436354016838587 -0.05703759129534126
521.875 0.07280766407965739 0.09352310202850547 -0.26926674643564147 -0.6272601818941513 -0.26926674643564147 -0.6272601818941513 -0.002673508702509257 -0.041638342274300716
522.5 0.06555630174999322 0.06693198104233125 0.5294215826904662 0.43566110257967644 0.5294215826904664 0.43566110257967666 -0.0279958679521658 0.0059765216242946145
523.125 0.04117146534680324 0.05078087011714684 -0.6731577800329186 -0.1371755742174696 -0.6731577800329187 -0.13717557421746954 0.006393751282867207 0.054229084414767176
523.75 0.017944091175151777 0.06104999363266399 0.6594587124795253 -0.19237880092175844 0.6594587124795254 -0.19237880092175838 0.06363708419951404 0.054647636752336276
524.375 0.009891168134384523 0.08827528763053688 0.4945839417776369 -0.4745037196509025 0.4945839417776368 -0.4745037196509023 0.09924967335061735 0.014449450754077423
525.0 0.027701863543743238 0.1084417969786902 0.22090876088103759 -0.6484899337855534 0.22090876088103759 -0.6484899337855534 0.0800884716959734 -0.03703513459297089
525.625 0.057339324011887724 0.1059981885512373 0.10239151205290069 0.6767019752884981 0.10239151205290063 0.6767019752884978 0.0228015054348406 -0.0547908384379719
526.25 0.07089432490985467 0.08801194456703224 -0.40124353570257826 -0.5565067523831767 -0.40124353570257826 -0.5565067523831767 -0.02116234297283683 -0.022636200628596607
526.875 0.0625809402074422 0.06280264144897477 0.6127861269125403 0.31078256275318045 0.6127861269125403 0.3107825627531804 -0.01742108629787442 0.03531035534920555
527.5 0.043499133477599344 0.05282902865042418 -0.6884381369626821 0.007231500365977685 -0.6884381369626821 0.007231500365977713 0.03309035432026763 0.06922310369296875
528.125 0.025249269072704465 0.06385774645836798 0.607333200934091 -0.32404133357009873 0.6073332009340912 -0.32404133357009873 0.08501945500973132 0.04647572835901743
528.75 0.023343528761902474 0.08242520981641481 -0.39056705311166695 0.5635051431010251 -0.3905670531116672 0.5635051431010251 0.09784697480045666 -0.0043294190332833354
529.375 0.03859497706108503 0.09649122878008401 0.08968411319094195 -0.6793427284376979 0.08968411319094195 -0.6793427284376982 0.06489406018866857 -0.047149479369901104
530.0 0.05555518528615484 0.09440588387022325 0.22840062114644172 0.6468328414429099 0.22840062114644175 0.64683284144291 0.013298380519865406 -0.04359896511580705
530.625 0.0634968055505135 0.0759933731488594 -0.49638396314801486 -0.47202868675702964 -0.49638396314801486 -0.47202868675702964 -0.012061824190049017 -0.0004665611166638946
531.25 0.056820212186419236 0.05976241222803566 -0.6600716398901314 -0.19237877179746593 -0.6600716398901314 -0.1923787717974659 0.0032968392415748792 0.050443850407027674
531.875 0.04065471776486061 0.057551933898002144 0.6769013388099601 -0.1300837850639164 0.6769013388099605 -0.13008378506391657 0.056639553081707435 0.06772427647829571
532.5 0.028026116269041224 0.06565552426114545 -0.541864672192618 0.4243167024435088 -0.5418646721926179 0.42431670244350866 0.0982998061500791 0.03373655599230734
533.125 0.03068311482976215 0.07949299309555023 0.2881836463232964 -0.623001167939716 0.2881836463232964 -0.6230011679397162 0.0945761796939555 -0.018874630842199775
533.75 0.04302893326923048 0.08711631416857168 0.024483295630177968 0.6848406401244735 0.02448329563017797 0.6848406401244737 0.05222138437356679 -0.047394141329610895
534.375 0.05304957282947302 0.08113250211358519 -0.33230840293676783 -0.6006880103365947 -0.3323084029367678 -0.6006880103365946 0.003821453102757083 -0.028142770057597865
535.0 0.054888012379659734 0.07017731434585532 0.5687676089112388 0.3853312252490443 0.5687676089112387 0.38533122524904423 -0.004879873976089286 0.02250951668831736
535.625 0.048323292086577097 0.06158852885123091 0.6825239664338603 0.08915486130853567 0.6825239664338603 0.08915486130853563 0.025954943476654495 0.06476555827635685
536.25 0.03875515419185836 0.06041281406090117 -0.6490971653628664 0.22969464019680452 -0.6490971653628665 0.22969464019680455 0.07798995229558611 0.06235595205465552
536.875 0.03436382230576125 0.06857418744521072 0.4736056032216237 -0.49799062059749 0.4736056032216237 -0.49799062059749 0.10750178116261638 0.018831604149334123
537.5 0.0357243647048896 0.0792791045608271 0.19942966708649512 -0.6583479830513347 0.19942966708649512 -0.6583479830513349 0.093482792739833 -0.028541716911686183
538.125 0.04414127421766445 0.08135765042778954 0.1160576857436256 0.6765569369135838 0.1160576857436256 0.6765569369135838 0.04816064728406573 -0.04543094236077504
538.75 0.05199561750926624 0.07754731806629547 -0.40724648902418403 -0.5525536229665664 -0.40724648902418403 -0.5525536229665663 0.006506441339485518 -0.01731854358471719
539.375 0.05300496819778855 0.07110819930792525 -0.6139339078907131 -0.31042199953603505 -0.6139339078907132 -0.31042199953603505 0.006398564806660999 0.03433018607054909
540.0 0.04955108971235737 0.06568552735803536 0.6884183117990816 0.002184848938736386 0.6884183117990815 0.0021848489387364138 0.045051522096221944 0.0662823606057511
540.625 0.04655663727687767 0.06579310110051312 -0.6179535427760326 0.3064237438214643 -0.6179535427760326 0.3064237438214643 0.09795264525803837 0.0564015312234108
541.25 0.04818188671226756 0.06668948697345041 -0.41415700151094215 0.5508870565084836 -0.4141570015109422 0.5508870565084835 0.1176309962916958 0.007652274676606938
541.875 0.05112337651420233 0.06615279328575013 0.12273801583760119 -0.678599479321167 0.12273801583760108 -0.6785994793211669 0.09391329664932342 -0.037439462777485354
542.5 0.05110831614582753 0.06536077094328506 -0.19427174613326437 -0.6640811466358254 -0.19427174613326437 -0.6640811466358254 0.04006622749529245 -0.0444775032630461
543.125 0.047820524214096036 0.06282464233322826 0.46849734379023505 0.5075344411215554 0.46849734379023505 0.5075344411215554 0.009236571642679624 -0.006750183559243001
543.75 0.045935226938143975 0.06179097113294406 -0.6466271233237468 -0.2440902085500056 -0.6466271233237468 -0.24409020855000566 0.019951125878934682 0.046539127027840826
544.375 0.0461205048458678 0.06672251639712098 0.6866193477128237 -0.07177058493926392 0.6866193477128237 -0.07177058493926414 0.06896930355125382 0.06699229660826632
545.0 0.04824107187388582 0.06828190718537039 -0.5836602920996771 0.36882810679906863 -0.5836602920996773 0.36882810679906874 0.11612906278239118 0.04728580640979794
545.625 0.053050637770385434 0.06551248729171931 0.35865669907085607 -0.5897688799021468 0.35865669907085607 -0.5897688799021468 0.12622670714446727 -0.004339248189110811
546.25 0.05811142851495067 0.06032486385582955 -0.05915617967446919 0.6873217518068832 -0.059156179674469164 0.6873217518068829 0.09666083998036988 -0.04202551797651919
546.875 0.05354204913639789 0.05352910754509704 -0.2522784233901502 -0.6441364312943345 -0.2522784233901503 -0.6441364312943346 0.04683005041496448 -0.044031163892789243
547.5 0.04306084977687947 0.05211492154639394 -0.5120064852963149 -0.4641274589318584 -0.5120064852963151 -0.4641274589318585 0.020368582459494855 -0.000446625297905949
548.125 0.0366650340213506 0.05938777788009706 -0.6647638741886881 -0.18872821970504214 -0.6647638741886881 -0.18872821970504225 0.03704126953009684 0.047549103197368055
548.75 0.03876520428605357 0.06933706999819081 -0.6788739570364488 0.125993845176922 -0.6788739570364487 0.12599384517692191 0.08633670666126794 0.0648397166103383
549.375 0.050323267534360006 0.0725677638921801 -0.5515908488502682 0.4111391204904832 -0.551590848850268 0.4111391204904831 0.1282621258399264 0.03539539885782497
550.0 0.06368966706833762 0.06689625567248247 -0.314595902973729 0.6134797212675622 -0.3145959029737289 0.6134797212675621 0.13628672586239343 -0.016493329269630097
550.625 0.06617977779368571 0.0522438635326071 -0.010821131392537209 0.6906621852675888 -0.010821131392537264 0.6906621852675889 0.10039367614973138 -0.05038461990085673
551.25 0.05564876832097365 0.0379366521899555 0.29431668653974646 0.6251313551759179 0.29431668653974646 0.625131355175918 0.05528005212880242 -0.0459905892858903
551.875 0.039669639826105066 0.03806236538689939 -0.5410653832795297 -0.4284237752261734 -0.5410653832795297 -0.4284237752261734 0.03251780834222635 6.373802603415121e-05
552.5 0.028984560499743545 0.05186328526975552 0.6733114180010205 0.1444890109788995 0.6733114180010205 0.14448901097889943 0.05591484802576219 0.040653397734641196
553.125 0.0307626944984039 0.06673653585934287 -0.6659774462944253 0.1657148995344455 -0.6659774462944253 0.16571489953444546 0.10403972665181693 0.049242610813922144
553.75 0.046406870922088325 0.07396190869447805 -0.5225288610849297 0.43938900629036887 -0.5225288610849298 0.4393890062903689 0.1398357528315541 0.01661152419031677
554.375 0.06475890404021348 0.0673992203783284 0.2781073908263976 -0.6211634467186837 0.2781073908263975 -0.6211634467186835 0.13949778973096655 -0.030573678277351336
555.0 0.06905255589058601 0.04843051618099785 0.02075605257555828 0.680004555350995 0.02075605257555828 0.680004555350995 0.10287772748594451 -0.05848002144228168
555.625 0.055274124636076546 0.033312870144735135 -0.3158576854389466 -0.6011597301959256 -0.3158576854389465 -0.6011597301959254 0.06093925536830203 -0.04693211026755875
556.25 0.03321894280559376 0.03384694878822356 -0.5465011740949126 -0.40248685778502075 -0.5465011740949124 -0.40248685778502064 0.04329325644319766 -0.005414685543508369
556.875 0.021564354902246063 0.05101865375375521 -0.6635087726442941 -0.12460128160218198 -0.6635087726442941 -0.12460128160218198 0.0667391750833287 0.02899469637643629
557.5 0.028109936683376982 0.07224337538816855 -0.6506306489734576 0.1740218746938181 -0.6506306489734576 0.17402187469381805 0.10971832650902613 0.0364300551827536
558.125 0.04937810631952569 0.08364047774958268 -0.5105104690606134 0.43870461734257427 -0.5105104690606137 0.43870461734257454 0.14644686779890742 0.005200905620141381
558.75 0.07183396523276211 0.073978716641311 -0.2738908331967671 0.6166487741846746 -0.2738908331967672 0.6166487741846747 0.14765273493233724 -0.03872462988596778
559.375 0.07960064564409113 0.04850006298340145 0.019236673948794383 0.6785553199311317 0.019236673948794383 0.6785553199311317 0.11244032922761167 -0.06917671206607776
560.0 0.06558393773799986 0.025824912596856917 0.3136780602970778 0.6051435738351038 0.3136780602970778 0.6051435738351036 0.07034935361031533 -0.060161388731620094
560.625 0.03709718218751093 0.022435706959156393 -0.5501700762169535 -0.4094884541865155 -0.5501700762169532 -0.4094884541865153 0.04949934968692491 -0.018691781897680556
561.25 0.015540112329520316 0.043578599828750446 0.6740851336878348 0.12582706697075047 0.6740851336878346 0.12582706697075044 0.07562459532618689 0.021073227495183557
561.875 0.0199405319446892 0.07422568629690805 -0.660856590120902 0.17854752311320216 -0.660856590120902 0.1785475231132021 0.121322143150143 0.028606469304866607
562.5 0.04995983719886313 0.09072922761629967 0.5176191457441959 -0.4466192033056032 0.5176191457441957 -0.44661920330560284 0.15814243212093387 -0.0056207543789991675
563.125 0.08446533702969325 0.0786368216570755 -0.2741609620241468 0.6256758402365963 -0.27416096202414686 0.6256758402365963 0.1568043606507864 -0.053279466223792975
563.75 0.09674505787005255 0.04478457579064735 -0.02262453296139078 -0.6866079892737919 -0.0226245329613908 -0.6866079892737919 0.11946544629432282 -0.08528186105913309
564.375 0.07891658971068757 0.010863267740772481 0.3187785475860812 0.612268994392773 0.3187785475860812 0.612268994392773 0.07485399263297193 -0.07668049672449483
565.0 0.040932160533074136 0.000745225956169597 0.5548203322233707 0.41365788406642234 0.5548203322233708 0.41365788406642223 0.05479389586169785 -0.0364654497613143
565.625 0.008093440667346484 0.024725158535053457 0.6790071369472125 0.12772836342383612 0.6790071369472125 0.12772836342383612 0.08216374271715302 0.005580378297013071
566.25 0.006053492029310867 0.06626693967554659 0.664516190352036 -0.1769605522421654 0.664516190352036 -0.1769605522421655 0.1295502395542005 0.011394396161997146
566.875 0.03706801532487011 0.09521257742972301 0.5222192864254465 -0.443756703667495 0.5222192864254465 -0.44375670366749487 0.16612437115058282 -0.024818765110665598
567.5 0.081543795367627 0.09055820502743034 0.2823868409050158 -0.6230462406070685 0.28238684090501587 -0.6230462406070686 0.16252555837975555 -0.07183005534622627
568.125 0.1091804933063015 0.05284604463556622 -0.010698379023337557 -0.6872707233735221 -0.010698379023337446 -0.6872707233735221 0.12693874172650557 -0.10456836721865045
568.75 0.09746486437785243 0.006279414030765096 -0.3071924406383205 -0.6187615076441129 -0.3071924406383205 -0.6187615076441129 0.08033202165065267 -0.09606109185966805
569.375 0.052777470107033306 -0.017512865442645152 -0.5468888670500761 -0.4271926824685144 -0.5468888670500761 -0.4271926824685144 0.05655003141085423 -0.05855181038779154
570.0 0.0043451355872302505 0.0014340765104833009 -0.6783365546823095 -0.14533036085578063 -0.6783365546823095 -0.14533036085578066 0.07965725387970671 -0.01493640514387437
570.625 -0.009969753606099946 0.05038461372806149 0.6712240225298812 -0.16024472719144486 0.6712240225298811 -0.16024472719144492 0.12276069173978424 -0.006006790514508746
571.25 0.017289217678903596 0.093677641232527 -0.5349626240964213 0.43016990860926324 -0.5349626240964213 0.43016990860926324 0.16225365328294847 -0.03915745185396538
571.875 0.0700888083859236 0.1010378478271387 0.3005036303493956 -0.6149520122619986 0.30050363034939565 -0.6149520122619988 0.16218786339809754 -0.08720434667686586
572.5 0.11006985220757015 0.0657940931675995 -0.012177696313507732 0.6860427869074917 -0.012177696313507895 0.6860427869074914 0.1295143925073624 -0.12277354638242521
573.125 0.11059505270614296 0.010491814809107406 -0.2831462599739421 -0.628911401224197 -0.2831462599739422 -0.6289114012241972 0.08307273382737525 -0.1176778226372723
