! 3/21/2017 9:39:39 AM
! F:\HUSERTL_20170321\CPWG200.S2P
! CHANNEL.1
! TR.MEASUREMENT
! CORRECTED.DATA
# GHZ S RI R 50.0
! FREQ.GHZ         S11RE         S11IM         S31RE         S31IM         S13RE         S13IM         S33RE         S33IM         
!; PortSelection: Port_13
   0.001000000     0.0033484    0.0019403     0.9960062   -0.0082281     1.0007400   -0.0065919     0.0008774    0.0018047 
   0.002000000     0.0026154    0.0018405     0.9972540   -0.0182512     1.0004890   -0.0147085     0.0016560    0.0022353 
   0.003000000     0.0001418   -0.0016001     0.9969061   -0.0606493     1.0027110   -0.0167496     0.0019044   -0.0022447 
   0.004000000     0.0024135   -0.0004626     1.0022160   -0.0208271     1.0029690   -0.0618716     0.0041639   -0.0010618 
   0.005000000     0.0026286    0.0014124     0.9997976   -0.0500703     0.9986637   -0.0406910     0.0024552    0.0015531 
   0.006000000     0.0031094    0.0016352     0.9922711   -0.0542670     0.9944894   -0.0535621     0.0026032    0.0019318 
   0.007000000     0.0030983    0.0016334     0.9924769   -0.0629345     0.9933989   -0.0610886     0.0026562    0.0018312 
   0.008000000     0.0029539    0.0018434     0.9924843   -0.0708379     0.9922824   -0.0689718     0.0030072    0.0023434 
   0.009000000     0.0027849    0.0017862     0.9925638   -0.0786488     0.9913625   -0.0763550     0.0030508    0.0019359 
   0.010000000     0.0022551    0.0025768     0.9993696   -0.0901509     0.9951296   -0.0837087     0.0031625    0.0018245 
   0.011000000     0.0025177    0.0026664     0.9910713   -0.0939100     0.9900238   -0.0914921     0.0029268    0.0021658 
   0.012000000     0.0025632    0.0030650     0.9905437   -0.1015588     0.9887239   -0.0998589     0.0029281    0.0025116 
   0.013000000     0.0024606    0.0030271     0.9897539   -0.1083329     0.9877468   -0.1070777     0.0031142    0.0029024 
   0.014000000     0.0023836    0.0031669     0.9884893   -0.1159013     0.9871283   -0.1139104     0.0032115    0.0033270 
   0.015000000     0.0025101    0.0038127     0.9878975   -0.1229583     0.9858809   -0.1214883     0.0030218    0.0036147 
   0.016000000     0.0026009    0.0040169     0.9868205   -0.1304203     0.9845447   -0.1288740     0.0029975    0.0036029 
   0.017000000     0.0025883    0.0043047     0.9858834   -0.1373338     0.9837707   -0.1370645     0.0030984    0.0039994 
   0.018000000     0.0028339    0.0045643     0.9849241   -0.1449668     0.9824811   -0.1439330     0.0029265    0.0042859 
   0.019000000     0.0023693    0.0048899     0.9836699   -0.1526204     0.9812717   -0.1512792     0.0030431    0.0046253 
   0.020000000     0.0029925    0.0049444     0.9827237   -0.1602919     0.9797762   -0.1587012     0.0032627    0.0048369 
   0.021000000     0.0029022    0.0052249     0.9807068   -0.1676865     0.9787279   -0.1664171     0.0031973    0.0051400 
   0.022000000     0.0027729    0.0055924     0.9796903   -0.1752006     0.9769543   -0.1732937     0.0033662    0.0053253 
   0.023000000     0.0032637    0.0055717     0.9784698   -0.1823682     0.9761930   -0.1807464     0.0036362    0.0052043 
   0.024000000     0.0032066    0.0057215     0.9769744   -0.1900272     0.9740657   -0.1883713     0.0033857    0.0055360 
   0.025000000     0.0034517    0.0060725     0.9756898   -0.1972449     0.9724576   -0.1957725     0.0036138    0.0058012 
   0.026000000     0.0035621    0.0062184     0.9741626   -0.2043827     0.9708874   -0.2028037     0.0037024    0.0059666 
   0.027000000     0.0036149    0.0061302     0.9724557   -0.2121330     0.9695004   -0.2101552     0.0041164    0.0059855 
   0.028000000     0.0037501    0.0062043     0.9708124   -0.2196414     0.9675082   -0.2175811     0.0041726    0.0063323 
   0.029000000     0.0037931    0.0065175     0.9685813   -0.2270278     0.9656538   -0.2249143     0.0043328    0.0063164 
   0.030000000     0.0039691    0.0063663     0.9671931   -0.2338800     0.9632711   -0.2319680     0.0041256    0.0060742 
   0.031000000     0.0040408    0.0065620     0.9651014   -0.2413896     0.9614522   -0.2397342     0.0044656    0.0062775 
   0.032000000     0.0039907    0.0066915     0.9629040   -0.2489640     0.9601320   -0.2467605     0.0047137    0.0062391 
   0.033000000     0.0040983    0.0063340     0.9611638   -0.2562866     0.9576398   -0.2538486     0.0046663    0.0063382 
   0.034000000     0.0042923    0.0065261     0.9594991   -0.2635213     0.9554930   -0.2614007     0.0048104    0.0063341 
   0.035000000     0.0042409    0.0065099     0.9574008   -0.2702689     0.9536448   -0.2685332     0.0050778    0.0062758 
   0.036000000     0.0045103    0.0064802     0.9548066   -0.2778201     0.9515617   -0.2757581     0.0050203    0.0063396 
   0.037000000     0.0047581    0.0064780     0.9521484   -0.2852938     0.9493139   -0.2833877     0.0052176    0.0062389 
   0.038000000     0.0045720    0.0066738     0.9499083   -0.2919821     0.9467704   -0.2897134     0.0053232    0.0062778 
   0.039000000     0.0049457    0.0065647     0.9477105   -0.2994592     0.9443802   -0.2964593     0.0055174    0.0064208 
   0.040000000     0.0047080    0.0063798     0.9449368   -0.3060994     0.9426176   -0.3038976     0.0055425    0.0065181 
   0.041000000     0.0047949    0.0065821     0.9424348   -0.3135597     0.9399347   -0.3112223     0.0055028    0.0065082 
   0.042000000     0.0048653    0.0064096     0.9398912   -0.3206458     0.9375724   -0.3183690     0.0055631    0.0065511 
   0.043000000     0.0047167    0.0064107     0.9372938   -0.3278261     0.9345262   -0.3252534     0.0057664    0.0062625 
   0.044000000     0.0052371    0.0065742     0.9346564   -0.3341967     0.9323584   -0.3324295     0.0059820    0.0063932 
   0.045000000     0.0051106    0.0063039     0.9320762   -0.3416195     0.9294489   -0.3395255     0.0059943    0.0064179 
   0.046000000     0.0051597    0.0064102     0.9292282   -0.3489012     0.9268446   -0.3465886     0.0061143    0.0061612 
   0.047000000     0.0051938    0.0064198     0.9271338   -0.3560790     0.9240403   -0.3535827     0.0061813    0.0064328 
   0.048000000     0.0052688    0.0064502     0.9234026   -0.3631179     0.9215101   -0.3603269     0.0062846    0.0063872 
   0.049000000     0.0053608    0.0063458     0.9205918   -0.3693327     0.9186969   -0.3674844     0.0059815    0.0063233 
   0.050000000     0.0051836    0.0071962     0.9243172   -0.3766113     0.9208673   -0.3703476     0.0059502    0.0072776 
   0.051000000     0.0055811    0.0075745     0.9207296   -0.3835252     0.9183930   -0.3779584     0.0059685    0.0072313 
   0.052000000     0.0056393    0.0076292     0.9176403   -0.3905126     0.9150054   -0.3844899     0.0059780    0.0075088 
   0.053000000     0.0060886    0.0078376     0.9147560   -0.3974192     0.9118343   -0.3916198     0.0060685    0.0075629 
   0.054000000     0.0058655    0.0077986     0.9113061   -0.4046400     0.9086357   -0.3978912     0.0064437    0.0077109 
   0.055000000     0.0059151    0.0077294     0.9088935   -0.4117781     0.9051479   -0.4048545     0.0065581    0.0078070 
   0.056000000     0.0063855    0.0080593     0.9057354   -0.4183959     0.9026178   -0.4118888     0.0067282    0.0082912 
   0.057000000     0.0064200    0.0081706     0.9024237   -0.4260323     0.8991565   -0.4189457     0.0067864    0.0081832 
   0.058000000     0.0064676    0.0083686     0.8985083   -0.4323203     0.8962205   -0.4252577     0.0069613    0.0086160 
   0.059000000     0.0067839    0.0082962     0.8953198   -0.4394184     0.8927593   -0.4321859     0.0070606    0.0084656 
   0.060000000     0.0071487    0.0086001     0.8914075   -0.4454509     0.8891601   -0.4391430     0.0074159    0.0087143 
   0.061000000     0.0072969    0.0088038     0.8877810   -0.4526471     0.8858808   -0.4458187     0.0073286    0.0087532 
   0.062000000     0.0074723    0.0090704     0.8844289   -0.4591171     0.8825855   -0.4526405     0.0077769    0.0089929 
   0.063000000     0.0078538    0.0088232     0.8813550   -0.4659953     0.8787987   -0.4587510     0.0075344    0.0090470 
   0.064000000     0.0078547    0.0091897     0.8776827   -0.4727084     0.8752493   -0.4657936     0.0078449    0.0090699 
   0.065000000     0.0079920    0.0094374     0.8735549   -0.4790876     0.8713484   -0.4719979     0.0080122    0.0094549 
   0.066000000     0.0083801    0.0094533     0.8697911   -0.4859748     0.8679379   -0.4788611     0.0080035    0.0092878 
   0.067000000     0.0086106    0.0097457     0.8659185   -0.4918111     0.8644248   -0.4855446     0.0082301    0.0097067 
   0.068000000     0.0084079    0.0093886     0.8651258   -0.4975913     0.8595194   -0.4929186     0.0085763    0.0098224 
   0.069000000     0.0091005    0.0097051     0.8581336   -0.5054877     0.8568549   -0.4988350     0.0084144    0.0097856 
   0.070000000     0.0091345    0.0096556     0.8542553   -0.5116283     0.8530851   -0.5050473     0.0085075    0.0100027 
   0.071000000     0.0092657    0.0097151     0.8499461   -0.5176761     0.8491483   -0.5111065     0.0087620    0.0102522 
   0.072000000     0.0098799    0.0100349     0.8460115   -0.5243282     0.8455869   -0.5170414     0.0086888    0.0102602 
   0.073000000     0.0098690    0.0099797     0.8418357   -0.5305315     0.8414091   -0.5235713     0.0090396    0.0104181 
   0.074000000     0.0098447    0.0098508     0.8377827   -0.5369456     0.8373196   -0.5301031     0.0089032    0.0103206 
   0.075000000     0.0101803    0.0100584     0.8341208   -0.5429074     0.8330566   -0.5360562     0.0092282    0.0106428 
   0.076000000     0.0102143    0.0098753     0.8298329   -0.5493597     0.8286042   -0.5420259     0.0092537    0.0106241 
   0.077000000     0.0105569    0.0098019     0.8256450   -0.5556011     0.8248014   -0.5484856     0.0095228    0.0108334 
   0.078000000     0.0108390    0.0095971     0.8212338   -0.5619777     0.8207020   -0.5552310     0.0096418    0.0110298 
   0.079000000     0.0108740    0.0100734     0.8186078   -0.5672620     0.8152833   -0.5614654     0.0096731    0.0108071 
   0.080000000     0.0114803    0.0102540     0.8144189   -0.5731522     0.8110011   -0.5674479     0.0094895    0.0108045 
   0.081000000     0.0116663    0.0095071     0.8081939   -0.5794196     0.8075032   -0.5731825     0.0097775    0.0110485 
   0.082000000     0.0118921    0.0095762     0.8035300   -0.5852729     0.8033909   -0.5789650     0.0099092    0.0111461 
   0.083000000     0.0122036    0.0093878     0.7992202   -0.5912106     0.7985736   -0.5849599     0.0096504    0.0110235 
   0.084000000     0.0123328    0.0095078     0.7945651   -0.5968750     0.7938615   -0.5910611     0.0097351    0.0113442 
   0.085000000     0.0124958    0.0094349     0.7899544   -0.6030155     0.7892458   -0.5968310     0.0096606    0.0114599 
   0.086000000     0.0123575    0.0099760     0.7868972   -0.6086696     0.7842215   -0.6040570     0.0096087    0.0116244 
   0.087000000     0.0127201    0.0094117     0.7801872   -0.6152037     0.7803752   -0.6089227     0.0096449    0.0118916 
   0.088000000     0.0128422    0.0094413     0.7755482   -0.6213177     0.7755181   -0.6140347     0.0096047    0.0122051 
   0.089000000     0.0126860    0.0096034     0.7704975   -0.6268403     0.7710868   -0.6201672     0.0098530    0.0119751 
   0.090000000     0.0130969    0.0094309     0.7654803   -0.6331035     0.7656111   -0.6257951     0.0098234    0.0124467 
   0.091000000     0.0130971    0.0095301     0.7611350   -0.6387406     0.7611539   -0.6316404     0.0098049    0.0122512 
   0.092000000     0.0131339    0.0087969     0.7560783   -0.6438531     0.7567530   -0.6357068     0.0099181    0.0121823 
   0.093000000     0.0132303    0.0092669     0.7509245   -0.6502097     0.7514650   -0.6427693     0.0101531    0.0122347 
   0.094000000     0.0134142    0.0091084     0.7459135   -0.6551589     0.7466835   -0.6487016     0.0102143    0.0122747 
   0.095000000     0.0133090    0.0088594     0.7410309   -0.6609558     0.7412789   -0.6540492     0.0105396    0.0125686 
   0.096000000     0.0135604    0.0090532     0.7380469   -0.6647369     0.7355175   -0.6600432     0.0102320    0.0125972 
   0.097000000     0.0132139    0.0088519     0.7309369   -0.6712439     0.7313103   -0.6651900     0.0107018    0.0123447 
   0.098000000     0.0132999    0.0085302     0.7257632   -0.6764410     0.7268257   -0.6707969     0.0105407    0.0124701 
   0.099000000     0.0133263    0.0084403     0.7201620   -0.6822583     0.7209994   -0.6764283     0.0108260    0.0123478 
   0.100000000     0.0138867    0.0085400     0.7173978   -0.6872695     0.7141451   -0.6830071     0.0109181    0.0123839 
   0.101000000     0.0133308    0.0085202     0.7097989   -0.6929785     0.7106211   -0.6878562     0.0110160    0.0121580 
   0.102000000     0.0133036    0.0082927     0.7044188   -0.6985564     0.7054672   -0.6924309     0.0112065    0.0122530 
   0.103000000     0.0133722    0.0086123     0.6989138   -0.7036402     0.6998936   -0.6980651     0.0113905    0.0119543 
   0.104000000     0.0137123    0.0080311     0.6956770   -0.7091110     0.6937603   -0.7041153     0.0116870    0.0122443 
   0.105000000     0.0131609    0.0085367     0.6888567   -0.7138207     0.6899030   -0.7085257     0.0115382    0.0119078 
   0.106000000     0.0137040    0.0080341     0.6852405   -0.7189742     0.6835082   -0.7142444     0.0118713    0.0121886 
   0.107000000     0.0137339    0.0084662     0.6774505   -0.7241058     0.6785823   -0.7189988     0.0123193    0.0114710 
   0.108000000     0.0136165    0.0085269     0.6721556   -0.7289910     0.6735651   -0.7238572     0.0119747    0.0112297 
   0.109000000     0.0137964    0.0085742     0.6663966   -0.7343339     0.6677633   -0.7286049     0.0122972    0.0112841 
   0.110000000     0.0138373    0.0087369     0.6608192   -0.7392842     0.6622772   -0.7337982     0.0121542    0.0112204 
   0.111000000     0.0141941    0.0086456     0.6552973   -0.7446054     0.6566843   -0.7385451     0.0124188    0.0108877 
   0.112000000     0.0141747    0.0085182     0.6494606   -0.7493578     0.6512350   -0.7435098     0.0125553    0.0111127 
   0.113000000     0.0145619    0.0085017     0.6440163   -0.7543526     0.6450389   -0.7484835     0.0124407    0.0111168 
   0.114000000     0.0146488    0.0086088     0.6379676   -0.7591206     0.6392398   -0.7532958     0.0127979    0.0109980 
   0.115000000     0.0149430    0.0086786     0.6323409   -0.7637876     0.6336827   -0.7579052     0.0129470    0.0109828 
   0.116000000     0.0149622    0.0084139     0.6261778   -0.7685322     0.6280584   -0.7627869     0.0131749    0.0107969 
   0.117000000     0.0153023    0.0083899     0.6207134   -0.7729295     0.6218576   -0.7672032     0.0132681    0.0111576 
   0.118000000     0.0153428    0.0081897     0.6146489   -0.7779095     0.6161327   -0.7721962     0.0136266    0.0107440 
   0.119000000     0.0155901    0.0081684     0.6091381   -0.7819330     0.6100785   -0.7763200     0.0137503    0.0108265 
   0.120000000     0.0158780    0.0078727     0.6026742   -0.7869567     0.6043288   -0.7813042     0.0139742    0.0105185 
   0.121000000     0.0160600    0.0080531     0.5969501   -0.7913966     0.5984191   -0.7856330     0.0139148    0.0106667 
   0.122000000     0.0163939    0.0077360     0.5908582   -0.7954133     0.5923394   -0.7902069     0.0138974    0.0106182 
   0.123000000     0.0159740    0.0076012     0.5824343   -0.8017305     0.5867947   -0.7946450     0.0137470    0.0103317 
   0.124000000     0.0167564    0.0074711     0.5787089   -0.8041729     0.5801361   -0.7987900     0.0142755    0.0106552 
   0.125000000     0.0168260    0.0076424     0.5725682   -0.8086507     0.5742384   -0.8029462     0.0145546    0.0106066 
   0.126000000     0.0166466    0.0075327     0.5664356   -0.8125085     0.5678845   -0.8069983     0.0142911    0.0106693 
   0.127000000     0.0169325    0.0078706     0.5601313   -0.8166833     0.5619307   -0.8108585     0.0146271    0.0104242 
   0.128000000     0.0168165    0.0075582     0.5538642   -0.8207409     0.5558576   -0.8153632     0.0147464    0.0105304 
   0.129000000     0.0169903    0.0076202     0.5474273   -0.8246164     0.5494667   -0.8191416     0.0144583    0.0106898 
   0.130000000     0.0174655    0.0075820     0.5412385   -0.8289713     0.5433642   -0.8231213     0.0149829    0.0106474 
   0.131000000     0.0173313    0.0075556     0.5345052   -0.8326417     0.5370386   -0.8271615     0.0149482    0.0105436 
   0.132000000     0.0176753    0.0074213     0.5283700   -0.8369011     0.5307930   -0.8308114     0.0151127    0.0107421 
   0.133000000     0.0176724    0.0076828     0.5218755   -0.8404303     0.5246903   -0.8350570     0.0154304    0.0105233 
   0.134000000     0.0177475    0.0076630     0.5153859   -0.8442054     0.5179631   -0.8384465     0.0154830    0.0104723 
   0.135000000     0.0178384    0.0071446     0.5090303   -0.8481444     0.5114858   -0.8427512     0.0154321    0.0104950 
   0.136000000     0.0181784    0.0072158     0.5029178   -0.8517312     0.5051742   -0.8464645     0.0156434    0.0104922 
   0.137000000     0.0183060    0.0071857     0.4960419   -0.8559902     0.4985073   -0.8499027     0.0156866    0.0105282 
   0.138000000     0.0182945    0.0067889     0.4895131   -0.8594005     0.4923531   -0.8537272     0.0160319    0.0101949 
   0.139000000     0.0187202    0.0067557     0.4831855   -0.8626793     0.4857765   -0.8574737     0.0162366    0.0101694 
   0.140000000     0.0186302    0.0066235     0.4769972   -0.8664284     0.4787984   -0.8613385     0.0163088    0.0099907 
   0.141000000     0.0187522    0.0062359     0.4705448   -0.8693855     0.4723057   -0.8642530     0.0164012    0.0099172 
   0.142000000     0.0189386    0.0061673     0.4634807   -0.8728670     0.4653415   -0.8681477     0.0166993    0.0100148 
   0.143000000     0.0189944    0.0063852     0.4569675   -0.8764988     0.4586374   -0.8715594     0.0166738    0.0100840 
   0.144000000     0.0194828    0.0059520     0.4498481   -0.8800275     0.4523485   -0.8751256     0.0172100    0.0097540 
   0.145000000     0.0190453    0.0057801     0.4435836   -0.8833373     0.4461718   -0.8783078     0.0171174    0.0096892 
   0.146000000     0.0195193    0.0056157     0.4364313   -0.8867271     0.4389516   -0.8817717     0.0170379    0.0098569 
   0.147000000     0.0190597    0.0050950     0.4301936   -0.8898227     0.4332033   -0.8848918     0.0170951    0.0098081 
   0.148000000     0.0193160    0.0052870     0.4230666   -0.8929233     0.4257738   -0.8884117     0.0171979    0.0101715 
   0.149000000     0.0194654    0.0050107     0.4167984   -0.8960927     0.4191450   -0.8910015     0.0172918    0.0100434 
   0.150000000     0.0195716    0.0045303     0.4097555   -0.8995301     0.4125909   -0.8947182     0.0174321    0.0101879 
   0.151000000     0.0195179    0.0045896     0.4029568   -0.9022269     0.4059294   -0.8980967     0.0174105    0.0103150 
   0.152000000     0.0198074    0.0042980     0.3964822   -0.9053692     0.3992435   -0.9007392     0.0177006    0.0104808 
   0.153000000     0.0193090    0.0044224     0.3894286   -0.9080506     0.3926746   -0.9033089     0.0179512    0.0105104 
   0.154000000     0.0192675    0.0039765     0.3827956   -0.9107396     0.3858809   -0.9060320     0.0180336    0.0106727 
   0.155000000     0.0194089    0.0043709     0.3760998   -0.9137031     0.3791472   -0.9092878     0.0182981    0.0108229 
   0.156000000     0.0192621    0.0041310     0.3690110   -0.9167591     0.3724649   -0.9118537     0.0185193    0.0106503 
   0.157000000     0.0196970    0.0037767     0.3623618   -0.9194714     0.3655531   -0.9144282     0.0186669    0.0107215 
   0.158000000     0.0191688    0.0037917     0.3551923   -0.9217595     0.3588839   -0.9173094     0.0188452    0.0106000 
   0.159000000     0.0192870    0.0037639     0.3486475   -0.9246725     0.3520203   -0.9202115     0.0190514    0.0105882 
