! 3/21/2017 9:33:06 AM
! F:\HUSERTL_20170321\CPWG100.S2P
! CHANNEL.1
! TR.MEASUREMENT
! CORRECTED.DATA
# GHZ S RI R 50.0
! FREQ.GHZ         S11RE         S11IM         S31RE         S31IM         S13RE         S13IM         S33RE         S33IM         
!; PortSelection: Port_13
   0.001000000     0.0028562    0.0007554     0.9950044   -0.0042341     1.0002400   -0.0027213     0.0000847    0.0015512 
   0.002000000     0.0025783    0.0017001     0.9972240   -0.0101961     1.0015140   -0.0077250     0.0011122    0.0016515 
   0.003000000    -0.0003260   -0.0019496     0.9973726   -0.0488559     1.0036500   -0.0054456     0.0018176   -0.0024969 
   0.004000000     0.0026345   -0.0012383     1.0029300   -0.0054731     1.0037990   -0.0475509     0.0034959   -0.0008082 
   0.005000000     0.0021047    0.0014556     1.0003200   -0.0309906     1.0008170   -0.0223973     0.0017363    0.0012816 
   0.006000000     0.0022909    0.0014029     0.9929773   -0.0318713     0.9960371   -0.0309963     0.0017851    0.0015865 
   0.007000000     0.0021096    0.0013748     0.9937399   -0.0367193     0.9954804   -0.0352060     0.0017623    0.0015207 
   0.008000000     0.0021521    0.0014712     0.9942438   -0.0406986     0.9954170   -0.0398645     0.0021066    0.0016777 
   0.009000000     0.0019924    0.0011064     0.9949486   -0.0456166     0.9950002   -0.0445802     0.0025377    0.0013007 
   0.010000000     0.0018347    0.0017499     1.0026940   -0.0534342     0.9991961   -0.0479070     0.0025164    0.0013248 
   0.011000000     0.0018726    0.0021387     0.9943609   -0.0536179     0.9944611   -0.0523068     0.0025358    0.0017222 
   0.012000000     0.0019363    0.0023504     0.9941059   -0.0569126     0.9942163   -0.0565876     0.0024020    0.0020181 
   0.013000000     0.0017708    0.0024768     0.9941420   -0.0611245     0.9931930   -0.0602080     0.0023880    0.0023021 
   0.014000000     0.0015579    0.0026797     0.9939076   -0.0640606     0.9929651   -0.0642783     0.0025365    0.0026964 
   0.015000000     0.0017961    0.0030697     0.9940794   -0.0684524     0.9927639   -0.0679876     0.0023706    0.0029034 
   0.016000000     0.0017468    0.0031385     0.9936157   -0.0722388     0.9920779   -0.0725157     0.0022164    0.0031255 
   0.017000000     0.0016774    0.0034507     0.9933169   -0.0757474     0.9919807   -0.0764131     0.0022318    0.0030882 
   0.018000000     0.0019974    0.0035878     0.9929279   -0.0791658     0.9916008   -0.0801498     0.0023032    0.0036943 
   0.019000000     0.0015238    0.0041718     0.9923482   -0.0841607     0.9907410   -0.0838460     0.0023936    0.0037001 
   0.020000000     0.0018342    0.0039581     0.9922226   -0.0875671     0.9906370   -0.0878033     0.0023334    0.0039168 
   0.021000000     0.0015405    0.0043762     0.9917285   -0.0920040     0.9903047   -0.0916398     0.0024991    0.0042913 
   0.022000000     0.0018059    0.0046070     0.9909511   -0.0956046     0.9899483   -0.0952205     0.0023800    0.0043457 
   0.023000000     0.0020439    0.0047845     0.9907269   -0.0998506     0.9890208   -0.0992197     0.0023796    0.0043470 
   0.024000000     0.0018549    0.0049184     0.9905186   -0.1039259     0.9890020   -0.1036059     0.0023946    0.0046428 
   0.025000000     0.0019345    0.0053390     0.9901866   -0.1076865     0.9880543   -0.1071465     0.0027279    0.0048171 
   0.026000000     0.0022508    0.0053323     0.9899163   -0.1116036     0.9876188   -0.1113156     0.0027117    0.0049278 
   0.027000000     0.0022044    0.0052407     0.9896436   -0.1158494     0.9874067   -0.1155447     0.0029341    0.0051055 
   0.028000000     0.0022827    0.0053559     0.9891061   -0.1201814     0.9870695   -0.1193952     0.0029524    0.0055912 
   0.029000000     0.0022305    0.0057328     0.9877915   -0.1236361     0.9859965   -0.1232387     0.0030728    0.0052082 
   0.030000000     0.0024018    0.0054427     0.9878798   -0.1274025     0.9851284   -0.1267927     0.0031089    0.0053340 
   0.031000000     0.0025256    0.0056798     0.9872482   -0.1313211     0.9847793   -0.1310832     0.0032010    0.0053347 
   0.032000000     0.0022952    0.0059232     0.9864262   -0.1355872     0.9843808   -0.1351786     0.0035188    0.0054557 
   0.033000000     0.0024599    0.0055554     0.9865246   -0.1400406     0.9835773   -0.1389517     0.0032610    0.0054214 
   0.034000000     0.0027567    0.0058471     0.9857409   -0.1438463     0.9824234   -0.1428649     0.0035519    0.0056404 
   0.035000000     0.0026369    0.0057043     0.9853554   -0.1473348     0.9821245   -0.1472581     0.0036610    0.0056695 
   0.036000000     0.0028790    0.0058699     0.9841144   -0.1510033     0.9809394   -0.1505293     0.0037190    0.0055468 
   0.037000000     0.0029055    0.0057904     0.9832255   -0.1559544     0.9813547   -0.1551463     0.0040064    0.0054371 
   0.038000000     0.0026352    0.0058525     0.9824690   -0.1595591     0.9802711   -0.1582110     0.0040709    0.0055898 
   0.039000000     0.0030011    0.0058067     0.9820747   -0.1634234     0.9797680   -0.1621750     0.0040152    0.0053938 
   0.040000000     0.0027716    0.0056983     0.9804254   -0.1672985     0.9791240   -0.1660324     0.0039395    0.0056159 
   0.041000000     0.0027636    0.0058321     0.9800651   -0.1712822     0.9779641   -0.1701819     0.0040651    0.0056194 
   0.042000000     0.0030017    0.0057665     0.9789028   -0.1751600     0.9777458   -0.1740818     0.0041605    0.0056966 
   0.043000000     0.0028891    0.0054405     0.9788921   -0.1791886     0.9765607   -0.1776011     0.0043474    0.0056527 
   0.044000000     0.0028442    0.0056203     0.9775072   -0.1825539     0.9761004   -0.1818272     0.0043300    0.0056143 
   0.045000000     0.0029288    0.0056151     0.9768397   -0.1863938     0.9753755   -0.1858129     0.0044261    0.0054642 
   0.046000000     0.0031364    0.0057077     0.9767208   -0.1907160     0.9746499   -0.1901055     0.0046919    0.0055378 
   0.047000000     0.0030329    0.0058583     0.9754347   -0.1946552     0.9740821   -0.1939755     0.0045808    0.0056671 
   0.048000000     0.0029788    0.0057457     0.9747306   -0.1985027     0.9724197   -0.1980628     0.0048139    0.0053700 
   0.049000000     0.0029944    0.0055553     0.9739212   -0.2023834     0.9718783   -0.2016794     0.0044621    0.0054332 
   0.050000000     0.0026386    0.0064180     0.9790157   -0.2051578     0.9760110   -0.2008753     0.0038176    0.0060505 
   0.051000000     0.0026595    0.0067687     0.9780495   -0.2092091     0.9752202   -0.2049494     0.0042359    0.0061015 
   0.052000000     0.0027024    0.0066844     0.9768491   -0.2130717     0.9739668   -0.2087795     0.0042343    0.0064294 
   0.053000000     0.0031254    0.0069455     0.9759371   -0.2171509     0.9730973   -0.2127661     0.0041681    0.0064899 
   0.054000000     0.0028918    0.0069095     0.9748818   -0.2210139     0.9722000   -0.2165924     0.0042578    0.0068005 
   0.055000000     0.0028999    0.0067424     0.9742402   -0.2250317     0.9708230   -0.2201762     0.0041237    0.0067698 
   0.056000000     0.0033057    0.0071486     0.9733455   -0.2286713     0.9701999   -0.2243841     0.0045018    0.0069830 
   0.057000000     0.0031969    0.0072349     0.9724145   -0.2333436     0.9691808   -0.2283304     0.0043792    0.0067517 
   0.058000000     0.0031338    0.0074369     0.9711648   -0.2370592     0.9679786   -0.2319818     0.0042622    0.0072866 
   0.059000000     0.0034825    0.0075707     0.9697847   -0.2412201     0.9674153   -0.2356631     0.0045362    0.0073284 
   0.060000000     0.0036866    0.0080036     0.9689413   -0.2445849     0.9665149   -0.2398518     0.0048412    0.0076103 
   0.061000000     0.0036670    0.0081895     0.9678745   -0.2484105     0.9654536   -0.2439342     0.0045657    0.0077231 
   0.062000000     0.0037829    0.0081515     0.9670004   -0.2522676     0.9645160   -0.2479737     0.0048637    0.0078934 
   0.063000000     0.0039040    0.0081828     0.9664321   -0.2564446     0.9634445   -0.2515064     0.0048034    0.0081095 
   0.064000000     0.0038293    0.0086406     0.9647814   -0.2603446     0.9622505   -0.2552825     0.0050398    0.0080226 
   0.065000000     0.0038999    0.0086679     0.9641051   -0.2640178     0.9611378   -0.2594019     0.0049181    0.0083935 
   0.066000000     0.0041523    0.0089386     0.9624835   -0.2683399     0.9603061   -0.2630101     0.0047795    0.0082387 
   0.067000000     0.0043046    0.0091034     0.9611863   -0.2718729     0.9589304   -0.2672755     0.0049090    0.0086728 
   0.068000000     0.0039918    0.0084986     0.9619671   -0.2747886     0.9571655   -0.2718342     0.0048421    0.0088697 
   0.069000000     0.0045200    0.0093649     0.9594995   -0.2798729     0.9568266   -0.2746718     0.0052981    0.0087755 
   0.070000000     0.0044305    0.0094464     0.9578372   -0.2837028     0.9558824   -0.2783370     0.0049068    0.0088447 
   0.071000000     0.0049104    0.0092576     0.9567650   -0.2868806     0.9550723   -0.2823319     0.0053306    0.0093979 
   0.072000000     0.0050692    0.0097091     0.9556369   -0.2910058     0.9531035   -0.2864510     0.0052669    0.0092583 
   0.073000000     0.0051423    0.0095931     0.9541627   -0.2947707     0.9524823   -0.2897613     0.0054455    0.0094603 
   0.074000000     0.0052107    0.0096450     0.9532477   -0.2987553     0.9509619   -0.2939319     0.0054572    0.0095430 
   0.075000000     0.0054379    0.0098512     0.9520520   -0.3024586     0.9496829   -0.2977056     0.0055564    0.0097854 
   0.076000000     0.0055343    0.0098413     0.9507372   -0.3062541     0.9481979   -0.3014357     0.0056199    0.0098698 
   0.077000000     0.0059224    0.0097973     0.9493982   -0.3101080     0.9474500   -0.3053524     0.0057700    0.0099190 
   0.078000000     0.0063541    0.0099526     0.9481232   -0.3137643     0.9458496   -0.3089884     0.0057952    0.0100839 
   0.079000000     0.0060273    0.0103018     0.9480252   -0.3160341     0.9445328   -0.3134739     0.0060303    0.0099743 
   0.080000000     0.0062892    0.0104325     0.9464388   -0.3204946     0.9430183   -0.3174295     0.0056813    0.0099644 
   0.081000000     0.0068379    0.0103563     0.9434476   -0.3248735     0.9421685   -0.3204564     0.0060176    0.0103003 
   0.082000000     0.0071369    0.0105107     0.9429353   -0.3282863     0.9408308   -0.3243199     0.0056810    0.0106084 
   0.083000000     0.0072100    0.0103066     0.9408827   -0.3320217     0.9396629   -0.3279692     0.0058452    0.0105621 
   0.084000000     0.0075863    0.0105987     0.9395634   -0.3355210     0.9380922   -0.3316172     0.0058007    0.0104962 
   0.085000000     0.0076784    0.0106895     0.9384099   -0.3394711     0.9367598   -0.3357499     0.0056039    0.0106077 
   0.086000000     0.0075012    0.0109583     0.9380749   -0.3423668     0.9351509   -0.3400623     0.0055920    0.0107901 
   0.087000000     0.0078701    0.0106643     0.9347973   -0.3471633     0.9338597   -0.3427298     0.0056267    0.0107325 
   0.088000000     0.0077201    0.0108516     0.9336498   -0.3513544     0.9320999   -0.3467796     0.0052583    0.0110490 
   0.089000000     0.0077182    0.0109169     0.9319215   -0.3546196     0.9308901   -0.3499873     0.0054041    0.0112171 
   0.090000000     0.0079172    0.0108975     0.9305609   -0.3588030     0.9295921   -0.3531322     0.0053355    0.0112947 
   0.091000000     0.0079552    0.0110898     0.9290651   -0.3624791     0.9284240   -0.3573665     0.0052902    0.0113533 
   0.092000000     0.0080046    0.0111189     0.9271210   -0.3657551     0.9267971   -0.3608603     0.0052741    0.0114393 
   0.093000000     0.0079391    0.0110013     0.9256656   -0.3693562     0.9251571   -0.3648444     0.0056810    0.0115999 
   0.094000000     0.0082299    0.0112916     0.9240094   -0.3732169     0.9233810   -0.3683408     0.0053966    0.0116988 
   0.095000000     0.0084519    0.0110767     0.9225013   -0.3766368     0.9216720   -0.3722032     0.0054889    0.0117839 
   0.096000000     0.0083309    0.0113150     0.9234387   -0.3785940     0.9193332   -0.3768688     0.0053442    0.0118201 
   0.097000000     0.0084962    0.0109376     0.9192733   -0.3838765     0.9187231   -0.3795507     0.0056900    0.0118529 
   0.098000000     0.0082832    0.0110018     0.9179360   -0.3871435     0.9174175   -0.3832795     0.0057646    0.0119918 
   0.099000000     0.0085562    0.0108266     0.9158464   -0.3914968     0.9154111   -0.3869769     0.0056353    0.0120845 
   0.100000000     0.0086606    0.0112143     0.9167770   -0.3934108     0.9130106   -0.3921095     0.0059380    0.0121841 
   0.101000000     0.0085574    0.0106926     0.9127516   -0.3983873     0.9122123   -0.3946010     0.0061997    0.0121513 
   0.102000000     0.0086664    0.0108341     0.9116575   -0.4021629     0.9102772   -0.3978907     0.0063645    0.0122172 
   0.103000000     0.0084204    0.0109565     0.9095747   -0.4058556     0.9093366   -0.4017090     0.0063837    0.0120723 
   0.104000000     0.0084202    0.0110584     0.9104259   -0.4080933     0.9066735   -0.4062151     0.0061744    0.0126174 
   0.105000000     0.0084305    0.0109114     0.9066929   -0.4128872     0.9057727   -0.4088881     0.0065070    0.0122655 
   0.106000000     0.0083333    0.0110378     0.9066906   -0.4156200     0.9034814   -0.4127190     0.0062160    0.0125438 
   0.107000000     0.0082437    0.0110238     0.9033096   -0.4203728     0.9027341   -0.4159223     0.0070163    0.0123554 
   0.108000000     0.0084617    0.0111094     0.9013258   -0.4235032     0.9009535   -0.4195957     0.0071364    0.0123635 
   0.109000000     0.0081401    0.0113193     0.8999649   -0.4276551     0.8996713   -0.4227868     0.0072595    0.0122828 
   0.110000000     0.0080077    0.0115132     0.8979145   -0.4311500     0.8977021   -0.4266228     0.0072033    0.0121195 
   0.111000000     0.0081551    0.0116675     0.8966281   -0.4349345     0.8959339   -0.4301943     0.0074868    0.0121657 
   0.112000000     0.0082780    0.0118353     0.8947459   -0.4381450     0.8943400   -0.4340983     0.0074786    0.0123283 
   0.113000000     0.0081062    0.0120400     0.8932203   -0.4422087     0.8922415   -0.4379494     0.0072485    0.0122566 
   0.114000000     0.0081668    0.0120594     0.8910933   -0.4458339     0.8903391   -0.4404717     0.0072485    0.0122913 
   0.115000000     0.0083284    0.0122748     0.8896512   -0.4493495     0.8884019   -0.4446411     0.0075793    0.0124005 
   0.116000000     0.0085902    0.0123563     0.8873933   -0.4532568     0.8869740   -0.4481832     0.0077869    0.0124694 
   0.117000000     0.0086779    0.0124342     0.8861639   -0.4562612     0.8854590   -0.4518583     0.0077160    0.0126094 
   0.118000000     0.0088072    0.0124621     0.8840979   -0.4599544     0.8835546   -0.4554998     0.0080101    0.0127933 
   0.119000000     0.0091639    0.0122805     0.8822389   -0.4633574     0.8815567   -0.4587303     0.0079889    0.0130194 
   0.120000000     0.0092435    0.0125152     0.8803099   -0.4667386     0.8795098   -0.4625030     0.0082114    0.0128750 
   0.121000000     0.0093760    0.0125165     0.8787673   -0.4704570     0.8779249   -0.4657083     0.0082407    0.0130045 
   0.122000000     0.0095694    0.0124447     0.8764065   -0.4737525     0.8758489   -0.4694832     0.0080636    0.0129087 
   0.123000000     0.0095700    0.0124042     0.8746426   -0.4773886     0.8743328   -0.4730735     0.0083843    0.0129439 
   0.124000000     0.0099971    0.0127471     0.8728093   -0.4807134     0.8717973   -0.4759949     0.0082649    0.0127730 
   0.125000000     0.0098995    0.0126365     0.8707168   -0.4845233     0.8703450   -0.4799740     0.0085075    0.0130303 
   0.126000000     0.0098910    0.0127410     0.8688419   -0.4876971     0.8682552   -0.4835228     0.0083522    0.0129538 
   0.127000000     0.0099650    0.0126435     0.8666933   -0.4913402     0.8663585   -0.4863544     0.0086354    0.0131471 
   0.128000000     0.0100977    0.0127112     0.8649437   -0.4943420     0.8640480   -0.4899737     0.0087125    0.0131343 
   0.129000000     0.0100373    0.0124758     0.8622711   -0.4978991     0.8619466   -0.4932018     0.0081722    0.0132208 
   0.130000000     0.0101713    0.0125887     0.8602803   -0.5013916     0.8598021   -0.4973436     0.0084627    0.0132983 
   0.131000000     0.0102396    0.0127388     0.8578352   -0.5047933     0.8580518   -0.4999722     0.0086208    0.0135322 
   0.132000000     0.0102665    0.0129425     0.8559245   -0.5083588     0.8554463   -0.5038952     0.0086840    0.0132738 
   0.133000000     0.0101735    0.0128789     0.8534501   -0.5117958     0.8542770   -0.5071394     0.0087570    0.0134187 
   0.134000000     0.0102613    0.0130252     0.8519489   -0.5152453     0.8514605   -0.5103959     0.0090177    0.0133616 
   0.135000000     0.0104191    0.0130550     0.8494706   -0.5187288     0.8491490   -0.5136911     0.0091377    0.0135118 
   0.136000000     0.0106806    0.0130928     0.8476102   -0.5218558     0.8472663   -0.5171401     0.0089723    0.0136057 
   0.137000000     0.0109007    0.0131720     0.8452818   -0.5253435     0.8449047   -0.5203781     0.0092585    0.0135190 
   0.138000000     0.0109917    0.0131580     0.8429465   -0.5288219     0.8426067   -0.5239502     0.0093932    0.0136392 
   0.139000000     0.0111596    0.0135493     0.8406966   -0.5316547     0.8403901   -0.5275621     0.0094588    0.0139490 
   0.140000000     0.0112378    0.0135493     0.8385149   -0.5353608     0.8379440   -0.5312502     0.0097076    0.0138579 
   0.141000000     0.0114011    0.0133547     0.8363856   -0.5386354     0.8356277   -0.5343546     0.0096641    0.0139202 
   0.142000000     0.0119576    0.0135312     0.8339657   -0.5415350     0.8333704   -0.5378808     0.0101639    0.0140005 
   0.143000000     0.0118992    0.0137463     0.8315503   -0.5452822     0.8315080   -0.5413212     0.0099017    0.0139778 
   0.144000000     0.0122569    0.0137104     0.8295571   -0.5486482     0.8289827   -0.5443630     0.0103744    0.0141703 
   0.145000000     0.0125523    0.0134842     0.8270931   -0.5516295     0.8273770   -0.5478210     0.0103891    0.0142550 
   0.146000000     0.0129924    0.0136556     0.8248610   -0.5551481     0.8250341   -0.5509180     0.0104501    0.0140852 
   0.147000000     0.0131553    0.0135594     0.8223607   -0.5579339     0.8224060   -0.5542573     0.0104532    0.0140837 
   0.148000000     0.0132220    0.0134766     0.8201310   -0.5614620     0.8206123   -0.5576172     0.0103734    0.0142810 
   0.149000000     0.0135074    0.0133821     0.8178658   -0.5646311     0.8183270   -0.5608752     0.0104946    0.0144929 
   0.150000000     0.0137538    0.0136056     0.8157962   -0.5681227     0.8165194   -0.5643681     0.0102983    0.0145788 
   0.151000000     0.0139690    0.0133622     0.8134788   -0.5714815     0.8140540   -0.5673365     0.0102487    0.0146090 
   0.152000000     0.0141230    0.0134827     0.8115047   -0.5741679     0.8114356   -0.5705657     0.0103214    0.0149852 
   0.153000000     0.0141178    0.0132336     0.8095015   -0.5776725     0.8091624   -0.5735979     0.0103651    0.0150414 
   0.154000000     0.0142036    0.0130293     0.8065235   -0.5804728     0.8069691   -0.5765470     0.0105921    0.0152641 
   0.155000000     0.0141584    0.0132008     0.8046718   -0.5835896     0.8052373   -0.5795739     0.0106027    0.0154656 
   0.156000000     0.0142329    0.0131203     0.8025854   -0.5866146     0.8025361   -0.5825077     0.0105833    0.0155536 
   0.157000000     0.0143550    0.0131864     0.8002324   -0.5899951     0.8002121   -0.5856777     0.0104191    0.0156850 
   0.158000000     0.0143778    0.0130750     0.7981002   -0.5930631     0.7979077   -0.5886629     0.0107133    0.0158967 
   0.159000000     0.0145980    0.0131712     0.7954257   -0.5962733     0.7954817   -0.5916821     0.0107013    0.0159381 
