# GHz S MA R 50

1.000000000000000e-03  1.0615178262066891e-03 -9.2216108988623205e+01  9.9989371709089137e-01 -1.6169780108387591e-01  9.9989371709089137e-01 -1.6169780108387596e-01  1.0615178262066893e-03 -9.2216108988624711e+01
2.000000000000000e-03  2.0823400548974184e-03 -9.1907883422661726e+01  9.9983594989263225e-01 -3.2168472050577773e-01  9.9983594989263236e-01 -3.2168472050577768e-01  2.0823400548974171e-03 -9.1907883422660191e+01
3.000000000000000e-03  3.0879426403592277e-03 -9.1860665287110635e+01  9.9978516529264916e-01 -4.8102465001745753e-01  9.9978516529264916e-01 -4.8102465001745742e-01  3.0879426403592324e-03 -9.1860665287113207e+01
4.000000000000000e-03  4.0836324187859558e-03 -9.1896835959738624e+01  9.9973751625621843e-01 -6.3994367357222359e-01  9.9973751625621854e-01 -6.3994367357222393e-01  4.0836324187859575e-03 -9.1896835959739406e+01
5.000000000000000e-03  5.0719274719272485e-03 -9.1971888509906478e+01  9.9969152664630467e-01 -7.9854909424837917e-01  9.9969152664630467e-01 -7.9854909424837950e-01  5.0719274719272468e-03 -9.1971888509906478e+01
6.000000000000000e-03  6.0543091373602117e-03 -9.2068702858756950e+01  9.9964644610398956e-01 -9.5690405169189396e-01  9.9964644610398967e-01 -9.5690405169189363e-01  6.0543091373602143e-03 -9.2068702858756950e+01
7.000000000000000e-03  7.0317547735864990e-03 -9.2179112193800293e+01  9.9960183287132409e-01 -1.1150502153426725e+00  9.9960183287132409e-01 -1.1150502153426720e+00  7.0317547735865016e-03 -9.2179112193799611e+01
8.000000000000000e-03  8.0049577923434721e-03 -9.2298666168199460e+01  9.9955740179083497e-01 -1.2730171574619809e+00  9.9955740179083474e-01 -1.2730171574619809e+00  8.0049577923434704e-03 -9.2298666168198466e+01
9.000000000000001e-03  8.9744355860875112e-03 -9.2424707751213532e+01  9.9951295671883544e-01 -1.4308269509028151e+00  9.9951295671883544e-01 -1.4308269509028160e+00  8.9744355860875060e-03 -9.2424707751213703e+01
1.000000000000000e-02  9.9405888114081475e-03 -9.2555540904175089e+01  9.9946835630786823e-01 -1.5884966947067520e+00  9.9946835630786834e-01 -1.5884966947067507e+00  9.9405888114081544e-03 -9.2555540904174450e+01
1.100000000000000e-02  1.0903736699943092e-02 -9.2690026152528262e+01  9.9942349500651151e-01 -1.7460400184636662e+00  9.9942349500651184e-01 -1.7460400184636660e+00  1.0903736699943090e-02 -9.2690026152527977e+01
1.200000000000000e-02  1.1864139416729201e-02 -9.2827366304138252e+01  9.9937829174961679e-01 -1.9034680348712225e+00  9.9937829174961690e-01 -1.9034680348712225e+00  1.1864139416729202e-02 -9.2827366304138394e+01
1.300000000000000e-02  1.2822012912370244e-02 -9.2966984993061004e+01  9.9933268285015742e-01 -2.0607899725114680e+00  9.9933268285015764e-01 -2.0607899725114684e+00  1.2822012912370246e-02 -9.2966984993060976e+01
1.400000000000000e-02  1.3777539177918149e-02 -9.3108454006420317e+01  9.9928661733187518e-01 -2.2180136127675389e+00  9.9928661733187518e-01 -2.2180136127675389e+00  1.3777539177918159e-02 -9.3108454006420317e+01
1.500000000000000e-02  1.4730873554849784e-02 -9.3251447821534015e+01  9.9924005375218727e-01 -2.3751456012755794e+00  9.9924005375218750e-01 -2.3751456012755803e+00  1.4730873554849797e-02 -9.3251447821534342e+01
1.600000000000000e-02  1.5682150087132307e-02 -9.3395714085342604e+01  9.9919295797317931e-01 -2.5321916759607239e+00  9.9919295797317953e-01 -2.5321916759607239e+00  1.5682150087132311e-02 -9.3395714085342917e+01
1.700000000000000e-02  1.6631485530117503e-02 -9.3541053828804365e+01  9.9914530155702697e-01 -2.6891568378472055e+00  9.9914530155702685e-01 -2.6891568378472068e+00  1.6631485530117500e-02 -9.3541053828804081e+01
1.800000000000000e-02  1.7578982412946569e-02 -9.3687307839229902e+01  9.9909706058504977e-01 -2.8460454815428378e+00  9.9909706058504966e-01 -2.8460454815428373e+00  1.7578982412946569e-02 -9.3687307839230002e+01
1.900000000000000e-02  1.8524731418339435e-02 -9.3834347048510722e+01  9.9904821477166905e-01 -3.0028614966400364e+00  9.9904821477166894e-01 -3.0028614966400364e+00  1.8524731418339428e-02 -9.3834347048510907e+01
2.000000000000000e-02  1.9468813259987630e-02 -9.3982065610990219e+01  9.9899874678817768e-01 -3.1596083477116279e+00  9.9899874678817779e-01 -3.1596083477116275e+00  1.9468813259987634e-02 -9.3982065610990219e+01
2.100000000000000e-02  2.0411300183518690e-02 -9.4130375825320201e+01  9.9894864173895004e-01 -3.3162891382682491e+00  9.9894864173895026e-01 -3.3162891382682500e+00  2.0411300183518690e-02 -9.4130375825320101e+01
2.200000000000000e-02  2.1352257180891145e-02 -9.4279204347305694e+01  9.9889788675012225e-01 -3.4729066625059213e+00  9.9889788675012237e-01 -3.4729066625059222e+00  2.1352257180891152e-02 -9.4279204347305850e+01
2.300000000000000e-02  2.2291742983510485e-02 -9.4428489323372162e+01  9.9884647064280307e-01 -3.6294634476254153e+00  9.9884647064280319e-01 -3.6294634476254140e+00  2.2291742983510481e-02 -9.4428489323372162e+01
2.400000000000000e-02  2.3229810882272928e-02 -9.4578178191760259e+01  9.9879438367054940e-01 -3.7859617887774473e+00  9.9879438367054973e-01 -3.7859617887774473e+00  2.3229810882272935e-02 -9.4578178191760244e+01
2.500000000000000e-02  2.4166509410670594e-02 -9.4728225975330105e+01  9.9874161730639721e-01 -3.9424037781730621e+00  9.9874161730639732e-01 -3.9424037781730621e+00  2.4166509410670601e-02 -9.4728225975330034e+01
2.600000000000000e-02  2.5101882918393596e-02 -9.4878593941363391e+01  9.9868816406850724e-01 -4.0987913295283267e+00  9.9868816406850713e-01 -4.0987913295283285e+00  2.5101882918393582e-02 -9.4878593941363320e+01
2.700000000000000e-02  2.6035972056529591e-02 -9.5029248538770076e+01  9.9863401737631974e-01 -4.2551261987421549e+00  9.9863401737631974e-01 -4.2551261987421549e+00  2.6035972056529570e-02 -9.5029248538770261e+01
2.800000000000000e-02  2.6968814190754545e-02 -9.5180160547448409e+01  9.9857917143089447e-01 -4.4114100015059163e+00  9.9857917143089470e-01 -4.4114100015059154e+00  2.6968814190754559e-02 -9.5180160547448295e+01
2.900000000000000e-02  2.7900443755396562e-02 -9.5331304391565325e+01  9.9852362111474913e-01 -4.5676442283935614e+00  9.9852362111474924e-01 -4.5676442283935632e+00  2.7900443755396576e-02 -9.5331304391565382e+01
3.000000000000000e-02  2.8830892558580717e-02 -9.5482657580792491e+01  9.9846736190739949e-01 -4.7238302578673688e+00  9.9846736190739993e-01 -4.7238302578673688e+00  2.8830892558580706e-02 -9.5482657580792193e+01
3.100000000000000e-02  2.9760190046621102e-02 -9.5634200252297120e+01  9.9841038981381458e-01 -4.8799693675470071e+00  9.9841038981381458e-01 -4.8799693675470071e+00  2.9760190046621088e-02 -9.5634200252297290e+01
3.200000000000000e-02  3.0688363534240662e-02 -9.5785914792743228e+01  9.9835270130337106e-01 -5.0360627440225585e+00  9.9835270130337073e-01 -5.0360627440225585e+00  3.0688363534240700e-02 -9.5785914792743483e+01
3.300000000000000e-02  3.1615438405967207e-02 -9.5937785524326230e+01  9.9829429325756647e-01 -5.1921114914392525e+00  9.9829429325756669e-01 -5.1921114914392517e+00  3.1615438405967207e-02 -9.5937785524326330e+01
3.400000000000000e-02  3.2541438293076728e-02 -9.6089798442473878e+01  9.9823516292499781e-01 -5.3481166390401036e+00  9.9823516292499781e-01 -5.3481166390401054e+00  3.2541438293076735e-02 -9.6089798442473878e+01
3.500000000000000e-02  3.3466385229685564e-02 -9.6241940995436963e+01  9.9817530788240305e-01 -5.5040791478201152e+00  9.9817530788240294e-01 -5.5040791478201152e+00  3.3466385229685570e-02 -9.6241940995437105e+01
3.600000000000000e-02  3.4390299790973668e-02 -9.6394201898145823e+01  9.9811472600083084e-01 -5.6599999164188812e+00  9.9811472600083095e-01 -5.6599999164188857e+00  3.4390299790973654e-02 -9.6394201898145823e+01
3.700000000000001e-02  3.5313201216025103e-02 -9.6546570974204826e+01  9.9805341541613268e-01 -5.8158797863577076e+00  9.9805341541613291e-01 -5.8158797863577085e+00  3.5313201216025103e-02 -9.6546570974204840e+01
3.800000000000000e-02  3.6235107517362274e-02 -9.6699039021172638e+01  9.9799137450312325e-01 -5.9717195467096280e+00  9.9799137450312325e-01 -5.9717195467096280e+00  3.6235107517362281e-02 -9.6699039021172680e+01
3.900000000000000e-02  3.7156035578934508e-02 -9.6851597695167882e+01  9.9792860185288812e-01 -6.1275199382774037e+00  9.9792860185288823e-01 -6.1275199382774010e+00  3.7156035578934495e-02 -9.6851597695167925e+01
4.000000000000000e-02  3.8076001244036727e-02 -9.7004239411635865e+01  9.9786509625277731e-01 -6.2832816573422416e+00  9.9786509625277731e-01 -6.2832816573422434e+00  3.8076001244036754e-02 -9.7004239411635893e+01
4.100000000000000e-02  3.8995019394419253e-02 -9.7156957259668062e+01  9.9780085666870422e-01 -6.4390053590373073e+00  9.9780085666870422e-01 -6.4390053590373082e+00  3.8995019394419260e-02 -9.7156957259667919e+01
4.200000000000000e-02  3.9913104021667971e-02 -9.7309744927754892e+01  9.9773588222945409e-01 -6.5946916603915486e+00  9.9773588222945431e-01 -6.5946916603915460e+00  3.9913104021667971e-02 -9.7309744927754892e+01
4.300000000000000e-02  4.0830268291772887e-02 -9.7462596639217807e+01  9.9767017221272303e-01 -6.7503411430833129e+00  9.9767017221272325e-01 -6.7503411430833147e+00  4.0830268291772887e-02 -9.7462596639217907e+01
4.400000000000000e-02  4.1746524603678122e-02 -9.7615507095859471e+01  9.9760372603266467e-01 -6.9059543559374799e+00  9.9760372603266489e-01 -6.9059543559374781e+00  4.1746524603678122e-02 -9.7615507095859442e+01
4.500000000000001e-02  4.2661884642499377e-02 -9.7768471428645341e+01  9.9753654322874463e-01 -7.0615318171952008e+00  9.9753654322874452e-01 -7.0615318171951991e+00  4.2661884642499398e-02 -9.7768471428645469e+01
4.600000000000001e-02  4.3576359428003301e-02 -9.7921485154403030e+01  9.9746862345577392e-01 -7.2170740165816847e+00  9.9746862345577381e-01 -7.2170740165816847e+00  4.3576359428003288e-02 -9.7921485154402916e+01
4.700000000000000e-02  4.4489959358859556e-02 -9.8074544137679169e+01  9.9739996647490459e-01 -7.3725814171939223e+00  9.9739996647490481e-01 -7.3725814171939206e+00  4.4489959358859563e-02 -9.8074544137679126e+01
4.800000000000000e-02  4.5402694253121906e-02 -9.8227644557072708e+01  9.9733057214557574e-01 -7.5280544572274666e+00  9.9733057214557597e-01 -7.5280544572274666e+00  4.5402694253121906e-02 -9.8227644557072807e+01
4.900000000000000e-02  4.6314573385327934e-02 -9.8380782875414283e+01  9.9726044041820472e-01 -7.6834935515591907e+00  9.9726044041820472e-01 -7.6834935515591942e+00  4.6314573385327934e-02 -9.8380782875414383e+01
5.000000000000000e-02  4.7225605520563166e-02 -9.8533955813309063e+01  9.9718957132758912e-01 -7.8388990932006433e+00  9.9718957132758912e-01 -7.8388990932006415e+00  4.7225605520563159e-02 -9.8533955813309021e+01
5.100000000000000e-02  4.8135798945795914e-02 -9.8687160325586760e+01  9.9711796498692706e-01 -7.9942714546349363e+00  9.9711796498692662e-01 -7.9942714546349372e+00  4.8135798945795921e-02 -9.8687160325586788e+01
5.200000000000000e-02  4.9045161498746041e-02 -9.8840393580301495e+01  9.9704562158237586e-01 -8.1496109890486785e+00  9.9704562158237608e-01 -8.1496109890486785e+00  4.9045161498746062e-02 -9.8840393580301480e+01
5.300000000000001e-02  4.9953700594532600e-02 -9.8993652939963141e+01  9.9697254136813107e-01 -8.3049180314690165e+00  9.9697254136813096e-01 -8.3049180314690183e+00  4.9953700594532621e-02 -9.8993652939963155e+01
5.400000000000001e-02  5.0861423250301185e-02 -9.9146935944718535e+01  9.9689872466190432e-01 -8.4601928998146807e+00  9.9689872466190421e-01 -8.4601928998146789e+00  5.0861423250301137e-02 -9.9146935944718535e+01
5.500000000000000e-02  5.1768336108025566e-02 -9.9300240297264054e+01  9.9682417184081684e-01 -8.6154358958691244e+00  9.9682417184081684e-01 -8.6154358958691262e+00  5.1768336108025552e-02 -9.9300240297263954e+01
5.600000000000000e-02  5.2674445455646916e-02 -9.9453563849267056e+01  9.9674888333764444e-01 -8.7706473061827861e+00  9.9674888333764444e-01 -8.7706473061827861e+00  5.2674445455646930e-02 -9.9453563849267027e+01
5.700000000000000e-02  5.3579757246698230e-02 -9.9606904589132114e+01  9.9667285963737406e-01 -8.9258274029107891e+00  9.9667285963737440e-01 -8.9258274029107856e+00  5.3579757246698230e-02 -9.9606904589132100e+01
5.800000000000000e-02  5.4484277118550473e-02 -9.9760260630966116e+01  9.9659610127404319e-01 -9.0809764445917622e+00  9.9659610127404352e-01 -9.0809764445917622e+00  5.4484277118550424e-02 -9.9760260630966187e+01
5.900000000000000e-02  5.5388010409394665e-02 -9.9913630204581935e+01  9.9651860882783772e-01 -9.2360946768729626e+00  9.9651860882783749e-01 -9.2360946768729626e+00  5.5388010409394658e-02 -9.9913630204581963e+01
6.000000000000000e-02  5.6290962174071764e-02 -1.0006701164645666e+02  9.9644038292242176e-01 -9.3911823331860358e+00  9.9644038292242143e-01 -9.3911823331860376e+00  5.6290962174071750e-02 -1.0006701164645655e+02
6.100000000000001e-02  5.7193137198844078e-02 -1.0022040339152116e+02  9.9636142422248752e-01 -9.5462396353777752e+00  9.9636142422248719e-01 -9.5462396353777752e+00  5.7193137198844050e-02 -1.0022040339152122e+02
6.200000000000001e-02  5.8094540015194679e-02 -1.0037380396569662e+02  9.9628173343147086e-01 -9.7012667942994106e+00  9.9628173343147097e-01 -9.7012667942994053e+00  5.8094540015194658e-02 -1.0037380396569645e+02
6.300000000000000e-02  5.8995174912736384e-02 -1.0052721197910331e+02  9.9620131128947620e-01 -9.8562640103578154e+00  9.9620131128947598e-01 -9.8562640103578154e+00  5.8995174912736377e-02 -1.0052721197910337e+02
6.400000000000000e-02  5.9895045951296515e-02 -1.0068062611987078e+02  9.9612015857132008e-01 -1.0011231474031744e+01  9.9612015857131986e-01 -1.0011231474031748e+01  5.9895045951296536e-02 -1.0068062611987079e+02
6.500000000000000e-02  6.0794156972247014e-02 -1.0083404514848229e+02  9.9603827608475126e-01 -1.0166169366355678e+01  9.9603827608475115e-01 -1.0166169366355676e+01  6.0794156972247021e-02 -1.0083404514848242e+02
6.600000000000000e-02  6.1692511609132139e-02 -1.0098746789261034e+02  9.9595566466877805e-01 -1.0321077859373892e+01  9.9595566466877794e-01 -1.0321077859373894e+01  6.1692511609132132e-02 -1.0098746789261035e+02
6.700000000000002e-02  6.2590113297653932e-02 -1.0114089324238400e+02  9.9587232519212354e-01 -1.0475957116566972e+01  9.9587232519212376e-01 -1.0475957116566969e+01  6.2590113297653960e-02 -1.0114089324238395e+02
6.800000000000000e-02  6.3486965285057498e-02 -1.0129432014605378e+02  9.9578825855180209e-01 -1.0630807293252815e+01  9.9578825855180186e-01 -1.0630807293252815e+01  6.3486965285057442e-02 -1.0129432014605376e+02
6.900000000000001e-02  6.4383070638963799e-02 -1.0144774760601121e+02  9.9570346567176626e-01 -1.0785628536964087e+01  9.9570346567176593e-01 -1.0785628536964087e+01  6.4383070638963799e-02 -1.0144774760601122e+02
7.000000000000001e-02  6.5278432255688065e-02 -1.0160117467513247e+02  9.9561794750167654e-01 -1.0940420987803630e+01  9.9561794750167676e-01 -1.0940420987803630e+01  6.5278432255688065e-02 -1.0160117467513240e+02
7.100000000000001e-02  6.6173052868084212e-02 -1.0175460045341434e+02  9.9553170501574284e-01 -1.1095184778779700e+01  9.9553170501574251e-01 -1.1095184778779705e+01  6.6173052868084226e-02 -1.0175460045341434e+02
7.200000000000001e-02  6.7066935052941146e-02 -1.0190802408487474e+02  9.9544473921162946e-01 -1.1249920036122152e+01  9.9544473921162946e-01 -1.1249920036122148e+01  6.7066935052941118e-02 -1.0190802408487471e+02
7.300000000000001e-02  6.7960081237973244e-02 -1.0206144475469480e+02  9.9535705110946004e-01 -1.1404626879581182e+01  9.9535705110946027e-01 -1.1404626879581174e+01  6.7960081237973244e-02 -1.0206144475469476e+02
7.400000000000001e-02  6.8852493708420587e-02 -1.0221486168658259e+02  9.9526864175086283e-01 -1.1559305422709508e+01  9.9526864175086283e-01 -1.1559305422709501e+01  6.8852493708420601e-02 -1.0221486168658288e+02
7.500000000000001e-02  6.9744174613296087e-02 -1.0236827414033384e+02  9.9517951219808476e-01 -1.1713955773129463e+01  9.9517951219808531e-01 -1.1713955773129463e+01  6.9744174613296073e-02 -1.0236827414033374e+02
7.600000000000000e-02  7.0635125971296953e-02 -1.0252168140957870e+02  9.9508966353316974e-01 -1.1868578032785758e+01  9.9508966353316963e-01 -1.1868578032785763e+01  7.0635125971296966e-02 -1.0252168140957870e+02
7.700000000000000e-02  7.1525349676402117e-02 -1.0267508281969228e+02  9.9499909685717103e-01 -1.2023172298184830e+01  9.9499909685717114e-01 -1.2023172298184827e+01  7.1525349676402103e-02 -1.0267508281969229e+02
7.800000000000000e-02  7.2414847503181931e-02 -1.0282847772586138e+02  9.9490781328942646e-01 -1.2177738660621902e+01  9.9490781328942623e-01 -1.2177738660621902e+01  7.2414847503181931e-02 -1.0282847772586148e+02
7.900000000000000e-02  7.3303621111832529e-02 -1.0298186551128882e+02  9.9481581396687890e-01 -1.2332277206396320e+01  9.9481581396687913e-01 -1.2332277206396315e+01  7.3303621111832529e-02 -1.0298186551128880e+02
8.000000000000000e-02  7.4191672052952587e-02 -1.0313524558552378e+02  9.9472310004341213e-01 -1.2486788017015959e+01  9.9472310004341202e-01 -1.2486788017015966e+01  7.4191672052952642e-02 -1.0313524558552376e+02
8.100000000000000e-02  7.5079001772085027e-02 -1.0328861738291634e+02  9.9462967268926161e-01 -1.2641271169391404e+01  9.9462967268926128e-01 -1.2641271169391404e+01  7.5079001772085110e-02 -1.0328861738291619e+02
8.200000000000000e-02  7.5965611614031106e-02 -1.0344198036117304e+02  9.9453553309043663e-01 -1.2795726736020603e+01  9.9453553309043641e-01 -1.2795726736020596e+01  7.5965611614031134e-02 -1.0344198036117297e+02
8.300000000000000e-02  7.6851502826952967e-02 -1.0359533400001700e+02  9.9444068244817241e-01 -1.2950154785164395e+01  9.9444068244817196e-01 -1.2950154785164399e+01  7.6851502826952967e-02 -1.0359533400001696e+02
8.400000000000001e-02  7.7736676566280402e-02 -1.0374867779993600e+02  9.9434512197843405e-01 -1.3104555381013720e+01  9.9434512197843428e-01 -1.3104555381013713e+01  7.7736676566280444e-02 -1.0374867779993608e+02
8.500000000000001e-02  7.8621133898426315e-02 -1.0390201128101766e+02  9.9424885291142084e-01 -1.3258928583848668e+01  9.9424885291142096e-01 -1.3258928583848666e+01  7.8621133898426315e-02 -1.0390201128101764e+02
8.600000000000001e-02  7.9504875804334033e-02 -1.0405533398185959e+02  9.9415187649112124e-01 -1.3413274450190247e+01  9.9415187649112069e-01 -1.3413274450190245e+01  7.9504875804334033e-02 -1.0405533398185956e+02
8.700000000000001e-02  8.0387903182851342e-02 -1.0420864545855522e+02  9.9405419397488104e-01 -1.3567593032944917e+01  9.9405419397488126e-01 -1.3567593032944913e+01  8.0387903182851342e-02 -1.0420864545855521e+02
8.800000000000001e-02  8.1270216853954844e-02 -1.0436194528374125e+02  9.9395580663299132e-01 -1.3721884381542568e+01  9.9395580663299110e-01 -1.3721884381542575e+01  8.1270216853954816e-02 -1.0436194528374125e+02
8.900000000000001e-02  8.2151817561823937e-02 -1.0451523304571043e+02  9.9385671574830492e-01 -1.3876148542068284e+01  9.9385671574830503e-01 -1.3876148542068282e+01  8.2151817561823937e-02 -1.0451523304571042e+02
9.000000000000001e-02  8.3032705977777899e-02 -1.0466850834758007e+02  9.9375692261586768e-01 -1.4030385557387969e+01  9.9375692261586823e-01 -1.4030385557387968e+01  8.3032705977777871e-02 -1.0466850834758009e+02
9.100000000000001e-02  8.3912882703081337e-02 -1.0482177080651181e+02  9.9365642854257530e-01 -1.4184595467268608e+01  9.9365642854257552e-01 -1.4184595467268608e+01  8.3912882703081407e-02 -1.0482177080651174e+02
9.200000000000001e-02  8.4792348271625406e-02 -1.0497502005298070e+02  9.9355523484683073e-01 -1.4338778308493177e+01  9.9355523484683084e-01 -1.4338778308493172e+01  8.4792348271625392e-02 -1.0497502005298065e+02
9.300000000000000e-02  8.5671103152493447e-02 -1.0512825573009233e+02  9.9345334285824360e-01 -1.4492934114970469e+01  9.9345334285824360e-01 -1.4492934114970469e+01  8.5671103152493433e-02 -1.0512825573009233e+02
