! 3/21/2017 9:29:37 AM
! F:\HUSERTL_20170321\MSL100.S2P
! CHANNEL.1
! TR.MEASUREMENT
! CORRECTED.DATA
# GHZ S RI R 50.0
! FREQ.GHZ         S11RE         S11IM         S31RE         S31IM         S13RE         S13IM         S33RE         S33IM         
!; PortSelection: Port_13
   0.001000000     0.0026055    0.0011465     0.9958727   -0.0050460     1.0018340   -0.0025891     0.0003173    0.0021250 
   0.002000000     0.0023440    0.0007751     0.9960155   -0.0100416     1.0021820   -0.0080858     0.0004952    0.0016939 
   0.003000000    -0.0005467   -0.0028731     0.9963915   -0.0498666     1.0042510   -0.0074953     0.0012113   -0.0037123 
   0.004000000     0.0019181   -0.0021986     1.0027380   -0.0063239     1.0049840   -0.0485727     0.0030359   -0.0023749 
   0.005000000     0.0016006   -0.0003020     0.9994904   -0.0316601     1.0011010   -0.0236981     0.0012022    0.0000989 
   0.006000000     0.0016440   -0.0003743     0.9925922   -0.0335449     0.9966637   -0.0333468     0.0011381   -0.0000290 
   0.007000000     0.0017399   -0.0007096     0.9932473   -0.0383935     0.9961084   -0.0375293     0.0014403   -0.0007006 
   0.008000000     0.0015367   -0.0009116     0.9940316   -0.0429086     0.9958825   -0.0425449     0.0015722   -0.0004580 
   0.009000000     0.0013648   -0.0012052     0.9946488   -0.0481639     0.9952273   -0.0476842     0.0018236   -0.0011497 
   0.010000000     0.0010366   -0.0010527     1.0022480   -0.0554201     0.9993352   -0.0505178     0.0018841   -0.0013880 
   0.011000000     0.0009423   -0.0007691     0.9941909   -0.0564260     0.9947047   -0.0557401     0.0019575   -0.0012602 
   0.012000000     0.0010415   -0.0009789     0.9937629   -0.0605943     0.9944415   -0.0608235     0.0015375   -0.0014472 
   0.013000000     0.0010005   -0.0012809     0.9936859   -0.0645105     0.9942436   -0.0648219     0.0015137   -0.0013427 
   0.014000000     0.0008310   -0.0009875     0.9931152   -0.0681059     0.9933064   -0.0686286     0.0016014   -0.0013307 
   0.015000000     0.0007822   -0.0010113     0.9929582   -0.0729488     0.9934178   -0.0733091     0.0015045   -0.0010939 
   0.016000000     0.0007373   -0.0010643     0.9925256   -0.0766674     0.9928414   -0.0772584     0.0011602   -0.0011761 
   0.017000000     0.0004963   -0.0010285     0.9922796   -0.0802851     0.9925053   -0.0817194     0.0010876   -0.0012213 
   0.018000000     0.0006988   -0.0009909     0.9923054   -0.0847310     0.9918025   -0.0858316     0.0012425   -0.0012905 
   0.019000000     0.0002741   -0.0009239     0.9915183   -0.0893569     0.9911208   -0.0901731     0.0011638   -0.0012960 
   0.020000000     0.0006372   -0.0012456     0.9915371   -0.0938621     0.9911442   -0.0941337     0.0010814   -0.0011318 
   0.021000000     0.0004985   -0.0012217     0.9906555   -0.0979534     0.9906469   -0.0984195     0.0010104   -0.0011415 
   0.022000000     0.0003401   -0.0010436     0.9905628   -0.1019920     0.9900677   -0.1023657     0.0011715   -0.0011829 
   0.023000000     0.0004626   -0.0012510     0.9899478   -0.1063953     0.9895812   -0.1068204     0.0011597   -0.0013787 
   0.024000000     0.0004661   -0.0011867     0.9896640   -0.1105661     0.9888046   -0.1110847     0.0011387   -0.0015947 
   0.025000000     0.0005479   -0.0010261     0.9893743   -0.1151252     0.9879228   -0.1155602     0.0011050   -0.0014930 
   0.026000000     0.0003871   -0.0012324     0.9889657   -0.1191783     0.9880419   -0.1196068     0.0011117   -0.0016333 
   0.027000000     0.0003480   -0.0017616     0.9884315   -0.1240660     0.9870533   -0.1240078     0.0011691   -0.0016879 
   0.028000000     0.0003541   -0.0015905     0.9876778   -0.1281058     0.9866309   -0.1283805     0.0014667   -0.0016217 
   0.029000000     0.0003271   -0.0018096     0.9867129   -0.1324281     0.9862079   -0.1325383     0.0012099   -0.0020774 
   0.030000000     0.0003115   -0.0019907     0.9863921   -0.1365018     0.9850374   -0.1369252     0.0011091   -0.0021238 
   0.031000000     0.0004711   -0.0019939     0.9855899   -0.1406426     0.9844599   -0.1412374     0.0011935   -0.0021855 
   0.032000000     0.0000736   -0.0021605     0.9848538   -0.1451763     0.9842648   -0.1460647     0.0014861   -0.0023915 
   0.033000000     0.0002750   -0.0025118     0.9849899   -0.1496783     0.9827235   -0.1497843     0.0013242   -0.0026389 
   0.034000000     0.0005506   -0.0025684     0.9838743   -0.1536713     0.9819187   -0.1542246     0.0016449   -0.0028481 
   0.035000000     0.0002710   -0.0028967     0.9836330   -0.1578802     0.9817210   -0.1588287     0.0013470   -0.0031135 
   0.036000000     0.0001895   -0.0029194     0.9824497   -0.1617858     0.9804323   -0.1626590     0.0014235   -0.0033260 
   0.037000000     0.0002699   -0.0030673     0.9819232   -0.1666433     0.9806193   -0.1673296     0.0015968   -0.0035496 
   0.038000000     0.0000692   -0.0032375     0.9807113   -0.1708078     0.9793994   -0.1709323     0.0014620   -0.0036268 
   0.039000000     0.0001247   -0.0035825     0.9802361   -0.1750878     0.9786975   -0.1749144     0.0011157   -0.0038283 
   0.040000000    -0.0002367   -0.0039949     0.9786311   -0.1786740     0.9781168   -0.1789906     0.0012300   -0.0039805 
   0.041000000    -0.0001947   -0.0040128     0.9781576   -0.1837586     0.9771838   -0.1839006     0.0013602   -0.0041552 
   0.042000000    -0.0001485   -0.0044655     0.9770786   -0.1875910     0.9764508   -0.1879649     0.0011969   -0.0043818 
   0.043000000    -0.0004243   -0.0044729     0.9767861   -0.1922253     0.9757432   -0.1917949     0.0013083   -0.0047080 
   0.044000000    -0.0004235   -0.0046801     0.9751239   -0.1956638     0.9743015   -0.1962396     0.0013211   -0.0050017 
   0.045000000    -0.0004807   -0.0051503     0.9748994   -0.2001795     0.9732540   -0.2001312     0.0010831   -0.0049627 
   0.046000000    -0.0005009   -0.0052282     0.9735038   -0.2043833     0.9723781   -0.2044587     0.0012639   -0.0054244 
   0.047000000    -0.0005170   -0.0050770     0.9723051   -0.2087728     0.9721554   -0.2088156     0.0011450   -0.0053082 
   0.048000000    -0.0006769   -0.0056189     0.9716529   -0.2134283     0.9703667   -0.2132212     0.0010489   -0.0057588 
   0.049000000    -0.0007617   -0.0059246     0.9708439   -0.2170883     0.9702173   -0.2177526     0.0005807   -0.0057902 
   0.050000000    -0.0014512   -0.0051565     0.9757420   -0.2202356     0.9732292   -0.2170869     0.0001581   -0.0054633 
   0.051000000    -0.0014238   -0.0052892     0.9748602   -0.2246875     0.9729304   -0.2218580     0.0001468   -0.0055594 
   0.052000000    -0.0015736   -0.0053226     0.9738114   -0.2290418     0.9715074   -0.2258199    -0.0001300   -0.0056973 
   0.053000000    -0.0013052   -0.0052144     0.9725534   -0.2330962     0.9704473   -0.2298282    -0.0003477   -0.0056448 
   0.054000000    -0.0017097   -0.0055231     0.9707990   -0.2376032     0.9691587   -0.2343699    -0.0001283   -0.0056048 
   0.055000000    -0.0018270   -0.0056243     0.9701403   -0.2418057     0.9681034   -0.2384011    -0.0000128   -0.0058522 
   0.056000000    -0.0014765   -0.0056035     0.9691955   -0.2457703     0.9667931   -0.2427227    -0.0004951   -0.0057329 
   0.057000000    -0.0017779   -0.0056707     0.9681448   -0.2504394     0.9662306   -0.2468428    -0.0004471   -0.0059469 
   0.058000000    -0.0019249   -0.0057508     0.9669058   -0.2548019     0.9646395   -0.2511730    -0.0003661   -0.0059731 
   0.059000000    -0.0017565   -0.0056994     0.9655396   -0.2591085     0.9640638   -0.2553403    -0.0005177   -0.0058292 
   0.060000000    -0.0016964   -0.0056713     0.9640923   -0.2629926     0.9628208   -0.2594863    -0.0004356   -0.0059511 
   0.061000000    -0.0019727   -0.0056370     0.9636458   -0.2672925     0.9618995   -0.2631028    -0.0006412   -0.0060078 
   0.062000000    -0.0018461   -0.0058489     0.9619678   -0.2713404     0.9600614   -0.2678010    -0.0006411   -0.0061091 
   0.063000000    -0.0018486   -0.0060466     0.9605968   -0.2756733     0.9591099   -0.2721144    -0.0008933   -0.0060332 
   0.064000000    -0.0021504   -0.0055733     0.9591976   -0.2798266     0.9578611   -0.2762182    -0.0006602   -0.0060714 
   0.065000000    -0.0022355   -0.0057175     0.9584419   -0.2839403     0.9564418   -0.2802755    -0.0008044   -0.0060618 
   0.066000000    -0.0020463   -0.0058330     0.9571099   -0.2879867     0.9555116   -0.2844754    -0.0010607   -0.0061468 
   0.067000000    -0.0020580   -0.0057882     0.9558271   -0.2923431     0.9542934   -0.2885133    -0.0010384   -0.0061755 
   0.068000000    -0.0022806   -0.0065790     0.9562292   -0.2951505     0.9528974   -0.2937395    -0.0011916   -0.0060709 
   0.069000000    -0.0020693   -0.0057460     0.9529387   -0.3007936     0.9518047   -0.2968657    -0.0010427   -0.0061304 
   0.070000000    -0.0021422   -0.0059659     0.9515347   -0.3046490     0.9506472   -0.3008848    -0.0013906   -0.0062995 
   0.071000000    -0.0023433   -0.0060771     0.9501858   -0.3085128     0.9491501   -0.3051470    -0.0012435   -0.0062820 
   0.072000000    -0.0021991   -0.0060773     0.9485730   -0.3128747     0.9477130   -0.3090917    -0.0016165   -0.0062658 
   0.073000000    -0.0023297   -0.0060789     0.9469785   -0.3172329     0.9467166   -0.3130481    -0.0015393   -0.0064100 
   0.074000000    -0.0021880   -0.0064106     0.9460328   -0.3212834     0.9448032   -0.3173656    -0.0016106   -0.0065184 
   0.075000000    -0.0023220   -0.0064006     0.9447107   -0.3253075     0.9433843   -0.3213488    -0.0015306   -0.0063286 
   0.076000000    -0.0020402   -0.0068190     0.9433374   -0.3293667     0.9421543   -0.3254275    -0.0016270   -0.0064575 
   0.077000000    -0.0018756   -0.0068323     0.9414553   -0.3333595     0.9411315   -0.3295123    -0.0017955   -0.0064168 
   0.078000000    -0.0019058   -0.0069465     0.9400830   -0.3375687     0.9394451   -0.3335381    -0.0017685   -0.0064121 
   0.079000000    -0.0021742   -0.0065930     0.9404536   -0.3399514     0.9368936   -0.3384150    -0.0017202   -0.0069807 
   0.080000000    -0.0018959   -0.0065127     0.9392384   -0.3435987     0.9354804   -0.3424937    -0.0019180   -0.0070160 
   0.081000000    -0.0017041   -0.0068646     0.9353730   -0.3495091     0.9348707   -0.3462794    -0.0019623   -0.0068461 
   0.082000000    -0.0013999   -0.0069399     0.9339457   -0.3535455     0.9327242   -0.3501075    -0.0024020   -0.0066497 
   0.083000000    -0.0015371   -0.0073524     0.9318221   -0.3576174     0.9313976   -0.3542030    -0.0023350   -0.0067579 
   0.084000000    -0.0014388   -0.0073960     0.9303722   -0.3612788     0.9296995   -0.3579830    -0.0026672   -0.0068303 
   0.085000000    -0.0014003   -0.0071993     0.9286823   -0.3652575     0.9284822   -0.3618922    -0.0027962   -0.0069535 
   0.086000000    -0.0017487   -0.0071416     0.9293293   -0.3682336     0.9260002   -0.3669904    -0.0031543   -0.0070976 
   0.087000000    -0.0015569   -0.0073608     0.9257020   -0.3733020     0.9251356   -0.3698817    -0.0033077   -0.0072884 
   0.088000000    -0.0015393   -0.0074203     0.9242297   -0.3775182     0.9232005   -0.3738247    -0.0036135   -0.0071172 
   0.089000000    -0.0019680   -0.0076227     0.9223214   -0.3815222     0.9216904   -0.3776046    -0.0036535   -0.0071229 
   0.090000000    -0.0019541   -0.0074262     0.9200583   -0.3851940     0.9199618   -0.3816554    -0.0039880   -0.0070909 
   0.091000000    -0.0021580   -0.0077628     0.9185420   -0.3893537     0.9182944   -0.3852275    -0.0040032   -0.0073073 
   0.092000000    -0.0020857   -0.0078055     0.9165730   -0.3932122     0.9162357   -0.3891617    -0.0042668   -0.0072596 
   0.093000000    -0.0021464   -0.0081578     0.9149389   -0.3973486     0.9144739   -0.3932883    -0.0042675   -0.0072584 
   0.094000000    -0.0023817   -0.0081048     0.9130386   -0.4012003     0.9129187   -0.3974192    -0.0043293   -0.0073859 
   0.095000000    -0.0022966   -0.0084340     0.9117281   -0.4049557     0.9114572   -0.4014422    -0.0046894   -0.0072767 
   0.096000000    -0.0025019   -0.0080945     0.9110686   -0.4065766     0.9084824   -0.4064153    -0.0047559   -0.0075066 
   0.097000000    -0.0028380   -0.0087629     0.9075561   -0.4122393     0.9075781   -0.4094959    -0.0045981   -0.0075407 
   0.098000000    -0.0029097   -0.0088108     0.9054253   -0.4162545     0.9055331   -0.4129906    -0.0047102   -0.0074510 
   0.099000000    -0.0029932   -0.0090294     0.9035385   -0.4202397     0.9036254   -0.4176543    -0.0046584   -0.0077371 
   0.100000000    -0.0028172   -0.0086420     0.9034936   -0.4226556     0.9005810   -0.4229781    -0.0049421   -0.0076864 
   0.101000000    -0.0034090   -0.0095160     0.9001279   -0.4284250     0.9003502   -0.4253978    -0.0047234   -0.0079096 
   0.102000000    -0.0035803   -0.0091713     0.8977703   -0.4320849     0.8982205   -0.4294101    -0.0048185   -0.0079653 
   0.103000000    -0.0038068   -0.0093459     0.8961681   -0.4357860     0.8958894   -0.4333275    -0.0048645   -0.0080942 
   0.104000000    -0.0035617   -0.0094535     0.8961728   -0.4387631     0.8937034   -0.4381696    -0.0051724   -0.0079651 
   0.105000000    -0.0044172   -0.0095476     0.8922791   -0.4434895     0.8924921   -0.4409883    -0.0049314   -0.0082204 
   0.106000000    -0.0042457   -0.0097289     0.8922077   -0.4469487     0.8900121   -0.4452679    -0.0053676   -0.0081182 
   0.107000000    -0.0047352   -0.0096615     0.8885406   -0.4516749     0.8887675   -0.4483188    -0.0049020   -0.0085308 
   0.108000000    -0.0050530   -0.0096045     0.8865060   -0.4553037     0.8869298   -0.4519356    -0.0049297   -0.0087268 
   0.109000000    -0.0052970   -0.0094336     0.8848221   -0.4594980     0.8854127   -0.4555177    -0.0051698   -0.0087838 
   0.110000000    -0.0054717   -0.0095743     0.8825213   -0.4632165     0.8830092   -0.4596106    -0.0053531   -0.0091507 
   0.111000000    -0.0057226   -0.0092724     0.8809315   -0.4671260     0.8818005   -0.4624285    -0.0053699   -0.0089430 
   0.112000000    -0.0057799   -0.0094682     0.8781626   -0.4709407     0.8790023   -0.4675457    -0.0054703   -0.0091230 
   0.113000000    -0.0060907   -0.0094209     0.8766025   -0.4749356     0.8766485   -0.4708938    -0.0057190   -0.0092948 
   0.114000000    -0.0060900   -0.0092312     0.8742048   -0.4791120     0.8750765   -0.4750370    -0.0057947   -0.0093683 
   0.115000000    -0.0062685   -0.0089919     0.8726196   -0.4822663     0.8727501   -0.4783621    -0.0057432   -0.0091242 
   0.116000000    -0.0060959   -0.0091500     0.8702563   -0.4862479     0.8706021   -0.4825568    -0.0058017   -0.0090699 
   0.117000000    -0.0061351   -0.0090409     0.8683600   -0.4897433     0.8685687   -0.4865492    -0.0061017   -0.0093014 
   0.118000000    -0.0062782   -0.0092626     0.8661368   -0.4937180     0.8662643   -0.4903856    -0.0059042   -0.0095126 
   0.119000000    -0.0062551   -0.0093011     0.8640323   -0.4974388     0.8644482   -0.4938637    -0.0059448   -0.0092877 
   0.120000000    -0.0063327   -0.0092800     0.8621316   -0.5011798     0.8620390   -0.4975452    -0.0059828   -0.0093551 
   0.121000000    -0.0064096   -0.0092770     0.8595853   -0.5048267     0.8600340   -0.5013148    -0.0065411   -0.0095100 
   0.122000000    -0.0065327   -0.0091388     0.8573792   -0.5081893     0.8577182   -0.5050911    -0.0064525   -0.0094480 
   0.123000000    -0.0068581   -0.0096604     0.8554996   -0.5120434     0.8555284   -0.5088919    -0.0065481   -0.0096567 
   0.124000000    -0.0063565   -0.0094992     0.8528961   -0.5157024     0.8533149   -0.5122599    -0.0069111   -0.0096590 
   0.125000000    -0.0067472   -0.0092887     0.8508639   -0.5197386     0.8508340   -0.5157180    -0.0066463   -0.0097723 
   0.126000000    -0.0069190   -0.0095029     0.8480740   -0.5231975     0.8487390   -0.5195485    -0.0070634   -0.0098344 
   0.127000000    -0.0073574   -0.0097377     0.8465396   -0.5270178     0.8462036   -0.5233704    -0.0066977   -0.0100324 
   0.128000000    -0.0074932   -0.0096282     0.8435129   -0.5299668     0.8440773   -0.5267735    -0.0071288   -0.0099056 
   0.129000000    -0.0076377   -0.0098278     0.8413708   -0.5337995     0.8416836   -0.5306156    -0.0074216   -0.0100076 
   0.130000000    -0.0075807   -0.0096376     0.8388633   -0.5374572     0.8391179   -0.5340624    -0.0073979   -0.0098667 
   0.131000000    -0.0078521   -0.0096290     0.8362275   -0.5409594     0.8368161   -0.5377569    -0.0076569   -0.0100295 
   0.132000000    -0.0079035   -0.0095535     0.8336732   -0.5448393     0.8343619   -0.5410625    -0.0078685   -0.0100798 
   0.133000000    -0.0083115   -0.0097530     0.8311859   -0.5482184     0.8323047   -0.5452005    -0.0078323   -0.0101816 
   0.134000000    -0.0083668   -0.0096791     0.8286557   -0.5517344     0.8292680   -0.5481763    -0.0079063   -0.0100929 
   0.135000000    -0.0082970   -0.0098514     0.8263363   -0.5553709     0.8269037   -0.5521463    -0.0080708   -0.0103014 
   0.136000000    -0.0085831   -0.0096329     0.8239785   -0.5591266     0.8242345   -0.5558177    -0.0083857   -0.0102385 
   0.137000000    -0.0086242   -0.0097096     0.8215216   -0.5626880     0.8219535   -0.5589163    -0.0084759   -0.0101304 
   0.138000000    -0.0085157   -0.0100728     0.8191374   -0.5660411     0.8197220   -0.5627373    -0.0084687   -0.0103412 
   0.139000000    -0.0085371   -0.0094941     0.8165416   -0.5696765     0.8167800   -0.5665377    -0.0083789   -0.0102117 
   0.140000000    -0.0087010   -0.0096466     0.8138889   -0.5727351     0.8143908   -0.5701829    -0.0084378   -0.0101562 
   0.141000000    -0.0086044   -0.0099982     0.8114460   -0.5761554     0.8119436   -0.5732970    -0.0085395   -0.0102117 
   0.142000000    -0.0085516   -0.0098257     0.8087324   -0.5801358     0.8088088   -0.5771223    -0.0084537   -0.0102763 
   0.143000000    -0.0086867   -0.0098722     0.8058049   -0.5838344     0.8063580   -0.5807345    -0.0087574   -0.0103236 
   0.144000000    -0.0085154   -0.0097627     0.8036110   -0.5868198     0.8038550   -0.5844234    -0.0085304   -0.0102167 
   0.145000000    -0.0083718   -0.0100228     0.8010898   -0.5903260     0.8013567   -0.5875242    -0.0087273   -0.0103458 
   0.146000000    -0.0082903   -0.0100675     0.7980605   -0.5943209     0.7989683   -0.5911592    -0.0089284   -0.0104573 
   0.147000000    -0.0085057   -0.0102392     0.7957707   -0.5973398     0.7961380   -0.5947011    -0.0090360   -0.0103046 
   0.148000000    -0.0086251   -0.0103098     0.7930668   -0.6008205     0.7940995   -0.5981656    -0.0093749   -0.0105604 
   0.149000000    -0.0084211   -0.0102987     0.7902241   -0.6040417     0.7909616   -0.6013885    -0.0095410   -0.0103370 
   0.150000000    -0.0086756   -0.0104409     0.7873344   -0.6078060     0.7890048   -0.6049539    -0.0095524   -0.0102903 
   0.151000000    -0.0084798   -0.0105868     0.7849876   -0.6107240     0.7861633   -0.6080900    -0.0100211   -0.0102047 
   0.152000000    -0.0085122   -0.0105729     0.7827107   -0.6141351     0.7830055   -0.6116552    -0.0101880   -0.0099490 
   0.153000000    -0.0088259   -0.0109682     0.7797580   -0.6174699     0.7806885   -0.6147230    -0.0104383   -0.0100848 
   0.154000000    -0.0092010   -0.0111742     0.7773462   -0.6207029     0.7782873   -0.6174800    -0.0106044   -0.0097332 
   0.155000000    -0.0093335   -0.0108372     0.7748325   -0.6237577     0.7755737   -0.6213369    -0.0106613   -0.0097330 
   0.156000000    -0.0093693   -0.0111415     0.7723396   -0.6271686     0.7726868   -0.6240083    -0.0108608   -0.0096507 
   0.157000000    -0.0096395   -0.0110016     0.7695516   -0.6306682     0.7706060   -0.6269823    -0.0109263   -0.0096781 
   0.158000000    -0.0096782   -0.0110891     0.7669389   -0.6339443     0.7675259   -0.6305605    -0.0110257   -0.0092256 
   0.159000000    -0.0101731   -0.0110972     0.7641497   -0.6371222     0.7653102   -0.6340643    -0.0111283   -0.0093076 
