! 3/21/2017 9:37:04 AM
! F:\HUSERTL_20170321\MSL200.S2P
! CHANNEL.1
! TR.MEASUREMENT
! CORRECTED.DATA
# GHZ S RI R 50.0
! FREQ.GHZ         S11RE         S11IM         S31RE         S31IM         S13RE         S13IM         S33RE         S33IM         
!; PortSelection: Port_13
   0.001000000     0.0028502    0.0004924     0.9971764   -0.0086687     1.0004020   -0.0062365     0.0007731    0.0019284 
   0.002000000     0.0023898    0.0002270     0.9976858   -0.0187524     1.0013800   -0.0166852     0.0012826    0.0010329 
   0.003000000    -0.0003956   -0.0029638     0.9969832   -0.0622291     1.0030210   -0.0176088     0.0013954   -0.0038183 
   0.004000000     0.0019800   -0.0031547     1.0037430   -0.0229407     1.0030050   -0.0642894     0.0034395   -0.0032585 
   0.005000000     0.0019265   -0.0011642     1.0000470   -0.0522288     0.9993451   -0.0439114     0.0017525   -0.0008135 
   0.006000000     0.0022027   -0.0011987     0.9921838   -0.0574884     0.9949473   -0.0565161     0.0015976   -0.0014591 
   0.007000000     0.0018524   -0.0021934     0.9924968   -0.0658473     0.9938883   -0.0644790     0.0015992   -0.0017269 
   0.008000000     0.0016849   -0.0023596     0.9929040   -0.0746384     0.9927757   -0.0734058     0.0013655   -0.0020185 
   0.009000000     0.0014939   -0.0028220     0.9927561   -0.0840490     0.9921735   -0.0821702     0.0016717   -0.0027664 
   0.010000000     0.0010408   -0.0028237     0.9996572   -0.0955679     0.9955244   -0.0894408     0.0016600   -0.0032216 
   0.011000000     0.0010627   -0.0031041     0.9905481   -0.1004637     0.9899669   -0.0984650     0.0017329   -0.0031940 
   0.012000000     0.0009518   -0.0030632     0.9898893   -0.1078231     0.9887909   -0.1072757     0.0012141   -0.0035649 
   0.013000000     0.0004617   -0.0035475     0.9894071   -0.1157464     0.9882021   -0.1147583     0.0011888   -0.0036917 
   0.014000000     0.0004098   -0.0036026     0.9881023   -0.1240084     0.9869919   -0.1228580     0.0012790   -0.0036582 
   0.015000000     0.0002153   -0.0036798     0.9871212   -0.1317580     0.9858658   -0.1311594     0.0009342   -0.0038469 
   0.016000000     0.0000615   -0.0037633     0.9861624   -0.1395015     0.9841883   -0.1387312     0.0007422   -0.0039510 
   0.017000000    -0.0000797   -0.0041919     0.9850925   -0.1470751     0.9830348   -0.1471813     0.0003364   -0.0042582 
   0.018000000    -0.0000806   -0.0040102     0.9840601   -0.1551855     0.9812757   -0.1544574     0.0004718   -0.0044333 
   0.019000000    -0.0003995   -0.0041102     0.9826370   -0.1636577     0.9802456   -0.1627766     0.0004242   -0.0046261 
   0.020000000    -0.0001588   -0.0044801     0.9814109   -0.1718727     0.9789945   -0.1708642     0.0002906   -0.0048109 
   0.021000000    -0.0005859   -0.0047764     0.9793429   -0.1798017     0.9773964   -0.1790470     0.0001702   -0.0049312 
   0.022000000    -0.0005641   -0.0047722     0.9778480   -0.1875882     0.9754114   -0.1862217    -0.0001175   -0.0050801 
   0.023000000    -0.0008881   -0.0049170     0.9762952   -0.1961845     0.9742388   -0.1947652     0.0001374   -0.0053733 
   0.024000000    -0.0007457   -0.0054267     0.9745317   -0.2040665     0.9723061   -0.2027701    -0.0000598   -0.0054660 
   0.025000000    -0.0008869   -0.0053718     0.9732740   -0.2119875     0.9701148   -0.2103976    -0.0003248   -0.0056473 
   0.026000000    -0.0010707   -0.0057200     0.9713528   -0.2198344     0.9685696   -0.2184492    -0.0002617   -0.0062500 
   0.027000000    -0.0012660   -0.0061367     0.9694386   -0.2280221     0.9665235   -0.2264435    -0.0003160   -0.0063787 
   0.028000000    -0.0012697   -0.0063032     0.9675041   -0.2357939     0.9643710   -0.2344022    -0.0002635   -0.0065106 
   0.029000000    -0.0014454   -0.0065953     0.9649742   -0.2438235     0.9624696   -0.2421818    -0.0004068   -0.0070650 
   0.030000000    -0.0016853   -0.0068569     0.9633986   -0.2515053     0.9598042   -0.2499602    -0.0007179   -0.0074167 
   0.031000000    -0.0018428   -0.0071595     0.9608406   -0.2595847     0.9577771   -0.2582378    -0.0006696   -0.0077267 
   0.032000000    -0.0023147   -0.0073431     0.9586612   -0.2676259     0.9560886   -0.2661074    -0.0008247   -0.0081402 
   0.033000000    -0.0024885   -0.0081406     0.9568614   -0.2754723     0.9534154   -0.2735012    -0.0011821   -0.0085293 
   0.034000000    -0.0023382   -0.0082884     0.9546757   -0.2837951     0.9511042   -0.2815405    -0.0010448   -0.0088007 
   0.035000000    -0.0027010   -0.0088826     0.9518784   -0.2907053     0.9485605   -0.2893618    -0.0012054   -0.0090822 
   0.036000000    -0.0025897   -0.0088608     0.9492992   -0.2986178     0.9457293   -0.2972087    -0.0015027   -0.0092906 
   0.037000000    -0.0030668   -0.0092120     0.9463831   -0.3068838     0.9439471   -0.3046898    -0.0014199   -0.0095749 
   0.038000000    -0.0032095   -0.0091765     0.9435622   -0.3142142     0.9411958   -0.3123435    -0.0016161   -0.0098436 
   0.039000000    -0.0033898   -0.0098901     0.9409446   -0.3220772     0.9383971   -0.3196410    -0.0018971   -0.0102619 
   0.040000000    -0.0040409   -0.0102092     0.9380887   -0.3296244     0.9359677   -0.3269909    -0.0019647   -0.0105271 
   0.041000000    -0.0042105   -0.0101605     0.9353107   -0.3371413     0.9328430   -0.3351164    -0.0021124   -0.0110042 
   0.042000000    -0.0042792   -0.0108588     0.9320339   -0.3447700     0.9304059   -0.3429353    -0.0022832   -0.0112341 
   0.043000000    -0.0049280   -0.0112521     0.9294160   -0.3523182     0.9276044   -0.3501730    -0.0025588   -0.0117130 
   0.044000000    -0.0049360   -0.0112819     0.9261421   -0.3593737     0.9238151   -0.3579549    -0.0026450   -0.0120880 
   0.045000000    -0.0050924   -0.0117462     0.9230458   -0.3673326     0.9214721   -0.3650398    -0.0029914   -0.0123658 
   0.046000000    -0.0053936   -0.0121058     0.9202306   -0.3746341     0.9179721   -0.3730833    -0.0031511   -0.0126013 
   0.047000000    -0.0060063   -0.0122450     0.9171915   -0.3825731     0.9148394   -0.3805525    -0.0033019   -0.0128918 
   0.048000000    -0.0061343   -0.0123777     0.9139519   -0.3896255     0.9115937   -0.3878758    -0.0037046   -0.0133944 
   0.049000000    -0.0063270   -0.0124106     0.9102151   -0.3972204     0.9086571   -0.3957951    -0.0043310   -0.0134918 
   0.050000000    -0.0068257   -0.0121888     0.9129074   -0.4051810     0.9104383   -0.3989627    -0.0050015   -0.0130369 
   0.051000000    -0.0068896   -0.0122177     0.9095166   -0.4124337     0.9071428   -0.4067695    -0.0048477   -0.0131261 
   0.052000000    -0.0070933   -0.0121598     0.9061605   -0.4197804     0.9037461   -0.4146243    -0.0052678   -0.0132421 
   0.053000000    -0.0071408   -0.0122093     0.9024270   -0.4277220     0.8999059   -0.4218302    -0.0055171   -0.0131361 
   0.054000000    -0.0080028   -0.0127400     0.8984714   -0.4346700     0.8964967   -0.4293529    -0.0055435   -0.0132768 
   0.055000000    -0.0080829   -0.0125559     0.8952834   -0.4421200     0.8930386   -0.4360228    -0.0056913   -0.0135117 
   0.056000000    -0.0081796   -0.0127507     0.8916880   -0.4493982     0.8894733   -0.4435964    -0.0058998   -0.0133534 
   0.057000000    -0.0084229   -0.0125626     0.8875332   -0.4570918     0.8853507   -0.4508990    -0.0062385   -0.0138178 
   0.058000000    -0.0087544   -0.0127322     0.8833758   -0.4638698     0.8817100   -0.4575905    -0.0063729   -0.0136571 
   0.059000000    -0.0089506   -0.0130062     0.8800421   -0.4718106     0.8779052   -0.4648973    -0.0063714   -0.0139373 
   0.060000000    -0.0087750   -0.0128435     0.8757337   -0.4786960     0.8737571   -0.4725667    -0.0065930   -0.0139920 
   0.061000000    -0.0091575   -0.0129168     0.8715624   -0.4857648     0.8700143   -0.4792585    -0.0070015   -0.0141801 
   0.062000000    -0.0095699   -0.0129712     0.8674065   -0.4928140     0.8656918   -0.4869425    -0.0072917   -0.0140863 
   0.063000000    -0.0095177   -0.0129100     0.8638409   -0.4999264     0.8619220   -0.4938265    -0.0075528   -0.0140690 
   0.064000000    -0.0098614   -0.0129042     0.8596689   -0.5071679     0.8578688   -0.5007348    -0.0076417   -0.0142804 
   0.065000000    -0.0100709   -0.0127446     0.8553634   -0.5137367     0.8532014   -0.5079150    -0.0078198   -0.0143003 
   0.066000000    -0.0101605   -0.0130122     0.8504616   -0.5206985     0.8491351   -0.5146278    -0.0082813   -0.0142420 
   0.067000000    -0.0102919   -0.0126983     0.8464026   -0.5276748     0.8447714   -0.5214455    -0.0083643   -0.0144514 
   0.068000000    -0.0109421   -0.0134291     0.8441363   -0.5337567     0.8397579   -0.5288805    -0.0084452   -0.0143838 
   0.069000000    -0.0106156   -0.0129379     0.8373849   -0.5418085     0.8366751   -0.5348147    -0.0086707   -0.0146371 
   0.070000000    -0.0109923   -0.0126992     0.8327584   -0.5481561     0.8321761   -0.5416063    -0.0091624   -0.0145330 
   0.071000000    -0.0112824   -0.0130835     0.8281034   -0.5550156     0.8276585   -0.5486397    -0.0092534   -0.0142768 
   0.072000000    -0.0115253   -0.0131407     0.8237161   -0.5616534     0.8231653   -0.5549032    -0.0094822   -0.0145393 
   0.073000000    -0.0116569   -0.0132687     0.8191479   -0.5684060     0.8186340   -0.5611036    -0.0096365   -0.0145495 
   0.074000000    -0.0122185   -0.0133043     0.8143194   -0.5751001     0.8134884   -0.5684015    -0.0101843   -0.0148478 
   0.075000000    -0.0122866   -0.0133043     0.8093624   -0.5814573     0.8088387   -0.5751584    -0.0101095   -0.0146168 
   0.076000000    -0.0125806   -0.0134294     0.8044386   -0.5881823     0.8040550   -0.5814297    -0.0106163   -0.0147856 
   0.077000000    -0.0128138   -0.0136592     0.7998276   -0.5947860     0.7990330   -0.5879303    -0.0108223   -0.0148108 
   0.078000000    -0.0129015   -0.0139309     0.7947787   -0.6009268     0.7943312   -0.5943563    -0.0109251   -0.0147079 
   0.079000000    -0.0131268   -0.0133964     0.7915279   -0.6067140     0.7882099   -0.6020245    -0.0113585   -0.0151342 
   0.080000000    -0.0131270   -0.0134212     0.7867749   -0.6125070     0.7832479   -0.6083241    -0.0119286   -0.0152983 
   0.081000000    -0.0133656   -0.0139625     0.7798089   -0.6194857     0.7792746   -0.6139306    -0.0119930   -0.0149352 
   0.082000000    -0.0134832   -0.0140570     0.7746896   -0.6258872     0.7741578   -0.6200928    -0.0123835   -0.0148247 
   0.083000000    -0.0138664   -0.0141973     0.7693899   -0.6321845     0.7686872   -0.6264602    -0.0127797   -0.0147714 
   0.084000000    -0.0140676   -0.0141835     0.7638628   -0.6379762     0.7632914   -0.6325926    -0.0131925   -0.0148370 
   0.085000000    -0.0143874   -0.0143583     0.7587060   -0.6441526     0.7587025   -0.6387380    -0.0135026   -0.0147478 
   0.086000000    -0.0147716   -0.0138893     0.7546802   -0.6503062     0.7524005   -0.6456177    -0.0138860   -0.0146930 
   0.087000000    -0.0149357   -0.0144301     0.7476699   -0.6567788     0.7481219   -0.6507311    -0.0143841   -0.0146621 
   0.088000000    -0.0152531   -0.0144517     0.7422226   -0.6633034     0.7426062   -0.6565719    -0.0146593   -0.0144717 
   0.089000000    -0.0159847   -0.0142229     0.7364075   -0.6689352     0.7375411   -0.6624588    -0.0151533   -0.0144937 
   0.090000000    -0.0160286   -0.0141975     0.7307743   -0.6753657     0.7318065   -0.6682836    -0.0152377   -0.0142482 
   0.091000000    -0.0165622   -0.0140684     0.7253726   -0.6807956     0.7263513   -0.6741707    -0.0156859   -0.0143147 
   0.092000000    -0.0168120   -0.0144767     0.7193903   -0.6869382     0.7204997   -0.6797086    -0.0160881   -0.0142610 
   0.093000000    -0.0172797   -0.0141707     0.7135557   -0.6926642     0.7146439   -0.6861440    -0.0160912   -0.0145448 
   0.094000000    -0.0176503   -0.0142670     0.7079029   -0.6982214     0.7094674   -0.6915953    -0.0165994   -0.0142564 
   0.095000000    -0.0181018   -0.0144180     0.7025899   -0.7039930     0.7033714   -0.6975265    -0.0167653   -0.0141517 
   0.096000000    -0.0181818   -0.0141540     0.6991157   -0.7086393     0.6967780   -0.7039837    -0.0175068   -0.0142238 
   0.097000000    -0.0190706   -0.0142176     0.6903844   -0.7148915     0.6916538   -0.7092630    -0.0173955   -0.0144370 
   0.098000000    -0.0193454   -0.0142892     0.6842650   -0.7203614     0.6861236   -0.7150854    -0.0176939   -0.0142674 
   0.099000000    -0.0198913   -0.0142388     0.6779370   -0.7259462     0.6797937   -0.7206678    -0.0180601   -0.0144675 
   0.100000000    -0.0196339   -0.0143540     0.6752005   -0.7304980     0.6722575   -0.7272151    -0.0184419   -0.0145333 
   0.101000000    -0.0208921   -0.0140999     0.6666040   -0.7366913     0.6681589   -0.7312484    -0.0186189   -0.0147046 
   0.102000000    -0.0211401   -0.0139592     0.6604745   -0.7423047     0.6617172   -0.7369727    -0.0188536   -0.0146734 
   0.103000000    -0.0215304   -0.0136961     0.6544772   -0.7475835     0.6555458   -0.7424161    -0.0191092   -0.0148448 
   0.104000000    -0.0215444   -0.0143140     0.6505218   -0.7528571     0.6483027   -0.7483512    -0.0191196   -0.0147779 
   0.105000000    -0.0222932   -0.0134952     0.6420150   -0.7576765     0.6436775   -0.7527834    -0.0196967   -0.0148991 
   0.106000000    -0.0223228   -0.0140023     0.6379505   -0.7634503     0.6362585   -0.7585990    -0.0199460   -0.0146496 
   0.107000000    -0.0228502   -0.0132524     0.6292688   -0.7684934     0.6310235   -0.7635440    -0.0200101   -0.0152596 
   0.108000000    -0.0231212   -0.0131083     0.6237105   -0.7733268     0.6250689   -0.7682601    -0.0203975   -0.0153860 
   0.109000000    -0.0234263   -0.0127667     0.6168512   -0.7785867     0.6189119   -0.7731026    -0.0205713   -0.0153983 
   0.110000000    -0.0233958   -0.0125530     0.6103287   -0.7835705     0.6124516   -0.7784284    -0.0209797   -0.0153017 
   0.111000000    -0.0238599   -0.0124854     0.6041492   -0.7887231     0.6059094   -0.7830638    -0.0210040   -0.0154157 
   0.112000000    -0.0242818   -0.0123316     0.5972924   -0.7932374     0.5994788   -0.7882839    -0.0214058   -0.0152602 
   0.113000000    -0.0245144   -0.0121772     0.5911174   -0.7982796     0.5922834   -0.7926652    -0.0217460   -0.0153341 
   0.114000000    -0.0244073   -0.0118075     0.5839773   -0.8035958     0.5863221   -0.7975437    -0.0220639   -0.0153384 
   0.115000000    -0.0246014   -0.0114259     0.5777329   -0.8079383     0.5796329   -0.8024205    -0.0221704   -0.0151865 
   0.116000000    -0.0247849   -0.0114472     0.5707269   -0.8127966     0.5729854   -0.8071209    -0.0222781   -0.0153193 
   0.117000000    -0.0248554   -0.0113538     0.5644552   -0.8176206     0.5659773   -0.8119621    -0.0226686   -0.0148512 
   0.118000000    -0.0253922   -0.0111668     0.5577559   -0.8217652     0.5594707   -0.8163774    -0.0226572   -0.0151294 
   0.119000000    -0.0254134   -0.0110336     0.5509998   -0.8262371     0.5529308   -0.8207370    -0.0229869   -0.0149054 
   0.120000000    -0.0257253   -0.0110747     0.5438880   -0.8307595     0.5457612   -0.8252808    -0.0230392   -0.0149292 
   0.121000000    -0.0255551   -0.0108569     0.5372090   -0.8347935     0.5393825   -0.8296081    -0.0233362   -0.0147726 
   0.122000000    -0.0258897   -0.0105254     0.5304424   -0.8387661     0.5320569   -0.8337268    -0.0235214   -0.0146122 
   0.123000000    -0.0262252   -0.0103541     0.5233171   -0.8432764     0.5254253   -0.8377486    -0.0239285   -0.0146698 
   0.124000000    -0.0262883   -0.0102378     0.5162290   -0.8471595     0.5183182   -0.8421142    -0.0242262   -0.0142980 
   0.125000000    -0.0263959   -0.0099257     0.5096830   -0.8518156     0.5118675   -0.8461977    -0.0241674   -0.0145050 
   0.126000000    -0.0268834   -0.0098099     0.5027779   -0.8555436     0.5046048   -0.8503024    -0.0247069   -0.0141432 
   0.127000000    -0.0269211   -0.0092730     0.4957606   -0.8595465     0.4979584   -0.8538620    -0.0248315   -0.0143155 
   0.128000000    -0.0274784   -0.0090046     0.4884767   -0.8633172     0.4909259   -0.8578212    -0.0251371   -0.0140368 
   0.129000000    -0.0274969   -0.0086514     0.4814178   -0.8668931     0.4836594   -0.8613660    -0.0254021   -0.0136137 
   0.130000000    -0.0276368   -0.0083872     0.4738203   -0.8705922     0.4762393   -0.8658798    -0.0256599   -0.0132798 
   0.131000000    -0.0277207   -0.0081473     0.4666257   -0.8743056     0.4694993   -0.8694096    -0.0258183   -0.0133238 
   0.132000000    -0.0279755   -0.0080544     0.4595073   -0.8780019     0.4625476   -0.8724837    -0.0261809   -0.0131420 
   0.133000000    -0.0281614   -0.0076009     0.4522495   -0.8814398     0.4553909   -0.8770267    -0.0264058   -0.0130660 
   0.134000000    -0.0282978   -0.0072988     0.4455063   -0.8850552     0.4484757   -0.8800943    -0.0266698   -0.0131619 
   0.135000000    -0.0290259   -0.0075581     0.4373804   -0.8888596     0.4407727   -0.8842985    -0.0268553   -0.0127418 
   0.136000000    -0.0289243   -0.0073106     0.4308759   -0.8922083     0.4335033   -0.8872207    -0.0270110   -0.0123569 
   0.137000000    -0.0293145   -0.0067088     0.4232355   -0.8958501     0.4262108   -0.8907967    -0.0272311   -0.0121860 
   0.138000000    -0.0292573   -0.0068669     0.4159218   -0.8992874     0.4189574   -0.8942000    -0.0272920   -0.0123389 
   0.139000000    -0.0292493   -0.0064088     0.4087331   -0.9023808     0.4115764   -0.8977162    -0.0272436   -0.0120320 
   0.140000000    -0.0294332   -0.0062725     0.4014244   -0.9058549     0.4039348   -0.9010256    -0.0275956   -0.0118350 
   0.141000000    -0.0301111   -0.0061682     0.3937529   -0.9086449     0.3967135   -0.9043268    -0.0278936   -0.0119547 
   0.142000000    -0.0301271   -0.0059738     0.3866393   -0.9116777     0.3890810   -0.9073005    -0.0278966   -0.0117573 
   0.143000000    -0.0302466   -0.0054359     0.3784920   -0.9148449     0.3812562   -0.9105510    -0.0280885   -0.0114011 
   0.144000000    -0.0300626   -0.0053359     0.3716123   -0.9183399     0.3739557   -0.9134691    -0.0281089   -0.0114298 
   0.145000000    -0.0305239   -0.0052609     0.3638173   -0.9205524     0.3663248   -0.9167961    -0.0285769   -0.0112309 
   0.146000000    -0.0305498   -0.0052358     0.3560627   -0.9237584     0.3584209   -0.9193979    -0.0288421   -0.0107954 
   0.147000000    -0.0311809   -0.0049522     0.3483712   -0.9267552     0.3523570   -0.9225807    -0.0288686   -0.0104607 
   0.148000000    -0.0313099   -0.0045352     0.3409024   -0.9297435     0.3443477   -0.9257339    -0.0290375   -0.0100260 
   0.149000000    -0.0314044   -0.0044150     0.3335630   -0.9320201     0.3367569   -0.9282639    -0.0292898   -0.0095827 
   0.150000000    -0.0315668   -0.0042263     0.3252958   -0.9352436     0.3290066   -0.9310061    -0.0292734   -0.0092993 
   0.151000000    -0.0319555   -0.0038578     0.3180389   -0.9376793     0.3214093   -0.9337925    -0.0296422   -0.0088017 
   0.152000000    -0.0318779   -0.0039437     0.3102676   -0.9403132     0.3138306   -0.9359491    -0.0292682   -0.0084668 
   0.153000000    -0.0323610   -0.0033098     0.3029587   -0.9422566     0.3061698   -0.9383896    -0.0297037   -0.0082066 
   0.154000000    -0.0325623   -0.0029623     0.2949754   -0.9448100     0.2992293   -0.9409040    -0.0295451   -0.0077565 
   0.155000000    -0.0329888   -0.0022380     0.2872215   -0.9469079     0.2916357   -0.9439750    -0.0293981   -0.0076424 
   0.156000000    -0.0330667   -0.0018941     0.2800859   -0.9492383     0.2838307   -0.9455255    -0.0297805   -0.0073922 
   0.157000000    -0.0329856   -0.0018923     0.2722210   -0.9520086     0.2762002   -0.9474894    -0.0298209   -0.0068340 
   0.158000000    -0.0335206   -0.0016312     0.2644750   -0.9541650     0.2683731   -0.9498413    -0.0296063   -0.0067106 
   0.159000000    -0.0335183   -0.0010968     0.2563352   -0.9556665     0.2604168   -0.9524173    -0.0296967   -0.0066406 
