!Created with skrf (http://scikit-rf.org).
# GHz S RI R 50.0 
!freq ReS11 ImS11
75.0 0.06060303150519619 0.9810807997342221
75.35 0.9020785058620384 -0.9636243143794436
75.7 0.11360352842114008 -0.47984265595339637
76.05 0.694438114477915 -0.4303968163295204
76.4 -0.7934036512190574 0.2304367952778099
76.75 0.7635087275908765 0.7958117979618851
77.1 -0.3599258829714582 0.1455068859975608
77.45 0.9358914611803553 0.26771947566353504
77.8 0.773235143831988 0.9121592143990094
78.15 -0.5596228917437636 0.17099547832779183
78.5 -0.02216512061378695 -0.6602927443067754
78.85 0.0650114342881214 0.08017248392514387
79.2 -0.6127540821123261 0.7732393468470469
79.55 -0.3145640973874124 0.5385448923976086
79.9 0.05681695113080365 0.2516261584238497
80.25 0.43890004902218793 0.7440458931895675
80.6 0.9431826896093245 0.6768095903830993
80.95 -0.21454504961308385 0.3063842801423249
81.3 0.7176034126299422 -0.688917101174005
81.65 0.3954773966794203 -0.1826033161629541
82.0 -0.24029538037869824 0.6168596956059529
82.35 -0.343640043384438 0.540774083205743
82.7 0.495056439514856 -0.39995150285230885
83.05 0.798070106367915 0.6249163565101079
83.4 0.9246847618985523 0.19580726415917948
83.75 0.12609107042306866 0.3994886295575961
84.1 0.9154573361116418 -0.5716443387090311
84.45 -0.40885867267382947 -0.2251137457747987
84.8 -0.9647433058281694 0.48789927943842826
85.15 -0.5445409518923106 -0.5798742572236142
85.5 0.6705560089319349 -0.29358058780802354
85.85 -0.17931801583804297 0.28034997251060934
86.2 0.8987304495046977 0.5615926677758083
86.55 -0.40218653130520554 0.26268966326411936
86.9 0.2159989208989841 -0.04289764618150094
87.25 0.5066888665124609 0.7348806324795674
87.6 0.6247992134673608 -0.7854904906142426
87.95 -0.3854513790416192 0.4547555782202535
88.3 0.41711231672250104 0.39184491766827856
88.65 0.08985435369709704 -0.006357207986340985
89.0 0.713147856401436 -0.9434001913003016
89.35 0.6652026827571442 -0.4659651473239892
89.7 0.20709679561286953 0.00494238640248601
90.05 -0.5945317593710011 -0.8862834794800432
90.4 0.6655590774765268 -0.8779478297014034
90.75 0.4268519838156555 -0.11081181544372742
91.1 -0.9649643453393997 -0.6973197293034781
91.45 0.5342027616604652 -0.6130513477866695
91.8 0.955336291479749 0.896166455675971
92.15 -0.2124922824412061 -0.36739268483397414
92.5 -0.3318964800253319 -0.5721068043968665
92.85 0.30232952038873884 -0.9990203393378483
93.2 0.038631410499551544 -0.9128480220655237
93.55 -0.584563148510596 0.44884022991488304
93.9 -0.818604081612949 0.9768515863757923
94.25 0.7509387176526965 0.01772988907474704
94.6 -0.266160312736496 0.513067060905243
94.95 0.33301566185265785 -0.431314744491343
95.3 0.5171105159517668 0.5083619603087235
95.65 -0.4356531029009907 -0.5992744551521951
96.0 0.5751631881172368 -0.6668347934842305
96.35 0.9282515147425927 -0.7371145024261156
96.7 0.5113118474064879 -0.9320271075023443
97.05 -0.3793530911904157 -0.1835796296702339
97.4 -0.604408539358859 -0.8241015372606522
97.75 0.49695809825194215 -0.5355415001836217
98.1 0.6689182717474729 -0.0905752790506138
98.45 -0.8885106499540867 0.5488347313915616
98.8 0.06317706733411099 -0.5844458487339041
99.15 0.15330153312793482 -0.11427786094727144
99.5 0.28964202145686113 -0.958153212454081
99.85 -0.6990213162706431 -0.7808303740026854
100.2 -0.6603886291799157 0.7893007627168562
100.55 0.04239361820641574 0.971266887091567
100.9 0.02834668200010615 -0.7161391129231727
101.25 0.5011222376944546 -0.29765105879325615
101.6 0.01681978475650614 -0.4622915797341065
101.95 -0.4797734707526282 0.3263027651284831
102.3 0.9223488234759945 -0.7177678797327043
102.65 -0.9070870769378896 -0.8845197169857502
103.0 0.4734129792915449 -0.23172089710358534
103.35 -0.21364170143425865 -0.7688060761295101
103.7 -0.7068822259293215 0.6063214544388194
104.05 0.5000641741839329 0.8759566200618107
104.4 -0.455883744251967 -0.408874216423762
104.75 0.14131145739984396 0.11521144184165566
105.1 -0.13996262610092458 0.25710355613100044
105.45 -0.3368361480019939 -0.804535240656808
105.8 0.9144428730972669 -0.162797465832496
106.15 -0.9366395481846264 0.413057290364065
106.5 -0.027563241475778266 0.5840322528240132
106.85 0.4524891926839558 0.6139065233227805
107.2 0.08481734888561121 0.4228486891832173
107.55 -0.0599505650245038 -0.2892923975723489
107.9 -0.010688925324260579 -0.32487058793818946
108.25 0.2464608246602844 -0.07006586995244568
108.6 -0.5867270909660405 0.746576492364692
108.95 0.785226800876563 0.6747083002164065
109.3 0.2690129332685982 -0.11678502632455134
109.65 0.7313873873985304 0.9798028491635895
110.0 -0.3718896029817407 0.12675796406155548
