!Created with skrf (http://scikit-rf.org).
# GHz S RI R 50.0 
!freq ReS11 ImS11
75.0 -0.714465216325505 0.5687448741445029
75.35 -0.8603808495568426 0.1825814796338152
75.7 -0.8474973840346318 -0.10597834425439134
76.05 -0.9721371569535686 -0.9418819169257893
76.4 0.8707363549664682 -0.15489836924232003
76.75 0.06556025332096405 0.7037983704950905
77.1 -0.39265645440692976 0.3024022041969965
77.45 0.5939782881949649 0.564958724473094
77.8 0.6151667801000837 0.16117164084512559
78.15 -0.4431968991589397 -0.2716529104566856
78.5 0.892937304070123 0.5464303171428422
78.85 0.9622980684077755 0.8925473604778342
79.2 0.939912391749609 -0.7888290340895177
79.55 -0.05469210237177369 0.8151799104914055
79.9 -0.3266040947035129 0.5897775754204211
80.25 -0.9117328001614193 -0.6299719789599219
80.6 0.36499462504438074 0.6501571362355003
80.95 0.34267565116315724 -0.7520475602702141
81.3 0.3306433400424911 -0.47179543581721006
81.65 -0.523635800571624 -0.6567126538187
82.0 0.9177599896665198 0.6226891957299987
82.35 -0.2563998575383497 -0.7801272512630326
82.7 -0.9368408748197035 -0.4947877989342835
83.05 0.32741052967841355 0.9845715497370497
83.4 0.30395747090743375 0.8702487606488636
83.75 0.5690523071354627 -0.7051809548463777
84.1 -0.1660621573894061 0.5179355951316651
84.45 0.8073406043945273 -0.29195057494213583
84.8 0.9013550530704932 -0.9133403475058806
85.15 0.09984327115825242 0.034977218819098654
85.5 -0.9843847507609582 -0.17311524806363265
85.85 0.23006733273811064 0.9227484364871996
86.2 -0.580497667308085 0.207923823896647
86.55 0.7892671856611269 0.11469152761774004
86.9 0.5198405740463226 0.7683113956900021
87.25 -0.49833087693743483 0.37255620298900105
87.6 -0.7305430654539051 -0.25909909995582314
87.95 0.5133529897856353 0.38910012156906526
88.3 0.5964192334279719 0.768852894632122
88.65 0.6011660716821183 -0.23858467196862154
89.0 0.5950004574104215 -0.4534675320887809
89.35 0.49519267500580466 -0.7846121136571071
89.7 0.4227482133955498 0.13911648472875315
90.05 0.7457460332207027 -0.2745316907640536
90.4 -0.6719808224536417 0.9066807762290034
90.75 -0.14224040116588443 0.0444613344911311
91.1 -0.009315209412962933 0.4898164907606135
91.45 0.85078993701789 0.060669319742020056
91.8 0.9513523535613078 0.8504625981349856
92.15 -0.015031228759239568 -0.17292489397539534
92.5 0.13709814895746053 -0.7322913905220436
92.85 -0.03103549696702035 -0.6108320396804228
93.2 0.4332974066875752 0.5693079270538506
93.55 0.14090474066642233 0.9103653409233745
93.9 -0.24046047342981636 -0.1269196934897674
94.25 -0.12500411067781414 0.12073553866299047
94.6 0.7511500614126863 -0.22687691535432175
94.95 -0.9339926131748755 0.786175573639019
95.3 -0.5155124394951927 -0.8479178928549309
95.65 0.26127795024072786 -0.0665233887987624
96.0 -0.10548362445703474 -0.010398759275414227
96.35 0.33385367345032635 -0.04304482320898262
96.7 -0.06733591508577241 -0.7401240628233978
97.05 -0.14338374809724286 -0.1300960366426651
97.4 0.2595381980318823 0.31539266693957546
97.75 0.156513760198562 0.5810238724808461
98.1 -0.5229791235374639 -0.5311899409899548
98.45 0.8414276288154237 0.7260329699767181
98.8 -0.052936548544418205 -0.26137197706544013
99.15 0.9214237055619114 0.45409802001583666
99.5 -0.6250079554583694 -0.6770127950489477
99.85 0.7780961795325172 -0.2053663461103803
100.2 -0.7811406935903482 0.9049337616071202
100.55 0.3377241057354694 0.8385149202904865
100.9 -0.6338856655557243 -0.5379469304677624
101.25 -0.05839273225206054 0.4993762361069731
101.6 -0.7571912560199416 -0.7717684198073591
101.95 -0.19542555872194 -0.8895450776512899
102.3 0.043103009966636296 0.6778827344340557
102.65 0.282684771441998 0.5350724968226359
103.0 0.6852167225043719 -0.7558628008833752
103.35 -0.7197570184752131 0.3860364421426279
103.7 0.04746429201439617 0.8010214947848149
104.05 -0.6811382181802035 -0.4447663782396041
104.4 -0.8977860869162619 -0.835836323268933
104.75 -0.36859441832033935 -0.017534493984433963
105.1 -0.18055863448359144 0.8788375112623457
105.45 -0.6195749104070412 -0.5415982038114078
105.8 -0.5578945899480268 -0.14545206342333894
106.15 -0.5148959511142219 0.45176261067372714
106.5 -0.9763050527780399 -0.20415366671054147
106.85 -0.8523679294175279 -0.2985985800405342
107.2 -0.475677813114074 0.4588289764146427
107.55 -0.11335227933201031 0.46199462032726135
107.9 -0.8378677451064194 -0.3193703782107671
108.25 0.7072455061666352 -0.30589351042202995
108.6 0.5860042733977897 -0.22079381978959178
108.95 -0.29035177097057874 -0.6241911969333891
109.3 0.5230562486119341 0.4965831909652285
109.65 0.1880459090072657 -0.26038970044108223
110.0 0.5038216543289826 0.10070764560712675
