!Created with skrf (http://scikit-rf.org).
# GHz S RI R 50.0 
!freq ReS11 ImS11
75.0 0.3281812023262496 -0.31632597557699316
75.35 -0.8985471184489495 0.7489476591468134
75.7 0.8342196302465821 -0.6428308299205421
76.05 0.19077395178932854 0.6879014078922627
76.4 -0.6171299147182929 0.12140391776164439
76.75 0.18643961404786125 0.5052231315826912
77.1 0.002607748847005542 -0.2143026642345407
77.45 0.7994073209259638 -0.58310702447875
77.8 0.16397510428519046 -0.30326368205682264
78.15 0.17446713399899894 -0.19757179343253006
78.5 -0.7017981496438415 0.9685894685814969
78.85 0.5998450092792673 0.31557827628132573
79.2 -0.9763944121711745 -0.404848170645856
79.55 0.08786450332230156 -0.6116314556661901
79.9 -0.3009600939577515 -0.9743406423266308
80.25 -0.7822161487339174 -0.23145831479819057
80.6 -0.8677339978896912 0.9832532944507204
80.95 -0.17963065466141015 -0.5629822151434836
81.3 -0.5997378842529606 -0.31209515406409616
81.65 0.47801063291166135 -0.6682373972708198
82.0 -0.8037153061932529 0.9320837020039998
82.35 -0.22786858350631234 0.8740467984381797
82.7 -0.5061417954908862 -0.9841854035921318
83.05 -0.0916383102799907 -0.2553825200013151
83.4 -0.9373097614703008 -0.12560531477533377
83.75 0.31528982905523817 -0.8284199056115036
84.1 0.04868526735103362 0.7448036918668037
84.45 -0.46683726552287164 -0.9541213419134293
84.8 -0.96603131224412 -0.6853943460740106
85.15 0.9799933788364965 -0.41108261165900917
85.5 -0.5895865747292686 -0.92062221363578
85.85 -0.26106948853835266 0.18171178044579883
86.2 0.29867078386639 0.4028057660512665
86.55 0.8206358030246841 -0.5937278455971173
86.9 0.5567881929496001 -0.8286109237158201
87.25 0.27874070661927464 0.2917442024250556
87.6 -0.2513731494962588 0.7338567310003348
87.95 0.4101330704709947 0.35581138136396295
88.3 0.7257432527562453 -0.29518920292473516
88.65 0.2587200523707909 0.9618251323412517
89.0 0.9999104844284938 -0.13046296248268252
89.35 0.7237708707910411 -0.9090537356487405
89.7 0.48859695891777233 -0.6387873385337253
90.05 0.3665850038774465 -0.06117204580718294
90.4 0.911649515494136 -0.5981685799083654
90.75 0.4107762520912497 -0.6162460473673572
91.1 -0.3577520016516258 -0.7843389233028994
91.45 -0.8135155164461323 -0.8262804624839826
91.8 -0.7906940377930576 0.8471470287380012
92.15 -0.7812552849821823 -0.370032937222722
92.5 -0.40144209224772 -0.4282771555309972
92.85 -0.5020149996204941 -0.6001772217716714
93.2 -0.5769815091336352 0.4321951046548318
93.55 0.054535333214048354 0.9662963045905097
93.9 -0.2950347588089788 0.9133133064566257
94.25 0.18910811987162912 0.21309223030267166
94.6 0.45167926279001014 0.06645273753617009
94.95 0.7691917300827251 -0.5915170830993888
95.3 0.6998990885113723 0.7230887834605644
95.65 -0.8073319647520834 -0.16952734294660954
96.0 -0.4765778948650934 -0.7867137947312695
96.35 0.5930319419204408 -0.8935593453373651
96.7 0.5540314055265756 0.012876784438364153
97.05 0.9377517888343052 0.9171045982055088
97.4 0.29380422728968925 0.08509912435056921
97.75 0.04349872062195992 -0.7582860955805562
98.1 0.5319511045141978 -0.5829723100914552
98.45 0.8368629224957382 -0.15081591636869995
98.8 0.4917860198954951 -0.45430694711194586
99.15 -0.3346298203739524 0.8681171861536674
99.5 -0.14164667582196566 -0.4349840377034784
99.85 0.8068502421012849 -0.8608520772440058
100.2 -0.16236950414135665 0.08573749563149136
100.55 -0.1815592347764028 0.5120927437661973
100.9 0.3845995250981804 0.39266252020886183
101.25 0.15186916276157936 -0.7588277184614389
101.6 0.7172108045837966 -0.7821772367392315
101.95 -0.37068048458077896 -0.9049965659672494
102.3 -0.014206673982263496 -0.7130950631447142
102.65 -0.3478035869190723 0.7928758342722333
103.0 0.6504541867764138 0.6228215513927802
103.35 0.6220273973974488 -0.3233197709398776
103.7 -0.269003666618427 0.38446049759472967
104.05 -0.09061966567138668 -0.7234995004882261
104.4 -0.1369911870096614 0.9576926959151464
104.75 -0.5094712827253947 -0.37756177591598483
105.1 -0.759772287081619 -0.846078247256125
105.45 -0.6525714877595916 0.20539692641209828
105.8 -0.014494325295746346 0.046909537020753955
106.15 -0.7257013863559927 0.03966521331764716
106.5 0.45876900967478274 -0.21365756195951158
106.85 0.7472253597570795 0.48834387251190825
107.2 -0.18178411336999645 -0.45453004376937467
107.55 -0.6775350356199377 0.6855882267805269
107.9 -0.6101001447708945 0.9214958649206182
108.25 0.1630580759603637 0.4905097053359886
108.6 0.9528161232306915 -0.4032708547893713
108.95 0.8488782446092655 -0.29224117436398944
109.3 -0.1628459383803229 0.9219214307171377
109.65 -0.07941667503674288 -0.6331838866183448
110.0 -0.21849645410175866 0.09496863870212091
