!Created with skrf (http://scikit-rf.org).
# GHz S RI R 50.0 
!freq ReS11 ImS11
75.0 -0.19266177580844057 0.33688620843366657
75.35 -0.6286168660376852 0.14419538779663377
75.7 0.8347102547312448 -0.014130601460472292
76.05 0.0008467117044379524 -0.33388122427529954
76.4 0.6368025550373282 -0.8868218181553778
76.75 -0.4552808664828034 0.3992857188198349
77.1 -0.20822181338218915 0.18497654335421942
77.45 0.8440246837953573 -0.3042089698055146
77.8 0.4803223855402583 0.3487176360647779
78.15 -0.49423136055565164 0.9949597968330652
78.5 -0.801183020792742 0.1328113277579024
78.85 -0.5601849310517939 -0.25504807286528797
79.2 -0.20516986012172245 0.6405631543996944
79.55 -0.08143257359043599 -0.06169143158497592
79.9 0.12045685944660889 -0.20659339941513455
80.25 0.7727240375672517 -0.06244009988870158
80.6 -0.36482399520815 -0.9655731623672525
80.95 0.38047132354511537 -0.09974564843810607
81.3 -0.4888160995014619 -0.5160334987090431
81.65 0.5462910030444073 0.1578215131838936
82.0 0.9124625563673083 0.5973221200684713
82.35 -0.7084983581373763 0.7953353272831327
82.7 0.3603329697574371 -0.428785186986838
83.05 -0.4994733612389044 -0.8335121268498527
83.4 -0.9245566403329082 0.032924333623308044
83.75 -0.8839541417513648 -0.6877385303137828
84.1 -0.3888278976370523 -0.3391001942526377
84.45 0.7539355913343146 -0.6999095051478703
84.8 -0.4117638800262611 -0.6961640895388532
85.15 -0.7687026267682973 -0.6897519850052622
85.5 0.516801149888239 -0.1897463608033707
85.85 0.818339929000492 0.012504425599915825
86.2 0.5532432912177359 0.33399617665892567
86.55 0.03993637951643536 -0.6548920874227862
86.9 0.5486134213089293 -0.6496828995137809
87.25 -0.5145194093239494 -0.24808783363030118
87.6 -0.6281420725907412 0.6910059121815861
87.95 -0.5673926230837878 -0.9220976706497197
88.3 -0.3555183386791805 0.3512535838630815
88.65 -0.8721946426904936 0.3990252169483286
89.0 0.4859973417977872 -0.8069915754260699
89.35 -0.4033245436463271 -0.4134467892599816
89.7 -0.9015016976801282 0.8662654706427431
90.05 0.47394916219155525 0.87424067293198
90.4 -0.01874505511468616 -0.8271098931144325
90.75 0.22003000247203497 0.45964487722347935
91.1 0.7635384853775431 0.1424972685197472
91.45 -0.1678616433951443 -0.6981112997759911
91.8 0.6792204115104845 -0.660194397271777
92.15 0.8715881144451396 0.947141814917315
92.5 -0.7977609260511547 -0.04970156859956254
92.85 -0.2747203508092153 -0.08824403451078755
93.2 -0.19090894885209342 0.9606260546522829
93.55 0.17720335920515584 -0.9746352521357968
93.9 -0.16856115220185863 -0.1541094073047562
94.25 0.3488648985380205 0.8687707032604928
94.6 -0.883468322137126 -0.37303074325570584
94.95 -0.10193444279004416 0.10400033253711949
95.3 0.6992413782022493 0.803278609598473
95.65 -0.7136821175053001 -0.004945292391270284
96.0 -0.9093435356591122 -0.5501892483489308
96.35 -0.34089207388001097 0.018976059363737585
96.7 -0.5262940815700956 -0.3369349244278015
97.05 -0.11803294267747111 -0.696671033166725
97.4 -0.7098122027099154 -0.9863252235908395
97.75 -0.13486809023194768 0.31682858799071356
98.1 -0.9010603960726984 -0.3909538716710781
98.45 -0.3149181696528873 0.4802152643183655
98.8 -0.5176488460253676 -0.5972479830660178
99.15 0.27116468103339875 -0.17817613459682047
99.5 0.9873515044536609 -0.9716292836312548
99.85 -0.409639886957081 0.816972465670063
100.2 0.5188997113987104 -0.3229737131344279
100.55 -0.09994017115262332 0.6730767422274999
100.9 -0.6071719862004279 0.5694222305110914
101.25 -0.5033578108942198 -0.06259206342133017
101.6 0.5537256543333868 -0.5973809613596552
101.95 -0.7481144876653412 -0.8768615181004733
102.3 0.5297003801375733 -0.2509154656565291
102.65 -0.39684927812037496 -0.48592247622979023
103.0 0.4400259247155205 -0.7815170231894357
103.35 -0.35562384159016003 0.8433697204426507
103.7 0.7832910518184644 -0.47206991918697816
104.05 0.0947698955361631 0.09868459333731461
104.4 0.6382933776931881 -0.09376098729580251
104.75 -0.5509087618669628 0.9554554625100495
105.1 -0.22125026578221463 0.8282088203515774
105.45 -0.18533654088459328 0.8418145484979442
105.8 -0.818748941247637 -0.07023559147739222
106.15 0.6693509944859217 -0.32236868113881534
106.5 -0.5169210159551327 -0.5491295410322594
106.85 -0.9775352796728687 0.3450211684092528
107.2 0.16525928394820744 -0.425910747648248
107.55 0.24948631322309778 0.18552524867192943
107.9 0.2723900419320948 -0.3435639220733364
108.25 0.5432646408482569 -0.8701356980722166
108.6 0.016001800232146257 0.3848520744436015
108.95 0.8086298780314707 -0.1556026657758649
109.3 0.6139139107220846 -0.9794235273397862
109.65 -0.9681718267802906 0.12346671816683163
110.0 -0.03522568768887746 0.6698198801040041
