!Created with skrf (http://scikit-rf.org).
# GHz S RI R 50.0 
!freq ReS11 ImS11
75.0 0.5947069220419847 0.07792214676024667
75.35 -0.04900671592449157 -0.3672442842965433
75.7 0.5627772585503328 -0.7566613712469294
76.05 -0.6459492417185357 -0.06329598227397693
76.4 -0.4588893421113731 0.47558254159280566
76.75 -0.7228477061454521 -0.027950729163083388
77.1 0.8833149091061181 0.9210022576426755
77.45 -0.7184792045090285 0.3938160829762285
77.8 0.9080058654095016 0.2405023476172965
78.15 -0.04701771414857525 0.08131018013156499
78.5 -0.7141297090203409 0.96541588663476
78.85 0.42357018086374687 -0.23375294679730296
79.2 -0.9560200400967414 0.8896136001381316
79.55 -0.04559791461936169 0.8546444124253989
79.9 -0.7396380035216166 -0.8061155580801516
80.25 0.042658168184967815 -0.2087387106841203
80.6 -0.7533911759259044 -0.8186559621783245
80.95 0.839644701986894 0.4865501884643142
81.3 -0.33330812494313067 -0.28994015580230337
81.65 0.20251540169861282 -0.21872880116636462
82.0 -0.8975919031089787 0.6104938711592627
82.35 -0.8589248613815914 -0.1721289645952655
82.7 -0.7551841649262114 -0.19377146799479172
83.05 0.23995095236413522 0.6652542433848674
83.4 0.0939731739648193 0.860882791572849
83.75 0.30235902017981586 0.8032150314622934
84.1 0.9122522536630093 0.9505284347344414
84.45 0.6127762279099926 0.4172456842105716
84.8 -0.8802455545055337 0.14071018448918005
85.15 0.49955677978046453 0.7723657255266145
85.5 0.8229720227616903 -0.8662501221717784
85.85 -0.7069462176781891 0.33044089541949306
86.2 -0.8174274039825684 0.8533426337929044
86.55 -0.38069398642385077 -0.9627491999939721
86.9 0.9050730658802972 -0.4233662670440923
87.25 0.5873231673996164 0.863140198796795
87.6 -0.9437892918909936 0.6843464452052754
87.95 0.07019986359454689 0.34949157038159484
88.3 -0.1600390877040221 0.5313573737525183
88.65 0.91714979477554 0.07852345766344637
89.0 -0.48672575707946986 -0.4819432043862151
89.35 -0.6071552104665421 0.8506268033979283
89.7 0.46845139322870866 0.001562699606153295
90.05 0.9352009956199503 0.7464173645674088
90.4 0.4878844586459765 -0.9646492903806962
90.75 -0.014321439845234263 -0.1949505796003681
91.1 0.14531481705115668 0.38836216321463146
91.45 0.7729657382310144 -0.6542598315800718
91.8 -0.6131173745218459 -0.4760391335749967
92.15 0.8992777131306822 0.8119322202159129
92.5 -0.5252839245179288 -0.44730974471067797
92.85 0.5254595656874943 -0.1069948166350232
93.2 0.20474792568623013 0.6099212247669974
93.55 -0.06165513543641543 0.05492155696012202
93.9 0.6835923113327671 0.504644694034458
94.25 -0.6991379448216686 -0.7575811404089903
94.6 0.548365774895281 0.1547781749345707
94.95 0.9752020093412861 0.3886147605310277
95.3 0.12068644982241428 0.7918137366995588
95.65 -0.13555098823731848 0.5587450156768141
96.0 -0.3877230467316204 0.6387613124812892
96.35 -0.15491750363926404 0.9461894919747944
96.7 0.7238188550352211 -0.7957759082826676
97.05 0.10304441820349419 -0.8551522225019219
97.4 0.8754699532146217 -0.581002121272451
97.75 -0.8210139113637844 -0.8063924040563255
98.1 0.790718012211912 0.8105680427787716
98.45 -0.07674069095158442 0.8542384568372672
98.8 -0.6707466871297394 0.6299748479660632
99.15 -0.22915586036029856 0.7170868805423045
99.5 0.6164993754361339 0.4435195073782574
99.85 -0.5287863442443463 0.1339048361820856
100.2 -0.2482314643366812 0.5578950593194054
100.55 -0.4683171133156252 0.5224804742965683
100.9 -0.7039350331483474 -0.9389171207523341
101.25 0.44939949860166006 -0.4666027181633534
101.6 -0.05063028837447514 -0.22237408432323114
101.95 0.9641900016236546 0.16184279610375496
102.3 0.18990696863201428 -0.2700314580264911
102.65 0.3509717016341196 -0.18245179585519633
103.0 -0.8381452377791108 -0.46336271063819967
103.35 0.08471353865440356 -0.661399966701669
103.7 0.5135172746876819 -0.4317440242368846
104.05 0.3371339324943712 0.941637386567761
104.4 -0.9949216577162918 0.13285691706348235
104.75 -0.15638362920756577 0.3242273814837333
105.1 -0.03232641584989859 0.6748682441067531
105.45 0.42392979516812734 -0.0803178003103211
105.8 -0.6046433765742607 0.4747298948372052
106.15 -0.5811943634089891 0.3712569872083362
106.5 0.3037857647859137 -0.782630778689392
106.85 0.6809233838833251 -0.48610094606324683
107.2 -0.2425325187884062 -0.46787975848823904
107.55 -0.8731369221421632 -0.12740953802586685
107.9 0.9935663743339174 0.373782203852117
108.25 0.9540455290621557 0.07394359280183904
108.6 0.37659069395897804 0.3314855310560303
108.95 -0.011926736909806612 0.6187436603468404
109.3 0.4701434028627527 0.41201876788213365
109.65 0.2792077681593037 0.10746323729183538
110.0 -0.8220538023989046 -0.7775172942037074
