!Created with skrf (http://scikit-rf.org).
# GHz S RI R 50.0 
!freq ReS11 ImS11
75.0 -0.04392653621104836 0.3434275726985361
75.35 -0.3310353992959687 0.8936746231241175
75.7 0.11993772870217367 0.5092181098635273
76.05 0.019648464166374557 0.27779734739396544
76.4 0.06394989289040076 0.16749126634921607
76.75 -0.45368923599504285 0.8409823186686325
77.1 -0.8625003624324614 -0.408043705492823
77.45 0.5460060222819452 -0.25501630556812915
77.8 0.938417161941056 0.7327508505725668
78.15 -0.3416565562166085 -0.21696572723821084
78.5 -0.0823964713016394 -0.7200949659100617
78.85 -0.5883214223511886 0.7415495084494468
79.2 0.7319127372045628 0.5159509368629309
79.55 -0.6754392271124519 -0.9466954091700215
79.9 -0.0336665091058137 -0.00966011697289848
80.25 -0.8189057007636595 -0.072516078223547
80.6 -0.2861294614397427 0.6103495333535391
80.95 -0.5362664903293974 -0.43794522152407556
81.3 -0.22053511969869644 0.7336414317252491
81.65 -0.9343248558043737 0.15006820275610733
82.0 0.28120165469118175 -0.887245363550945
82.35 0.06453909303110006 -0.5425161082494128
82.7 -0.0965362413687858 -0.5389327216185444
83.05 0.2797418499564017 -0.8584026085886343
83.4 0.6553599438774 0.7858871016907754
83.75 -0.4545496085702232 -0.270917848110215
84.1 0.7597197487639764 -0.8275445334023206
84.45 -0.9580665370653285 0.6999442461197549
84.8 -0.639052426248931 0.6771638140211054
85.15 -0.7823269316896218 -0.8498323802078112
85.5 0.025488601617315476 0.07759655043255664
85.85 -0.25183789218870545 -0.7264587092361738
86.2 -0.4078799400174413 -0.17321783945226854
86.55 -0.04146157435043696 0.318352318935051
86.9 -0.9043109869727888 0.8668458938857029
87.25 -0.17721297300972916 0.46459291484406373
87.6 0.3131029978417932 0.9002441030047741
87.95 -0.07698258611228437 0.6377960488317076
88.3 0.6002641687681476 -0.9193166045262704
88.65 -0.7661509644372244 0.17479667104023888
89.0 0.8769490967682958 0.26725045653722135
89.35 -0.03168746421773405 0.42901568830635073
89.7 0.3178568314256385 -0.03866323247044989
90.05 0.2950697600831109 0.02061254237875243
90.4 0.887955987301053 -0.16000774744793134
90.75 0.7253720862454978 0.7520024046844256
91.1 -0.7869078944650574 0.8696481327177141
91.45 0.38060347719280574 -0.8315826810107185
91.8 -0.32502731488666137 -0.8625970855823155
92.15 0.16379531266025094 -0.5873037099835907
92.5 0.5501562676934335 0.0873640234873112
92.85 -0.048865591235309314 -0.7298965459671047
93.2 -0.07104387523397016 -0.12096872787816837
93.55 0.7577999042919223 0.12761624276571704
93.9 0.7726597013317822 0.4069655744374616
94.25 -0.4037368168582198 0.5140476626222681
94.6 0.07939141576525244 0.18597614501913928
94.95 -0.17804589517340363 -0.24375135802715486
95.3 0.7149084629108284 0.6596255601848657
95.65 -0.7693249613782676 0.9008811666593579
96.0 -0.6169392674929388 -0.21861412118850865
96.35 0.42263291354829335 0.44570803832386696
96.7 -0.9420261836366401 0.8105307074582846
97.05 0.8279781143427452 0.9765684387558828
97.4 0.8693335613191187 0.8118213122035023
97.75 0.3941240160523074 -0.7613942090228338
98.1 -0.9637119357176678 0.2914326804184648
98.45 0.7562766515030392 -0.02574357383704662
98.8 -0.8591308001686646 0.3107908350418447
99.15 -0.6025615738187295 -0.36691028852926566
99.5 -0.5146813323523314 0.21287454415583795
99.85 0.950325593100001 0.9285685008369575
100.2 -0.6719110111287545 -0.6287770467649374
100.55 0.9977975863238195 0.6500067023340697
100.9 0.5765738402835638 0.07751304633972778
101.25 0.3677209273639015 -0.048074525398404955
101.6 0.17640063064308675 0.3318890124969529
101.95 -0.34780096482466716 0.40328613861514206
102.3 -0.1584025480319795 -0.35843947996085057
102.65 0.6022131209015058 0.9274162009581235
103.0 0.36197276443916504 -0.4121933515962719
103.35 -0.9506511313587613 0.4793157038561726
103.7 -0.5337429376987748 0.46639006316357556
104.05 -0.3463080004259016 -0.694896668930653
104.4 -0.7940774594770905 -0.5479850653864218
104.75 -0.1703039206839958 0.609666037841645
105.1 0.31452877699884385 0.7382016646520371
105.45 0.4010718778001434 0.774997869073391
105.8 0.042614737358589894 -0.9935726197834776
106.15 0.2708672768645284 0.16973919290774986
106.5 -0.9992410959327049 0.1725459967715175
106.85 0.38326312102848137 -0.22753532525539844
107.2 -0.122066592108244 -0.5927853304969082
107.55 0.5467000541834861 0.14608690324655704
107.9 -0.415308445631807 0.8792373007660048
108.25 0.5201717467090097 -0.061916616395090385
108.6 0.6523559772657475 -0.8710631193980616
108.95 -0.050268074803269336 -0.7875364282493198
109.3 0.4020181654297441 -0.4890216046735456
109.65 -0.47281407891365745 -0.30233771709033896
110.0 0.5103711744022472 -0.997631855958202
