!Created with skrf (http://scikit-rf.org).
# GHz S RI R 50.0 
!freq ReS11 ImS11
75.0 0.5425535068631293 0.27775678020461547
75.35 -0.991383486171544 0.17838911555469705
75.7 0.5313898622074067 -0.4648253900740489
76.05 -0.8591169818894651 -0.4908690456192326
76.4 -0.6958642044827377 -0.7645492060741967
76.75 -0.5252152870435152 -0.9220977254598297
77.1 -0.39358060491163993 -0.7918990899170939
77.45 -0.21917784719956357 -0.6571571770813485
77.8 -0.5379240139138208 0.8833822618403457
78.15 -0.6602049783288615 -0.37347041127874325
78.5 0.08683852608858889 0.6956398537871451
78.85 0.8634530689503666 0.9520222045423801
79.2 0.382212022463992 -0.12004229573642777
79.55 -0.43469833493746957 -0.42818838711969254
79.9 -0.5850802055180064 0.6731545787825488
80.25 0.7682826842220536 0.30549117843275164
80.6 -0.371749139860001 0.8622034697670207
80.95 -0.16911905995288956 0.14060088228670264
81.3 -0.22370278237392904 -0.5358512285937755
81.65 0.03863933798319774 0.49240620426111437
82.0 0.842410737997924 0.7575778999434524
82.35 -0.30903559578153406 -0.22205100024039104
82.7 -0.6663892570586964 0.25462353434701024
83.05 0.5512743401512274 0.5206334589449095
83.4 0.6218638719327694 -0.06308292849932795
83.75 0.7090028070047725 -0.20294935181522544
84.1 0.12044153295483606 0.44803540624903926
84.45 0.511501134416777 -0.20906188093192246
84.8 0.45673509466965445 -0.7633626583741799
85.15 -0.15586866063190907 -0.9170534502180387
85.5 -0.7532647001648378 0.6126764212534781
85.85 -0.5297477070532386 0.8796501943394135
86.2 -0.7303948518879548 0.23487364284572787
86.55 0.9477458757721786 -0.24876341825258286
86.9 0.4233039006145911 0.9858131276522393
87.25 0.6091031838159011 0.9363275592621043
87.6 -0.5257659154008172 -0.912121081583513
87.95 -0.7558004741324558 -0.8874927114266198
88.3 -0.8178255380988961 0.5696130767206129
88.65 0.9625342187137322 0.9899558014830603
89.0 -0.09572004247015586 0.27668125252824294
89.35 -0.14012185141717626 -0.6776853610405429
89.7 -0.41367930923986074 0.9325535029643532
90.05 0.7965890666592195 0.3803178903126698
90.4 0.7964756729510429 -0.5240574904179065
90.75 -0.9878043036115767 0.4254269859811204
91.1 0.5808245291723928 -0.0034354578538253744
91.45 0.09104368449438782 -0.23054621097354855
91.8 -0.5759858584922324 0.6089292413261489
92.15 -0.16077802008086217 -0.7218788889740799
92.5 0.5030506094725564 0.4948460418211982
92.85 0.30499068316276934 0.13068559907204857
93.2 -0.5545448608728833 0.9450718292351072
93.55 -0.7919926708590606 0.0988483558823472
93.9 0.06079156307476086 -0.6198909661927532
94.25 0.5087674192947147 -0.04253310115748388
94.6 0.4978783447286508 -0.11714906577070594
94.95 0.23455155580672238 -0.5478370477647652
95.3 -0.46610607233607904 0.8272832757610022
95.65 0.8843804464024481 -0.7378031033511945
96.0 -0.38621768151331204 0.6251571559251992
96.35 -0.48603853689140086 -0.41506216745582103
96.7 -0.6142740008090153 -0.20972614641872478
97.05 -0.10234665542342158 0.9247612225547972
97.4 -0.20635171213253045 0.9892740040027952
97.75 -0.5373413338987834 -0.3271750112314653
98.1 -0.33379284241512996 -0.7874959909208876
98.45 0.1069948947555408 0.6619665022584109
98.8 -0.5911808655001205 0.7765985514557798
99.15 0.868673498080536 0.6542507273840314
99.5 0.3566817460900429 -0.40128032008388037
99.85 0.34386119755260114 -0.6239420791313732
100.2 -0.071450979508066 0.6942144967394586
100.55 -0.7228133677378052 -0.19300295626441155
100.9 -0.6937543969928295 0.8407230251094542
101.25 0.9756425803534643 0.7544390687939209
101.6 -0.9604734053842341 0.15500680408982648
101.95 0.09897528673823697 0.7323381034073588
102.3 -0.3822027866054618 -0.4694346576433621
102.65 -0.39781187406870955 0.8202381805217167
103.0 -0.2185908815228128 -0.2776387655376178
103.35 -0.33639225430045516 -0.2491962027952208
103.7 0.18897763704040815 -0.9297834699853551
104.05 0.1573177250574611 0.9245036727390255
104.4 0.8799804858211628 -0.007538007892371246
104.75 -0.8395337329900541 -0.9336671815282236
105.1 0.7900117128148905 -0.2548351442615575
105.45 0.0450756736833553 -0.3276646872665441
105.8 -0.5575611829284826 0.43036388537038306
106.15 0.13689195031498924 -0.9903516304547959
106.5 -0.7151797775828646 0.09052661698699449
106.85 -0.9773561145974163 0.10276488881279233
107.2 0.5633911329086532 -0.4627002992666083
107.55 0.9446274276178226 0.14850184986770731
107.9 -0.3836046099636363 0.8014243299495318
108.25 -0.22311203038742655 0.3282717501861445
108.6 -0.7874212572886437 -0.802855734828051
108.95 -0.9898592644169704 -0.8900962902681824
109.3 0.2546183446294106 -0.5194135574337566
109.65 -0.8400953426590856 0.8541599056303744
110.0 0.5901274715359404 0.2547108001500922
