!Created with skrf (http://scikit-rf.org).
# GHz S RI R 50.0 
!freq ReS11 ImS11
75.0 -0.20979540816547426 -0.7301610605994473
75.35 -0.3258439817238523 -0.8503900558443669
75.7 -0.5623928247208543 0.8391476458635294
76.05 -0.4046367995605491 0.7886928699852196
76.4 -0.8364866647683555 0.5376766388625422
76.75 -0.7700418707553851 -0.23328154558451963
77.1 0.16046197184133137 0.28658346816824953
77.45 -0.2122121591756918 0.729153671209738
77.8 -0.1109439068134821 0.8902915315494571
78.15 -0.6132366508820182 -0.548314507248157
78.5 -0.5837042826541716 0.6354527264169665
78.85 0.7996834304831826 -0.5582788784103554
79.2 -0.20944081334491105 -0.5189751549996591
79.55 0.9037001235319038 -0.05489690979470607
79.9 -0.5768663454082847 0.807568892252537
80.25 -0.10380181038573855 -0.5299661587931561
80.6 0.8621627192098444 -0.4064920645605279
80.95 0.2960577805365485 0.31058268165836056
81.3 -0.24574161045360832 -0.14847223120309683
81.65 -0.9646833817433254 0.7026836722141645
82.0 0.9401260441306531 0.12001436959997047
82.35 -0.466715674359667 0.45950869354200563
82.7 0.3026025732956239 0.6920798895673415
83.05 -0.27698682327005475 0.6833689012986115
83.4 0.8628402837050186 0.04062944894369336
83.75 -0.943834140254993 0.7112020577430942
84.1 0.49442960549609993 -0.5062221876879298
84.45 0.2654525110994477 -0.1553161800815479
84.8 0.8831991390992853 0.690254242706134
85.15 -0.4170766434935569 -0.6734214513191168
85.5 -0.6874332868692119 -0.24625263057280122
85.85 0.21153795453687607 -0.3500966623091113
86.2 0.9924560030767824 -0.0072918122682930075
86.55 -0.06448970278943644 0.21832963747867562
86.9 0.9735071715721983 -0.28660949334936636
87.25 -0.9506540221472786 0.8733088222734713
87.6 0.7871025760127024 -0.6074691953023135
87.95 -0.9605452624690063 -0.25297345075119004
88.3 0.7513047390450935 0.23682026724379268
88.65 -0.6564691860051282 0.5676990248800902
89.0 0.7472916786525738 -0.7048201868970345
89.35 0.8008465718750251 0.9165273018951114
89.7 -0.16074167784165083 0.7101003726602721
90.05 0.9776747129059815 0.303056854029746
90.4 -0.66376594820616 -0.6326875600569024
90.75 -0.06884951522322957 0.7523106392792436
91.1 0.9766983291474325 -0.700491344108972
91.45 -0.9661106612346875 -0.5775353908315497
91.8 -0.4148840529130293 0.2548835296664467
92.15 0.2603205804905804 -0.9224344039956691
92.5 0.24912035877053262 -0.22600516053320163
92.85 0.7150607667029776 -0.5242260361192237
93.2 0.2953473464733325 0.36103947311081686
93.55 0.4288463706651078 -0.3245579862651444
93.9 0.6396302846188211 -0.9815984118391652
94.25 -0.2169145471420144 0.11854745959615709
94.6 0.7474020506321459 -0.9648847614930802
94.95 -0.858298701185644 -0.7935199981443386
95.3 -0.5922608517387697 -0.6375080560703188
95.65 -0.08822523958097372 -0.1015195885685225
96.0 -0.21369929779850416 0.9296726857038808
96.35 -0.8537629086468432 0.43239713392693924
96.7 0.4957335509684664 -0.7218827522660518
97.05 0.8311537816618604 0.05289187574150245
97.4 -0.5650913235439421 0.584564087818658
97.75 -0.5027550461587054 0.2658946287181372
98.1 -0.12099982838218848 0.9925860342705115
98.45 0.3983782564797054 0.830467510079627
98.8 0.03003940754334966 0.677588346814537
99.15 -0.09043146540745828 0.6561210634624086
99.5 0.1645100124820238 0.304188648546569
99.85 0.7674928548634543 0.2944452343807098
100.2 0.7994254679047488 0.2656604571654617
100.55 -0.19484607751463257 0.3176153711479217
100.9 -0.9538134158368672 -0.7320650004844971
101.25 0.1333271222726533 -0.24173084271864131
101.6 -0.7911536784331477 0.4410295742046413
101.95 0.8878672138865387 -0.2923306940450652
102.3 -0.340402436909929 -0.4782241633573876
102.65 -0.1266620446399045 0.6185199801024908
103.0 -0.9626010804098428 0.6774544252469052
103.35 0.10467760675598714 -0.7748218799584812
103.7 0.9894312467233184 0.6991085927191698
104.05 -0.6209955062814736 -0.2675768528367437
104.4 -0.560268428211528 -0.4991347384118163
104.75 -0.2795358756408539 0.6415356005906236
105.1 0.41363150655710457 0.9448469711890661
105.45 0.7473930911624771 0.362326405061566
105.8 0.18268161210028278 0.09958524658673595
106.15 0.6145215997296412 -0.8502613275924438
106.5 0.9452791617050826 -0.30151257222708217
106.85 0.09100913527876786 0.7620966718662274
107.2 0.5530076137664082 -0.8959851507224144
107.55 -0.6867882051066543 -0.12845695999142848
107.9 -0.33741994483262805 -0.255072935568057
108.25 0.4880693355714081 0.7627707354187827
108.6 -0.6469488875825589 0.741514094469899
108.95 0.590695939509642 0.1678327096128489
109.3 -0.9526653311877298 -0.2314297945234136
109.65 -0.5103375460596553 -0.30733469566513927
110.0 0.7740967452693497 0.2857176323309141
