!Created with skrf (http://scikit-rf.org).
# GHz S RI R 50.0 
!freq ReS11 ImS11
75.0 -0.30143610460580805 -0.7254466618359403
75.35 0.3856527489811594 0.8886351344002599
75.7 0.6300797862027718 -0.6005432207704751
76.05 0.24983513502712018 -0.19533916870710755
76.4 -0.18830481928154819 0.033397288587510454
76.75 -0.216068298066866 -0.08866773531614736
77.1 -0.3831164441616488 0.17639904335518386
77.45 0.14957919527545904 0.23182252489883504
77.8 0.6163645666174398 -0.7250859903695981
78.15 -0.2720710140085505 0.8839702231571829
78.5 0.16233689560264053 0.8350016993028186
78.85 0.40515303453651375 -0.17589372796906444
79.2 -0.8878175463891051 0.6157640274767542
79.55 -0.5756348864073257 0.2308610823147983
79.9 -0.7958288057012519 0.020273761625366316
80.25 -0.36230600667968327 0.13496125904050404
80.6 -0.6248417677707079 0.26748771612242894
80.95 -0.40299601291167075 -0.18787419228566837
81.3 0.5029351558425923 -0.35936604807898487
81.65 -0.2605738176946095 0.9458619574423515
82.0 -0.4128392448676932 0.971265118954542
82.35 -0.19025673194085702 -0.09454552176894504
82.7 0.8872089598533119 -0.9943443397294094
83.05 -0.7105878010751643 -0.21018273858223302
83.4 0.7941316074146141 -0.4816954589313238
83.75 -0.261782504309239 0.7460805239627621
84.1 0.12145161695730167 -0.2114866848809862
84.45 0.322610326581946 0.5297277301742043
84.8 -0.6866854391893107 -0.5747460408189335
85.15 -0.9488261553352861 0.40832808019727085
85.5 0.963540752778717 0.16177557109657714
85.85 0.9965783874729475 0.627305573772607
86.2 0.7745249821517186 -0.393728521678933
86.55 0.125445499901784 0.48011531899413784
86.9 -0.14962937912570795 0.49443215670214147
87.25 0.7745622663877456 -0.7451378925479339
87.6 0.480962823115334 0.6361241696271007
87.95 -0.24335652460997714 -0.9220132578909206
88.3 -0.3316335103437156 -0.9757099411017109
88.65 -0.7721630680449838 0.10069899487872136
89.0 -0.7939224983494824 0.5087170759029067
89.35 0.4201598439543779 -0.9884905401649589
89.7 -0.6674098856516422 0.6928700297373054
90.05 0.42945222423478735 0.8320469869726426
90.4 0.02960434189807737 -0.14498208464064155
90.75 0.3574911300808108 0.6017240713564032
91.1 -0.9002304556535647 0.9537271690833333
91.45 -0.5747736460505086 0.784027341952072
91.8 -0.4331739591436985 0.8583618136587292
92.15 0.6312743009663637 0.01249997624681809
92.5 -0.22950129290981902 0.1770860697329626
92.85 0.20412892104293667 -0.8613602439804897
93.2 0.9610832006051524 -0.6857601291345399
93.55 0.10605444804863362 0.34620339580440995
93.9 0.4413833186589211 0.3119013429927915
94.25 -0.2609603615224545 0.06035002476404294
94.6 0.8692278782743741 -0.6037986620005278
94.95 0.525324662644056 -0.004699468762128234
95.3 0.7844041605757603 -0.7644824045502414
95.65 0.30647883923255304 -0.6593079246307652
96.0 -0.2300294248986232 -0.4942664000241703
96.35 -0.1260183961971919 -0.8382986758672177
96.7 0.641698170749115 0.7016734924157102
97.05 -0.35251857467792047 -0.7426318969418069
97.4 -0.5080473811535264 0.347225877913637
97.75 0.12410350134049608 0.6528106421973501
98.1 -0.4039450573860255 -0.5524540786882581
98.45 -0.44885603981320066 0.15143040403509267
98.8 0.5516410843314512 -0.06651219043369738
99.15 0.4743303886445325 0.8707174670388282
99.5 0.5652512185037963 -0.2882213541489036
99.85 0.9126149845121234 -0.5427580944264716
100.2 -0.8558299332190595 -0.6377078627492667
100.55 -0.6079980365823106 -0.026101152019402996
100.9 0.7125441014670386 -0.511661417789828
101.25 0.4810780779562296 -0.1253259809562728
101.6 0.044465334227831166 -0.6062622728643818
101.95 -0.278255307382832 -0.3781691792542663
102.3 0.36435607557293337 0.6106554279026752
102.65 -0.452624096121617 -0.9398600471636078
103.0 -0.806836183330568 -0.33723219939507976
103.35 -0.9426153222995535 0.7646052134293573
103.7 -0.34990080501700094 -0.9916918221245226
104.05 -0.7500404471560289 -0.5576462914639246
104.4 0.8045921318580314 -0.3529372948594589
104.75 0.13456347725179607 0.5746202629198107
105.1 0.18100337713681403 -0.5584349122934307
105.45 0.23890860945308345 -0.2628729129265621
105.8 0.8777852228066985 -0.7469675719270861
106.15 0.9262949912871479 -0.5009051941320903
106.5 0.15969148832928548 0.32414188658014376
106.85 -0.0669919900572773 -0.6955886593932832
107.2 -0.5912553541747583 -0.2623020844826818
107.55 -0.5018794203866181 -0.05393877427553062
107.9 -0.8973053980671122 0.643436805287942
108.25 -0.48300208734407457 0.030227078646877237
108.6 -0.6548989974605037 -0.21296976353659325
108.95 -0.5271507115226255 -0.40126603939329364
109.3 -0.1835075177594665 -0.44159148690925965
109.65 0.49002730578130094 0.8183806288716862
110.0 -0.06323365102369638 0.37287403611503134
