!Created with skrf (http://scikit-rf.org).
# GHz S RI R 50.0 
!freq ReS11 ImS11
75.0 0.13267252706854982 0.384138847878432
75.35 -0.899070130270937 0.6631898526933309
75.7 -0.9622858932740737 0.2743560346692604
76.05 -0.9265529833106969 -0.01709645347416311
76.4 0.5337812406515028 -0.4879895397017695
76.75 0.28325616923414465 0.437971799235932
77.1 -0.7992101595938765 0.28316986008743017
77.45 -0.8850411474904285 -0.17856575248864548
77.8 -0.7431230137511828 -0.2518778111237765
78.15 -0.1733888833338657 0.006233595834921779
78.5 0.674487370266944 -0.7616662033239763
78.85 -0.5166846692680429 -0.28908530846238145
79.2 -0.2554429743388975 -0.48609519416467806
79.55 0.3174614149099615 -0.5765472876726703
79.9 0.17512810040808935 0.044025748190397396
80.25 -0.06256355166549565 0.08136705582741244
80.6 0.0199102827758062 0.6090245805565278
80.95 -0.4831435442352632 -0.46094251694062893
81.3 -0.680416374427032 -0.2356827258074805
81.65 -0.9219734057462496 0.6061201177105091
82.0 -0.8927879849912093 0.7607134005033966
82.35 -0.14072284805451862 0.6027486978204568
82.7 -0.8628061143183434 0.5093087067920061
83.05 -0.5236779502140116 0.897147759669304
83.4 0.20371835838852093 -0.9030027732177939
83.75 0.6078380639724255 -0.07555916281430242
84.1 -0.2898047335478666 0.9381029291511962
84.45 -0.023936497462164974 0.5762832599692198
84.8 0.4990817695951617 -0.2275899501102172
85.15 -0.22075633619069968 -0.6820001791816095
85.5 0.6010848899470969 -0.47921060803234306
85.85 0.4866710797013527 -0.49740170767324554
86.2 0.32786964011786623 0.9095960712394464
86.55 -0.7462713153101332 0.8895611745260621
86.9 -0.30780394065744776 -0.41809305465346647
87.25 0.8601944684385605 0.07681260930864409
87.6 -0.6568673985309204 0.20522419749826581
87.95 -0.8375690045266448 -0.5199995525446124
88.3 -0.1274070235054232 -0.20958273420635876
88.65 0.1329228512170686 0.2844860734206607
89.0 0.47280450523156436 -0.25597111402426265
89.35 -0.4632549337244174 -0.2815249683528842
89.7 -0.7216272705630769 0.017129719040912095
90.05 -0.06584980423207498 -0.17538197701442915
90.4 0.9272987869394707 -0.6905191242860735
90.75 -0.6010121341239543 -0.15856126069938603
91.1 0.92095608634078 0.9492458426735881
91.45 -0.1192627638656163 0.34513695111085685
91.8 0.875317289918472 -0.7588809768664826
92.15 -0.030612455518264525 0.7260634812138562
92.5 0.6963612142257443 -0.7895548507949506
92.85 0.7196502351446961 -0.7973640624765395
93.2 -0.47594778150353334 0.057775161309233436
93.55 0.7631991146535413 0.4020735425707287
93.9 -0.6673475378636502 -0.3196142419506962
94.25 -0.2368766909136666 0.8047215515663406
94.6 -0.2872229803347812 -0.59029399027878
94.95 0.6914722142014926 -0.7630223793981719
95.3 0.5324172670172536 0.22021009840901762
95.65 -0.08194017602896397 0.16128196982625043
96.0 -0.7870528230467413 0.14930098009394244
96.35 0.26462147976661443 -0.3411557203927882
96.7 0.8551716293973826 -0.003072377923103886
97.05 -0.4721651624384908 0.8054395297006476
97.4 0.05369417909357499 -0.3131613220782692
97.75 0.8668683894524802 -0.8190522044215314
98.1 -0.16944511856604527 -0.029636058560786882
98.45 -0.8108429295674213 0.9106285368715037
98.8 0.8882799101258712 -0.9939158890772666
99.15 0.13851080868163512 0.16088920354120662
99.5 0.2722534060386559 -0.8716014440045756
99.85 0.7590886040554305 0.8134937312914152
100.2 0.6893040676054294 0.7095175824347817
100.55 0.7171748445523669 0.3642738695900207
100.9 -0.28013448840354593 -0.9405741515761883
101.25 0.5335341949330366 -0.25313008637423473
101.6 0.4096519710061435 0.7368048696449199
101.95 0.29461922691916187 -0.3944732384234362
102.3 -0.21584641348883604 -0.9655689493864978
102.65 -0.46177609154818233 0.4319404687648494
103.0 0.37040622954941504 0.27201323151112056
103.35 -0.2955834302029452 -0.5218996125653166
103.7 -0.7248858590608185 0.2352869455918487
104.05 -0.2339471994225497 -0.15015802371263587
104.4 0.20741445056577712 -0.790121392916965
104.75 -0.6868583648546966 0.3514386628497841
105.1 0.38314840880813494 -0.41778410044444314
105.45 0.06987472433407182 -0.4588348361250729
105.8 -0.4476769682114259 0.07826694439775861
106.15 -0.08281022444391528 -0.16457638166206712
106.5 0.16786451350208198 -0.5573634362252402
106.85 0.4316704964402087 -0.37759638810890195
107.2 -0.3504553226902043 0.3948616555661384
107.55 -0.5039085271234041 0.698752738532747
107.9 0.79779058307223 0.7758469140272566
108.25 0.7500773346002538 0.642657137833683
108.6 0.2155992629689245 -0.08823107578544098
108.95 -0.14363040331515586 0.47971765917922093
109.3 -0.45520516403450495 0.8561907074498702
109.65 -0.7743430253625763 0.01998767870231566
110.0 -0.786797459350908 -0.27539771541948643
