!Created with skrf (http://scikit-rf.org).
# GHz S RI R 50.0 
!freq ReS11 ImS11
75.0 0.461372340500918 -1.2141256873383215
75.35 -0.3346487817050914 1.1720545737207493
75.7 -0.8890897311187356 -0.1095741102404042
76.05 -0.11332941263831309 0.5412890325343542
76.4 -1.914189829861809 1.4321769919325127
76.75 0.03764347397643286 -1.975501097059413
77.1 -1.9699864411322365 -0.1597315378668709
77.45 0.9638603988575594 1.4402458534007447
77.8 1.6451355919481987 1.7667508168924764
78.15 -0.9570959255580305 0.6952839968327833
78.5 1.9320304766143845 0.15572123732211507
78.85 0.8002989725729273 -0.22962513366691262
79.2 -1.427552996660482 -1.014231598572052
79.55 -0.34558415791604613 0.7350026415922324
79.9 1.8848307803815225 -0.18152112890192162
80.25 -0.6789540435252204 1.0613742854795571
80.6 0.9987679797022699 0.7984698522361526
80.95 -0.25234812007409335 -0.16999056207688845
81.3 -1.0377074037693204 -1.7927192230895375
81.65 1.213729840001009 -0.7613578103133878
82.0 -1.8787948917828325 -0.5418644066052329
82.35 -1.6702331914985966 1.7434182459161196
82.7 0.5951514446933377 -0.21628497894612764
83.05 -0.7701505748622828 -1.3092844189524686
83.4 0.9615842510892283 -1.6198471941948895
83.75 1.908463529655454 -1.3513593488839648
84.1 -1.2625163867459905 -0.7963973221018379
84.45 1.8765117803139857 1.870791917087956
84.8 0.3850624507932552 1.3889580126204408
85.15 1.4937165070099794 1.610247044653836
85.5 0.55080151983895 -0.20837551088893624
85.85 -1.6457856787806056 -0.9072909682041326
86.2 0.9442105619603209 -1.2148649152956361
86.55 1.1887014427627163 0.40785743720477097
86.9 1.0349942876819291 0.20296369252456214
87.25 0.49640390907657306 0.37363333159919065
87.6 -1.5992421531682068 1.6336572235042564
87.95 -0.694419931867297 -1.422846021185142
88.3 0.6919874952461456 0.17025914364620975
88.65 -1.432654376152834 0.3519235070917719
89.0 -0.5794139932454425 -1.71000551803676
89.35 -1.1530455933833785 -0.8838854337716899
89.7 1.8636288618337775 0.935589026002595
90.05 1.177764159452574 -1.3140953263410378
90.4 -0.8409841487999739 -1.2023198310118857
90.75 0.08073861516056002 -0.4223089137921274
91.1 -0.012593749571470525 1.734843325253717
91.45 1.4747428731021226 -0.10015648712631897
91.8 0.06399767930144229 1.6295009308194635
92.15 1.9009191116396882 0.04675117840561427
92.5 1.9983028430064729 0.9640366244803191
92.85 1.2050518420147518 -1.945143262953636
93.2 -1.3008673016949794 -1.4885112731199053
93.55 -0.02872750382456557 -1.2929420654330999
93.9 1.3816475342581698 1.0477495508407837
94.25 0.4363084846270944 -0.215238427123857
94.6 1.2591350401776609 -0.6219374311673169
94.95 1.0543277435504241 -1.5644518324510455
95.3 0.5331938220538182 1.566270457291528
95.65 1.9564942140111308 -1.4355699645891749
96.0 1.6480588096413804 -0.2588898950218037
96.35 0.2161958073523378 -1.4412943253881552
96.7 -0.8942136481960379 0.13322146702734328
97.05 -0.9680624901806891 -1.4284445634295024
97.4 1.685980233381215 0.353928388326354
97.75 0.5730151776612873 -1.7058364332837863
98.1 0.5878630812772689 -0.4093269453803612
98.45 1.6233336981918276 0.467631758711454
98.8 -0.19251941368539294 -0.34154465744057916
99.15 -1.6262360905425917 -1.4776545438115032
99.5 1.7105827752670204 -0.43164230036236795
99.85 0.2808140773769843 0.6449285593831342
100.2 0.621685652273444 -0.21109641144625568
100.55 -0.8766114177157593 0.5542521475579529
100.9 -0.5452982171312963 -0.23596890253682368
101.25 1.7689524617440386 1.13484940310369
101.6 0.08301258689624813 0.7925519434175157
101.95 0.2640163532250108 1.746918977504754
102.3 -1.5118361557869364 0.9597783766850165
102.65 0.8491930841827271 1.7820286712997584
103.0 -1.334251320009078 0.4366396824497012
103.35 -1.153122098742466 -1.2008806107561938
103.7 -1.4762872801876652 -0.7781371235318679
104.05 1.7524844783676428 0.7746259677505036
104.4 1.6396963821017265 0.5695335414019769
104.75 -0.45399237078667287 -1.5918917532378676
105.1 -1.8431050101865378 -0.6824975819566244
105.45 -0.787591863753974 1.392572106405492
105.8 -1.085128543958152 0.906426861999972
106.15 0.3610553949457391 1.1971888211210806
106.5 1.0138909670901262 -1.1491187106360221
106.85 1.1929195089203164 0.6583495416715475
107.2 -1.2878363668835178 1.0768438248229675
107.55 0.8811386837978801 -1.4076041051102552
107.9 -1.0007417530060008 1.6935736502892875
108.25 -1.544896012908755 -0.573861156928686
108.6 -0.20737445034699942 -1.7094574978887223
108.95 1.9229699321708202 0.18787546106238207
109.3 1.9209632136213521 -1.1534241843301718
109.65 -0.7157074258998408 1.6817919248436284
110.0 -0.0820992880738225 -1.0385089417857727
