!Created with skrf (http://scikit-rf.org).
# GHz S RI R 50.0 
!freq ReS11 ImS11
75.0 -6.649288921724933 -4.510178584927637
75.35 1.1080090472980508 -7.145273410950642
75.7 -6.17007770821761 2.556319051359992
76.05 4.860203783652722 0.49860729784671953
76.4 -6.286642977120298 0.43731697547942794
76.75 4.33150485980992 2.7144552333588816
77.1 5.123483877069436 5.068999773202728
77.45 -4.489475181216896 -6.051195026670408
77.8 -2.8191948143562637 6.556679454538244
78.15 4.763687651470843 3.933497113404769
78.5 -4.714873434293475 4.728015135195575
78.85 3.7842273769929555 2.026420143597532
79.2 0.5647711527897297 3.0594687190413232
79.55 6.307500991532027 6.838146906692762
79.9 -3.9692724952594407 -6.0694371485725505
80.25 2.5297158066446617 -3.2206304053987473
80.6 0.29688202219200477 -5.108294741200833
80.95 7.451922683318706 -3.9998948339295186
81.3 1.1887176897198621 2.9808883601056912
81.65 1.2061125879217638 -5.992022037644237
82.0 -0.49560440254517246 4.852542986739252
82.35 -0.471691623263526 -4.527987031361823
82.7 0.9731184776458015 5.8224865415364295
83.05 -7.626038687292274 -3.322179003576373
83.4 2.8317499896577427 6.9669989026383625
83.75 -3.242605570679748 -5.194485952631753
84.1 -7.115990503084674 -6.196615679861516
84.45 -5.807008553471162 1.2482022873824725
84.8 7.829191220312545 -7.5534772844756315
85.15 4.1586525525571325 -2.6006703062099206
85.5 5.508518382794685 -2.480156582968359
85.85 -5.091586281274509 -2.50192795531137
86.2 4.752036675665895 -1.8692567996905929
86.55 4.7071612798560185 -2.428961693659364
86.9 -6.44933676119164 6.887275252853188
87.25 6.677481204887478 5.7394167987813365
87.6 5.962855206248992 -2.967673992135353
87.95 4.012059223932953 -5.957460813023861
88.3 6.286696791884314 3.636993570311464
88.65 2.726415293145944 3.049663751299539
89.0 -6.248561665215412 -4.6696942423369325
89.35 4.067723822378218 1.3866268896476424
89.7 5.638569311445265 3.1813304885138276
90.05 -3.0074280721676008 4.337360560875512
90.4 -7.513261158112318 -5.262130473903927
90.75 7.962648227898953 6.620387441422761
91.1 -4.142087764363117 2.789764600076124
91.45 -0.9476512369842709 0.5617725297836103
91.8 -6.770921534421003 4.932932990419218
92.15 7.7031802418590445 -3.667812511826126
92.5 5.104265288407788 3.0198248368154985
92.85 4.804728750063907 -1.4906553363476593
93.2 1.3390096442509503 -7.257264040682438
93.55 -0.673912397180759 -3.341531738799471
93.9 -4.3899786127711415 5.075405878007603
94.25 5.305382422658809 -0.7595905244488801
94.6 4.4244707608308165 -6.080597099710463
94.95 -7.481886678127269 -1.747485402182683
95.3 -3.2078610495649524 -1.5762986187303678
95.65 4.30055942619615 -7.517588688059018
96.0 3.5991023577318373 5.895007489029794
96.35 2.012938272856003 0.0962187563565049
96.7 5.782174174595514 -0.9504856183655619
97.05 -2.656353758066466 -0.8495791139740358
97.4 -5.350920058769839 0.05863505852483364
97.75 4.709490978495516 -4.153406756345621
98.1 -1.5744429760509764 0.14111999450667945
98.45 -3.762309617714667 -6.72939782057882
98.8 -4.758307864628261 -6.8206172290566585
99.15 7.635085838372872 6.328087035590256
99.5 5.981231606520245 3.0769490217235873
99.85 -7.3334688562971735 3.2453139926689847
100.2 0.6250898958836402 -1.4575872442151159
100.55 3.589024277155181 3.923075196979079
100.9 -0.9374361809433935 5.59405416628587
101.25 -3.027144406929514 5.9956099686576305
101.6 -2.2282909538986218 -6.0478668691895
101.95 0.8518768153940837 -3.751168055293512
102.3 -2.53578534073627 6.52985918313774
102.65 2.1510330388135426 -4.909171218624744
103.0 1.0305000459824853 -4.455342819279002
103.35 -4.078261732788544 -6.838489369455129
103.7 -6.259970971731763 -1.8530391495740073
104.05 1.8062383774747204 3.5346423919565186
104.4 -3.437811976842683 -2.862463107362638
104.75 2.13761529393253 -6.782811901056082
105.1 -0.9023762167508895 -7.697730278844475
105.45 7.184006223602056 5.3298914631193135
105.8 3.7676085674597246 -3.1128054112926
106.15 4.840559361244702 -4.464047334248054
106.5 6.249850805691967 3.1187100691671716
106.85 2.6967465234005665 0.022063541387263186
107.2 -5.410930672994338 -6.788436293138695
107.55 6.706644590227203 4.57602225166165
107.9 -7.031782388579858 -2.328026918387309
108.25 -0.22297661940780067 2.7654162703503644
108.6 -7.050896318606892 3.0149068052416563
108.95 -0.16819857787866788 1.6283377685871354
109.3 -1.173254940305597 1.1180893649591503
109.65 -5.83782205304804 -5.972001694669567
110.0 1.9461911924579578 -7.478062312218887
