!Created with skrf (http://scikit-rf.org).
# GHz S RI R 50.0 
!freq ReS11 ImS11
75.0 8.532337379864703 4.212650195040902
75.35 3.7033309942298773 -1.0268433533835473
75.7 -5.367034165843025 -2.995877114633858
76.05 -2.969114951688782 -3.6228559162289615
76.4 4.970544209582052 8.910283776463624
76.75 -7.059698735988801 -5.133567882609615
77.1 -0.4240014733570223 6.6148887226116475
77.45 -1.5538797676261678 2.2212756994665064
77.8 0.5486479310393364 -7.14846253503223
78.15 6.4554694267387225 2.501216391590492
78.5 -8.340368915265788 2.6008710868010576
78.85 5.17294426336969 -6.51331749424113
79.2 -0.7579575059278527 8.653198047456161
79.55 -3.037584889767489 2.062021288765338
79.9 0.824065041087904 6.10578601299009
80.25 -8.725383489084743 7.076333900498374
80.6 -5.713170254175795 5.783373232398321
80.95 -3.4783821574687916 4.584600391527765
81.3 0.21860630878947807 5.389385011296241
81.65 6.957821674189775 -7.2075329192984166
82.0 -1.1717279884900118 2.778290194802086
82.35 8.639380179091356 8.347194787649133
82.7 -8.487080686023726 -4.447994878960367
83.05 0.6096215446532443 2.3624596263075945
83.4 7.932605288298884 -3.8146561346483736
83.75 1.5428581320185542 -4.6948914442288485
84.1 0.8287524536043434 -4.902155665963803
84.45 -1.2227815055567144 1.563287267950563
84.8 -2.173111328625607 0.6174292385906806
85.15 -0.2843190156711277 -5.08714883317545
85.5 -3.321612024238347 0.03535618225094095
85.85 -2.659665195648423 6.286023958407844
86.2 2.6003602146713636 1.5667952675969632
86.55 -5.6908818432761015 -5.319898695609856
86.9 2.4386871904740595 -5.18470505976312
87.25 -0.14886264473033273 -5.548150482713296
87.6 -1.5056739055884785 1.5817575300558995
87.95 -6.924308827983677 3.722147333911672
88.3 -2.378089835732502 8.72952049690802
88.65 1.5213586719614096 3.232332191070931
89.0 -6.820903424373144 -4.176677124908721
89.35 0.8364842967920925 -6.5952184185189076
89.7 3.673387986460739 -2.671400147736642
90.05 4.509352634108776 3.971829138225985
90.4 0.0694868950124985 5.018953827306972
90.75 -4.089903527410857 8.296461317771724
91.1 -7.818957684660978 -7.997725846834992
91.45 4.618215303949654 -1.1470038756185583
91.8 2.7746416441617625 3.9922391008992832
92.15 0.28038924978534796 -1.8804862058835743
92.5 3.2773682733893534 2.6670671419550738
92.85 6.401889644910847 -3.4536431711653517
93.2 6.563161901284239 0.6462400385470546
93.55 2.6966502181311296 2.075433935493171
93.9 1.6746458336991354 4.9390675170488585
94.25 6.516077577217923 2.6348996575320696
94.6 0.13942558317809595 8.0606296874476
94.95 8.03716968716446 -3.0398586063386563
95.3 -0.9697816447410597 4.32257682521247
95.65 1.7418705073613994 2.741291115637633
96.0 6.371365915720947 8.429790668310059
96.35 5.461041062927279 0.332041667868916
96.7 0.5713078507830214 1.7439178921758907
97.05 -1.4301118011314644 -8.242294196127103
97.4 -2.1303060276357177 4.00544670119563
97.75 -7.451640804904038 -2.70822742063823
98.1 -6.285402366913393 -1.6010866439862506
98.45 7.174319076965391 8.57314727924397
98.8 -8.010920513255432 0.7538676172628191
99.15 1.2091502820836142 -3.13902597686442
99.5 4.819766672121008 -0.9781614023818919
99.85 6.5764946004319755 -5.109000106044736
100.2 6.558224259861964 3.5106615807660075
100.55 -3.553345557615521 -8.453005238976226
100.9 7.267582649180353 5.453906004403501
101.25 -4.026852002053497 -3.5384335341310114
101.6 3.5300116975595754 3.5080138805291323
101.95 8.487011204625087 8.20838894648383
102.3 -1.8723108122701488 2.60286275662704
102.65 8.22036496382438 4.127248582123524
103.0 -2.2145313650134675 -8.40341508298262
103.35 6.9763286015282135 8.564255330050736
103.7 7.422109577387422 2.6959024247695806
104.05 -5.954950504503362 -6.51592220896578
104.4 -4.170814634140711 -5.084374887662526
104.75 3.9570269411481283 -1.7813013979125887
105.1 2.514214657284053 8.76148786228606
105.45 -6.128208315094122 -2.8146801908132453
105.8 -8.704384181314753 4.803478609879077
106.15 2.119449502793474 3.68983130549787
106.5 -6.562592498027658 -4.015658155954748
106.85 4.4724118002021624 -2.721506258032929
107.2 3.318948476252678 -8.363421051225316
107.55 -7.825245923309867 -5.031709230481406
107.9 -3.404970770582536 5.0491881286091
108.25 -7.38735613442859 7.672838887724112
108.6 -5.184019104253982 5.562998935156148
108.95 4.036651221153634 5.110093700354598
109.3 8.016870753771538 0.68660585510561
109.65 3.481002800572181 8.293469438443006
110.0 -1.3073264826661433 -7.529725994976008
