!Created with skrf (http://scikit-rf.org).
# GHz S RI R 50.0 
!freq ReS11 ImS11
75.0 1.3598762658007661 1.4111753720552476
75.35 -0.54155541804385 -1.009168132859683
75.7 1.7298913582773583 -1.1406009492085247
76.05 -1.2619589988430646 0.05279999416898473
76.4 0.5510488438194536 -1.9797768818296055
76.75 0.55849834990175 0.6395327348871662
77.1 -1.798223623817596 1.2216136750309499
77.45 -1.863595551210755 1.26374437837846
77.8 -0.9895797936069819 0.8697694655767734
78.15 -1.8789094092121275 -0.9813492962997787
78.5 1.5194620856891365 0.26736470829337033
78.85 0.13746733422698876 1.967390826115889
79.2 -0.6998880557836249 0.16155029680898947
79.55 -1.238941329021995 0.18557343608934573
79.9 1.7552388658222258 1.302758952921856
80.25 1.395969655570883 -0.9149844035712564
80.6 1.9797643442508939 -1.7134624843176742
80.95 0.2570983416654369 -1.9120644709941783
81.3 0.1818014233038876 0.589165933239705
81.65 1.2537786296524658 -0.1766508628191783
82.0 -0.26984774611851536 0.0059701171910568895
82.35 -0.8582685707462936 -0.09962456470383474
82.7 -1.74749317019063 -0.4979610041019513
83.05 -1.938282634421808 0.02938621131093333
83.4 -0.0439028543665243 1.4929145676121713
83.75 -1.4463748726627799 -1.4096445243781588
84.1 0.1574447189951731 -1.2087695693651863
84.45 1.5840760787033257 0.5327372570091917
84.8 -1.149208781517884 -0.4210182074907829
85.15 -0.7976569646494007 -1.9963394562084331
85.5 -1.6302227287312565 0.4927201324495081
85.85 -0.3122214670633028 1.3097463672089464
86.2 1.4729448552303674 0.49983508117137765
86.55 1.34113285999462 1.7545188738884425
86.9 1.0005743001124672 -0.9195977521031482
87.25 -1.437941089137421 -1.090919424300552
87.6 -0.6172736786416007 -1.9994367452396578
87.95 0.3473681556493977 1.1486921628325604
88.3 -0.12443408268001699 -1.9963596916686348
88.65 1.5483373407384207 -1.4850740837265959
89.0 0.22745102288698105 -0.2299958564574638
89.35 -0.1299454853225881 1.5081880549643962
89.7 0.4473017770151504 0.10947626782338293
90.05 0.8653950871970544 -0.1121985000966439
90.4 1.7162692340870378 1.3824003259542499
90.75 1.1116234263721485 0.1587791864909769
91.1 0.12860178299632885 -0.6999055817992708
91.45 1.6330374508089363 1.3668342200103534
91.8 -0.8961154189355023 1.571894866788544
92.15 0.9695219927361998 -0.32361488707079955
92.5 -0.058114727088911966 -1.9721328768611852
92.85 0.17920358606192233 -1.3604683342804584
93.2 1.3862256671457125 0.729322708777091
93.55 1.2086870678099522 -1.7121800951434487
93.9 -1.9547608824374278 -0.07833255593043065
94.25 -0.76020595810779 -1.9973110084625958
94.6 0.9657461459649257 0.10036036721187536
94.95 1.5975304606380427 -1.2361802734644476
95.3 1.0866611182857318 0.08704462131157253
95.65 -0.1842948004211893 0.35607923604216474
96.0 1.320539927225263 -0.5178531003378226
96.35 -1.721674004098023 0.06401254917253762
96.7 -1.857483871727835 1.8188483968931437
97.05 1.9603193700727477 -1.345075558989984
97.4 1.5819246764593236 -1.0102646540725262
97.75 0.8199099052308019 -1.6205669128000362
98.1 0.5200130293437875 1.2145963792216254
98.45 -1.1669359939735564 -0.27245648310645043
98.8 -1.3126902752990706 -0.4038734089044995
99.15 -1.660722397609383 -0.4596225724474512
99.5 0.7066588898694355 -0.7117076481663176
99.85 0.25230575403891065 -0.6374923744578989
100.2 -1.0554009386039716 -1.5495747630028083
100.55 -0.3934074335147466 -0.028562186839044212
100.9 -0.7558379806725517 1.6524133068156766
101.25 0.30086110331499505 1.9573839352550504
101.6 1.4041939286936662 1.8416043862213307
101.95 -0.7906315349434427 1.4797829286773876
102.3 0.6540575175524181 1.6922216087932673
102.65 1.590646437322322 -1.259167178612607
103.0 -1.7878414425416076 0.140322330308293
103.35 0.9065170812215024 -1.4553971257004914
103.7 -1.5969016323332768 1.4639478474877001
104.05 0.23711507695310585 0.010401882813965813
104.4 0.054942517657206036 1.4105594122342522
104.75 -0.339440490851707 1.2531926345190643
105.1 -1.0641869498439807 -1.6395962665329233
105.45 -1.7340102862926594 1.222146893910498
105.8 -0.7635159268240739 -1.5836991085361247
106.15 -1.7186412390499584 1.169656111365319
106.5 1.3521943685582936 -1.7939843886660385
106.85 -0.10050177651822834 -0.1125670050064751
107.2 1.391110645218474 0.5171523966066291
107.55 -0.4682535824628129 1.5613029389427333
107.9 1.5729132599031175 -0.06932458309998157
108.25 0.6184563510547014 0.14692666896824758
108.6 1.1607099894406199 -0.9938980899566889
108.95 0.5445591202417979 1.807498893337907
109.3 0.3479110813780504 0.7329639903745218
109.65 1.4620847158822103 -1.5651238266782936
110.0 1.0375322937846416 -0.7752717342065205
