!Created with skrf (http://scikit-rf.org).
# GHz S RI R 50.0 
!freq ReS11 ImS11
75.0 -2.959453710349756 -3.385808171858786
75.35 1.8713002572528588 -2.485994027790067
75.7 -1.8055367348435087 7.5629023010014915
76.05 -4.201752894476593 -0.5204002677801984
76.4 -3.688745585845192 5.279387582838906
76.75 3.946548527482996 5.364009066795997
77.1 7.523762724152132 4.550857221194105
77.45 -0.950130334198283 -1.4720819796816471
77.8 3.933898304857715 -6.526288700857275
78.15 6.981064039508505 0.9273587604501188
78.5 0.003775725142313391 -6.591068334685659
78.85 3.741962412753905 -3.838089709149928
79.2 -7.174452063933254 1.7396955615683822
79.55 -3.2276535356882654 2.3326679800155663
79.9 7.321361277148503 -6.901220030843678
80.25 0.964501684899016 3.291204523216619
80.6 -2.2737732548523084 -1.1132440146614755
80.95 -2.9097537895358325 -6.072192731740124
81.3 5.016298870790935 7.789699004915635
81.65 -0.33493181796493765 0.1202617394401404
82.0 2.4916191242261707 2.072784406576126
82.35 -2.4630412606206438 -1.04671163138811
82.7 -1.9443450491668148 2.830549493130949
83.05 6.969024528737426 1.3894440119203448
83.4 -6.280640425047366 -6.707471932165104
83.75 5.119839825391802 -5.080025430822971
84.1 -7.371867897287572 1.473688303048224
84.45 3.148440648020985 -6.355114642327379
84.8 3.0736997622581494 -7.088364042208822
85.15 4.703535909991658 -1.8792119661677944
85.5 5.064866655166259 -6.274645985156194
85.85 -4.124918889007269 -0.04226197034946644
86.2 -4.976426793102128 3.017663638499137
86.55 4.489875058010039 -2.059170849852917
86.9 -4.546887051026706 -1.3439235961046254
87.25 -5.199594338845104 -7.948486087466966
87.6 5.965793539095449 -6.612177003624433
87.95 1.421283879547719 2.931500920345105
88.3 4.297436312337972 7.062852436283261
88.65 3.453042274331837 6.9279515062304675
89.0 -5.4514281816867545 -7.774621452147951
89.35 -4.723713391358556 4.0482455035534475
89.7 -1.4401299846941633 0.2580204877735017
90.05 -6.883328418382147 -2.575245329278239
90.4 -4.054579817210687 3.551523017930627
90.75 -7.29082314131781 0.8522498524454036
91.1 -5.762299479298962 1.2028885489807752
91.45 5.703978274812723 -7.702955622820724
91.8 -0.09954884348969983 -5.369721304639009
92.15 -1.9565290455106545 4.832554992288578
92.5 -7.430064607673636 -6.170107969950553
92.85 -1.2291339797238603 5.438740839596289
93.2 -7.608642124243234 -4.5011413079639375
93.55 1.846783905280537 -5.986812350316413
93.9 -3.8780648840786043 0.38457717735312436
94.25 -6.483251797248284 1.8768262481000786
94.6 -2.3222984024876023 -0.08053923009203778
94.95 4.217792761544112 6.926406481497727
95.3 2.4070869254631297 4.71509316814331
95.65 3.832141894252306 -2.569590795752383
96.0 -3.839314583588335 -5.033651591706496
96.35 0.47746706960478313 -3.8164930591975157
96.7 1.0554011252971947 -0.11387756121545856
97.05 1.6776694114867912 -6.322985382257073
97.4 6.144300765466422 6.007855652678716
97.75 7.945267827699849 -4.142274182981581
98.1 0.8638807747972805 7.9484600347969465
98.45 3.207454632235141 -2.9657796302095942
98.8 -6.846054504016793 7.3135207049892035
99.15 4.465046637875771 5.502078248978544
99.5 -3.056034387306939 6.722532375496835
99.85 4.80904890516325 0.00763702749817341
100.2 2.4155174279998626 -3.4831767071657698
100.55 6.34831783249005 -4.23723690251418
100.9 -0.26680464539621696 -2.5033854400410043
101.25 -7.514218358226634 -0.02521793258100047
101.6 3.987183728836671 1.1108010749846766
101.95 0.38967791258228424 4.971944276349703
102.3 -7.066167976537145 7.957824560173492
102.65 -1.662192098609479 2.5859201138054484
103.0 -5.899275515957612 5.964129508422401
103.35 3.9032977593705755 -5.522876694277823
103.7 7.350874056990126 -7.130283509312333
104.05 -7.635178767564536 6.937473229577359
104.4 5.8367926777146195 -2.62816621635673
104.75 -2.34205744617816 0.5682213549656048
105.1 2.3090223213944796 -4.3454773909707445
105.45 4.180817059982413 -1.2850767598356256
105.8 -2.8860082160487686 1.5206499914213953
106.15 0.594647038257234 4.798648254722211
106.5 0.7819807001649473 5.627200730215403
106.85 -1.6982787520963765 6.503393777451624
107.2 -0.5114986234464052 -6.790668599657074
107.55 3.464520063535616 -3.7199996003211115
107.9 -3.3576702965726 -0.171929695573251
108.25 5.771678985131256 3.76081329758194
108.6 7.225132811243116 -6.4461579971067575
108.95 -5.14967127112368 5.1277094054941905
109.3 0.232877400723023 -2.539590180612695
109.65 3.783265797255286 -6.95403852568624
110.0 2.977191488582301 5.973812674491031
