!Created with skrf (http://scikit-rf.org).
# GHz S RI R 50.0 
!freq ReS11 ImS11
75.0 0.5139847071418266 2.812657826054835
75.35 -1.481258797855939 -1.8718263882355588
75.7 3.5749861394961817 -1.973362337413901
76.05 -0.6327270196796908 0.10868266245574176
76.4 0.7257449169221069 -2.077284741084041
76.75 -3.7693177345929936 2.1088972921480833
77.1 1.4273912586921744 -0.8796561469468216
77.45 3.508631106736499 -3.2833965784739583
77.8 0.5198348988755033 -2.5372162579997948
78.15 1.729870927994205 -0.5276249983009444
78.5 0.19648314237562747 -0.7980111740098854
78.85 2.5159879335353654 -0.39761696496384236
79.2 -1.8338550274529037 2.536554933291619
79.55 1.1923512784201407 -1.266800988057751
79.9 3.6214896496415205 -3.5779630787658947
80.25 0.23656579538686984 -2.519273049936137
80.6 2.5367047836625947 3.5122988589518167
80.95 -0.9984098011721301 -0.961347388176323
81.3 0.6858705087206349 -1.2597023235305125
81.65 2.1714986455152125 -1.3222507800644134
82.0 -0.6875600116411249 0.0019082573692372762
82.35 3.6702886456392116 0.22052895828858698
82.7 -2.586542719258307 -1.5467372731711766
83.05 1.1076273280275064 -1.8699456781749628
83.4 1.3924012296608996 0.7890222831259361
83.75 -0.25511426795681924 -1.8352999623591408
84.1 0.3314505180014189 2.4055252522830246
84.45 -2.3712467698825197 3.4636597416502175
84.8 -1.9892137855365704 0.6778173259326667
85.15 -1.6342392227833882 0.7768207663074529
85.5 2.8572486793105902 -0.10655584817109176
85.85 2.3893021990902072 1.1232621794922757
86.2 -1.1993993031260555 -1.7324334108274346
86.55 -0.48933882471644186 0.5652084760786993
86.9 -1.0494738937789307 2.527047983980781
87.25 1.6008897713471137 -0.5489466277935175
87.6 -0.35414306341724977 2.5956288355809303
87.95 2.3105216955277026 1.024692791028964
88.3 1.8841631640090784 -1.7668261532978207
88.65 0.24322153729131202 1.1079698009105128
89.0 0.5241610914953805 3.9614796077321515
89.35 -0.2248267727769857 2.085822875225068
89.7 2.7108924482845067 0.8283852073619657
90.05 -1.9513691360999603 -0.5244091615272977
90.4 0.3829272851996457 -2.7852051680523324
90.75 1.9667384119807867 0.4219997090273937
91.1 3.6980846718898785 -3.421252122218805
91.45 -3.7395168276658 0.2390937397291255
91.8 -0.21006742911110887 -1.5351383255082025
92.15 -3.3262499236248964 -0.5575406839402657
92.5 -3.87480864058094 1.8578258822523823
92.85 1.5640760607083122 1.1133345740925673
93.2 0.6909217369220135 -3.227680827422259
93.55 3.872015694228203 1.6680935383734647
93.9 0.6877618467163478 1.2458026287062234
94.25 -0.3471296083919002 -1.4336142592918595
94.6 -1.7476273010170331 0.49602133294477646
94.95 -0.8543356129898241 0.09809815144286027
95.3 -1.964655282933581 2.666875736319562
95.65 1.4021521781229174 -3.6709246826131565
96.0 -3.712164890163904 -0.23174623223826174
96.35 -3.955443968246885 -3.9521094183197896
96.7 -2.7815140388636337 0.8104303195794778
97.05 3.2221188705956623 2.866171102611955
97.4 -1.9902511832318321 -0.09198600375788502
97.75 -3.4216971280355892 2.5869939508181243
98.1 -1.128579242780006 0.59764697571703
98.45 -2.048314707380168 3.210689932370416
98.8 2.3941342708743223 1.6713859343417479
99.15 -2.590450523185811 -3.124605517777283
99.5 -0.46214777063875356 -0.43461966291663146
99.85 -3.6155442751851714 2.7553012293311143
100.2 0.015752584561091965 -0.8163729906932833
100.55 -2.804039117486311 1.341344018166784
100.9 3.2786992471608185 1.4098749938231556
101.25 -3.5609022200625375 -3.8362700584077825
101.6 -1.6428048026409812 -2.4309067300927003
101.95 3.4295388410375605 1.4216383463659712
102.3 -3.515436789117042 -2.991026116140814
102.65 -0.03282607455119102 -1.1182487909863985
103.0 -2.4624325524235733 1.6822940713180596
103.35 -1.186062026780176 -2.507067644758381
103.7 -1.6027562200129477 1.3589094276819909
104.05 3.4142393493981906 -3.0999929071819725
104.4 0.12109310499235626 3.568939678218877
104.75 -0.27645086494483895 1.9873117082587965
105.1 0.8612246289341092 -0.217240771385951
105.45 1.742400591771041 0.7916439465170368
105.8 2.470429849843401 3.1524400615187
106.15 0.11902309541884115 0.8666628666141829
106.5 -0.07705288607599137 -0.9393861813785946
106.85 -3.0139152045924895 -2.390947404631988
107.2 2.5151785999527156 -1.8624940122082112
107.55 3.523695446824169 2.320662974463289
107.9 -1.3670221025484333 -3.805255304203456
108.25 0.5574902921951841 0.3208080659398762
108.6 -1.8503250428108906 -0.5631411432069431
108.95 2.362111975242229 -0.11199387950839323
109.3 1.127054071329967 1.4729964493172085
109.65 0.846538897145682 -2.970871921574987
110.0 -2.130842424658711 0.44404880580425754
