!Created with skrf (http://scikit-rf.org).
# GHz S RI R 50.0 
!freq ReS11 ImS11
75.0 0.6228942909767887 4.892391840476284
75.35 -6.026067913021167 -3.352754665334636
75.7 -5.218221808062497 -6.61521942402499
76.05 0.4251708878789551 3.6637553519202677
76.4 -0.12856470835775613 -0.6244906706994029
76.75 -5.1411555665201805 -1.0228310237987805
77.1 -0.35330499668638193 0.5344785503105651
77.45 -6.891304360815958 0.7637627539151903
77.8 -2.3712989055723623 6.219137994570834
78.15 4.459768560941153 -0.046240511523435446
78.5 -3.980855352996519 2.8900319871687157
78.85 3.384051810272151 2.2532950080139034
79.2 -5.204493437005503 6.646669546494974
79.55 -3.2229293875678584 -0.6093729007794395
79.9 -0.9733610800117782 1.9058629737627202
80.25 -1.3571770921586346 2.9988153262460338
80.6 6.39252016677689 -2.6032811279007273
80.95 -4.948827429206995 1.9774976781672322
81.3 -6.884825378161607 1.1414478188745287
81.65 -5.191353720150705 4.221421153959371
82.0 -6.598325246781846 -5.4701786069148515
82.35 4.9261962071222065 -2.771196193220354
82.7 -1.6329986796114462 6.80157461350287
83.05 3.9407332092206966 5.248269827085098
83.4 2.302971713508156 5.56492901162013
83.75 -1.4779090848149492 -5.2054481144332385
84.1 -0.7549451692637081 -2.1788967792505276
84.45 -4.774615795606392 4.360585339897025
84.8 6.827380943624473 5.871739874201123
85.15 -1.7392421555801796 4.836115535987059
85.5 5.965741575197152 0.9315008786265824
85.85 6.350525696151636 1.550319771400949
86.2 -0.7563724381160652 -6.74942252071942
86.55 -5.144822141260569 5.67192176393703
86.9 5.794657846470549 6.762291626484736
87.25 0.7639186016301391 -0.5617608998488905
87.6 2.7288984417774906 2.568055023628799
87.95 -2.8007262423773356 6.82206561296403
88.3 -6.448158152385953 -6.499859201797344
88.65 2.414636643922279 -3.3473710746438625
89.0 2.1767747915988664 6.664426177344346
89.35 -2.637397054797876 -5.934627430411493
89.7 -0.7659223285501306 4.092420501965297
90.05 -1.0152518269220632 4.677849405329874
90.4 0.274483363292483 -5.3071832063094915
90.75 3.554360565087861 -2.5444324115289128
91.1 -3.4748415925103844 -2.2450264034086396
91.45 -4.139628590709644 3.010935007307733
91.8 4.797715250132216 -5.706339477436262
92.15 4.991896507731671 -4.700298298106567
92.5 -0.24421946915786852 -4.574648944217087
92.85 1.6022202876006248 -2.948596564962502
93.2 -2.258203864098742 5.393374540177496
93.55 4.076094457318035 -2.889863970089493
93.9 -4.283830827456146 -2.2317867282502792
94.25 2.47966782518197 6.620689513345476
94.6 3.105509805659991 -5.469697154140199
94.95 0.8684435294710839 -6.619671741543069
95.3 -0.8421107971317183 -2.9331811960264904
95.65 0.05870702633815861 -4.105753233175755
96.0 -0.932726679669807 -5.953685412319531
96.35 -6.8628181910293815 -0.7664793151450788
96.7 4.615383346778625 2.9122112187648233
97.05 -5.005535851185707 2.7981595285805603
97.4 2.387267211560311 -5.50877667584167
97.75 3.856200453775559 -6.053027895711001
98.1 2.5727754512705596 2.6138696282726492
98.45 5.458850486937569 -5.378113044343638
98.8 -4.9461385303879055 -2.1239247070013665
99.15 3.4929716932576014 -5.483804764136698
99.5 1.3229255294653675 -1.7872876216084572
99.85 -6.552247277837847 6.775316370556638
100.2 4.540914583380674 1.5022488262792482
100.55 -3.971092866508408 -2.568626031020436
100.9 -1.4113307623887987 -2.6803104022020507
101.25 5.154172091831058 6.276190813258467
101.6 0.5379198283830899 6.487737982097529
101.95 2.428828567922104 -6.5296088243886885
102.3 -6.797993595850841 3.013029727902836
102.65 0.23983421567465912 4.042418416257577
103.0 3.2949782967018137 1.1043916918193497
103.35 -5.704345268209925 4.010295500781388
103.7 -4.9040771360066495 -3.5700643807846975
104.05 -2.043376508983102 -6.96337505805228
104.4 -6.396348700757577 -0.5987786128972621
104.75 5.349783789345188 0.2850089057273413
105.1 -3.505608400926758 2.2209936404013617
105.45 -0.8337293495310139 1.2952169793351045
105.8 6.735747284804089 -2.0065108159605494
106.15 -2.3599128438943193 4.774481053112499
106.5 -6.159621206247744 0.533577571396763
106.85 6.588346562823952 2.671362044508318
107.2 -3.2442028057235044 0.6404413349256399
107.55 4.109777313606806 2.3303025016144043
107.9 2.3360664357022136 -1.212247123806843
108.25 0.8996160616882962 -3.6747666867594466
108.6 -4.013515420397717 0.7247153176943717
108.95 4.1016305325826234 -3.899645519141204
109.3 6.824556101399505 4.993601813191075
109.65 1.4042069801342625 -1.031682629072603
110.0 -4.132919888052864 -5.723264710536881
