!Created with skrf (http://scikit-rf.org).
# GHz S RI R 50.0 
!freq ReS11 ImS11
75.0 -2.8724629648458917 -2.4448735133157165
75.35 1.7973683626976822 -2.2193328072206144
75.7 1.9899564774990592 -2.4955798570659455
76.05 0.08178889896235653 0.7680478761966967
76.4 3.9188331363889386 -3.9550242722842075
76.75 1.9982793577794862 0.03180402177654873
77.1 -0.9966679638232216 -2.3112166648966888
77.45 1.098289160310041 3.8794788171025925
77.8 -2.9099891213108275 -0.36875698436346127
78.15 2.9056898539770923 0.3692699907913619
78.5 3.1602333976281463 3.892975253586422
78.85 -0.028366420893877198 -1.7500989889328817
79.2 -0.6808273082858234 3.111794948699907
79.55 -3.1100155223085277 -0.19291818603125677
79.9 -0.6041289125169147 3.6525902473736247
80.25 1.5079567130857727 -3.607120883657016
80.6 -0.9989925752972679 1.138934190844573
80.95 -0.27827639565606344 2.2969982102019895
81.3 -3.6023056290781605 1.3505869764451761
81.65 -0.48643504533390125 0.19885629773070956
82.0 -0.6307997677363204 -2.719930049635824
82.35 -3.8022002792515863 -0.46267791442947015
82.7 0.18163259933962195 0.7893832158857368
83.05 -1.7489411726574726 -1.2013346528817568
83.4 1.5594604627626971 -0.7087071524506676
83.75 3.5438809653106533 -3.1202921898739806
84.1 -2.272931644331962 -3.955401969949045
84.45 -2.3254594807594033 2.950855396249998
84.8 2.830315904333398 0.13142144389471522
85.15 -0.2817978174308431 0.883549296957761
85.5 -1.3958620221583642 2.033136451290634
85.85 2.40782633447159 1.1119474436208252
86.2 3.9294903405366695 -1.5776025518953052
86.55 1.1314042623788376 -1.4185311817524902
86.9 1.5235935947051669 -0.12771379661647853
87.25 3.530369754396151 -2.8446060506414366
87.6 -2.506434304361993 -1.5167935259093417
87.95 -1.3029316552240369 3.044440974430551
88.3 -3.1600914636418587 3.3458491353708384
88.65 -3.0217235490466603 1.9865081205077466
89.0 3.1264484320878925 -0.9413391009915726
89.35 0.5300993389386015 -1.0009864664097154
89.7 1.2071480598818916 0.46100599823566046
90.05 3.693442212544376 0.9418024173287236
90.4 2.0041649534152537 3.001412637426016
90.75 -2.9103964816477843 -2.592626703761863
91.1 1.539128442701701 2.7747259621181435
91.45 -1.8134852390538585 3.4632277391760784
91.8 -3.587990235312133 -0.49131891973534003
92.15 -1.0304967770043412 1.4601186032237914
92.5 -0.02770052648575927 -0.32615878934594544
92.85 -2.4224195727838644 1.1378775579877383
93.2 3.1436477623235914 -3.109260004369684
93.55 2.169854397145188 -1.0766652394148366
93.9 0.11098069825261447 -1.8158002443281394
94.25 -2.8003264569402955 -0.9475488642180139
94.6 2.4820014801311965 -2.9776789132350814
94.95 1.9141596186826488 -0.1682582878876575
95.3 0.22648769419156078 2.470836292839552
95.65 -1.3144001997463546 -0.6475033718133778
96.0 2.4761006655650277 3.6234321264666676
96.35 2.115710813101919 1.8728350764327555
96.7 -1.5074326327608158 0.6186983968599931
97.05 2.8640054107722426 -2.092542165946112
97.4 1.0747568774786131 2.945902899742255
97.75 0.8268894693321593 1.8146694820993217
98.1 1.6356290339484048 -3.134063734921015
98.45 2.5034379542529797 -1.191361090308929
98.8 2.348066225215474 2.518255337902003
99.15 2.461899396556036 -3.206012995011802
99.5 -2.252639634205738 0.03208613478875311
99.85 1.828209813764742 -1.400567816199004
100.2 2.650410501752793 0.9121013401298832
100.55 -3.4677550674334414 -0.13466322436451694
100.9 2.0894298994417593 -1.7282907036400132
101.25 -2.357115840019188 3.0583929734272743
101.6 -2.3510974609383073 -3.1123742195906825
101.95 -3.6709950896323713 -0.7110232162661791
102.3 -0.412214554602917 1.3995221220502092
102.65 2.9731608084485996 -0.6379551577983538
103.0 0.29784716822700563 -1.0340731552130338
103.35 -2.625838287679505 2.8641751496371324
103.7 0.9161845913061013 0.42692414965919934
104.05 -1.7956945634302262 2.633805420667348
104.4 -0.18860717810878036 2.7895620150687988
104.75 -2.0945676614173525 3.420680380484816
105.1 2.9189059977125833 2.37011544190168
105.45 0.17050598366421799 -1.1933141384060404
105.8 0.5522933441460776 1.2808723487702363
106.15 -3.255223458825829 0.5593367107007552
106.5 -1.5753558371734737 -2.368907323476045
106.85 -0.26318977029568824 2.178900113998229
107.2 1.1255927229697722 3.7317137201646107
107.55 2.8916913177021843 3.4297705322972982
107.9 -2.1302523991850153 1.1795371235802756
108.25 -0.32417663448698786 0.3863886788840629
108.6 3.31671340855502 -1.5179773252240212
108.95 -0.8168751203073112 2.9520625159769995
109.3 -3.520475222499692 2.7814088485567074
109.65 -3.9145228117235247 0.5368214245748169
110.0 -0.3336526904860948 3.077443081373829
