!Created with skrf (http://scikit-rf.org).
# GHz S RI R 50.0 
!freq ReS11 ImS11
75.0 0.8165145793776085 2.5050552302142792
75.35 0.8904158705720866 1.4965126557195318
75.7 -1.6502905472309937 0.03377207712623731
76.05 2.6974430428831364 4.051169555949336
76.4 -1.434964608426631 -3.9065518268147503
76.75 1.82085506573887 -2.8745092662862914
77.1 -4.271101588634939 -4.831031717311247
77.45 -3.765104636477389 3.8659400447985104
77.8 0.4733787404750356 0.11419957996750218
78.15 -1.8783321914144724 -2.183620735793792
78.5 -2.593535020672282 -4.908392497405777
78.85 -4.956888190836358 -4.27008999037441
79.2 3.1890168478252323 0.05594935815416702
79.55 -2.738417811236965 -1.7802326728263929
79.9 -0.7229412730948459 4.202510165301031
80.25 -0.9782078416085604 -1.633549426482469
80.6 -2.7443976040865325 3.898015681886399
80.95 1.1264164593730375 2.8533950738564826
81.3 0.9940821981934322 0.5549173349707048
81.65 3.7686266020446557 4.889987463576429
82.0 -0.7409803717635055 3.701467064712418
82.35 -0.2294207024003725 0.39596986622307484
82.7 -2.5653579358750997 0.41141496754042994
83.05 2.936769288214214 2.7179384512033247
83.4 1.0431037166428425 -0.15078606033681163
83.75 4.60958318182907 1.56260720876931
84.1 -3.2375560948671103 -2.312526402375582
84.45 -1.9111286488240087 3.1689882092313537
84.8 1.550163351529904 -1.4255531750026174
85.15 -0.8310642383755729 -1.7857026538005438
85.5 -1.3825119437022604 -3.0761229437221385
85.85 -2.0698782912728753 -4.270570379331029
86.2 2.7667561774279124 -2.11911538864489
86.55 0.5318994041379377 -3.6696176972306596
86.9 -1.0929836461030307 -0.5914706983490858
87.25 -0.3063614874730025 2.736901652482185
87.6 -4.564318177124381 -4.817676249333501
87.95 -3.653051996994149 -1.100957572185961
88.3 4.308324895958252 -1.2725667572521182
88.65 2.753085704721551 -0.012328390195621708
89.0 -2.047811985540865 -4.576506421486859
89.35 -4.711638815455178 -4.084054952881967
89.7 4.6348534931047105 -0.558656012418689
90.05 2.1739793282232247 0.46579586376585325
90.4 -4.282369882754019 -2.656228267465157
90.75 4.518867420442753 3.975381064746595
91.1 3.470869364768203 -1.7091077989367753
91.45 -3.319752204586306 -4.994432361268911
91.8 -0.31486229748869055 0.10666451756601192
92.15 -1.8602824163444198 -1.6283197513652126
92.5 3.2867113091841347 -4.911941884954839
92.85 -0.29759233876223035 -4.126612319534663
93.2 3.2362787569007723 -4.89085545715544
93.55 -4.179520593295054 -0.200272865184562
93.9 1.3801241898051375 3.309901347377675
94.25 3.2706299347996093 -4.098127942535851
94.6 1.533571322610392 0.779500069921224
94.95 0.20755556235140693 -2.9809300072590905
95.3 -4.215145176699327 3.7132010180045194
95.65 2.690901152340418 -0.21118209972708857
96.0 -3.2987535550233202 -3.69152011302347
96.35 0.28455665821864984 -4.583476799139289
96.7 -2.9821862087484243 -3.692573890561758
97.05 0.04909470662016746 4.080047712443454
97.4 -1.8204341387356937 -1.9203746622410678
97.75 -4.815827086193355 -0.3176347819443559
98.1 1.7394327092762196 -2.043504739954969
98.45 -1.4198983797491593 0.39035628747253637
98.8 -4.412139232147357 -4.4989933963757425
99.15 4.202482459596863 -2.5618127730484352
99.5 -4.615319078878475 -2.976876759005326
99.85 -1.0279647310938722 -3.069028864850809
100.2 3.511472263379426 -1.7354609383839592
100.55 3.017702829668564 0.5025408487970306
100.9 1.6343529741374263 -0.6124731066220546
101.25 1.4539583354779795 -1.6511740986960566
101.6 2.5609399986579806 2.5777973436369828
101.95 2.453936805823508 -1.714602134139076
102.3 3.3862159666100258 -2.7762776148481807
102.65 1.8424058715758351 -1.133379137807713
103.0 -4.999272004437925 -2.0778287426418363
103.35 1.2618202949946 -3.7304193669339814
103.7 -3.3789121531298894 3.2850764357947004
104.05 -4.295152674971724 3.9126234916306424
104.4 -3.898731468704466 -2.2422542300467754
104.75 -3.2425764699758606 2.229523691407934
105.1 -0.36211373862937046 -3.0060080986898363
105.45 -2.325233289980985 1.1158240093545424
105.8 -0.5357803511919401 -2.087669496744773
106.15 -0.1434023320890332 -0.8517258906835501
106.5 -2.5739486583526485 2.34737904315512
106.85 -0.914000520025049 -4.717039628700005
107.2 2.2619172366708815 -0.7993680471385722
107.55 -0.6215083109674591 4.437510789510293
107.9 -0.03827229513950203 2.9586915948853743
108.25 -0.687236142395885 -3.644112980546189
108.6 1.28698991872775 4.86845985210011
108.95 2.481533559816417 -3.725706327664425
109.3 3.0984511122410483 -4.535496124932761
109.65 -3.046750288459398 0.35362873391396876
110.0 -1.4855182936368094 -2.158556499851809
