!Created with skrf (http://scikit-rf.org).
# GHz S RI R 50.0 
!freq ReS11 ImS11
75.0 -0.052230298995432856 5.639216609006375
75.35 7.973439378066265 -2.219893847531632
75.7 -1.8053630787142683 -6.5435308271712636
76.05 -8.413987060806082 -1.478124333590194
76.4 7.33728294428544 1.6062489002932916
76.75 -6.980216629113621 -5.300725281627256
77.1 -2.968547295627753 -7.159910666333186
77.45 7.282326075067963 -8.35958880304795
77.8 5.628728489436306 3.8031680522090348
78.15 -7.340213062789532 -3.879590297153676
78.5 2.101200884959618 -7.233337394085055
78.85 6.057127180503009 -3.5670018887555988
79.2 -2.2993159216026435 -2.92781768806837
79.55 4.92535301282567 5.943116689155412
79.9 -7.846083464416896 4.100742119705192
80.25 6.73932059241933 -8.171808245419497
80.6 6.700758028053279 -2.5670860862514857
80.95 0.5159573386063894 -8.150960144047959
81.3 0.838545454603149 1.906524618239173
81.65 -3.221504760973397 -6.315677558898983
82.0 3.4882749353048252 5.482357551780748
82.35 -2.1306279766005654 -5.4857564186717855
82.7 2.7156869165568622 4.345583989102194
83.05 -7.277143414366164 -2.673395175271823
83.4 1.617279656647601 7.616281399498773
83.75 -0.3331649477387011 6.290280359313421
84.1 -7.848266587797768 -0.24510816649153
84.45 -7.049531250927555 4.455901907213778
84.8 3.9164512278815184 -3.482716675823608
85.15 2.0189832616073016 4.047217215725192
85.5 -8.234520859044741 -0.6822928461283684
85.85 -1.5288057443780247 -1.1486143326299236
86.2 0.7169190703097377 -5.127833729639086
86.55 -2.7219062042178015 0.8133837732633966
86.9 0.4250626913875697 7.893013456197794
87.25 4.829304878816486 -7.522175293470343
87.6 -5.202849166763217 -1.6690703332377785
87.95 0.6533515344827885 6.723419543365388
88.3 8.726642646273397 -0.9327968692029742
88.65 -4.786975256259161 3.5307335898008776
89.0 5.2052580748179444 -5.757658417076286
89.35 7.212095431961734 -4.358583016614952
89.7 -0.7046254264909884 3.827484651080174
90.05 6.088410388015125 6.94868146127682
90.4 3.7028618553420536 -0.7826271122096284
90.75 7.6545021010969885 5.342183514538991
91.1 -3.4130961910688553 -7.551650566831526
91.45 -1.0461706699986097 -3.720775175038341
91.8 3.3040699853486526 -0.7702720254647162
92.15 0.29353955032014123 6.608820789168103
92.5 -3.8409420956835416 -5.589477793835434
92.85 -0.5019329028572075 -1.9229236981586388
93.2 -7.2062369894915665 4.890865343034339
93.55 1.6803445938499115 2.2988715919223024
93.9 0.1761695953530591 -0.006158817540004469
94.25 1.3902482329850727 -4.167677968402693
94.6 2.2102292981781226 7.309623591872777
94.95 3.8083768541304046 2.095909225256876
95.3 1.6760437702623132 1.9902937869882722
95.65 -7.651761777396144 -6.162855399319234
96.0 -3.689048866139376 -8.14719043990792
96.35 -3.694089328769735 2.7505440457891814
96.7 -2.3765611298006686 -5.32782924567105
97.05 0.7757187374290222 -7.611094124181339
97.4 -0.9888819949343652 5.773864864896631
97.75 -8.390119871222897 2.6347967560333254
98.1 7.727067504096238 -3.8734353346924117
98.45 -0.8454389860870495 7.467758815262692
98.8 8.945629006556807 -4.841679555112895
99.15 8.91562618760275 6.762872802458354
99.5 3.0606722376132938 -0.18659154432835257
99.85 2.785131010844391 -3.2985323475044095
100.2 -2.540025122742466 7.76561999834335
100.55 -4.198000615956055 -0.6692641943587903
100.9 5.252105108015282 4.4159476585476725
101.25 -8.186888417408893 3.9572687401796056
101.6 1.8096648602537964 -4.3609354665369695
101.95 -5.6337116744146805 0.4827632195493463
102.3 -4.905035498656831 -5.802458675760759
102.65 1.1370881730582554 -6.455151543619353
103.0 -0.2274040599736722 -0.8789166079045261
103.35 -0.5163340494217712 -5.0510793765637665
103.7 -8.405443747623288 4.117395268272366
104.05 2.6781173969199554 -2.736716424026186
104.4 -3.890322734435373 2.1846040648428056
104.75 -3.5966430547822723 8.373774673815463
105.1 7.834540209015655 6.387019155039565
105.45 2.202591727432826 6.734091305895346
105.8 -1.2333617478128849 5.580858363825986
106.15 1.6703018560968914 6.403986291038921
106.5 8.040817695797744 8.630909210659446
106.85 8.988115884610238 -4.806166676828947
107.2 -4.701658913064315 -5.279635329911706
107.55 -8.282587561000598 7.902393937190775
107.9 -3.7478410784331455 2.8633157821105693
108.25 -4.3797972809871855 -6.563876078915278
108.6 -4.759378255372688 4.1053465939943035
108.95 2.8692736455432657 -8.54229837072774
109.3 -3.320627152079448 3.7879149515696735
109.65 -4.4492530822940894 3.5625517210893087
110.0 1.2275412623730244 8.121247615181295
