!Created with skrf (http://scikit-rf.org).
# GHz S RI R 50.0 
!freq ReS11 ImS11
75.0 1.5246415270591518 0.01681653672012451
75.35 2.1262418219044212 -2.3509319062628387
75.7 3.177216867850976 -3.2272521132419563
76.05 0.6745926567722615 -2.327364992688982
76.4 -2.9232125710008616 0.18474700570964897
76.75 1.5515845997279698 -1.7109832970700167
77.1 -3.2342284438797044 -2.636401863654194
77.45 -3.0487907767658395 1.3211507485787966
77.8 -4.658853841346681 -4.468328647927122
78.15 0.972663487132901 4.847519496536677
78.5 1.3960067419075728 2.787815679804122
78.85 4.215194430025289 2.3913387786525373
79.2 -4.352215715121613 1.6675729132986783
79.55 0.3212580184638769 3.4882421702654187
79.9 0.1716974337082655 1.9599876715621967
80.25 3.6405414186005203 -2.1949136031148364
80.6 -3.7858949280246 -4.6156456117237665
80.95 -0.5878051961831021 2.1720798323847825
81.3 2.1912100982990457 -2.0734882124277068
81.65 1.6351494219465035 4.004698556290639
82.0 -0.28763811761881586 1.1005702929372252
82.35 -2.542953198161697 4.138610318054193
82.7 -3.359330913936126 -3.333825164408287
83.05 -0.766639961251776 2.3698160736344667
83.4 -0.17060364260979455 -2.4845985770133785
83.75 -4.992169194505962 -3.6815784411497288
84.1 1.2615635796927394 -4.624905812852122
84.45 -4.032526922107586 -1.1533955442697252
84.8 -1.3180118413380881 -4.065563650570608
85.15 -2.7671189048881626 0.42061067699530996
85.5 -1.9091999457038022 3.3026473262217406
85.85 -0.6007029240492345 -1.3871725523932499
86.2 -0.3075821926500111 -4.695302807755577
86.55 -3.7755145617471353 1.9800166347027381
86.9 -0.590349785952734 -1.3495805332877586
87.25 -2.6826500812616105 0.012382973230012917
87.6 4.307860894535933 4.755330437551465
87.95 -2.526986790520156 -2.647383527779045
88.3 1.8374869810121297 4.882175800046198
88.65 -1.2681288562390225 1.4522025557730889
89.0 -4.510939233347973 3.680738952946262
89.35 -2.578884540247585 -4.858140296925305
89.7 4.362541548370159 -3.6253329517105373
90.05 -1.170130920797483 0.7844631739124175
90.4 0.02185267406392466 -3.697199217575812
90.75 -4.186293765031738 1.5566861799894771
91.1 3.789740273880664 1.4934072831182243
91.45 2.1849218633932086 2.4823658660174464
91.8 4.729532534377224 -2.6337234809589107
92.15 3.8779948574456857 -3.5773840577345553
92.5 -1.2318703268082176 -1.4616942587132498
92.85 0.41994877517099405 -3.3912289629646564
93.2 -3.06588790423309 1.3932296658298693
93.55 4.036484313952565 -1.046654493919652
93.9 -1.5152649080712544 3.8085118258223094
94.25 -4.698216933578619 -0.17862771754649232
94.6 -4.096850511642858 -1.6435284726065136
94.95 -0.9691554357751886 0.7836589050821396
95.3 -0.49418316639800675 -2.5754827559854068
95.65 -4.799197897656478 4.099110601665937
96.0 4.788543622095254 -1.7878487637413731
96.35 1.7898283406949655 1.9336528059298508
96.7 -2.3941543215017616 0.5126330936070145
97.05 -3.6039638846633304 -4.459133516177378
97.4 -4.178391189017569 -1.7524399434725102
97.75 4.608352455827904 3.232450546823915
98.1 -3.2367482000986225 -1.2929194549335954
98.45 -4.174355594615374 4.308298708461277
98.8 -4.1696390263936545 -4.768478840349229
99.15 1.549549037398995 0.1924853532229942
99.5 -4.201088195233651 -1.7539953189676838
99.85 4.672474735582216 -3.1245243015948434
100.2 -2.230746749914232 1.9208534005019995
100.55 -4.994283300047913 -1.4490892127459831
100.9 1.9784542030372576 1.5316660747062871
101.25 2.036426782276406 -0.0629725912343726
101.6 -4.632991142010432 4.360234436473252
101.95 -3.412032919435836 0.47910740404101704
102.3 4.387562687672169 -0.6293243327788356
102.65 1.5517564074895684 3.8961076834743635
103.0 4.131108697033904 1.844349671470129
103.35 -0.8738291633672957 2.400769387625026
103.7 -1.5021128624329494 4.846085552417439
104.05 -4.6764214791123715 2.711345817462132
104.4 -0.28271375614017047 -4.875505468301663
104.75 -0.17768478991881387 0.9211101600844707
105.1 3.037022562327669 1.9805798185459345
105.45 1.3174441482581556 -0.26083803530165484
105.8 3.6358613854935817 4.956678203416479
106.15 4.049676564953016 2.6944185239700715
106.5 -1.322896622778631 4.114421596503548
106.85 4.64955109554702 -4.660090341462238
107.2 0.8528821868102521 3.751954908084363
107.55 -1.2560510922676227 2.083306401046782
107.9 4.842856311961606 1.6331341840657654
108.25 2.2089345388686654 4.7154540230101984
108.6 4.123124371760247 -3.5329378796910382
108.95 1.0223281891624802 -1.810642119782181
109.3 2.1913527961247468 -1.3542496497085033
109.65 -0.029034471482369817 -4.412538920694066
110.0 -3.9639955753257627 -0.30097133924129715
