!Created with skrf (http://scikit-rf.org).
# GHz S RI R 50.0 
!freq ReS11 ImS11
75.0 4.084251296995477 0.2925636877947051
75.35 0.17494052759058087 1.7852193794673141
75.7 -4.940127438748836 0.9448314482026912
76.05 -3.4058361487313356 -4.519074998934089
76.4 0.5020860890926566 -4.113954125212991
76.75 -0.24027779157453555 4.436340869174307
77.1 -0.44106620982832734 0.5859725360502304
77.45 -1.657648380154729 -4.704788710612038
77.8 -3.4575312386117836 -5.750487700657844
78.15 -4.9558387498242125 -4.301072900408956
78.5 -5.221714490011758 -2.818078376437086
78.85 5.360785316864086 4.18524445925241
79.2 0.8714565115935686 -0.06441313695444251
79.55 3.427383253267929 4.170874572005913
79.9 5.407318644010338 -3.2433320350548933
80.25 4.222693439635814 5.2791743139421605
80.6 -5.260858579674226 0.713354632465836
80.95 -0.9069704301495252 0.1753457437545869
81.3 -1.4521909846322343 0.3318945818127146
81.65 0.4852246634996691 1.2875279761427358
82.0 2.2977525865652884 0.67163312416357
82.35 -4.282613539877093 5.733999698059541
82.7 -3.7052582105108485 -3.2057483585387914
83.05 0.9222029842781083 2.485277662767106
83.4 0.5207549823521318 -2.196365970900814
83.75 -3.327907735187575 -0.6214010325836501
84.1 -5.677622516938159 -2.6980595824723412
84.45 -3.9597179387766164 3.924686330272886
84.8 5.134386945547698 -1.799957148615822
85.15 2.276777604500862 -4.716695139942349
85.5 -5.856999967510835 3.3268133193098803
85.85 -5.968914642059366 2.4747837528641172
86.2 -2.875597709147783 -1.4435749208459208
86.55 -4.3891271773387395 -5.361108395590477
86.9 -1.5964061086584231 -0.12078725788982636
87.25 5.920131318089902 1.34681774528697
87.6 3.6859649073094403 -5.476493235192579
87.95 4.972463756752228 -1.7447244983054606
88.3 -2.623606963016581 3.2086341253204558
88.65 -3.7692653599475667 -3.518660429027293
89.0 -1.878820549248938 2.0490841279534617
89.35 -5.981760012527321 2.5345828120514162
89.7 -2.66366553758567 -0.6868504838815155
90.05 3.484106033710027 0.22802686837217934
90.4 -2.542673878264005 -1.5980773265799604
90.75 3.322835027265827 4.164853881506219
91.1 -0.9965491162074334 5.731918310090519
91.45 2.5497061295593917 -5.600263560695424
91.8 2.464277110335949 -4.534267911147131
92.15 -0.7881495432191703 -2.2774524374587455
92.5 -2.724775487923278 -3.527491242510946
92.85 0.15970958752307451 3.214567390280493
93.2 3.7305736909319633 -1.9269137684079993
93.55 2.584642452712951 3.507859595659887
93.9 0.6788049518935497 -0.04807865681711965
94.25 -0.9654375791377245 -1.1574157670117926
94.6 1.7872149626076492 -0.11900807555498227
94.95 -2.958032401019784 1.8487182505553292
95.3 1.5319603950760974 -4.154347843014809
95.65 -2.317896063168635 2.451409955178699
96.0 0.05384519331174298 1.9635210441387918
96.35 -5.319165696015859 -2.9325979018121826
96.7 -2.640095418137287 -1.061607512581705
97.05 -5.226160068157784 -3.3896841619283116
97.4 3.5902742726066506 0.9513690038575611
97.75 0.20654008473358232 0.12742596122483585
98.1 4.6259317954164665 -4.052544540203232
98.45 0.32216296813111844 -1.751176541847677
98.8 -0.20545909117777228 0.5950032327668286
99.15 1.9556912565580267 5.212893521905517
99.5 0.3865606518604974 -2.9788610175158077
99.85 -2.4081905391330354 -0.3170947550412917
100.2 -1.9070012566270216 1.008706571032052
100.55 -5.9988407349838075 1.7615501511071696
100.9 1.9893803486821517 -2.0750915617854755
101.25 0.7382302771332832 1.304075078280786
101.6 1.1448666114309742 3.7215959544863364
101.95 -2.744485503050444 3.6274180221012835
102.3 -4.567596358214903 1.1559514486630897
102.65 1.6436006750640182 4.072425506321254
103.0 1.88660163892391 0.8720894859605108
103.35 -2.274879521865575 2.9133510418056963
103.7 0.9131261576482821 0.38857063406496417
104.05 0.7469105767635407 -4.57471681230845
104.4 1.3395614327443646 -4.160341111798925
104.75 0.1223242973405414 -2.5481989977990636
105.1 5.9283798563742245 2.2941653138957636
105.45 -3.9533214101238348 -2.9818946901988133
105.8 -4.429584343200382 -5.349433878009577
106.15 3.986205413241 2.9704041513613353
106.5 -5.765920953275161 -0.28618417464400947
106.85 -1.9036465524407604 -4.835577258681945
107.2 3.0769882182889314 4.699046970622236
107.55 -4.68701526744014 -3.5420698014699696
107.9 -2.525549240434869 -4.260698903459412
108.25 1.6849730930469446 5.0640002235677235
108.6 -3.594058281398824 4.16614223742123
108.95 -3.3244847117963525 5.661487753387278
109.3 -5.779508636129101 -2.682741173195185
109.65 -1.2410811229233594 -3.5441655743813456
110.0 -5.164686633937341 5.822111760102387
