!Created with skrf (http://scikit-rf.org).
# GHz S RI R 50.0 
!freq ReS11 ImS11
75.0 1.77008643037743 -4.578558032387508
75.35 0.4566822584782142 5.324548450405487
75.7 2.7503105592852286 -5.011576725708858
76.05 -4.507394883054945 5.285243886926805
76.4 -2.3089515179215883 5.187569759685468
76.75 -6.87109026915304 -0.8341910020874284
77.1 0.491655375074632 -5.421389093002054
77.45 -3.3509887261930302 -6.354732237025506
77.8 5.167864579698676 -1.7726626358881967
78.15 5.061390692289766 1.3176156874356224
78.5 -1.3355995163041308 5.7956058090006755
78.85 -6.634403971676122 5.136367856762962
79.2 -6.491865497891151 -4.14919409668318
79.55 -4.339979263357515 0.5372369245831257
79.9 -1.5458413940116402 2.615988320156547
80.25 -1.1893003884166087 -4.109200690703457
80.6 -0.23301828302954752 -2.4485187716563455
80.95 5.041268053959682 5.248218831295777
81.3 6.070815812720744 6.163413688688614
81.65 2.7027884592411646 4.8171917564243625
82.0 -1.2641811813767294 0.5231326262059517
82.35 -4.459086052174458 -0.1983604065983302
82.7 0.46460900479432854 -3.9601225122707566
83.05 5.128807702952981 2.0278967429826906
83.4 -1.8974622698108679 -3.614903139009254
83.75 -3.5327985288730757 -1.0231780980384582
84.1 -2.2869180139566994 -2.2493407836971735
84.45 4.3723082406236795 -5.388285766907496
84.8 -5.378954874404654 5.5202223936665415
85.15 -6.484774869441436 3.232940129536341
85.5 3.303104891196603 -4.795723035279651
85.85 3.900180787766198 -4.0930821898393885
86.2 4.1665861580374175 5.453301670361193
86.55 -0.5777666388847853 0.2029026830389331
86.9 6.698009157551532 -1.2395400730508725
87.25 2.130993756984277 -6.755859958506829
87.6 0.5694675741512796 1.4738756783456124
87.95 -1.3103072642582188 1.18105896563057
88.3 4.89418162496932 0.24721945687212932
88.65 2.4099195616274915 -1.686985128657063
89.0 -1.9969272599715584 -3.499598148392945
89.35 -0.5193066826532573 -2.34601370211227
89.7 -5.935383468008956 -1.6829995748929103
90.05 -5.328304696680339 -4.7734259410399815
90.4 4.762346916288115 6.10536230321498
90.75 2.4309291188800364 -1.140149015313666
91.1 -0.7543673191970817 6.361581021410352
91.45 1.112843625903826 1.5806331641839035
91.8 4.059623741463269 3.004710392430681
92.15 -6.090340575011565 -2.2009781944591627
92.5 -3.037943632125521 -1.2269413995149983
92.85 2.662279425233147 4.725203618500274
93.2 -6.877047652370319 0.10968179441582881
93.55 4.553291678674156 4.845239159025137
93.9 -6.506855488104341 6.7288397273400875
94.25 5.568910968370902 6.616228168247195
94.6 -5.988931041505834 2.792490113367583
94.95 6.4780126912057705 0.3299653747568685
95.3 1.3138866311151773 5.954609802389788
95.65 2.126835342285674 4.910847484485323
96.0 -2.5354073099209655 -4.655231201495321
96.35 4.035977153827636 2.901960898421608
96.7 -1.520022486819354 -5.181708921853138
97.05 3.7440346176417325 5.180177275704131
97.4 3.176306396623672 6.077632930934696
97.75 -2.2936813680269648 -2.8589097982981126
98.1 -3.8005098234765473 -6.118788193585603
98.45 3.5183219683685065 4.449479491620108
98.8 -5.344383228691544 -6.396182896770053
99.15 -0.11418366004825065 -5.806686833855472
99.5 4.801475742493869 5.824221228915055
99.85 5.2462597864787135 -3.800882044128058
100.2 -0.9438029226130933 1.637513408555015
100.55 6.905139140218822 1.0981571862334014
100.9 6.298740783347791 6.3768848920156245
101.25 5.931582107754928 -6.23850912230046
101.6 2.946910301953211 -4.925199701631296
101.95 4.9260929436108585 -3.7665826047406368
102.3 1.5830217967679645 -0.3976167981763241
102.65 -5.862708345592923 -3.4920894780549663
103.0 -5.264498469631277 6.34221758142478
103.35 1.8929035005305432 -6.395647914606739
103.7 0.6234861807464145 2.012776622873397
104.05 -5.455362372069416 5.5129212815248945
104.4 2.0255762271894677 0.12630933574417313
104.75 -2.7601888329030917 -1.5871223495100046
105.1 0.20517307253958061 -1.5203652543523125
105.45 3.715951223830875 3.44294123162626
105.8 0.6879487467632011 -0.26371492471840696
106.15 0.5669652753381522 -1.9524135287755664
106.5 4.645132762326583 6.5790236653090854
106.85 -3.7410403519448057 5.3917666334671805
107.2 3.511059246592443 0.08419126980887248
107.55 4.565720590332122 -4.926865789889657
107.9 -2.756981690613331 4.428598982792337
108.25 -3.712631611291399 -1.745283397064506
108.6 5.690252666123966 1.7268689429096253
108.95 3.024155450924188 -2.628354626243488
109.3 -4.1056592448770575 6.95466733859573
109.65 -1.161744011792412 -6.308103353937625
110.0 6.8079973606502735 3.9767684942846144
