!Created with skrf (http://scikit-rf.org).
# GHz S RI R 50.0 
!freq ReS11 ImS11
75.0 0.6035922409331125 4.290945430005062
75.35 -0.7452860364391629 -0.14676060941379765
75.7 -0.08829693736580468 1.7994959364397753
76.05 -3.4179211989857055 -2.6528825009399792
76.4 2.7433225926481812 0.892288337745772
76.75 3.6547452188094427 -0.3687638604295631
77.1 1.5278371755101086 -4.340311849421461
77.45 3.124716409701158 -5.856769927584192
77.8 -2.0244456183544814 -3.2565565398399143
78.15 -5.367725325414692 0.05087496199676034
78.5 -5.911325152180261 2.22328822159528
78.85 -0.8651683387314311 1.4663568764972297
79.2 1.3029812524515467 -4.739458990903433
79.55 4.444284193958678 -5.9979950767542105
79.9 -3.5468379026640564 3.3675561161706877
80.25 -4.714735528578431 -3.72176940767382
80.6 -0.9986198107743549 -1.449364409912274
80.95 4.845492725304503 -1.2581211784700264
81.3 -4.572593751964938 0.35713714703786836
81.65 5.808512710255783 -3.1549504260544197
82.0 3.8783676935221663 5.463769641754176
82.35 3.1393634465036655 -3.787868828299249
82.7 5.710667622253679 -1.6482744369304485
83.05 -2.31260042476761 1.2016409232648564
83.4 3.51498012539184 1.1248457988433271
83.75 -3.7818040426902977 0.4118522298599929
84.1 4.560559433282889 -5.308870075714411
84.45 2.896904327411072 -0.6065755055749649
84.8 5.125841457163942 0.15663509566460654
85.15 1.6015173454282752 -0.4696878734283514
85.5 -3.6971813557762143 5.700290743836735
85.85 5.171892272874261 4.910922669848102
86.2 1.6026794815755632 2.2570171302787108
86.55 -3.9560243972657676 2.1550572500423866
86.9 -0.6664179169204258 -3.3059072416885757
87.25 -3.7513855545394814 -0.642449541392708
87.6 -4.589328020725054 4.30827225253244
87.95 2.2215426089137558 0.6049266683369114
88.3 1.2660588961456876 3.488149718830088
88.65 -3.298500201212472 -4.430982714201696
89.0 -0.24361145415731977 -3.8693909753193947
89.35 -4.147536758880596 -5.3606471231634645
89.7 5.062526672734609 3.5580719909161775
90.05 -2.5997011544746047 -2.053172113183303
90.4 -1.912467575658534 1.7933201814782849
90.75 5.185833335628997 2.079274166869734
91.1 0.34228785136415096 4.029993557345302
91.45 5.28197082642453 -3.7009717296250177
91.8 0.30683654847358577 -4.6101236346079055
92.15 -1.6083207668451935 2.8738568698360623
92.5 -3.5761693534391674 -1.7359723851422202
92.85 -5.38463053100336 5.337485944727977
93.2 5.437156056622468 -1.80928587241505
93.55 -0.12219366412937571 2.1735470086753
93.9 1.460861994705756 -3.457085041694953
94.25 -1.2036969967239575 1.6320376509491572
94.6 -4.945744288216677 -4.113318144591863
94.95 2.89887698374009 1.8234311765327145
95.3 -1.9023245905946888 -3.257100114895279
95.65 -4.557996864752054 5.25565463985115
96.0 1.7712131442496628 2.929512599348541
96.35 -3.0454450983081895 -2.2134155122339507
96.7 0.038098945586834354 1.6678034671143478
97.05 -4.793633973719489 -4.789029515226571
97.4 1.1321819531318846 -1.5705909833408729
97.75 -1.031832673905265 3.842709229315734
98.1 -1.8441666340404574 0.08339596036162034
98.45 5.360340775526095 -1.5358875022699512
98.8 5.824367218660704 5.3420398597964915
99.15 -3.3869835818259784 2.6670705601426508
99.5 5.52812048667235 -3.7091973978048545
99.85 -4.967524398440455 -2.1606697291544297
100.2 0.587822352539781 -2.3845698898537955
100.55 5.740966744675308 2.4085513733891966
100.9 2.8589040418785148 -3.4445817534524767
101.25 -4.622347668321463 -5.454739254162343
101.6 -0.8538036311509458 2.698199712911924
101.95 4.4733777146680405 -1.6994311846424144
102.3 4.89166170426514 3.3295764203266938
102.65 4.923549421669619 4.055563645133054
103.0 -5.494887322235421 2.010097772521082
103.35 0.23059644687134595 0.9150050016827338
103.7 1.798147297500957 5.38382618381971
104.05 1.0708334948139884 -3.69321637472681
104.4 5.620759844486743 2.2473129128214078
104.75 3.758970867095329 -4.388076570246649
105.1 5.880819371901204 1.8699977595431778
105.45 -1.0295439251938148 2.4990634342613576
105.8 1.181607540496842 2.884931671651199
106.15 4.358876068297642 -0.23324595012898008
106.5 -1.9757062884696026 1.367368834885676
106.85 0.6182979459748159 -0.8096174534089848
107.2 -1.9348870794987225 2.404231329175
107.55 -4.169293272900767 4.703764804945376
107.9 5.600120764247478 1.9775451463911602
108.25 -4.630513788260002 -0.27120104432222947
108.6 4.081200717683542 4.1210707649848715
108.95 1.016997562956505 -0.2603648422110991
109.3 2.0128596426869407 -1.2686884813864792
109.65 -5.795123524884143 -1.9183435358078094
110.0 -1.5514877558311535 -5.912146487573695
