!Created with skrf (http://scikit-rf.org).
# GHz S RI R 50.0 
!freq ReS11 ImS11
75.0 -0.11587542808788709 0.7192139438518927
75.35 0.7004499339858932 0.706807402690462
75.7 -0.7495462395008028 0.5095819139285898
76.05 -0.16963818103237704 -0.8113770384686909
76.4 0.5360311379381715 -0.8808835317135535
76.75 -0.9937212430762838 -0.8935355546748713
77.1 -0.4507487409268971 -0.5296699938689642
77.45 0.7765767706081208 0.44868587242405744
77.8 0.7284210657477435 0.9341584012384447
78.15 0.661878134361648 -0.6694739736082083
78.5 0.8078901803937182 0.33090796135709244
78.85 0.17122959926240156 -0.2882328929155844
79.2 0.5177061634070914 0.10451263806223188
79.55 -0.563236759953665 -0.9617129852575208
79.9 0.12676845173074858 0.49441072609199166
80.25 -0.4108269039437771 0.8888792873645845
80.6 0.6739440667772929 0.19428842462714924
80.95 0.5776728625946921 -0.14662862185693992
81.3 0.8090371015479865 -0.1485278136418442
81.65 -0.2789054160020643 0.4284439814789074
82.0 0.5547673473107808 0.016975405179767922
82.35 -0.020278799499921396 -0.21946609381047288
82.7 0.6952849115187634 0.8835341698799812
83.05 -0.25442950055502256 0.3764938597123957
83.4 0.5907430828854963 -0.9572745261345477
83.75 -0.570653772425034 -0.041002471689354225
84.1 0.33918926648762615 -0.38323446998225785
84.45 0.931301790859842 -0.3598654064129654
84.8 -0.6317465316922679 0.7804289748435265
85.15 -0.04284557807595624 0.7637180802616763
85.5 -0.12355769855389753 -0.7482492546570045
85.85 -0.4673914659486269 0.6260689685928631
86.2 -0.37159574123928163 0.28150917110028995
86.55 0.08654044126816807 0.7627772341198686
86.9 -0.618551313728269 -0.39257433501559547
87.25 -0.779138967878964 0.706432075009721
87.6 -0.005362887245910386 0.07610432413736024
87.95 0.16071659276526895 -0.034285083536494954
88.3 -0.3264966573481445 0.3897713683841839
88.65 0.2886876078392995 0.8720622021923832
89.0 -0.014801127878895537 0.10604266444894428
89.35 0.46060441502338123 0.3934784977762389
89.7 -0.9704007235053114 -0.9065521090495647
90.05 -0.05991251529866237 0.4115852719793971
90.4 -0.8392483105425614 0.5899263521862363
90.75 0.7908542055270122 -0.6707594026552854
91.1 -0.5786330956435428 0.8191004018648698
91.45 -0.18919741846473892 0.3410261981730742
91.8 0.9652603288647907 0.9784713020745766
92.15 0.7007162281482313 -0.11450828504973853
92.5 0.5743427416773574 -0.9950046623710895
92.85 0.6801357103008865 -0.7349261565427401
93.2 0.3441993566422039 -0.4733355100304004
93.55 -0.8888783160986384 0.44230583946354285
93.9 -0.288986954916322 -0.016218647571500933
94.25 0.3290885798441294 -0.9455237087132415
94.6 -0.9683725485685664 -0.7306236046972587
94.95 0.44494022814231293 0.5952313427492495
95.3 -0.9359948330719952 0.9154474347842945
95.65 -0.3865366324878614 -0.31014073118549557
96.0 0.049203094411889525 -0.10547000276116258
96.35 0.8864644811588323 0.678031997324039
96.7 0.6044442036966167 -0.9331509414434851
97.05 -0.4113540073851396 0.8462139292186708
97.4 -0.1900665822991725 -0.46609844866905004
97.75 -0.27811839731113963 0.6721835623105683
98.1 0.37240431435798693 -0.3721086825666917
98.45 -0.5993715434014706 0.49682100522623585
98.8 -0.7253931875829931 -0.036358588259912894
99.15 -0.02759869519840663 -0.6208171646495848
99.5 -0.41719446227344603 0.6092075769499248
99.85 -0.9180838869969961 0.5248611308498781
100.2 -0.46042501992347407 0.5943681065257878
100.55 -0.6972945522337402 -0.10930977642139039
100.9 0.15333406055919419 -0.930854325542843
101.25 -0.15475808302108818 0.9549466672897526
101.6 0.7257374855388998 0.17003759610191427
101.95 -0.11641829050581132 -0.9100251030866939
102.3 -0.1211366331139303 -0.9158234191487702
102.65 0.28449136502679506 -0.5146103773392534
103.0 -0.7203042046561932 -0.8601957093786083
103.35 -0.04994266085971755 0.1287669857496092
103.7 -0.9350417396859143 0.08485194618350511
104.05 -0.8987039691382563 0.1645760991800409
104.4 -0.42295256735172004 -0.7723983162324193
104.75 0.5403827442171178 0.022351308364785494
105.1 -0.38352669371224524 0.3436187676912712
105.45 0.20672038822847472 -0.7390386412498333
105.8 0.18093800262483817 -0.1518105548538924
106.15 0.12213199920226225 -0.24013139852483834
106.5 -0.8477324240337829 -0.38489028209327625
106.85 0.5781972495571002 -0.4608777830451647
107.2 -0.8447509616150748 0.653588617606778
107.55 -0.2611533618625874 -0.7349613068184098
107.9 0.256344010686008 0.2829150695181455
108.25 -0.45900948202761116 -0.33479862689874973
108.6 -0.5634015583094583 -0.808461994545548
108.95 0.044595193824277235 -0.9405199882831508
109.3 0.8506272443254042 0.00648210784876202
109.65 0.9113730678201546 -0.27443247340891697
110.0 -0.4398371718009688 -0.8413179209011346
