!Created with skrf (http://scikit-rf.org).
# GHz S RI R 50.0 
!freq ReS11 ImS11
75.0 -0.9616522298715675 0.8990538750584829
75.35 0.5565661668862394 0.07376063808802691
75.7 -0.3833761677577274 -0.39482821273478597
76.05 0.22044670356941065 0.8702993626416842
76.4 0.9627172243061037 -0.5067064022382921
76.75 0.3032086053488905 -0.691575836144706
77.1 -0.7423910526912414 -0.24788935693513947
77.45 0.1194800653975483 -0.12992029679762007
77.8 0.7547808524192461 0.0834769774728712
78.15 -0.7930836940167723 0.9318585640324248
78.5 0.7753879821983214 -0.14411577148894938
78.85 -0.3419131310958654 -0.17288807813802776
79.2 -0.842853287565382 0.29271958974438195
79.55 0.5761401569523719 -0.15953545360604449
79.9 0.8435924204496261 0.09024392850803564
80.25 -0.40335347474222605 0.8641571039671161
80.6 -0.633269244142646 -0.14747862451497795
80.95 -0.27802912052937256 -0.46793199655729123
81.3 0.16281552283753187 0.7667400765716677
81.65 0.7535204696815412 0.499586462100563
82.0 0.8728700846384836 -0.21303219710835464
82.35 0.3318534416167178 -0.0500599237609658
82.7 -0.469903979936229 0.8451180469401411
83.05 0.5823016432865749 0.6096893257368308
83.4 -0.6554093082975145 0.8681581744797879
83.75 0.38568786438823355 -0.4408565401688944
84.1 0.4926426427755348 0.5445494794524792
84.45 0.49853007883940204 -0.4535811872759661
84.8 -0.2104957677717445 -0.4755259587478935
85.15 0.6230862072901726 0.466831985317367
85.5 -0.738257386271207 -0.5018213899500792
85.85 0.1488946738792618 0.44911438997421516
86.2 0.7329490655314814 0.09044414045168425
86.55 0.018662921421395584 0.5711882785751157
86.9 -0.11178322275756813 -0.8424870603647125
87.25 0.10805745086402485 -0.6046732099025025
87.6 -0.7950537967695013 -0.5244074025609822
87.95 -0.599842184735415 0.9605235702480102
88.3 0.9869059835518765 -0.10364699558522461
88.65 0.45505642378224787 0.736608878640078
89.0 0.6944099832505954 -0.9133169901543821
89.35 0.6067672492471157 -0.8481396786946624
89.7 0.4166212380466967 -0.7306380544371567
90.05 0.15794770400519353 -0.6215991594412189
90.4 -0.5800755432569571 -0.44968888371963955
90.75 -0.9342592252571686 -0.046157048513750354
91.1 -0.9044499470965908 -0.4306533760554714
91.45 -0.2072634271076761 0.8110373532576169
91.8 -0.027292860244451767 -0.7594415852377832
92.15 0.15554519227822294 0.911058815777454
92.5 -0.7145502488822217 0.2975225056258637
92.85 -0.8539007925193767 -0.9259646398995951
93.2 -0.15458388230862474 0.19867020676162594
93.55 0.8530488399485332 -0.7612418101925573
93.9 0.9775236325153422 -0.9648620287175573
94.25 -0.6163811682631954 -0.40378651778088903
94.6 0.24052474489460107 -0.6815415792188659
94.95 0.7766181365418814 -0.4300130603031511
95.3 0.487848849851499 -0.12276530863145152
95.65 -0.7024877886544658 0.888904101438222
96.0 0.2452750591289543 0.7325010655723703
96.35 0.4606295987219693 -0.6878166987192009
96.7 -0.8699517341773368 -0.5457469678540958
97.05 0.01974835578211498 0.5930513646754927
97.4 0.9420040015073945 -0.12093368875737154
97.75 -0.773355584324074 0.35572786400024836
98.1 -0.662667993978642 -0.5985717122707332
98.45 0.6443188011158567 -0.40970413974994413
98.8 -0.6916539717546002 0.16426431047347667
99.15 -0.3527837960483602 -0.9281087107939319
99.5 0.024610825597655595 0.6766668906084423
99.85 -0.6619889578013716 0.5901784757812039
100.2 0.6142205654233492 -0.47111828786961674
100.55 0.556491877524055 0.5105949580573357
100.9 -0.5567106704878126 -0.2933220479438894
101.25 -0.8167095818099634 -0.6019326223413615
101.6 0.41417679153309117 0.8610230657776814
101.95 -0.24179507640617737 -0.6407883237458569
102.3 -0.921833907104219 -0.48338428481679885
102.65 0.5533156851564587 -0.9642865344471987
103.0 0.9173026052301043 -0.3743605083889081
103.35 0.8118056488347107 -0.842524604369252
103.7 0.11211287009144355 -0.8323033705302765
104.05 0.018018924243559775 -0.8171082501779301
104.4 0.9856408324433816 -0.2784094781221036
104.75 0.7983422045464008 0.5575252808296833
105.1 0.7000365529980632 -0.5436563583778184
105.45 0.1822644012107062 0.8302953350458175
105.8 -0.38150942405179356 0.25090812181685873
106.15 0.2841175117642001 0.06654427151643305
106.5 0.8287309794004609 -0.7263540740524104
106.85 -0.4543844399889081 -0.1264380307037103
107.2 -0.8646002444668544 -0.2898798247405441
107.55 0.4934218256580851 0.9225149825492773
107.9 -0.6741350071610226 0.25271677976684015
108.25 -0.15984513664817435 -0.24352796298802248
108.6 0.25924491667675786 0.5926941623876136
108.95 0.037255798897837034 -0.7509754471913601
109.3 0.25843653788632226 0.872855119151245
109.65 0.15048126527397976 0.6948666481448007
110.0 -0.6575807890949181 -0.8377272977586683
