!Created with skrf (http://scikit-rf.org).
# GHz S RI R 50.0 
!freq ReS11 ImS11
75.0 -1.507159031223356 -2.1345574711909174
75.35 -1.2734347582046874 2.5370691319331278
75.7 -2.91328551657329 1.6582897113632287
76.05 2.628661542650305 -1.301019501870136
76.4 -2.5180302020283367 -2.3759660994526826
76.75 1.0207520837804713 -2.162445289282788
77.1 -0.6596575921151748 -0.019988392210255057
77.45 1.4864799340240553 -1.7385677159736042
77.8 1.6441012913002742 0.392647937665783
78.15 -2.0461517801770377 1.9919086194836906
78.5 -1.0590270357360791 1.2329928015518525
78.85 -2.854430600268598 0.09381913809995446
79.2 -1.5825182056674638 2.0961821194936507
79.55 -1.8490752056783437 -2.839583299595077
79.9 2.4700323403802447 -0.8524234822126011
80.25 -2.226897833774909 2.293547679096715
80.6 -1.4000162956862734 -0.8177482392887054
80.95 1.9594751610767545 1.5337008327886676
81.3 0.5191323911393608 -1.0203619520450389
81.65 1.0499424130249584 -1.163927121213865
82.0 -1.7608367471021877 -0.9361918359891588
82.35 2.526656076066512 -1.0181938262021335
82.7 -0.554899123516132 2.3099263627780773
83.05 -2.917451305810319 -2.143908468265299
83.4 -0.11924566783115487 -1.3189701176206736
83.75 -1.8322370604526688 2.8556004550813845
84.1 -0.46042847428513034 0.5094944212548687
84.45 -0.4982930474680882 1.4510280802492992
84.8 0.3576935766051792 -1.0061686739115505
85.15 1.6275348968588412 -1.6251330571097697
85.5 -0.3168716661805977 -0.5715968428522924
85.85 1.4695687994400517 0.8174888613914051
86.2 -2.652411658709461 -0.14300568704549543
86.55 0.49276069531407574 1.3056604871877886
86.9 -0.5061395638045967 1.8012863885096606
87.25 1.177762855260526 -1.7068623933178995
87.6 -1.7358335618248786 0.6692428640544068
87.95 -0.2706692240206585 -2.1515920609598043
88.3 -1.0034079211667886 2.6153922956967808
88.65 0.17022395343193053 2.3671234155155867
89.0 -1.4438346436721778 -2.2310444960193596
89.35 -0.5343164155593836 -2.5491605859137234
89.7 -0.9591740043916517 -1.001828775925883
90.05 0.5664267924385347 2.5588436707792583
90.4 0.9183345256001842 0.49266902853110617
90.75 0.5909558200755154 -2.38655179833668
91.1 0.04528854352519818 1.8489976177849943
91.45 0.41693742372117404 0.2328437937518546
91.8 -0.1546180501248977 -1.2069049674918282
92.15 -0.2934976603887556 -1.9617151333435694
92.5 0.02965082606718905 1.3664335125432279
92.85 -0.2163232508115882 0.3659699089218924
93.2 -2.821327292194001 -1.4347547651583874
93.55 2.6769495642674 2.0786082408100026
93.9 -2.572731189348958 -2.322005587298693
94.25 2.2886077314187223 -1.6632895594855537
94.6 -2.7797627895066244 -1.8213163918078263
94.95 -0.7333186448057951 -0.21185571180890617
95.3 -0.44208521588680294 2.403166495218158
95.65 -2.2184827506773024 2.2613322273242913
96.0 -2.008234977006251 1.5834055016463673
96.35 -2.7508281164584836 1.9829183087034308
96.7 -0.7420675239872092 -0.9251567931569573
97.05 0.7171474548321402 2.3172291350006757
97.4 -2.0465102574097838 -2.1166170819165133
97.75 -0.6504186170958373 -0.5085167632570398
98.1 -0.5994061252377536 -0.5461574954359221
98.45 1.2710798998774449 -1.4667776464551199
98.8 1.4569756713085193 -0.2717800910620245
99.15 1.1960913483581626 2.5484028244728787
99.5 1.566599308996331 -2.5710505964568955
99.85 2.6872487318201244 0.02084811437814338
100.2 -1.684688775001399 2.3625726908897784
100.55 1.1305522782147286 -0.23310994251428085
100.9 2.0811846919378185 1.5836136231268008
101.25 0.24142097315767064 1.678200795820236
101.6 2.861778514047688 1.3389771885395798
101.95 2.9786866302033306 -2.0118056280433483
102.3 2.128648043309168 -2.8504542765699643
102.65 1.659625761735414 -0.8151244270303932
103.0 -0.9347536793499553 2.3667074649455295
103.35 -1.6896407104412898 -0.20961556011007731
103.7 1.0241058881828864 1.9887095812599715
104.05 2.848790395873606 0.4563850928835411
104.4 0.17920161899544196 -0.20517517331026935
104.75 -2.992110786954912 2.1809931613958025
105.1 -0.5987398756258859 -0.6179575610515211
105.45 0.5037915615842063 0.32703052126563414
105.8 -1.5826048876396093 -1.6604218709924208
106.15 0.5971319083303841 -1.004343438225376
106.5 -2.422378854649781 -0.03703099186542058
106.85 -2.410075277771899 0.5273665724342225
107.2 -0.7961176006354627 -2.936915336149694
107.55 -1.0165244374901554 -2.124200326343882
107.9 1.64702772800487 0.07614010841575025
108.25 -0.47559035196395416 0.32930094335848037
108.6 0.07019522899305075 2.541365754932256
108.95 2.389515980679557 -2.9246481349595905
109.3 -2.5751142904806548 1.3795609757606813
109.65 1.5741875438448385 0.47755787813188255
110.0 -0.9089309153414373 0.5351524510463479
