!Created with skrf (http://scikit-rf.org).
# GHz S RI R 50.0 
!freq ReS11 ImS11
75.0 -1.9608481372463509 2.5918808088133964
75.35 -0.7958363798374282 0.0540854925306562
75.7 -0.8495149203614687 -2.6272330775033894
76.05 1.4545553036801357 -2.9484180198445964
76.4 1.8987897346253444 1.9568563107585297
76.75 -1.2393616108455914 -0.4637925647557586
77.1 0.004458065905369457 2.291839530818705
77.45 0.29651194262329694 0.9414081113339914
77.8 -2.008328790144007 -2.802494058752125
78.15 1.0726319102217727 0.02434325837864848
78.5 2.5388441716388988 0.5406279866331047
78.85 1.0144121441450318 -1.4846997283906334
79.2 -1.5246207251086012 1.0868220986869626
79.55 0.6922395570843278 0.4782251272002691
79.9 1.0092826286050522 -0.2692012619054851
80.25 2.6500735632244665 -1.0375706178967998
80.6 0.970372968094914 1.0478942941389695
80.95 2.002291574187615 -0.48719031197708107
81.3 -2.986650322078109 1.8270030129064156
81.65 -2.362482193040579 -0.7808003927121694
82.0 0.8394711055136439 0.132869733776795
82.35 -2.59402347504981 1.3976888140258297
82.7 0.6621879187097348 -2.8667573134091144
83.05 0.36564989468179654 2.4213594413015187
83.4 2.711006963305212 0.21503649528080238
83.75 -2.106662938956875 -0.21246850120502492
84.1 1.7871888180269582 -2.110225568423763
84.45 -2.597814436027777 1.0998176887761533
84.8 -2.068471211101606 -1.279989460520346
85.15 -2.2737634514593363 0.613992716929008
85.5 0.6525222554125942 -2.9548520605880837
85.85 0.8055171598841995 2.321625802252899
86.2 0.23043470717634618 2.1332458240151118
86.55 0.8941625827463693 -0.3804863397995193
86.9 -2.9153198160029907 1.690945079041288
87.25 2.4645735053523325 2.8214978035063716
87.6 -1.778757072336183 -1.5794268262429276
87.95 1.0419475846116149 2.491785134300339
88.3 1.734232460937289 1.639088008587531
88.65 -2.0044636537083553 1.1355223232893639
89.0 -2.7669057910165895 0.8312166013325837
89.35 2.9317475079641655 1.1250076435259908
89.7 0.6799355458289933 -0.9274149766796689
90.05 -0.43484349691390745 -2.994006879428964
90.4 2.9362516513469665 -2.090837961471263
90.75 -2.243694217062891 0.5987358441962958
91.1 1.909127984053113 -1.8695760631856186
91.45 -1.8775493272722033 2.890514571024569
91.8 -2.764367845382666 -2.7258106901666297
92.15 0.04387128429095988 -0.00456085245006177
92.5 2.3641416509052515 -2.9484018710535773
92.85 0.21081438852456058 0.9081397493066028
93.2 -2.6865444291636926 -0.20633076408167272
93.55 -2.257211924251626 -0.5238154389989109
93.9 -0.6704878289837546 0.7176790533217456
94.25 0.40812373644145006 -2.0946391043535915
94.6 1.3553759764002358 2.5881412353786803
94.95 0.8463254063442958 2.6170782633164684
95.3 -2.0797374845327106 0.7398686794964564
95.65 -1.5606454299707033 -0.12674080544556987
96.0 -2.377390433635231 1.1274478664078265
96.35 -1.1246275337573362 -2.5381798394740454
96.7 -2.667219111017462 -2.9135349713378416
97.05 0.7508883810363793 -2.12457041519254
97.4 1.6897665920837903 -2.1191618660906393
97.75 -0.5611935815238083 -1.2696685918388282
98.1 2.732285526731129 -0.7797715984451874
98.45 0.9469897061740273 -0.805996088395696
98.8 -1.2067745534903362 1.8552521687130383
99.15 2.3589114567483906 2.433641498021486
99.5 -0.6682313672373819 -0.9619122889226075
99.85 1.707980260540602 -2.427035453876362
100.2 -0.19127191468971216 -2.467194698255696
100.55 -1.9400765381876066 -0.9656295322918822
100.9 1.6326858270190898 -2.761695350000262
101.25 -0.9203017714468145 0.15637188658950119
101.6 -0.41622560286864796 2.2426139940708256
101.95 1.6950258948491082 -0.029278173720052036
102.3 -1.264164845887156 -2.673419024106156
102.65 -0.5565902750730329 -1.6261333571189418
103.0 -0.8331583977268644 1.3141746662877305
103.35 2.457756801609832 0.4339080355784988
103.7 2.0395615651943055 1.0534570478673173
104.05 2.052212688011057 -1.6341521692829575
104.4 2.5305041269028976 -2.337699485088706
104.75 -1.287368628766591 0.42457019233113935
105.1 0.18541915555366817 -2.656538899738007
105.45 -0.9495070519968372 1.929337882690416
105.8 1.8059087185949803 1.0574436669963403
106.15 -0.4117254720980634 -1.1688085528032768
106.5 1.655335626129993 -1.473302292898823
106.85 2.046851516184667 0.08963095315798086
107.2 -2.1215328486890526 1.3488927602210683
107.55 -2.8572453017663926 1.3907395877208235
107.9 1.9350913934938037 2.9430458996711497
108.25 1.2920770930071104 -2.160154047726321
108.6 0.5673912690053469 0.8935276837233892
108.95 2.9011580456054564 1.5762760918022793
109.3 -1.6545026949126547 1.9779002490754796
109.65 -0.9444937925814161 -1.0754807207665658
110.0 0.8305656292560055 -0.2150000556501528
