# GHz S RI R 50.0 
!freq	ReS11	ImS11	
500.0	-0.953184625554	0.261250002854	
500.625	-0.952952870671	0.261740983134	
501.25	-0.952721115788	0.262231963414	
501.875	-0.952485245664	0.262737903916	
502.5	-0.952249375541	0.263243844418	
503.125	-0.952010527826	0.263761434343	
503.75	-0.951771680112	0.264279024268	
504.375	-0.951530950546	0.264805086081	
505.0	-0.95129022098	0.265331147894	
505.625	-0.951048661167	0.265862641364	
506.25	-0.950807101354	0.266394134833	
506.875	-0.950565716577	0.266928160329	
507.5	-0.9503243318	0.267462185825	
508.125	-0.950084078908	0.267995986902	
508.75	-0.949843826017	0.268529787979	
509.375	-0.949605611421	0.269060753255	
510.0	-0.949367396824	0.269591718532	
510.625	-0.949132074619	0.270117382904	
511.25	-0.948896752415	0.270643047277	
511.875	-0.948665122682	0.271161092491	
512.5	-0.948433492949	0.271679137706	
513.125	-0.948206300225	0.272187392322	
513.75	-0.947979107501	0.272695646937	
514.375	-0.947757039463	0.27319208572	
515.0	-0.947534971424	0.273688524503	
515.625	-0.947318657789	0.274171267285	
516.25	-0.947102344154	0.274654010067	
516.875	-0.946892355814	0.275121320109	
517.5	-0.946682367475	0.275588630151	
518.125	-0.946479215874	0.276038912051	
518.75	-0.946276064272	0.276489193951	
519.375	-0.946080201019	0.276920991139	
520.0	-0.945884337767	0.277352788328	
520.625	-0.945696154516	0.277764780183	
521.25	-0.945507971266	0.278176772039	
521.875	-0.945327799826	0.278567770676	
522.5	-0.945147628386	0.278958769313	
523.125	-0.944975741084	0.279327716065	
523.75	-0.944803853781	0.279696662817	
524.375	-0.944640464061	0.28004262447	
525.0	-0.944477074342	0.280388586124	
525.625	-0.944322337595	0.280710750926	
526.25	-0.944167600847	0.281032915727	
526.875	-0.944021615456	0.281330589207	
527.5	-0.943875630066	0.281628262687	
528.125	-0.943738438666	0.28190086333	
528.75	-0.943601247265	0.282173463973	
529.375	-0.943472838188	0.28242051877	
530.0	-0.943344429111	0.282667573566	
530.625	-0.943224738018	0.282888713469	
531.25	-0.943105046926	0.283109853373	
531.875	-0.942993958602	0.283304808698	
532.5	-0.942882870277	0.283499764024	
533.125	-0.942780220569	0.283668359807	
533.75	-0.942677570861	0.283836955589	
534.375	-0.942583148758	0.283979106928	
535.0	-0.942488726655	0.284121258267	
535.625	-0.942402276476	0.284236965681	
536.25	-0.942315826296	0.284352673095	
536.875	-0.942237049978	0.284442017902	
537.5	-0.94215827366	0.284531362709	
538.125	-0.942086833138	0.284594502454	
538.75	-0.942015392615	0.284657642199	
539.375	-0.941950912255	0.284694806142	
540.0	-0.941886431895	0.284731970085	
540.625	-0.941828500995	0.284743454765	
541.25	-0.941770570095	0.284754939445	
541.875	-0.94171874541	0.284741104333	
542.5	-0.941666920725	0.284727269221	
543.125	-0.941620729025	0.284688532469	
543.75	-0.941574537324	0.284649795718	
544.375	-0.941533477954	0.284586630023	
545.0	-0.941492418584	0.284523464329	
545.625	-0.94145596603	0.284436392905	
546.25	-0.941419513476	0.284349321482	
546.875	-0.941387119912	0.284238914162	
547.5	-0.941354726348	0.284128506842	
548.125	-0.941325824156	0.283995376304	
548.75	-0.941296921964	0.283862245765	
549.375	-0.941270926228	0.283707043895	
550.0	-0.941244930492	0.283551842025	
550.625	-0.941221241438	0.283375256413	
551.25	-0.941197552385	0.283198670801	
551.875	-0.94117555778	0.28300142138	
552.5	-0.941153563175	0.282804171958	
553.125	-0.941132640658	0.282587007776	
553.75	-0.941111718142	0.282369843594	
554.375	-0.941091237498	0.282133539737	
555.0	-0.941070756853	0.28189723588	
555.625	-0.941050082211	0.281642590528	
556.25	-0.941029407569	0.281387945177	
556.875	-0.941007899529	0.281115776807	
557.5	-0.94098639149	0.280843608437	
558.125	-0.94096340917	0.28055475316	
558.75	-0.940940426851	0.280265897882	
559.375	-0.940915329852	0.279961206921	
560.0	-0.940890232853	0.27965651596	
560.625	-0.940862383136	0.279336853266	
561.25	-0.940834533419	0.279017190572	
561.875	-0.940803297104	0.278683430569	
562.5	-0.940772060788	0.278349670566	
563.125	-0.940736809855	0.27800269603	
563.75	-0.940701558921	0.277655721493	
564.375	-0.940661672831	0.277296421554	
565.0	-0.940621786741	0.276937121615	
565.625	-0.940576653964	0.276566389888	
566.25	-0.940531521186	0.27619565816	
566.875	-0.940480540638	0.275814390992	
567.5	-0.940429560091	0.275433123823	
568.125	-0.940372142491	0.275042218653	
568.75	-0.940314724891	0.274651313484	
569.375	-0.940250294019	0.274251667324	
570.0	-0.940185863147	0.273852021163	
570.625	-0.940113857025	0.273444529172	
571.25	-0.940041850903	0.273037037181	
571.875	-0.939961722887	0.272622591351	
572.5	-0.93988159487	0.272208145521	
573.125	-0.939792814658	0.271787633456	
573.75	-0.939704034447	0.271367121392	
574.375	-0.939606089013	0.27094142518	
575.0	-0.939508143579	0.270515728968	
575.625	-0.939400538015	0.270085724137	
576.25	-0.93929293245	0.269655719305	
576.875	-0.939175190743	0.269222273862	
577.5	-0.939057449036	0.268788828419	
578.125	-0.938929114763	0.268352801968	
578.75	-0.938800780491	0.267916775517	
579.375	-0.938661417448	0.267479018442	
580.0	-0.938522054406	0.267041261366	
580.625	-0.938371247161	0.266602614083	
581.25	-0.938220439917	0.266163966799	
581.875	-0.9380577943	0.265725259065	
582.5	-0.937895148683	0.26528655133	
583.125	-0.937720292211	0.264848601609	
583.75	-0.93754543574	0.264410651889	
584.375	-0.937358017981	0.263974266766	
585.0	-0.937170600221	0.263537881644	
585.625	-0.936970293096	0.263103855281	
586.25	-0.936769985971	0.262669828917	
586.875	-0.936556484006	0.262238942545	
587.5	-0.93634298204	0.261808056172	
588.125	-0.936116002557	0.261381077621	
588.75	-0.935889023074	0.260954099069	
589.375	-0.935648306338	0.260531782323	
590.0	-0.935407589603	0.260109465577	
590.625	-0.935152898918	0.259692550351	
591.25	-0.934898208233	0.259275635126	
591.875	-0.934629329992	0.258864846462	
592.5	-0.93436045175	0.258454057798	
593.125	-0.934077195441	0.258050105671	
593.75	-0.933793939132	0.257646153543	
594.375	-0.933496137311	0.25724973248	
595.0	-0.93319833549	0.256853311418	
595.625	-0.932885843707	0.25646510012	
596.25	-0.932573351924	0.256076888822	
596.875	-0.932246048619	0.255697549784	
597.5	-0.931918745314	0.255318210745	
598.125	-0.93157653168	0.254948389875	
598.75	-0.931234318046	0.254578569005	
599.375	-0.93087711786	0.254218895237	
600.0	-0.930519917675	0.253859221469	
600.625	-0.930147677103	0.253510306362	
601.25	-0.929775436531	0.253161391255	
601.875	-0.929388123902	0.252823828586	
602.5	-0.929000811273	0.252486265918	
603.125	-0.928598416836	0.252160631253	
603.75	-0.928196022399	0.251834996589	
604.375	-0.927778558052	0.251521846843	
605.0	-0.927361093706	0.251208697097	
605.625	-0.926928592711	0.250908570068	
606.25	-0.926496091716	0.25060844304	
606.875	-0.926048608388	0.250321856933	
607.5	-0.92560112506	0.250035270825	
608.125	-0.925138734447	0.249762723744	
608.75	-0.924676343834	0.249490176662	
609.375	-0.924199141377	0.249232146089	
610.0	-0.92372193892	0.248974115515	
610.625	-0.923230040105	0.248731057765	
611.25	-0.92273814129	0.248488000015	
611.875	-0.922231681282	0.24826034967	
612.5	-0.921725221275	0.248032699326	
613.125	-0.921204354547	0.247820868651	
613.75	-0.92068348782	0.247609037976	
614.375	-0.920148387771	0.247413416316	
615.0	-0.919613287722	0.247217794655	
615.625	-0.919064146284	0.247038747811	
616.25	-0.918515004845	0.246859700968	
616.875	-0.917952032088	0.246697570573	
617.5	-0.917389059332	0.246535440178	
618.125	-0.916812483062	0.246390543049	
618.75	-0.916235906792	0.24624564592	
619.375	-0.915645972142	0.246118273408	
620.0	-0.915056037493	0.245990900896	
620.625	-0.914453006514	0.245881318238	
621.25	-0.913849975535	0.24577173558	
621.875	-0.913234126779	0.245680181248	
622.5	-0.912618278023	0.245588626917	
623.125	-0.911989906132	0.245515311979	
623.75	-0.911361534242	0.245441997041	
624.375	-0.910720949533	0.245387104534	
625.0	-0.910080364825	0.245332212026	
625.625	-0.909427892878	0.245295896351	
626.25	-0.908775420931	0.245259580676	
626.875	-0.908111402181	0.245241967025	
627.5	-0.90744738343	0.245224353374	
628.125	-0.906772172767	0.245225537192	
628.75	-0.906096962104	0.245226721009	
629.375	-0.905410928491	0.245246767501	
630.0	-0.904724894878	0.245266813993	
630.625	-0.904028420979	0.245305757697	
631.25	-0.90333194708	0.245344701401	
631.875	-0.902625428923	0.24540254582	
632.5	-0.901918910766	0.245460390238	
633.125	-0.901202757441	0.245537107553	
633.75	-0.900486604116	0.245613824868	
634.375	-0.899761237529	0.245709355749	
635.0	-0.899035870942	0.24580488663	
635.625	-0.89830172565	0.24591914014	
636.25	-0.897567580357	0.246033393649	
636.875	-0.896825103502	0.246166247261	
637.5	-0.896082626646	0.246299100874	
638.125	-0.895332278046	0.246450400607	
638.75	-0.894581929446	0.246601700339	
639.375	-0.893824181885	0.246771260993	
640.0	-0.893066434323	0.246940821647	
640.625	-0.892301774108	0.24712842714	
641.25	-0.891537113894	0.247316032634	
641.875	-0.890766041785	0.247521436379	
642.5	-0.889994969675	0.247726840125	
643.125	-0.889218002278	0.247949765373	
643.75	-0.888441034881	0.248172690622	
644.375	-0.887658706655	0.248412830622	
645.0	-0.886876378428	0.248652970622	
645.625	-0.886089244429	0.248909988355	
646.25	-0.885302110429	0.249167006089	
646.875	-0.884510749904	0.249440533205	
647.5	-0.88371938938	0.249714060322	
648.125	-0.882924410238	0.250003694701	
648.75	-0.882129431096	0.25029332908	
649.375	-0.881331475057	0.250598630233	
650.0	-0.880533519019	0.250903931387	
650.625	-0.879733266851	0.251224412665	
651.25	-0.878933014683	0.251544893944	
651.875	-0.878131190209	0.251880010411	
652.5	-0.877329365736	0.252215126878	
653.125	-0.876526736257	0.252564257963	
653.75	-0.875724106778	0.252913389047	
654.375	-0.874921476196	0.25327581609	
655.0	-0.874118845614	0.253638243132	
655.625	-0.873317035472	0.254013124231	
656.25	-0.872515225329	0.25438800533	
656.875	-0.871715039181	0.254774353709	
657.5	-0.870914853033	0.255160702089	
658.125	-0.870117022874	0.255557378861	
658.75	-0.869319192716	0.255954055632	
659.375	-0.86852431395	0.256359790609	
660.0	-0.867729435184	0.256765525587	
660.625	-0.866937907723	0.257178976333	
661.25	-0.866146380263	0.257592427079	
661.875	-0.865358381752	0.258012273023	
662.5	-0.864570383241	0.258432118967	
663.125	-0.863785896838	0.258857167497	
663.75	-0.863001410435	0.259282216028	
664.375	-0.862220309462	0.259711483129	
665.0	-0.861439208489	0.260140750231	
665.625	-0.860661372511	0.260573483413	
666.25	-0.859883536534	0.261006216595	
666.875	-0.85910895725	0.261441853223	
667.5	-0.858334377966	0.261877489851	
668.125	-0.857563220802	0.262315572925	
668.75	-0.856792063637	0.262753655998	
669.375	-0.856024675253	0.263193742727	
670.0	-0.855257286868	0.263633829457	
670.625	-0.854494161724	0.264075420933	
671.25	-0.853731036581	0.264517012409	
671.875	-0.852972765078	0.264959515574	
672.5	-0.852214493575	0.265402018739	
673.125	-0.851461710842	0.265844737256	
673.75	-0.850708928108	0.266287455774	
674.375	-0.849962273721	0.266729599793	
675.0	-0.849215619334	0.267171743812	
675.625	-0.848475710489	0.267612448594	
676.25	-0.847735801645	0.268053153376	
676.875	-0.847003217897	0.268491499762	
677.5	-0.84627063415	0.268929846149	
678.125	-0.845545910368	0.269364879102	
678.75	-0.844821186586	0.269799912054	
679.375	-0.844104810957	0.270230655852	
680.0	-0.843388435328	0.27066139965	
680.625	-0.842680850054	0.27108686967	
681.25	-0.841973264781	0.271512339689	
681.875	-0.841274867924	0.271931551264	
682.5	-0.840576471067	0.272350762839	
683.125	-0.839887618655	0.272762737865	
683.75	-0.839198766244	0.27317471289	
684.375	-0.838519774193	0.273578484782	
685.0	-0.837840782142	0.273982256674	
685.625	-0.8371719278	0.274376874168	
686.25	-0.836503073458	0.274771491661	
686.875	-0.835844596734	0.275156021817	
687.5	-0.83518612001	0.275540551974	
688.125	-0.834538224121	0.275914082647	
688.75	-0.833890328232	0.27628761332	
689.375	-0.833253180127	0.276649255253	
690.0	-0.832616032022	0.277010897185	
690.625	-0.831989762562	0.277359785847	
691.25	-0.831363493103	0.277708674508	
691.875	-0.830748197056	0.278043971744	
692.5	-0.83013290101	0.27837926898	
693.125	-0.829528636927	0.278700164509	
693.75	-0.828924372844	0.279021060039	
694.375	-0.828331162866	0.279326772826	
695.0	-0.827737952889	0.279632485613	
695.625	-0.827155782531	0.279922265116	
696.25	-0.826573612173	0.280212044619	
696.875	-0.826002430111	0.280485171928	
697.5	-0.825431248048	0.280758299238	
698.125	-0.824870965947	0.281014088085	
698.75	-0.824310683846	0.281269876933	
699.375	-0.823761176254	0.281507674582	
700.0	-0.823211668662	0.281745472231	
700.625	-0.822672772977	0.281964660229	
701.25	-0.822133877292	0.282183848226	
701.875	-0.821605393833	0.282383843016	
702.5	-0.821076910373	0.282583837806	
703.125	-0.820558602551	0.282764091196	
703.75	-0.82004029473	0.282944344585	
704.375	-0.819531889355	0.283104344048	
705.0	-0.819023483981	0.28326434351	
705.625	-0.818524671682	0.283403612335	
706.25	-0.818025859383	0.283542881159	
706.875	-0.817536295174	0.283660978422	
707.5	-0.817046730964	0.283779075684	
708.125	-0.816566034947	0.283875596048	
708.75	-0.816085338929	0.283972116412	
709.375	-0.815613097149	0.284046689749	
710.0	-0.815140855369	0.284121263086	
710.625	-0.814676620815	0.284173553909	
711.25	-0.814212386261	0.284225844732	
711.875	-0.813755680018	0.284255551442	
712.5	-0.813298973775	0.284285258153	
713.125	-0.812849286333	0.2842921121	
713.75	-0.81239959889	0.284298966046	
714.375	-0.811956391604	0.28428273039	
715.0	-0.811513184318	0.284266494733	
715.625	-0.811075891024	0.284226963118	
716.25	-0.810638597729	0.284187431504	
716.875	-0.81020662651	0.284124426544	
717.5	-0.809774655291	0.284061421584	
718.125	-0.809347390395	0.283974793146	
718.75	-0.808920125499	0.283888164708	
719.375	-0.808496929406	0.283777788015	
720.0	-0.808073733313	0.283667411322	
720.625	-0.807653948941	0.28353318487	
721.25	-0.80723416457	0.283398958417	
721.875	-0.806817117627	0.283240801702	
722.5	-0.806400070685	0.283082644986	
723.125	-0.805985072152	0.282900496062	
723.75	-0.805570073618	0.282718347138	
724.375	-0.805156422359	0.282512160001	
725.0	-0.804742771099	0.282305972865	
725.625	-0.804329756597	0.282075714672	
726.25	-0.803916742095	0.28184545648	
726.875	-0.803503647304	0.281591104614	
727.5	-0.803090552513	0.281336752747	
728.125	-0.802676656808	0.28105829173	
728.75	-0.802262761103	0.280779830713	
729.375	-0.801847343337	0.280477248993	
730.0	-0.801431925571	0.280174667272	
730.625	-0.801014267211	0.279847953876	
731.25	-0.800596608852	0.27952124048	
731.875	-0.800175997199	0.279170381563	
732.5	-0.799755385547	0.278819522646	
733.125	-0.799331117013	0.278444497935	
733.75	-0.798906848478	0.278069473224	
734.375	-0.798478231918	0.277670252386	
735.0	-0.798049615358	0.277271031548	
735.625	-0.797615975442	0.276847570486	
736.25	-0.797182335526	0.276424109424	
736.875	-0.796743016132	0.275976346526	
737.5	-0.796303696737	0.275528583628	
738.125	-0.795858064349	0.275056435985	
738.75	-0.79541243196	0.274584288342	
739.375	-0.794959879058	0.274087647953	
740.0	-0.794507326156	0.273591007564	
740.625	-0.794047274583	0.273069737545	
741.25	-0.793587223011	0.272548467526	
741.875	-0.793119127286	0.272002398352	
742.5	-0.79265103156	0.271456329178	
743.125	-0.792174382124	0.270885254971	
743.75	-0.791697732687	0.270314180764	
744.375	-0.791212059066	0.26971785565	
745.0	-0.790726385445	0.269121530537	
745.625	-0.790231259298	0.2684996651	
746.25	-0.789736133152	0.267877799663	
746.875	-0.789231171184	0.267230057506	
747.5	-0.788726209217	0.26658231535	
748.125	-0.788211075933	0.265908309799	
748.75	-0.78769594265	0.265234304249	
749.375	-0.787170352924	0.26453359521	
750.0	-0.786644763199	0.263832886171	
