# GHz S RI R 50.0 
!freq	ReS11	ImS11	
500.0	-0.323782459683	0.913485132449	
500.625	-0.322139270988	0.913955143571	
501.25	-0.320496082293	0.914425154694	
501.875	-0.318837057217	0.914894962555	
502.5	-0.31717803214	0.915364770416	
503.125	-0.315506457867	0.915833349387	
503.75	-0.313834883595	0.916301928359	
504.375	-0.312153925293	0.916768324681	
505.0	-0.310472966991	0.917234721002	
505.625	-0.308785662651	0.917698051656	
506.25	-0.307098358311	0.918161382309	
506.875	-0.305407614217	0.918620833451	
507.5	-0.303716870123	0.919080284593	
508.125	-0.302025456955	0.919535109591	
508.75	-0.300334043788	0.919989934589	
509.375	-0.298644593375	0.920439451714	
510.0	-0.296955142962	0.920888968839	
510.625	-0.295270145669	0.921332558663	
511.25	-0.293585148377	0.921776148487	
511.875	-0.291906951137	0.92221325103	
512.5	-0.290228753898	0.922650353573	
513.125	-0.288559558869	0.923080465254	
513.75	-0.28689036384	0.923510576935	
514.375	-0.285232227663	0.923933247366	
515.0	-0.283574091486	0.924355917798	
515.625	-0.281928925147	0.924770746468	
516.25	-0.280283758808	0.925185575139	
516.875	-0.278653328056	0.925592208026	
517.5	-0.277022897304	0.925998840914	
518.125	-0.275408823611	0.926396967065	
518.75	-0.273794749918	0.926795093215	
519.375	-0.272198511951	0.927184441323	
520.0	-0.270602273984	0.927573789432	
520.625	-0.269025209549	0.927954124456	
521.25	-0.267448145113	0.92833445948	
521.875	-0.265891453548	0.928705579313	
522.5	-0.264334761983	0.929076699145	
523.125	-0.262799506954	0.929438431373	
523.75	-0.261264251925	0.929800163601	
524.375	-0.259751364599	0.930152362373	
525.0	-0.258238477274	0.930504561145	
525.625	-0.256748759825	0.93084710416	
526.25	-0.255259042377	0.931189647175	
526.875	-0.25379317179	0.931522432814	
527.5	-0.252327301203	0.931855218452	
528.125	-0.250885833346	0.932178163058	
528.75	-0.24944436549	0.932501107663	
529.375	-0.24802773941	0.932814142987	
530.0	-0.246611113331	0.933127178311	
530.625	-0.245219655746	0.933430249125	
531.25	-0.24382819816	0.933733319938	
531.875	-0.242462128107	0.934026381815	
532.5	-0.241096058053	0.934319443692	
533.125	-0.23975549167	0.934602460968	
533.75	-0.238414925287	0.934885478245	
534.375	-0.237099880687	0.935158422154	
535.0	-0.235784836087	0.935431366063	
535.625	-0.234495238306	0.935694213039	
536.25	-0.233205640526	0.935957060014	
536.875	-0.231941326506	0.936209790174	
537.5	-0.230677012486	0.936462520334	
538.125	-0.22943773608	0.936705116119	
538.75	-0.228198459674	0.936947711903	
539.375	-0.226983896638	0.937180156884	
540.0	-0.225769333603	0.937412601866	
540.625	-0.224579086566	0.937634879704	
541.25	-0.223388839529	0.937857157543	
541.875	-0.222222442907	0.938069251096	
542.5	-0.221056046286	0.938281344649	
543.125	-0.219912971134	0.938483235219	
543.75	-0.218769895982	0.93868512579	
544.375	-0.217649554758	0.938876792504	
545.0	-0.216529213533	0.939068459219	
545.625	-0.21543096477	0.939249878533	
546.25	-0.214332716006	0.939431297848	
546.875	-0.213255868868	0.939602443166	
547.5	-0.212179021729	0.939773588485	
548.125	-0.211122840451	0.939934429888	
548.75	-0.210066659174	0.940095271291	
549.375	-0.209030367366	0.940245775362	
550.0	-0.207994075558	0.940396279433	
550.625	-0.206976860371	0.940536409174	
551.25	-0.205959645184	0.940676538914	
551.875	-0.204960661328	0.940806253748	
552.5	-0.203961677472	0.940935968581	
553.125	-0.202980051085	0.941055224423	
553.75	-0.201998424699	0.941174480264	
554.375	-0.201033257058	0.941283229667	
555.0	-0.200068089417	0.941391979071	
555.625	-0.199118460489	0.941490171427	
556.25	-0.19816883156	0.941588363783	
556.875	-0.197233803387	0.941675945576	
557.5	-0.196298775214	0.941763527369	
558.125	-0.195377395144	0.941840442479	
558.75	-0.194456015075	0.941917357588	
559.375	-0.193547318822	0.941983547632	
560.0	-0.19263862257	0.942049737676	
560.625	-0.191741637114	0.942105142383	
561.25	-0.190844651657	0.94216054709	
561.875	-0.189958397974	0.942205104709	
562.5	-0.189072144292	0.942249662328	
563.125	-0.188195639941	0.942283310052	
563.75	-0.18731913559	0.942316957777	
564.375	-0.186451397122	0.942339632196	
565.0	-0.185583658654	0.942362306615	
565.625	-0.184723703881	0.942373944171	
566.25	-0.183863749108	0.942385581728	
566.875	-0.183010599213	0.942386119191	
567.5	-0.182157449317	0.942386656655	
568.125	-0.181310130819	0.942376031598	
568.75	-0.18046281232	0.942365406541	
569.375	-0.179620358897	0.942343557819	
570.0	-0.178777905474	0.942321709098	
570.625	-0.177939359646	0.942288577328	
571.25	-0.177100813819	0.942255445559	
571.875	-0.1762652285	0.942210973595	
572.5	-0.175429643182	0.942166501631	
573.125	-0.174596083101	0.942110635027	
573.75	-0.173762523021	0.942054768423	
574.375	-0.172930066024	0.941987455895	
575.0	-0.172097609026	0.941920143368	
575.625	-0.171265347259	0.941841337237	
576.25	-0.170433085491	0.941762531106	
576.875	-0.169600126475	0.941672187729	
577.5	-0.168767167458	0.941581844352	
578.125	-0.167932635059	0.941479924536	
578.75	-0.16709810266	0.941378004721	
579.375	-0.16626113796	0.94126447412	
580.0	-0.16542417326	0.94115094352	
580.625	-0.164583935339	0.941025773011	
581.25	-0.163743697419	0.940900602501	
581.875	-0.162899364049	0.940763768535	
582.5	-0.162055030678	0.940626934568	
583.125	-0.161205798937	0.940478419505	
583.75	-0.160356567196	0.940329904442	
584.375	-0.159501654016	0.940169696857	
585.0	-0.158646740836	0.940009489273	
585.625	-0.15778538348	0.939837584239	
586.25	-0.156924026124	0.939665679204	
586.875	-0.156055482602	0.939482078546	
587.5	-0.15518693908	0.939298477887	
588.125	-0.15431048852	0.939103190411	
588.75	-0.153434037959	0.938907902934	
589.375	-0.152548980918	0.938700944632	
590.0	-0.151663923877	0.938493986329	
590.625	-0.150769582627	0.938275380549	
591.25	-0.149875241377	0.938056774769	
591.875	-0.148970960142	0.937826552364	
592.5	-0.148066678907	0.93759632996	
593.125	-0.147151824077	0.937354529406	
593.75	-0.146236969248	0.937112728852	
594.375	-0.145310929573	0.936859396334	
595.0	-0.144384889898	0.936606063816	
595.625	-0.143447076655	0.936341253292	
596.25	-0.142509263411	0.936076442769	
596.875	-0.141559110562	0.935800216005	
597.5	-0.140608957713	0.93552398924	
598.125	-0.139645922059	0.935236415812	
598.75	-0.138682886404	0.934948842385	
599.375	-0.137706447727	0.934649999665	
600.0	-0.136730009049	0.934351156945	
600.625	-0.135739670257	0.934041130049	
601.25	-0.134749331465	0.933731103153	
601.875	-0.133744618747	0.933409984874	
602.5	-0.132739906029	0.933088866596	
603.125	-0.131720369005	0.932756757308	
603.75	-0.130700831982	0.93242464802	
604.375	-0.129666043877	0.932081655558	
605.0	-0.128631255772	0.931738663096	
605.625	-0.127580813593	0.93138490262	
606.25	-0.126530371415	0.931031142143	
606.875	-0.125463896149	0.930666735975	
607.5	-0.124397420882	0.930302329806	
608.125	-0.123314557706	0.929927407252	
608.75	-0.122231694531	0.929552484697	
609.375	-0.121132113048	0.929167181853	
610.0	-0.120032531566	0.928781879009	
610.625	-0.118915926055	0.928386338551	
611.25	-0.117799320544	0.927990798093	
611.875	-0.116665410227	0.92758516905	
612.5	-0.11553149991	0.927179540007	
613.125	-0.114380029247	0.926763977526	
613.75	-0.113228558584	0.926348415045	
614.375	-0.112059297579	0.925923080147	
615.0	-0.110890036574	0.92549774525	
615.625	-0.109702781102	0.925062804576	
616.25	-0.108515525629	0.924627863902	
616.875	-0.107310097779	0.924183489454	
617.5	-0.106104669928	0.923739115006	
618.125	-0.104880918357	0.923285483889	
618.75	-0.103657166787	0.922831852772	
619.375	-0.10241496709	0.92236914693	
620.0	-0.101172767394	0.921906441087	
620.625	-0.0999120224735	0.921434847044	
621.25	-0.0986512775531	0.920963253001	
621.875	-0.0973719179976	0.92048296161	
622.5	-0.096092558442	0.920002670219	
623.125	-0.0947945428998	0.919513876414	
623.75	-0.0934965273575	0.91902508261	
624.375	-0.0921798429051	0.918527985173	
625.0	-0.0908631584527	0.918030887737	
625.625	-0.0895278209498	0.917525689081	
626.25	-0.0881924834469	0.917020490424	
626.875	-0.0868385378716	0.916507396393	
627.5	-0.0854845922963	0.915994302361	
628.125	-0.0841121130545	0.915473522059	
628.75	-0.0827396338127	0.914952741757	
629.375	-0.0813487250137	0.914424487413	
630.0	-0.0799578162147	0.913896233069	
630.625	-0.0785486119051	0.913360719937	
631.25	-0.0771394075955	0.912825206804	
631.875	-0.0757120719435	0.912282653117	
632.5	-0.0742847362915	0.911740099429	
633.125	-0.0728394637151	0.911190726421	
633.75	-0.0713941911387	0.910641353412	
634.375	-0.0699312063699	0.910085385423	
635.0	-0.0684682216011	0.909529417434	
635.625	-0.0669877796839	0.90896708212	
636.25	-0.0655073377667	0.908404746805	
636.875	-0.0640097239871	0.907836275481	
637.5	-0.0625121102076	0.907267804157	
638.125	-0.0609976399643	0.906693432319	
638.75	-0.0594831697209	0.906119060482	
639.375	-0.0579521883529	0.905539028546	
640.0	-0.0564212069849	0.90495899661	
640.625	-0.0548740895942	0.904373550927	
641.25	-0.0533269722036	0.903788105243	
641.875	-0.0517641235359	0.903197499466	
642.5	-0.0502012748682	0.90260689369	
643.125	-0.0486231293571	0.902011390574	
643.75	-0.0470449838459	0.901415887458	
644.375	-0.0454520059908	0.900815761154	
645.0	-0.0438590281357	0.90021563485	
645.625	-0.0422517134689	0.899611173775	
646.25	-0.0406443988021	0.899006712701	
646.875	-0.0390232758216	0.898398222965	
647.5	-0.0374021528411	0.89778973323	
648.125	-0.0357677864323	0.897177542491	
648.75	-0.0341334200234	0.896565351752	
649.375	-0.032486417047	0.895949813112	
650.0	-0.0308394140706	0.895334274473	
650.625	-0.0291804318947	0.894715769584	
651.25	-0.0275214497189	0.894097264695	
651.875	-0.0258512083855	0.893476204576	
652.5	-0.0241809670522	0.892855144456	
653.125	-0.0225002652578	0.892231965606	
653.75	-0.0208195634633	0.891608786757	
654.375	-0.0191292972487	0.890983939225	
655.0	-0.0174390310342	0.890359091692	
655.625	-0.015740211696	0.889733015338	
656.25	-0.0140413923578	0.889106938984	
656.875	-0.0123351566544	0.888480025444	
657.5	-0.0106289209511	0.887853111904	
658.125	-0.00891652332742	0.88722565399	
658.75	-0.00720412570375	0.886598196076	
659.375	-0.00548690177184	0.885970334228	
660.0	-0.00376967783993	0.885342472381	
660.625	-0.00204897455455	0.884714156987	
661.25	-0.000328271269167	0.884085841593	
661.875	0.00139464633454	0.883456834101	
662.5	0.00311756393825	0.882827826609	
663.125	0.00484160227342	0.882197753735	
663.75	0.00656564060859	0.88156768086	
664.375	0.00828992848754	0.880936133926	
665.0	0.0100142163665	0.880304586992	
665.625	0.0117380947131	0.879671234468	
666.25	0.0134619730596	0.879037881944	
666.875	0.0151849282737	0.87840255526	
667.5	0.0169078834877	0.877767228575	
668.125	0.0186294538063	0.877129955942	
668.75	0.020351024125	0.876492683309	
669.375	0.0220707139351	0.875853672114	
670.0	0.0237904037451	0.875214660918	
670.625	0.0255076281945	0.874574248303	
671.25	0.0272248526439	0.873933835688	
671.875	0.0289389167391	0.873292430941	
672.5	0.0306529808342	0.872651026195	
673.125	0.0323630847909	0.872009061468	
673.75	0.0340731887476	0.871367096741	
674.375	0.0357784476659	0.870724992813	
675.0	0.0374837065841	0.870082888885	
675.625	0.0391831746037	0.869441035574	
676.25	0.0408826426232	0.868799182264	
676.875	0.0425753356406	0.868157929881	
677.5	0.0442680286579	0.867516677497	
678.125	0.0459529430589	0.866876335251	
678.75	0.0476378574598	0.866235993005	
679.375	0.0493139844258	0.865596831102	
680.0	0.0509901113919	0.8649576692	
680.625	0.0526564473436	0.864319922438	
681.25	0.0543227832954	0.863682175677	
681.875	0.0559783373468	0.863046047278	
682.5	0.0576338913982	0.862409918878	
683.125	0.0592776906638	0.861775583911	
683.75	0.0609214899295	0.861141248945	
684.375	0.062552583364	0.860508857114	
685.0	0.0641836767985	0.859876465283	
685.625	0.0658011380664	0.859246143016	
686.25	0.0674185993344	0.858615820748	
686.875	0.0690215290526	0.857987672669	
687.5	0.0706244587708	0.85735952459	
688.125	0.0722119863481	0.856733634466	
688.75	0.0737995139255	0.856107744343	
689.375	0.0753707991392	0.855484175613	
690.0	0.0769420843529	0.854860606883	
690.625	0.0784963187436	0.854239402861	
691.25	0.0800505531344	0.853618198839	
691.875	0.0815869612664	0.852999382688	
692.5	0.0831233693983	0.852380566537	
693.125	0.084641210004	0.851764141067	
693.75	0.0861590506097	0.851147715596	
694.375	0.0876576176274	0.850533662949	
695.0	0.0891561846451	0.849919610303	
695.625	0.0906348081458	0.849307891577	
696.25	0.0921134316465	0.848696172851	
696.875	0.093571478644	0.848086727679	
697.5	0.0950295256416	0.847477282506	
698.125	0.0964664007768	0.84687002864	
698.75	0.0979032759119	0.846262774774	
699.375	0.0993184219994	0.845657607689	
700.0	0.100733568087	0.845052440604	
700.625	0.102126466516	0.844449233134	
701.25	0.103519364945	0.843846025665	
701.875	0.104889535923	0.843244627703	
702.5	0.106259706901	0.84264322974	
703.125	0.107606709533	0.842043468	
703.75	0.108953712164	0.841443706259	
704.375	0.110277144354	0.840845384122	
705.0	0.111600576544	0.840247061985	
705.625	0.112900074724	0.839649959437	
706.25	0.114199572904	0.839052856889	
706.875	0.115474811568	0.838456730556	
707.5	0.116750050232	0.837860604222	
708.125	0.118000741285	0.837265187511	
708.75	0.119251432338	0.8366697708	
709.375	0.120477324248	0.836074774162	
710.0	0.121703216159	0.835479777523	
710.625	0.122904092913	0.834884888823	
711.25	0.124104969668	0.834290000123	
711.875	0.125280649526	0.83369488515	
712.5	0.126456329384	0.833099770176	
713.125	0.127606663439	0.83250407327	
713.75	0.128756997493	0.831908376364	
714.375	0.129881868025	0.831311721185	
715.0	0.131006738557	0.830715066007	
715.625	0.132106057201	0.830117056439	
716.25	0.133205375844	0.829519046871	
716.875	0.134279081551	0.828919268061	
717.5	0.135352787257	0.828319489251	
718.125	0.136400844071	0.827717508794	
718.75	0.137448900886	0.827115528336	
719.375	0.138471295538	0.826510897603	
720.0	0.13949369019	0.825906266869	
720.625	0.140490429503	0.825298522472	
721.25	0.141487168815	0.824690778075	
721.875	0.14245827694	0.824079443485	
722.5	0.143429385065	0.823468108896	
723.125	0.144374900555	0.822852696194	
723.75	0.145320416045	0.822237283492	
724.375	0.146240388765	0.821617295265	
725.0	0.147160361485	0.820997307039	
725.625	0.14805484938	0.820372238416	
726.25	0.148949337275	0.819747169794	
726.875	0.149818403002	0.819116510613	
727.5	0.150687468728	0.818485851433	
728.125	0.151531176164	0.817849088548	
728.75	0.1523748836	0.817212325663	
729.375	0.15319329424	0.816568945366	
730.0	0.15401170488	0.815925565069	
730.625	0.154804874143	0.815275055647	
731.25	0.155598043406	0.814624546225	
731.875	0.156366016856	0.813966400623	
732.5	0.157133990305	0.81330825502	
733.125	0.157876799813	0.812641973613	
733.75	0.158619609321	0.811975692206	
734.375	0.159337269182	0.811300785672	
735.0	0.160054929043	0.810625879139	
735.625	0.160747432065	0.809941871421	
736.25	0.161439935087	0.809257863704	
736.875	0.162107248674	0.808564295046	
737.5	0.16277456226	0.807870726389	
738.125	0.163416624505	0.80716715644	
738.75	0.164058686751	0.80646358649	
739.375	0.164675402575	0.805749597458	
740.0	0.165292118398	0.805035608426	
740.625	0.165883355728	0.804310808272	
741.25	0.166474593059	0.803586008118	
741.875	0.167040179103	0.802850033766	
742.5	0.167605765147	0.802114059414	
743.125	0.16814548276	0.801366579965	
743.75	0.168685200372	0.800619100515	
744.375	0.169198784547	0.79985982044	
745.0	0.169712368722	0.799100540366	
745.625	0.170199503236	0.798329202669	
746.25	0.170686637751	0.797557864971	
746.875	0.171146951975	0.796774254276	
747.5	0.171607266199	0.795990643581	
748.125	0.172040332103	0.795194589148	
748.75	0.172473398007	0.794398534716	
749.375	0.172878727379	0.793589913339	
750.0	0.173284056751	0.792781291962	
