# GHz S RI R 50.0 
!freq	ReS11	ImS11	
500.0	0.553762883553	0.772370285156	
500.625	0.555993543173	0.770622716095	
501.25	0.558224202794	0.768875147034	
501.875	0.56045673584	0.76710607308	
502.5	0.562689268886	0.765336999127	
503.125	0.564920899668	0.763548468235	
503.75	0.56715253045	0.761759937343	
504.375	0.569380629285	0.759953964486	
505.0	0.57160872812	0.758147991628	
505.625	0.573830812685	0.756326552354	
506.25	0.576052897251	0.754505113081	
506.875	0.578266633144	0.752670137314	
507.5	0.580480369038	0.750835161546	
508.125	0.582683569598	0.748988527672	
508.75	0.584886770159	0.747141893797	
509.375	0.587077395575	0.745285423088	
510.0	0.589268020991	0.743428952379	
510.625	0.591444176753	0.741564403791	
511.25	0.593620332514	0.739699855204	
511.875	0.595780267252	0.737828920577	
512.5	0.59794020199	0.735957985951	
513.125	0.600082304762	0.734082285641	
513.75	0.602224407534	0.73220658533	
514.375	0.604347204598	0.730327664285	
515.0	0.606470001661	0.728448743239	
515.625	0.608572152799	0.726568067551	
516.25	0.610674303937	0.724687391863	
516.875	0.612754598385	0.722806345788	
517.5	0.614834892833	0.720925299713	
518.125	0.616892244858	0.719045183172	
518.75	0.618949596884	0.71716506663	
519.375	0.620983041073	0.715287093182	
520.0	0.623016485262	0.713409119735	
520.625	0.625025171565	0.711534415034	
521.25	0.627033857868	0.709659710334	
521.875	0.629017046449	0.707789311037	
522.5	0.631000235029	0.70591891174	
523.125	0.632957290966	0.704053764871	
523.75	0.634914346904	0.702188618002	
524.375	0.63684473479	0.700329580748	
525.0	0.638775122677	0.698470543493	
525.625	0.640678401151	0.696618383414	
526.25	0.642581679624	0.694766223335	
526.875	0.644457495877	0.692921618968	
527.5	0.646333312129	0.6910770146	
528.125	0.648181396421	0.689240556432	
528.75	0.650029480714	0.687404098264	
529.375	0.651849640933	0.685576290048	
530.0	0.653669801153	0.683748481833	
530.625	0.655461917438	0.681929742227	
531.25	0.657254033723	0.68011100262	
531.875	0.659018053182	0.67830166711	
532.5	0.660782072642	0.6764923316	
533.125	0.662518004192	0.674692654696	
533.75	0.664253935743	0.672892977792	
534.375	0.665961845081	0.671103135457	
535.0	0.667669754418	0.669313293122	
535.625	0.669349759144	0.667533385414	
536.25	0.67102976387	0.665753477705	
536.875	0.672682028782	0.663983531597	
537.5	0.674334293694	0.662213585488	
538.125	0.67595902626	0.660453557854	
538.75	0.677583758826	0.658693530219	
539.375	0.67918120484	0.656943310946	
540.0	0.680778650855	0.655193091672	
540.625	0.682349090294	0.653452506884	
541.25	0.683919529733	0.651711922096	
541.875	0.68546327281	0.649980737462	
542.5	0.687007015887	0.648249552829	
543.125	0.688524399308	0.646527476935	
543.75	0.690041782729	0.644805401041	
544.375	0.69153316616	0.643092088801	
545.0	0.693024549592	0.641378776561	
545.625	0.694490312325	0.639673832656	
546.25	0.695956075059	0.637968888751	
546.875	0.697396612889	0.636271871073	
547.5	0.69883715072	0.634574853394	
548.125	0.700252873021	0.632885276471	
548.75	0.701668595323	0.631195699548	
549.375	0.703059922324	0.629513037956	
550.0	0.704451249325	0.627830376364	
550.625	0.705818609585	0.626154068083	
551.25	0.707185969844	0.624477759802	
551.875	0.708529797913	0.622807209531	
552.5	0.709873625982	0.62113665926	
553.125	0.711194360253	0.61947124166	
553.75	0.712515094524	0.61780582406	
554.375	0.713813175262	0.616144886925	
555.0	0.715111255999	0.614483949791	
555.625	0.716387123543	0.612826817137	
556.25	0.717662991088	0.611169684484	
556.875	0.718917084224	0.609515659543	
557.5	0.72017117736	0.607861634602	
558.125	0.72140393185	0.60621000272	
558.75	0.722636686339	0.604558370838	
559.375	0.723848533603	0.602908402271	
560.0	0.725060380868	0.601258433704	
560.625	0.726251746819	0.599609386304	
561.25	0.727443112771	0.597960338903	
561.875	0.728614416779	0.596311460692	
562.5	0.729785720786	0.594662582482	
563.125	0.730937374777	0.593013114115	
563.75	0.732089028768	0.591363645749	
564.375	0.733221436451	0.589712822856	
565.0	0.734353844134	0.588061999963	
565.625	0.735467400337	0.586409055376	
566.25	0.73658095654	0.584756110789	
566.875	0.73767604666	0.583100276649	
567.5	0.73877113678	0.581444442508	
568.125	0.739848136333	0.579784952257	
568.75	0.740925135886	0.578125462006	
569.375	0.741984410151	0.576461552259	
570.0	0.743043684416	0.574797642512	
570.625	0.744085588167	0.573128554814	
571.25	0.745127491917	0.571459467116	
571.875	0.746152369233	0.569784449584	
572.5	0.747177246548	0.568109432052	
573.125	0.748185430702	0.566427740907	
573.75	0.749193614855	0.564746049761	
574.375	0.750185428262	0.563056950748	
575.0	0.751177241668	0.561367851735	
575.625	0.7521529959	0.55967062144	
576.25	0.753128750131	0.557973391145	
576.875	0.75408874598	0.556267318208	
577.5	0.755048741828	0.554561245271	
578.125	0.755993269421	0.552845631498	
578.75	0.756937797015	0.551130017724	
579.375	0.757867135969	0.549404179109	
580.0	0.758796474924	0.547678340494	
580.625	0.759710894535	0.545941608145	
581.25	0.760625314145	0.544204875797	
581.875	0.761525073607	0.542456596784	
582.5	0.762424833068	0.54070831777	
583.125	0.763310181721	0.53894785588	
583.75	0.764195530373	0.53718739399	
584.375	0.765066707964	0.535414130419	
585.0	0.765937885554	0.533640866848	
585.625	0.766795122519	0.531854200812	
586.25	0.767652359485	0.530067534775	
586.875	0.768495877238	0.528266884058	
587.5	0.769339394992	0.526466233342	
588.125	0.770169406218	0.524651034787	
588.75	0.770999417444	0.522835836231	
589.375	0.771816126397	0.521005546168	
590.0	0.77263283535	0.519175256105	
590.625	0.773436438146	0.517329350733	
591.25	0.774240040941	0.515483445362	
591.875	0.775030725847	0.513621421091	
592.5	0.775821410752	0.51175939682	
593.125	0.776599358467	0.509880770559	
593.75	0.777377306182	0.508002144298	
594.375	0.778142690103	0.506106453723	
595.0	0.778908074024	0.504210763149	
595.625	0.779661060502	0.502297566935	
596.25	0.78041404698	0.500384370721	
596.875	0.781154795555	0.498453248746	
597.5	0.78189554413	0.496522126772	
598.125	0.782624207752	0.49457268031	
598.75	0.783352871375	0.492623233847	
599.375	0.784069596603	0.490655085735	
600.0	0.784786321831	0.488686937624	
600.625	0.785491249008	0.486699732428	
601.25	0.786196176186	0.484712527232	
601.875	0.7868894396	0.4827059314	
602.5	0.787582703015	0.480699335569	
603.125	0.788264431031	0.478673037584	
603.75	0.788946159046	0.476646739599	
604.375	0.789616474213	0.474600450129	
605.0	0.790286789379	0.472554160659	
605.625	0.790945808524	0.470487612719	
606.25	0.791604827669	0.468421064778	
606.875	0.792252661963	0.466334013888	
607.5	0.792900496257	0.464246962998	
608.125	0.793537251258	0.462139187362	
608.75	0.79417400626	0.460031411725	
609.375	0.794799781942	0.457902712411	
610.0	0.795425557624	0.455774013098	
610.625	0.796040448382	0.453624214243	
611.25	0.79665533914	0.451474415389	
611.875	0.79725943378	0.449303364408	
612.5	0.79786352842	0.447132313428	
613.125	0.798456910138	0.444939881245	
613.75	0.799050291856	0.442747449062	
614.375	0.799633038197	0.440533530355	
615.0	0.800215784538	0.438319611648	
615.625	0.800787967354	0.436084125112	
616.25	0.80136015017	0.433848638576	
616.875	0.801921835565	0.4315915272	
617.5	0.80248352096	0.429334415824	
618.125	0.803034769234	0.427055647182	
618.75	0.803586017508	0.424776878539	
619.375	0.804126883099	0.422476445094	
620.0	0.80466774869	0.420176011648	
620.625	0.805198280125	0.417853931067	
621.25	0.805728811561	0.415531850486	
621.875	0.806249051409	0.413188165963	
622.5	0.806769291258	0.410844481441	
623.125	0.807279276099	0.408479262026	
623.75	0.807789260939	0.40611404261	
624.375	0.808289021349	0.403727383529	
625.0	0.808788781759	0.401340724448	
625.625	0.809278342321	0.398932747436	
626.25	0.809767902883	0.396524770423	
626.875	0.810247282226	0.394095624032	
627.5	0.81072666157	0.391666477641	
628.125	0.811195872447	0.389216337548	
628.75	0.811665083324	0.386766197455	
629.375	0.812124132732	0.384295266741	
630.0	0.812583182141	0.381824336028	
630.625	0.813032071503	0.379332845441	
631.25	0.813480960865	0.376841354855	
631.875	0.813919686274	0.374329563042	
632.5	0.814358411683	0.371817771229	
633.125	0.814786964231	0.369285964933	
633.75	0.81521551678	0.366754158637	
634.375	0.815633882991	0.364202652869	
635.0	0.816052249203	0.3616511471	
635.625	0.816460411581	0.359080285271	
636.25	0.81686857396	0.356509423441	
636.875	0.817266511692	0.353919577476	
637.5	0.817664449424	0.351329731512	
638.125	0.818052139258	0.348721301959	
638.75	0.818439829092	0.346112872406	
639.375	0.818817246438	0.343486288555	
640.0	0.819194663784	0.340859704704	
640.625	0.819561784076	0.338215424787	
641.25	0.819928904369	0.335571144869	
641.875	0.820285704735	0.332909656397	
642.5	0.820642505102	0.330248167924	
643.125	0.820988966384	0.327569988295	
643.75	0.821335427666	0.324891808665	
644.375	0.821671536815	0.322197486204	
645.0	0.822007645963	0.319503163743	
645.625	0.822333398796	0.316793279435	
646.25	0.822659151629	0.314083395127	
646.875	0.82297455584	0.311358565376	
647.5	0.823289960052	0.308633735626	
648.125	0.823595038214	0.305894616491	
648.75	0.823900116376	0.303155497356	
649.375	0.824194908387	0.300402790769	
650.0	0.824489700398	0.297650084183	
650.625	0.824774264421	0.294884546649	
651.25	0.825058828443	0.292119009114	
651.875	0.825333238757	0.289341463101	
652.5	0.825607649071	0.286563917089	
653.125	0.8258719886	0.283775264654	
653.75	0.826136328128	0.280986612219	
654.375	0.826390672855	0.278187848919	
655.0	0.826645017582	0.27538908562	
655.625	0.826889410387	0.272581310547	
656.25	0.827133803193	0.269773535474	
656.875	0.827368216657	0.266957950377	
657.5	0.827602630121	0.26414236528	
658.125	0.827826922661	0.261320253862	
658.75	0.828051215202	0.258498142444	
659.375	0.828265092238	0.255670822568	
660.0	0.828478969274	0.252843502692	
660.625	0.828681967829	0.250012252387	
661.25	0.828884966385	0.247181002082	
661.875	0.829076481463	0.244346974542	
662.5	0.829267996541	0.241512947001	
663.125	0.829447355026	0.238677103273	
663.75	0.829626713511	0.235841259545	
664.375	0.829793278946	0.233004348634	
665.0	0.82995984438	0.230167437724	
665.625	0.830113117318	0.227330036249	
666.25	0.830266390255	0.224492634775	
666.875	0.830406068979	0.221655230963	
667.5	0.830545747703	0.21881782715	
668.125	0.83067173411	0.215980915537	
668.75	0.830797720516	0.213144003924	
669.375	0.830910081061	0.21030815895	
670.0	0.831022441607	0.207472313976	
670.625	0.831121347283	0.204638227307	
671.25	0.831220252959	0.201804140638	
671.875	0.831305921014	0.198972624739	
672.5	0.831391589068	0.19614110884	
673.125	0.831464239374	0.193313078784	
673.75	0.831536889681	0.190485048727	
674.375	0.83159671868	0.187661494941	
675.0	0.831656547678	0.184837941155	
675.625	0.83170371689	0.182019902017	
676.25	0.831750886103	0.179201862879	
676.875	0.831785520309	0.176390401597	
677.5	0.831820154516	0.173578940316	
678.125	0.831842345195	0.17077512733	
678.75	0.831864535875	0.167971314345	
679.375	0.831874346786	0.165176214767	
680.0	0.831884157697	0.162381115188	
680.625	0.831881630753	0.159595780185	
681.25	0.83187910381	0.156810445183	
681.875	0.831864264335	0.154035906172	
682.5	0.831849424859	0.151261367161	
683.125	0.831822285855	0.14849863185	
683.75	0.831795146851	0.14573589654	
684.375	0.831755712251	0.142985946163	
685.0	0.831716277651	0.140235995787	
685.625	0.831664544651	0.13749978304	
686.25	0.831612811651	0.134763570292	
686.875	0.831548772265	0.132042017683	
687.5	0.83148473288	0.129320465074	
688.125	0.831408374889	0.126614463523	
688.75	0.831332016898	0.123908461972	
689.375	0.83124332431	0.12121886954	
690.0	0.831154631722	0.118529277107	
690.625	0.831053584869	0.115856917819	
691.25	0.830952538015	0.113184558532	
691.875	0.830839113376	0.110530221278	
692.5	0.830725688737	0.107875884023	
693.125	0.830599858556	0.105240321523	
693.75	0.830474028375	0.102604759023	
694.375	0.830335760131	0.0999886868779	
695.0	0.830197491887	0.0973726147329	
695.625	0.830046747657	0.0947767105725	
696.25	0.829896003428	0.0921808064122	
696.875	0.829732739185	0.0896057091492	
697.5	0.829569474943	0.0870306118862	
698.125	0.829393639807	0.0844769211013	
698.75	0.829217804671	0.0819232303165	
699.375	0.829029340141	0.0793915057846	
700.0	0.828840875611	0.0768597812527	
700.625	0.828639714799	0.0743505426256	
701.25	0.828438553987	0.0718413039985	
701.875	0.828224620864	0.0693550306569	
702.5	0.82801068774	0.0668687573153	
703.125	0.827783896412	0.0644058884007	
703.75	0.827557105084	0.0619430194862	
704.375	0.827317359113	0.0595039541223	
705.0	0.827077613142	0.0570648887584	
705.625	0.826824804917	0.0546499864692	
706.25	0.826571996693	0.0522350841801	
706.875	0.826306006868	0.0498446655121	
707.5	0.826040017044	0.0474542468442	
708.125	0.825760714053	0.0450885941966	
708.75	0.825481411061	0.0427229415489	
709.375	0.825188650708	0.0403823002157	
710.0	0.824895890355	0.0380416588824	
710.625	0.824589515509	0.0357262383087	
711.25	0.824283140664	0.0334108177351	
711.875	0.823962981052	0.0311207929886	
712.5	0.823642821439	0.0288307682421	
713.125	0.823308693541	0.0265662816982	
713.75	0.822974565644	0.0243017951543	
714.375	0.822626272718	0.0220629583953	
715.0	0.822277979792	0.0198241216364	
715.625	0.821915312014	0.0176110175597	
716.25	0.821552644237	0.0153979134831	
716.875	0.821175378979	0.0132105986162	
717.5	0.820798113721	0.0110232837493	
718.125	0.820406015959	0.00886179076466	
718.75	0.820013918198	0.00670029778002	
719.375	0.819606741074	0.00456463820474	
720.0	0.81919956395	0.00242897862947	
720.625	0.81877704947	0.000319145741355	
721.25	0.81835453499	-0.00179068714676	
721.875	0.817916414886	-0.00387471524574	
722.5	0.817478294781	-0.00595874334473	
723.125	0.817024291521	-0.00801700048726	
723.75	0.816570288261	-0.0100752576298	
724.375	0.816100116228	-0.012107786186	
725.0	0.815629944196	-0.0141403147421	
725.625	0.815143311021	-0.0161471620783	
726.25	0.814656677846	-0.0181540094145	
726.875	0.81415328591	-0.0201352242226	
727.5	0.813649893975	-0.0221164390308	
728.125	0.813129442075	-0.0240720675424	
728.75	0.812608990175	-0.0260276960539	
729.375	0.812071175353	-0.0279577781552	
730.0	0.811533360532	-0.0298878602565	
730.625	0.810977880071	-0.0317924255226	
731.25	0.810422399611	-0.0336969907888	
731.875	0.80984895319	-0.0355760544541	
732.5	0.809275506769	-0.0374551181194	
733.125	0.808683798774	-0.0393086770051	
733.75	0.808092090778	-0.0411622358909	
734.375	0.807481832767	-0.0429902643095	
735.0	0.806871574755	-0.0448182927281	
735.625	0.806242488073	-0.0466207383868	
736.25	0.80561340139	-0.0484231840455	
736.875	0.804965219919	-0.0501999639713	
737.5	0.804317038448	-0.0519767438971	
738.125	0.803649511486	-0.0537277404064	
738.75	0.802981984524	-0.0554787369158	
739.375	0.802294879788	-0.0572037936536	
740.0	0.801607775052	-0.0589288503915	
740.625	0.80090088178	-0.0606277684636	
741.25	0.800193988508	-0.0623266865356	
741.875	0.799467120659	-0.06399922076	
742.5	0.79874025281	-0.0656717549845	
743.125	0.797993252334	-0.0673176102875	
743.75	0.797246251858	-0.0689634655906	
744.375	0.796478992027	-0.0705822935717	
745.0	0.795711732196	-0.0722011215529	
745.625	0.794924120969	-0.0737925172452	
746.25	0.794136509742	-0.0753839129376	
746.875	0.793328493145	-0.0769474117879	
747.5	0.792520476548	-0.0785109106381	
748.125	0.791692042042	-0.0800459857309	
748.75	0.790863607537	-0.0815810608237	
749.375	0.790014787355	-0.083087120373	
750.0	0.789165967172	-0.0845931799223	
