# GHz S RI R 50.0 
!freq	ReS11	ImS11	
500.0	0.931851335873	-0.0129335344134	
500.625	0.931659857781	-0.0168433602129	
501.25	0.931468379689	-0.0207531860125	
501.875	0.931244323319	-0.0246756288043	
502.5	0.931020266949	-0.0285980715961	
503.125	0.930763652383	-0.0325295761461	
503.75	0.930507037816	-0.036461080696	
504.375	0.930217972728	-0.0403982292546	
505.0	0.92992890764	-0.0443353778132	
505.625	0.929607581145	-0.048274895599	
506.25	0.92928625465	-0.0522144133848	
506.875	0.92893293084	-0.0561531732184	
507.5	0.928579607029	-0.060091933052	
508.125	0.928194618278	-0.0640269591391	
508.75	0.927809629528	-0.0679619852262	
509.375	0.927393369638	-0.0718904560985	
510.0	0.926977109748	-0.0758189269707	
510.625	0.926530027001	-0.0797381775988	
511.25	0.926082944254	-0.0836574282269	
511.875	0.925605534438	-0.0875649513288	
512.5	0.925128124621	-0.0914724744306	
513.125	0.924620924096	-0.0953659210014	
513.75	0.924113723571	-0.0992593675723	
514.375	0.923577302426	-0.103136546671	
515.0	0.923040881281	-0.10701372577	
515.625	0.922475836642	-0.110872603599	
516.25	0.921910792004	-0.114731481429	
516.875	0.92131774153	-0.118570179752	
517.5	0.920724691057	-0.122408878075	
518.125	0.920104266681	-0.12622567201	
518.75	0.919483842304	-0.130042465944	
519.375	0.918836684234	-0.133835781189	
520.0	0.918189526164	-0.137629096434	
520.625	0.917516277203	-0.14139750597	
521.25	0.916843028243	-0.145165915505	
521.875	0.91614432843	-0.14890813582	
522.5	0.915445628618	-0.152650356136	
523.125	0.914722110221	-0.156365243037	
523.75	0.913998591823	-0.160080129938	
524.375	0.913250874696	-0.163766673976	
525.0	0.912503157569	-0.167453218015	
525.625	0.911731844894	-0.171110539603	
526.25	0.910960532219	-0.17476786119	
526.875	0.910166206624	-0.178395205432	
527.5	0.909371881028	-0.182022549673	
528.125	0.908555101093	-0.185619280977	
528.75	0.907738321157	-0.189216012281	
529.375	0.906899618309	-0.192781608784	
530.0	0.90606091546	-0.196347205286	
530.625	0.905200791246	-0.199881253141	
531.25	0.904340667031	-0.203415300995	
531.875	0.903459590763	-0.20691748856	
532.5	0.902578514494	-0.210419676126	
533.125	0.901676921258	-0.213889788093	
533.75	0.900775328023	-0.21735990006	
534.375	0.899853617045	-0.220797811559	
535.0	0.898931906067	-0.224235723058	
535.625	0.897990439404	-0.227641393768	
536.25	0.897048972742	-0.231047064478	
536.875	0.896088074305	-0.234420532779	
537.5	0.895127175869	-0.23779400108	
538.125	0.894147130744	-0.241135378271	
538.75	0.893167085619	-0.244476755461	
539.375	0.892168139675	-0.247786220064	
540.0	0.891169193731	-0.251095684667	
540.625	0.890151553497	-0.254373476853	
541.25	0.889133913264	-0.25765126904	
541.875	0.888097746057	-0.26089768518	
542.5	0.88706157885	-0.26414410132	
543.125	0.886007013125	-0.267359488689	
543.75	0.884952447399	-0.270574876057	
544.375	0.883879573315	-0.273759627701	
545.0	0.882806699231	-0.276944379345	
545.625	0.881715569408	-0.280098929128	
546.25	0.880624439586	-0.283253478912	
546.875	0.879515070033	-0.286378296751	
547.5	0.878405700481	-0.289503114591	
548.125	0.877278071679	-0.292598701884	
548.75	0.876150442876	-0.295694289176	
549.375	0.875004500991	-0.298761174433	
550.0	0.873858559107	-0.30182805969	
550.625	0.872694217336	-0.304866794379	
551.25	0.871529875564	-0.307905529068	
551.875	0.87034701557	-0.310916683664	
552.5	0.869164155575	-0.31392783826	
553.125	0.867962629015	-0.316911998515	
553.75	0.866761102455	-0.319896158769	
554.375	0.865540732583	-0.322853922188	
555.0	0.864320362711	-0.325811685607	
555.625	0.863080946034	-0.328743658149	
556.25	0.861841529357	-0.33167563069	
556.875	0.860582837339	-0.334582423668	
557.5	0.859324145321	-0.337489216646	
558.125	0.85804592612	-0.340371443852	
558.75	0.856767706919	-0.343253671058	
559.375	0.855469687142	-0.34611194608	
560.0	0.854171667366	-0.348970221101	
560.625	0.852853553842	-0.351805154851	
561.25	0.851535440319	-0.354640088602	
561.875	0.850196921866	-0.357452287041	
562.5	0.848858403413	-0.36026448548	
563.125	0.847499152599	-0.363054547531	
563.75	0.846139901784	-0.365844609581	
564.375	0.844759576673	-0.368613125229	
565.0	0.843379251562	-0.371381640877	
565.625	0.841977497438	-0.374129189452	
566.25	0.840575743313	-0.376876738028	
566.875	0.839152194371	-0.379603886661	
567.5	0.837728645428	-0.382331035294	
568.125	0.836282926429	-0.385038337529	
568.75	0.834837207431	-0.387745639764	
569.375	0.833368935322	-0.39043363434	
570.0	0.831900663213	-0.393121628917	
570.625	0.830409448691	-0.395790838697	
571.25	0.828918234169	-0.398460048476	
571.875	0.827403683206	-0.401110979511	
572.5	0.825889132242	-0.403761910546	
573.125	0.82435084755	-0.406395051284	
573.75	0.822812562858	-0.409028192022	
574.375	0.821250145303	-0.411644012639	
575.0	0.819687727747	-0.414259833256	
575.625	0.818100777703	-0.416858785103	
576.25	0.816513827658	-0.419457736949	
576.875	0.814901946303	-0.422040252111	
577.5	0.813290064947	-0.424622767273	
578.125	0.8116528555	-0.427189258233	
578.75	0.810015646052	-0.429755749193	
579.375	0.808352714948	-0.432306608584	
580.0	0.806689783843	-0.434857467974	
580.625	0.805000741846	-0.437393068419	
581.25	0.803311699849	-0.439928668863	
581.875	0.801596163109	-0.442449362894	
582.5	0.79988062637	-0.444970056924	
583.125	0.798138217417	-0.447476176971	
583.75	0.796395808464	-0.449982297017	
584.375	0.794626157142	-0.452474155455	
585.0	0.79285650582	-0.454966013893	
585.625	0.791059250168	-0.457443903151	
586.25	0.789261994516	-0.45992179241	
586.875	0.787436781591	-0.462385985121	
587.5	0.785611568665	-0.464850177833	
588.125	0.783758055313	-0.467300927028	
588.75	0.78190454196	-0.469751676223	
589.375	0.780022395536	-0.472189215557	
590.0	0.778140249111	-0.474626754891	
590.625	0.776229148151	-0.4770512989	
591.25	0.77431804719	-0.479475842909	
591.875	0.772377682038	-0.481887587284	
592.5	0.770437316887	-0.484299331659	
593.125	0.76846739028	-0.486698453541	
593.75	0.766497463673	-0.489097575422	
594.375	0.764497691287	-0.491484233702	
595.0	0.762497918901	-0.493870891982	
595.625	0.760468029861	-0.49624522761	
596.25	0.75843814082	-0.498619563239	
596.875	0.756377878178	-0.500981699538	
597.5	0.754317615537	-0.503343835837	
598.125	0.752226736727	-0.505693878801	
598.75	0.750135857916	-0.508043921766	
599.375	0.748014135173	-0.51038196037	
600.0	0.74589241243	-0.512719998973	
600.625	0.7437396332	-0.515046105454	
601.25	0.741586853971	-0.517372211934	
601.875	0.7394028213	-0.519686442074	
602.5	0.737218788628	-0.522000672213	
603.125	0.735003321529	-0.524303065601	
603.75	0.73278785443	-0.526605458989	
604.375	0.730540788253	-0.528896039269	
605.0	0.728293722075	-0.531186619548	
605.625	0.726014908861	-0.533465394644	
606.25	0.723736095646	-0.53574416974	
606.875	0.721425404479	-0.538011132071	
607.5	0.719114713311	-0.540278094403	
608.125	0.716772030672	-0.542533221073	
608.75	0.714429348033	-0.544788347743	
609.375	0.712054578155	-0.547031600713	
610.0	0.709679808276	-0.549274853682	
610.625	0.707272873499	-0.551506179926	
611.25	0.704865938723	-0.55373750617	
611.875	0.702426779863	-0.555956837816	
612.5	0.699987621004	-0.558176169463	
613.125	0.697516197727	-0.560383423916	
613.75	0.69504477445	-0.562590678369	
614.375	0.692541065655	-0.564785758422	
615.0	0.690037356859	-0.566980838475	
615.625	0.687501361072	-0.569163632409	
616.25	0.684965365285	-0.571346426344	
616.875	0.682397101071	-0.573516808028	
617.5	0.679828836856	-0.575687189712	
618.125	0.677228343235	-0.577845018686	
618.75	0.674627849614	-0.580002847661	
619.375	0.671995186497	-0.582147969234	
620.0	0.66936252338	-0.584293090808	
620.625	0.666697772009	-0.586425336153	
621.25	0.664033020638	-0.588557581499	
621.875	0.661336284043	-0.590676767758	
622.5	0.658639547448	-0.592795954017	
623.125	0.655910950907	-0.594901884426	
623.75	0.653182354367	-0.597007814836	
624.375	0.650422045881	-0.599100278869	
625.0	0.647661737396	-0.601192742902	
625.625	0.644869888159	-0.603271516443	
626.25	0.642078038923	-0.605350289985	
626.875	0.639254843804	-0.607415135539	
627.5	0.636431648685	-0.609479981094	
628.125	0.633577326699	-0.611530648042	
628.75	0.630723004714	-0.61358131499	
629.375	0.627837799501	-0.615617539895	
630.0	0.624952594287	-0.617653764801	
630.625	0.622036774577	-0.619675271785	
631.25	0.619120954868	-0.62169677877	
631.875	0.616174814945	-0.623703279964	
632.5	0.613228675023	-0.625709781159	
633.125	0.610252535181	-0.62770097725	
633.75	0.607276395339	-0.62969217334	
634.375	0.604270602334	-0.631667754221	
635.0	0.601264809328	-0.633643335102	
635.625	0.598229736832	-0.635602980657	
636.25	0.595194664336	-0.637562626211	
636.875	0.592130713417	-0.639506007247	
637.5	0.589066762498	-0.641449388283	
638.125	0.585974362127	-0.643376167639	
638.75	0.582881961757	-0.645302946994	
639.375	0.579761569401	-0.647212780853	
640.0	0.576641177044	-0.649122614712	
640.625	0.573493279379	-0.651015154139	
641.25	0.570345381714	-0.652907693567	
641.875	0.56717049556	-0.654782586304	
642.5	0.563995609407	-0.65665747904	
643.125	0.560794282985	-0.658514371545	
643.75	0.557592956563	-0.66037126405	
644.375	0.554365771251	-0.662209803782	
645.0	0.551138585938	-0.664048343513	
645.625	0.547886158743	-0.665868181356	
646.25	0.544633731548	-0.6676880192	
646.875	0.541356718582	-0.669488811851	
647.5	0.538079705615	-0.671289604503	
648.125	0.534778806905	-0.673071016458	
648.75	0.531477908196	-0.674852428412	
649.375	0.528153874154	-0.676614132909	
650.0	0.524829840112	-0.678375837405	
650.625	0.521483479843	-0.680117515326	
651.25	0.518137119574	-0.681859193247	
651.875	0.514769310822	-0.683580528468	
652.5	0.511401502071	-0.685301863689	
653.125	0.508013201742	-0.687002532954	
653.75	0.504624901414	-0.688703202219	
654.375	0.501217154183	-0.690382857521	
655.0	0.497809406952	-0.692062512823	
655.625	0.494383347447	-0.693720755135	
656.25	0.490957287942	-0.695378997447	
656.875	0.487514129979	-0.697015343295	
657.5	0.484070972017	-0.698651689144	
658.125	0.480611977885	-0.700265536407	
658.75	0.477152983753	-0.701879383671	
659.375	0.473679410059	-0.703469989246	
660.0	0.470205836366	-0.705060594821	
660.625	0.466718862209	-0.706627080762	
661.25	0.463231888053	-0.708193566702	
661.875	0.459732544349	-0.709734967501	
662.5	0.456233200645	-0.7112763683	
663.125	0.452722328395	-0.712791716863	
663.75	0.449211456145	-0.714307065426	
664.375	0.445689716359	-0.715795494505	
665.0	0.442167976572	-0.717283923585	
665.625	0.43863591345	-0.718744747128	
666.25	0.435103850327	-0.720205570671	
666.875	0.431561984313	-0.721638316964	
667.5	0.428020118299	-0.723071063257	
668.125	0.424469034165	-0.72447545501	
668.75	0.420917950032	-0.725879846764	
669.375	0.417358353554	-0.727255745754	
670.0	0.413798757076	-0.728631644744	
670.625	0.410231492877	-0.729978986991	
671.25	0.406664228679	-0.731326329237	
671.875	0.403090267674	-0.732645070833	
672.5	0.399516306669	-0.733963812429	
673.125	0.395936717523	-0.735253894576	
673.75	0.392357128376	-0.736543976723	
674.375	0.388773045398	-0.737805309252	
675.0	0.385188962419	-0.739066641781	
675.625	0.381601557225	-0.740299099992	
676.25	0.378014152031	-0.741531558203	
676.875	0.374424611722	-0.742734987365	
677.5	0.370835071413	-0.743938416527	
678.125	0.367244583204	-0.745112639662	
678.75	0.363654094996	-0.746286862797	
679.375	0.36006383604	-0.747431689026	
680.0	0.356473577084	-0.748576515256	
680.625	0.352884707967	-0.749691747326	
681.25	0.34929583885	-0.750806979395	
681.875	0.345709499491	-0.75189241983	
682.5	0.342123160132	-0.752977860264	
683.125	0.338540467121	-0.754033316095	
683.75	0.334957774111	-0.755088771927	
684.375	0.331379818855	-0.756114058128	
685.0	0.3278018636	-0.757139344329	
685.625	0.324229710872	-0.758134286184	
686.25	0.320657558144	-0.75912922804	
686.875	0.317092244817	-0.760093662665	
687.5	0.313526931491	-0.76105809729	
688.125	0.309969465336	-0.761991874491	
688.75	0.306411999182	-0.762925651692	
689.375	0.302863357669	-0.763828634318	
690.0	0.299314716156	-0.764731616943	
690.625	0.295775845256	-0.765603680854	
691.25	0.292236974356	-0.766475744765	
691.875	0.288708787352	-0.767316778502	
692.5	0.285180600348	-0.768157812238	
693.125	0.281663976666	-0.768967716465	
693.75	0.278147352984	-0.769777620692	
694.375	0.274643137083	-0.770556307464	
695.0	0.271138921182	-0.771334994237	
695.625	0.267647921513	-0.772082386129	
696.25	0.264156921844	-0.772829778021	
696.875	0.260679909915	-0.773545807153	
697.5	0.257202897986	-0.774261836285	
698.125	0.25374060755	-0.774946443265	
698.75	0.250278317115	-0.775631050246	
699.375	0.246831443503	-0.776284183054	
700.0	0.243384569892	-0.776937315863	
700.625	0.239953769507	-0.777558928692	
701.25	0.236522969123	-0.778180541522	
701.875	0.233108859116	-0.778770593589	
702.5	0.229694749109	-0.779360645657	
703.125	0.226297907244	-0.779919100009	
703.75	0.222901065378	-0.780477554361	
704.375	0.219522030102	-0.78100437667	
705.0	0.216142994825	-0.78153119898	
705.625	0.212782265556	-0.782026356369	
706.25	0.209421536287	-0.782521513758	
706.875	0.206079573918	-0.782984973637	
707.5	0.202737611549	-0.783448433517	
708.125	0.199414839184	-0.783880162471	
708.75	0.196092066819	-0.784311891425	
709.375	0.192788870738	-0.784711854149	
710.0	0.189485674658	-0.785111816873	
710.625	0.186202405521	-0.785479975171	
711.25	0.182919136385	-0.785848133469	
711.875	0.17965611067	-0.786184445332	
712.5	0.176393084956	-0.786520757196	
713.125	0.173150586635	-0.786825175968	
713.75	0.169908088313	-0.78712959474	
714.375	0.166686370758	-0.78740206838	
715.0	0.163464653203	-0.78767454202	
715.625	0.160263941335	-0.787915012483	
716.25	0.157063229466	-0.788155482947	
716.875	0.153883722119	-0.788363885684	
717.5	0.150704214773	-0.788572288421	
718.125	0.147546087288	-0.78874855201	
718.75	0.144387959802	-0.7889248156	
719.375	0.141251366829	-0.78906886153	
720.0	0.138114773856	-0.789212907459	
720.625	0.134999852367	-0.789324650057	
721.25	0.131884930877	-0.789436392655	
721.875	0.128791803367	-0.789515739189	
722.5	0.125698675857	-0.789595085723	
723.125	0.122627453736	-0.789641936671	
723.75	0.119556231616	-0.789688787619	
724.375	0.116507018767	-0.789703037118	
725.0	0.113457805918	-0.789717286618	
725.625	0.110430702409	-0.78969882311	
726.25	0.107403598899	-0.789680359601	
726.875	0.104398704837	-0.789629066662	
727.5	0.101393810774	-0.789577773724	
728.125	0.0984112302836	-0.789493531107	
728.75	0.0954286497932	-0.78940928849	
729.375	0.0924684950953	-0.789291973363	
730.0	0.0895083403973	-0.789174658236	
730.625	0.0865707359726	-0.789024146636	
731.25	0.083633131548	-0.788873635036	
731.875	0.0807182183632	-0.788689803531	
732.5	0.0778033051783	-0.788505972026	
733.125	0.0749112449506	-0.788288699589	
733.75	0.0720191847228	-0.788071427152	
734.375	0.0691501642013	-0.787820597247	
735.0	0.0662811436797	-0.787569767343	
735.625	0.0634353789164	-0.78728527022	
736.25	0.0605896141532	-0.787000773098	
736.875	0.0577673547388	-0.786682508292	
737.5	0.0549450953244	-0.786364243486	
738.125	0.0521466285612	-0.786012122512	
738.75	0.0493481617979	-0.785660001538	
739.375	0.0465738167825	-0.785273950781	
740.0	0.0437994717671	-0.784887900024	
740.625	0.0410496233542	-0.784467863804	
741.25	0.0382997749414	-0.784047827585	
741.875	0.0355748475602	-0.783593771393	
742.5	0.0328499201789	-0.783139715202	
743.125	0.0301503914719	-0.782651629086	
743.75	0.0274508627649	-0.782163542971	
744.375	0.0247772670219	-0.781641445056	
745.0	0.0221036712789	-0.78111934714	
745.625	0.0194566026355	-0.780563287263	
746.25	0.0168095339921	-0.780007227386	
746.875	0.0141896493655	-0.779417290826	
747.5	0.0115697647389	-0.778827354266	
748.125	0.00897778647308	-0.778203665536	
748.75	0.00638580820727	-0.777579976807	
749.375	0.00382252640147	-0.776922703492	
750.0	0.00125924459566	-0.776265430176	
