# GHz S RI R 50.0 
!freq	ReS11	ImS11	
500.0	0.511673539441	-0.757193579888	
500.625	0.507484854746	-0.759835893976	
501.25	0.50329617005	-0.762478208065	
501.875	0.4990678516	-0.765083079508	
502.5	0.49483953315	-0.767687950951	
503.125	0.490574670581	-0.770253177353	
503.75	0.486309808012	-0.772818403756	
504.375	0.482011447889	-0.775341958771	
505.0	0.477713087766	-0.777865513786	
505.625	0.473384223798	-0.780345544476	
506.25	0.469055359831	-0.782825575167	
506.875	0.464698923641	-0.785260398527	
507.5	0.46034248745	-0.787695221886	
508.125	0.455961339953	-0.79008332058	
508.75	0.451580192456	-0.792471419273	
509.375	0.447177115899	-0.794811436682	
510.0	0.442774039341	-0.797151454091	
510.625	0.43835173003	-0.799442188729	
511.25	0.433929420718	-0.801732923367	
511.875	0.429490482467	-0.803973322747	
512.5	0.425051544216	-0.806213722126	
513.125	0.420598482532	-0.808402876158	
513.75	0.416145420849	-0.810592030191	
514.375	0.411680637871	-0.812729164187	
515.0	0.407215854894	-0.814866298183	
515.625	0.402741645078	-0.81695076554	
516.25	0.398267435263	-0.819035232897	
516.875	0.393785981819	-0.821066507536	
517.5	0.389304528375	-0.823097782175	
518.125	0.384817900437	-0.825075450809	
518.75	0.3803312725	-0.827053119444	
519.375	0.375841423021	-0.828976873735	
520.0	0.371351573542	-0.830900628026	
520.625	0.366860337879	-0.832770256694	
521.25	0.362369102215	-0.834639885363	
521.875	0.357878197385	-0.836455266319	
522.5	0.353387292556	-0.838270647274	
523.125	0.348898317139	-0.840031739808	
523.75	0.344409341722	-0.841792832341	
524.375	0.33992377635	-0.843499669437	
525.0	0.335438210978	-0.845206506532	
525.625	0.330957419404	-0.846859187339	
526.25	0.326476627831	-0.848511868145	
526.875	0.322001858519	-0.85011055065	
527.5	0.317527089207	-0.851709233155	
528.125	0.313059477404	-0.85325412709	
528.75	0.3085918656	-0.854799021025	
529.375	0.304132435852	-0.856290381041	
530.0	0.299673006104	-0.857781741056	
530.625	0.295222675175	-0.85921986018	
531.25	0.290772344246	-0.860657979303	
531.875	0.286331924392	-0.862043182712	
532.5	0.281891504538	-0.863428386121	
533.125	0.277461707093	-0.864761025237	
533.75	0.273031909649	-0.866093664352	
534.375	0.268613348893	-0.867374111276	
535.0	0.264194788138	-0.868654558201	
535.625	0.259787985389	-0.869883200497	
536.25	0.25538118264	-0.871111842793	
536.875	0.25098657055	-0.872289078618	
537.5	0.24659195846	-0.873466314443	
538.125	0.242209885462	-0.874592548035	
538.75	0.237827812465	-0.875718781627	
539.375	0.233458547349	-0.876794419147	
540.0	0.229089282233	-0.877870056666	
540.625	0.224733018803	-0.878895502384	
541.25	0.220376755374	-0.879920948101	
541.875	0.216033617175	-0.880896600935	
542.5	0.211690478975	-0.881872253769	
543.125	0.207360524031	-0.882798504156	
543.75	0.203030569087	-0.883724754543	
544.375	0.19871379466	-0.884601981638	
545.0	0.194397020234	-0.885479208733	
545.625	0.190093367545	-0.886307777927	
546.25	0.185789714856	-0.88713634712	
546.875	0.181499073764	-0.887916607864	
547.5	0.177208432673	-0.888696868607	
548.125	0.17293064629	-0.889429152529	
548.75	0.168652859907	-0.890161436452	
549.375	0.164387729123	-0.890846055756	
550.0	0.160122598339	-0.89153067506	
550.625	0.155869886245	-0.892167921187	
551.25	0.151617174151	-0.892805167314	
551.875	0.147376610347	-0.89339530986	
552.5	0.143136046542	-0.893985452406	
553.125	0.138907331312	-0.894528738272	
553.75	0.134678616083	-0.895072024137	
554.375	0.130461424434	-0.895568676905	
555.0	0.126244232786	-0.896065329673	
555.625	0.12203821833	-0.896515549189	
556.25	0.117832203875	-0.896965768705	
556.875	0.113637002555	-0.897369730854	
557.5	0.109441801236	-0.897773693003	
558.125	0.105257034891	-0.898131549663	
558.75	0.101072268545	-0.898489406323	
559.375	0.0968975482965	-0.898801285483	
560.0	0.0927228280479	-0.899113164642	
560.625	0.0885577575236	-0.899379170668	
561.25	0.0843926869994	-0.899645176695	
561.875	0.0802368653741	-0.89986539074	
562.5	0.0760810437488	-0.900085604784	
563.125	0.0719340686105	-0.900260085308	
563.75	0.0677870934723	-0.900434565831	
564.375	0.0636485635109	-0.900563349246	
565.0	0.0595100335495	-0.90069213266	
565.625	0.0553795510695	-0.900775234061	
566.25	0.0512490685894	-0.900858335462	
566.875	0.047126241847	-0.900895749456	
567.5	0.0430034151046	-0.900933163451	
568.125	0.0388878604734	-0.900924865051	
568.75	0.0347723058422	-0.900916566651	
569.375	0.0306636498093	-0.90086251224	
570.0	0.0265549937764	-0.900808457829	
570.625	0.0224528747735	-0.900708586178	
571.25	0.0183507557707	-0.900608714527	
571.875	0.0142548258444	-0.900462947855	
572.5	0.010158895918	-0.900317181183	
573.125	0.0060688222445	-0.900125426259	
573.75	0.001978748571	-0.899933671335	
574.375	-0.00210578517892	-0.899695820599	
575.0	-0.00619031892883	-0.899457969863	
575.625	-0.0102696113693	-0.899173902576	
576.25	-0.0143489038097	-0.898889835288	
576.875	-0.0184232347565	-0.898559418685	
577.5	-0.0224975657034	-0.898229002081	
578.125	-0.0265671952224	-0.897852092538	
578.75	-0.0306368247414	-0.897475182995	
579.375	-0.03470199232	-0.897051627191	
580.0	-0.0387671598986	-0.896628071387	
580.625	-0.0428280837349	-0.896157707461	
581.25	-0.0468890075712	-0.895687343534	
581.875	-0.0509458839721	-0.895170002232	
582.5	-0.0550027603729	-0.894652660929	
583.125	-0.0590557632544	-0.894088166734	
583.75	-0.0631087661358	-0.893523672538	
584.375	-0.0671580466174	-0.892911844785	
585.0	-0.071207327099	-0.892300017032	
585.625	-0.0752530131855	-0.891640670997	
586.25	-0.079298699272	-0.890981324961	
586.875	-0.0833408956139	-0.890274272925	
587.5	-0.0873830919558	-0.889567220889	
588.125	-0.0914218796815	-0.888812273178	
588.75	-0.0954606674073	-0.888057325468	
589.375	-0.0994961040201	-0.887254291463	
590.0	-0.103531540633	-0.886451257458	
590.625	-0.107563659964	-0.885599946571	
591.25	-0.111595779295	-0.884748635683	
591.875	-0.115624591507	-0.883848858309	
592.5	-0.119653403719	-0.882949080934	
593.125	-0.123678895353	-0.882000649364	
593.75	-0.127704386988	-0.881052217794	
594.375	-0.131726521046	-0.880054947108	
595.0	-0.135748655104	-0.879057676422	
595.625	-0.139767371162	-0.878011385339	
596.25	-0.143786087221	-0.876965094256	
596.875	-0.147801301566	-0.875869605964	
597.5	-0.151816515911	-0.874774117672	
598.125	-0.155828121699	-0.873629260626	
598.75	-0.159839727486	-0.872484403581	
599.375	-0.163847594906	-0.871290012276	
600.0	-0.167855462327	-0.87009562097	
600.625	-0.171859438787	-0.868851536686	
601.25	-0.175863415246	-0.867607452401	
601.875	-0.179863325548	-0.866313523931	
602.5	-0.183863235851	-0.865019595461	
603.125	-0.187858882381	-0.863675679815	
603.75	-0.191854528911	-0.862331764169	
604.375	-0.195845691816	-0.860937727263	
605.0	-0.199836854722	-0.859543690356	
605.625	-0.203823292089	-0.858099407682	
606.25	-0.207809729455	-0.856655125007	
606.875	-0.211791177475	-0.855160482296	
607.5	-0.215772625496	-0.853665839586	
608.125	-0.219748798631	-0.852120733461	
608.75	-0.223724971766	-0.850575627336	
609.375	-0.227695562893	-0.848979965954	
610.0	-0.23166615402	-0.847384304573	
610.625	-0.235630834575	-0.845738008269	
611.25	-0.239595515131	-0.844091711966	
611.875	-0.243553935239	-0.842394713892	
612.5	-0.247512355347	-0.840697715819	
613.125	-0.251464143942	-0.838949962588	
613.75	-0.255415932537	-0.837202209357	
614.375	-0.259360697477	-0.835403661688	
615.0	-0.263305462417	-0.833605114019	
615.625	-0.26724279059	-0.83175574739	
616.25	-0.271180118764	-0.829906380762	
616.875	-0.275109576199	-0.828006186072	
617.5	-0.279039033635	-0.826105991383	
618.125	-0.282960165602	-0.824154975622	
618.75	-0.286881297569	-0.82220395986	
619.375	-0.290793628692	-0.820202146789	
620.0	-0.294705959815	-0.818200333717	
620.625	-0.298608994192	-0.816147764565	
621.25	-0.30251202857	-0.814095195413	
621.875	-0.306405249906	-0.811991929584	
622.5	-0.310298471243	-0.809888663755	
623.125	-0.314181343003	-0.807734779548	
623.75	-0.318064214763	-0.80558089534	
624.375	-0.321936180352	-0.80337649068	
625.0	-0.325808145941	-0.801172086021	
625.625	-0.329668628919	-0.798917279213	
626.25	-0.333529111898	-0.796662472406	
626.875	-0.337377516235	-0.794357402891	
627.5	-0.341225920573	-0.792052333375	
628.125	-0.345061630956	-0.789697162503	
628.75	-0.34889734134	-0.787341991631	
629.375	-0.352719723541	-0.784936903449	
630.0	-0.356542105742	-0.782531815267	
630.625	-0.360350507057	-0.78007701732	
631.25	-0.364158908372	-0.777622219374	
631.875	-0.367952658144	-0.775117943519	
632.5	-0.371746407916	-0.772613667665	
633.125	-0.375524818157	-0.770060170907	
633.75	-0.379303228399	-0.767506674149	
634.375	-0.383065594526	-0.764904239502	
635.0	-0.386827960653	-0.762301804855	
635.625	-0.390573562346	-0.759650742238	
636.25	-0.394319164038	-0.75699967962	
636.875	-0.398047266251	-0.75430032681	
637.5	-0.401775368465	-0.751600974001	
638.125	-0.405485222599	-0.748853697668	
638.75	-0.409195076733	-0.746106421335	
639.375	-0.412885921981	-0.743311618188	
640.0	-0.416576767229	-0.74051681504	
640.625	-0.420247832114	-0.737674913157	
641.25	-0.423918896998	-0.734833011273	
641.875	-0.427569401088	-0.73194447168	
642.5	-0.431219905178	-0.729055932087	
643.125	-0.434849060969	-0.726121250706	
643.75	-0.438478216759	-0.723186569324	
644.375	-0.442085231636	-0.720206279417	
645.0	-0.445692246513	-0.71722598951	
645.625	-0.449276324674	-0.714200664821	
646.25	-0.452860402835	-0.711175340131	
646.875	-0.456420746914	-0.708105598913	
647.5	-0.459981090994	-0.705035857694	
648.125	-0.463516902968	-0.70192236784	
648.75	-0.467052714943	-0.698808877986	
649.375	-0.470563195651	-0.695652363381	
650.0	-0.47407367636	-0.692495848776	
650.625	-0.477558022658	-0.68929709677	
651.25	-0.481042368956	-0.686098344763	
651.875	-0.484499767195	-0.682858214157	
652.5	-0.487957165434	-0.679618083551	
653.125	-0.491386779778	-0.676337511629	
653.75	-0.494816394123	-0.673056939708	
654.375	-0.498217348531	-0.669736945481	
655.0	-0.501618302939	-0.666416951255	
655.625	-0.50498965696	-0.663058630477	
656.25	-0.50836101098	-0.659700309698	
656.875	-0.511701732485	-0.656304816088	
657.5	-0.51504245399	-0.652909322478	
658.125	-0.518351396565	-0.649477830477	
658.75	-0.521660339139	-0.646046338477	
659.375	-0.524936236613	-0.642579987724	
660.0	-0.528212134088	-0.63911363697	
660.625	-0.531453625868	-0.63561346825	
661.25	-0.534695117647	-0.63211329953	
661.875	-0.53790081134	-0.628580202824	
662.5	-0.541106505033	-0.625047106117	
663.125	-0.544275066671	-0.621481805492	
663.75	-0.54744362831	-0.617916504868	
664.375	-0.550573872796	-0.614319594756	
665.0	-0.553704117282	-0.610722684644	
665.625	-0.556795066123	-0.607094709383	
666.25	-0.559886014965	-0.603466734122	
666.875	-0.562936901865	-0.599808281842	
667.5	-0.565987788766	-0.596149829561	
668.125	-0.568998018008	-0.592461607211	
668.75	-0.57200824725	-0.588773384861	
669.375	-0.574977328077	-0.585056254963	
670.0	-0.577946408904	-0.581339125065	
670.625	-0.580873891672	-0.577594104381	
671.25	-0.58380137444	-0.573849083697	
671.875	-0.586686804651	-0.570077316932	
672.5	-0.589572234862	-0.566305550168	
673.125	-0.59241512904	-0.562508274201	
673.75	-0.595258023217	-0.558710998234	
674.375	-0.5980578626	-0.554889508036	
675.0	-0.600857701983	-0.551068017838	
675.625	-0.603613937367	-0.547223639406	
676.25	-0.60637017275	-0.543379260975	
676.875	-0.60908223453	-0.539513332267	
677.5	-0.61179429631	-0.535647403559	
678.125	-0.614461605763	-0.531761262193	
678.75	-0.617128915216	-0.527875120828	
679.375	-0.61975089486	-0.523970096676	
680.0	-0.622372874504	-0.520065072524	
680.625	-0.624948956675	-0.516142483433	
681.25	-0.627525038846	-0.512219894342	
681.875	-0.630054672338	-0.508281043673	
682.5	-0.63258430583	-0.504342193003	
683.125	-0.635066960803	-0.500388368099	
683.75	-0.637549615775	-0.496434543195	
684.375	-0.639984787221	-0.49246701424	
685.0	-0.642419958667	-0.488499485284	
685.625	-0.64480716876	-0.484519504238	
686.25	-0.647194378852	-0.480539523192	
686.875	-0.649533178423	-0.476548322681	
687.5	-0.651871977993	-0.47255712217	
688.125	-0.654161947359	-0.468555914245	
688.75	-0.656451916725	-0.46455470632	
689.375	-0.658692666011	-0.460544681109	
690.0	-0.660933415296	-0.456534655898	
690.625	-0.663124584369	-0.452516980155	
691.25	-0.665315753441	-0.448499304411	
691.875	-0.667457011548	-0.444475120007	
692.5	-0.669598269654	-0.440450935602	
693.125	-0.671689314808	-0.436421357996	
693.75	-0.673780359961	-0.432391780389	
694.375	-0.675820918133	-0.428357897116	
695.0	-0.677861476306	-0.424324013843	
695.625	-0.679851300449	-0.420286883054	
696.25	-0.681841124591	-0.416249752265	
696.875	-0.683779993514	-0.412210401355	
697.5	-0.685718862437	-0.408171050445	
698.125	-0.687606579569	-0.404130474797	
698.75	-0.689494296701	-0.40008989915	
699.375	-0.691330688742	-0.39604906102	
700.0	-0.693167080783	-0.392008222891	
700.625	-0.694951996267	-0.387968050458	
701.25	-0.69673691175	-0.383927878024	
701.875	-0.698470219535	-0.37988926462	
702.5	-0.70020352732	-0.375850651215	
703.125	-0.70188511502	-0.371814454766	
703.75	-0.703566702719	-0.367778258316	
704.375	-0.705196475082	-0.363745300988	
705.0	-0.706826247446	-0.35971234366	
705.625	-0.708404124712	-0.355683411745	
706.25	-0.709982001977	-0.351654479829	
706.875	-0.711507918207	-0.347630323859	
707.5	-0.713033834436	-0.343606167888	
708.125	-0.714507735847	-0.339587503006	
708.75	-0.715981637259	-0.335568838123	
709.375	-0.717403480571	-0.331556344705	
710.0	-0.718825323882	-0.327543851286	
710.625	-0.720195074688	-0.323538175822	
711.25	-0.721564825494	-0.319532500359	
711.875	-0.722882456685	-0.315534256598	
712.5	-0.724200087877	-0.311536012838	
713.125	-0.725465578118	-0.307545783197	
713.75	-0.726731068358	-0.303555553557	
714.375	-0.727944400644	-0.299573890793	
715.0	-0.72915773293	-0.295592228029	
715.625	-0.730318893238	-0.291619657171	
716.25	-0.731480053547	-0.287647086313	
716.875	-0.732589029596	-0.283684106854	
717.5	-0.733698005645	-0.279721127395	
718.125	-0.734754785775	-0.275768215736	
718.75	-0.735811565904	-0.271815304077	
719.375	-0.736816138104	-0.267872916214	
720.0	-0.737820710305	-0.263930528352	
720.625	-0.738773061397	-0.259999102801	
721.25	-0.739725412488	-0.256067677251	
721.875	-0.740625527472	-0.252147638197	
722.5	-0.741525642457	-0.248227599143	
723.125	-0.742373504057	-0.244319359798	
723.75	-0.743221365657	-0.240411120453	
724.375	-0.744016954055	-0.236515086621	
725.0	-0.744812542454	-0.232619052789	
725.625	-0.745555835242	-0.228735626603	
726.25	-0.74629912803	-0.224852200417	
726.875	-0.746990100384	-0.220981784249	
727.5	-0.747681072739	-0.217111368082	
728.125	-0.748319697832	-0.213254368594	
728.75	-0.748958322925	-0.209397369107	
729.375	-0.749544572583	-0.205554201427	
730.0	-0.750130822242	-0.201711033748	
730.625	-0.750664667856	-0.197882125746	
731.25	-0.751198513471	-0.194053217744	
731.875	-0.751679927172	-0.190239014386	
732.5	-0.752161340872	-0.186424811029	
733.125	-0.752590296966	-0.182625778784	
733.75	-0.75301925306	-0.17882674654	
734.375	-0.753395729743	-0.175043377806	
735.0	-0.753772206427	-0.171260009072	
735.625	-0.754096187769	-0.167492826598	
736.25	-0.754420169111	-0.163725644123	
736.875	-0.754691647309	-0.159975205398	
737.5	-0.754963125507	-0.156224766673	
738.125	-0.75518210341	-0.152491668244	
738.75	-0.755401081314	-0.148758569814	
739.375	-0.755567575214	-0.145043451508	
740.0	-0.755734069114	-0.141328333202	
740.625	-0.755848111789	-0.137631882213	
741.25	-0.755962154464	-0.133935431224	
741.875	-0.75602379847	-0.130258386038	
742.5	-0.756085442476	-0.126581340851	
743.125	-0.75609476367	-0.122924494965	
743.75	-0.756104084865	-0.119267649078	
744.375	-0.756061186145	-0.11563185449	
745.0	-0.756018287424	-0.111996059902	
745.625	-0.755923302661	-0.108382230335	
746.25	-0.755828317897	-0.104768400769	
746.875	-0.755681416044	-0.101177514588	
747.5	-0.75553451419	-0.0975866284069	
748.125	-0.755335903535	-0.0940197312078	
748.75	-0.75513729288	-0.0904528340087	
749.375	-0.754887225417	-0.0869110408423	
750.0	-0.754637157955	-0.0833692476758	
