! Created Thu Nov 11 11:19:04 2010
# ghz S ri R 50
! 2 Port Network Data from SP1.SP block
! freq  reS11  imS11  reS21  imS21  reS12  imS12  reS22  imS22  
!     
                 1      0.0519613382       -0.187880589        0.868084385       -0.218773483        0.868084385       -0.218773483       0.0534813948       -0.130370589
               1.1      0.0441017279       -0.205076201        0.859803489       -0.238999777        0.859803489       -0.238999777       0.0459636198       -0.141729655
               1.2       0.035614997       -0.221843364        0.850859551       -0.258781806        0.850859551       -0.258781806       0.0378598761       -0.152637731
               1.3      0.0265311368       -0.238154456        0.841283596       -0.278090904        0.841283596       -0.278090904       0.0292022769       -0.163065951
               1.4      0.0168815093       -0.253984386         0.83110807       -0.296901026         0.83110807       -0.296901026       0.0200244025       -0.172988165
               1.5     0.00669859947       -0.269310653        0.820366577       -0.315188808        0.820366577       -0.315188808       0.0103610339       -0.182381002
               1.6    -0.00398422939        -0.28411338        0.809093631       -0.332933604        0.809093631       -0.332933604     0.000247892109         -0.1912239
               1.7     -0.0151329767       -0.298375322        0.797324402       -0.350117484        0.797324402       -0.350117484      -0.0102786202       -0.199499113
               1.8     -0.0267132368       -0.312081838        0.785094481       -0.366725221        0.785094481       -0.366725221      -0.0211816685       -0.207191693
               1.9     -0.0386904242       -0.325220862        0.772439638       -0.382744249        0.772439638       -0.382744249      -0.0324242272       -0.214289444
                 2     -0.0510299837        -0.33778283        0.759395617       -0.398164592        0.759395617       -0.398164592      -0.0439693039       -0.220782859
               2.1     -0.0636975905       -0.349760616        0.745997916       -0.412978795        0.745997916       -0.412978795      -0.0557801548       -0.226665034
               2.2     -0.0766593319       -0.361149422        0.732281608       -0.427181813        0.732281608       -0.427181813      -0.0678204788       -0.231931568
               2.3     -0.0898818763       -0.371946683        0.718281163       -0.440770912        0.718281163       -0.440770912      -0.0800545993       -0.236580449
               2.4      -0.103332623       -0.382151939        0.704030293       -0.453745536        0.704030293       -0.453745536      -0.0924476234       -0.240611923
               2.5      -0.116979838       -0.391766715         0.68956181       -0.466107181         0.68956181       -0.466107181       -0.104965587       -0.244028359
               2.6      -0.130792767        -0.40079438         0.67490751       -0.477859252         0.67490751       -0.477859252        -0.11757558       -0.246834106
               2.7      -0.144741741       -0.409240011        0.660098066       -0.489006924        0.660098066       -0.489006924       -0.130245851       -0.249035347
               2.8      -0.158798253       -0.417110257        0.645162945       -0.499556989        0.645162945       -0.499556989         -0.1429459       -0.250639942
               2.9      -0.172935035       -0.424413187        0.630130332       -0.509517716        0.630130332       -0.509517716       -0.155646551       -0.251657278
                 3        -0.1871261       -0.431158156        0.615027081       -0.518898704        0.615027081       -0.518898704       -0.168320005        -0.25209812
               3.1      -0.201346789       -0.437355667        0.599878674        -0.52771073        0.599878674        -0.52771073       -0.180939881       -0.251974463
               3.2       -0.21557379       -0.443017227        0.584709193        -0.53596562        0.584709193        -0.53596562       -0.193481249       -0.251299382
               3.3      -0.229785158       -0.448155228        0.569541306       -0.543676108        0.569541306       -0.543676108       -0.205920639       -0.250086897
               3.4      -0.243960311       -0.452782812        0.554396269       -0.550855703        0.554396269       -0.550855703       -0.218236044       -0.248351834
               3.5      -0.258080027       -0.456913754        0.539293927       -0.557518571        0.539293927       -0.557518571        -0.23040691         -0.2461097
               3.6      -0.272126423       -0.460562354        0.524252739       -0.563679416        0.524252739       -0.563679416       -0.242414126       -0.243376565
               3.7      -0.286082936       -0.463743323        0.509289795       -0.569353368        0.509289795       -0.569353368       -0.254239988       -0.240168939
               3.8      -0.299934289       -0.466471691        0.494420851       -0.574555885        0.494420851       -0.574555885       -0.265868174       -0.236503677
               3.9      -0.313666454       -0.468762709        0.479660371       -0.579302653        0.479660371       -0.579302653         -0.2772837       -0.232397875
                 4      -0.327266618       -0.470631772        0.465021559       -0.583609502        0.465021559       -0.583609502       -0.288472878       -0.227868779
               4.1      -0.340723129       -0.472094339        0.450516418       -0.587492328        0.450516418       -0.587492328        -0.29942327       -0.222933709
               4.2      -0.354025451       -0.473165858        0.436155786       -0.590967017        0.436155786       -0.590967017       -0.310123635       -0.217609978
               4.3      -0.367164122       -0.473861714          0.4219494        -0.59404938          0.4219494        -0.59404938       -0.320563872       -0.211914828
               4.4      -0.380130691       -0.474197163        0.407905937       -0.596755101        0.407905937       -0.596755101       -0.330734972       -0.205865369
               4.5      -0.392917675       -0.474187289        0.394033079       -0.599099675        0.394033079       -0.599099675       -0.340628959       -0.199478528
               4.6      -0.405518501       -0.473846956        0.380337561       -0.601098374        0.380337561       -0.601098374        -0.35023883       -0.192770998
               4.7      -0.417927454       -0.473190771        0.366825227       -0.602766199        0.366825227       -0.602766199       -0.359558504       -0.185759202
               4.8      -0.430139629       -0.472233053        0.353501085       -0.604117849        0.353501085       -0.604117849       -0.368582763       -0.178459254
               4.9      -0.442150877       -0.470987802        0.340369356       -0.605167693        0.340369356       -0.605167693       -0.377307196       -0.170886934
                 5      -0.453957753        -0.46946868        0.327433532       -0.605929744        0.327433532       -0.605929744        -0.38572815       -0.163057661
               5.1      -0.465557468       -0.467688989        0.314696421       -0.606417644        0.314696421       -0.606417644       -0.393842674       -0.154986468
               5.2      -0.476947845       -0.465661655        0.302160199       -0.606644636        0.302160199       -0.606644636       -0.401648466       -0.146687994
               5.3      -0.488127275       -0.463399219        0.289826457       -0.606623571        0.289826457       -0.606623571       -0.409143831        -0.13817647
               5.4      -0.499094663       -0.460913827        0.277696243       -0.606366879        0.277696243       -0.606366879       -0.416327627       -0.129465704
               5.5      -0.509849399       -0.458217223        0.265770109        -0.60588658        0.265770109        -0.60588658       -0.423199227       -0.120569084
               5.6      -0.520391308       -0.455320752        0.254048149       -0.605194268        0.254048149       -0.605194268        -0.42975847       -0.111499568
               5.7      -0.530720621       -0.452235349         0.24253004       -0.604301116         0.24253004       -0.604301116       -0.436005624       -0.102269685
               5.8      -0.540837932        -0.44897155        0.231215081       -0.603217878        0.231215081       -0.603217878       -0.441941348      -0.0928915402
               5.9      -0.550744171       -0.445539488        0.220102223       -0.601954887        0.220102223       -0.601954887       -0.447566655      -0.0833768137
                 6      -0.560440565       -0.441948901        0.209190103       -0.600522065        0.209190103       -0.600522065       -0.452882875       -0.073736767
               6.1      -0.569928614       -0.438209137         0.19847708       -0.598928926         0.19847708       -0.598928926       -0.457891628       -0.063982253
               6.2       -0.57921006       -0.434329159        0.187961254       -0.597184582        0.187961254       -0.597184582       -0.462594793      -0.0541237143
               6.3      -0.588286863       -0.430317558        0.177640505       -0.595297754        0.177640505       -0.595297754       -0.466994474      -0.0441712047
               6.4      -0.597161175       -0.426182553         0.16751251       -0.593276777         0.16751251       -0.593276777       -0.471092983      -0.0341343897
               6.5       -0.60583532        -0.42193201        0.157574766       -0.591129612        0.157574766       -0.591129612        -0.47489281      -0.0240225573
               6.6      -0.614311768       -0.417573442         0.14782462       -0.588863856         0.14782462       -0.588863856       -0.478396601      -0.0138446356
               6.7      -0.622593122       -0.413114028        0.138259276       -0.586486752        0.138259276       -0.586486752       -0.481607136     -0.00360919203
               6.8      -0.630682094       -0.408560617        0.128875827       -0.584005196        0.128875827       -0.584005196       -0.484527315      0.00667554089
               6.9      -0.638581492       -0.403919744        0.119671262       -0.581425756        0.119671262       -0.581425756       -0.487160136       0.0170016637
                 7      -0.646294205       -0.399197635        0.110642489       -0.578754675        0.110642489       -0.578754675       -0.489508678       0.0273615949
               7.1      -0.653823188       -0.394400221        0.101786346       -0.575997886        0.101786346       -0.575997886       -0.491576086       0.0377480579
               7.2       -0.66117145        -0.38953315       0.0930996117       -0.573161022       0.0930996117       -0.573161022        -0.49336556       0.0481540715
               7.3      -0.668342036       -0.384601795       0.0845790247        -0.57024943       0.0845790247        -0.57024943       -0.494880344       0.0585729344
               7.4      -0.675338031       -0.379611266       0.0762212881       -0.567268175       0.0762212881       -0.567268175       -0.496123705       0.0689982145
               7.5      -0.682162534       -0.374566423       0.0680230816       -0.564222058       0.0680230816       -0.564222058       -0.497098934       0.0794237422
               7.6      -0.688818658       -0.369471879       0.0599810744        -0.56111562       0.0599810744        -0.56111562       -0.497809329       0.0898435868
               7.7      -0.695309523       -0.364332019       0.0520919252       -0.557953161       0.0520919252       -0.557953161        -0.49825819        0.100252061
               7.8      -0.701638242       -0.359151004       0.0443523001       -0.554738739       0.0443523001       -0.554738739       -0.498448809        0.110643695
               7.9      -0.707807922       -0.353932782       0.0367588712        -0.55147619       0.0367588712        -0.55147619       -0.498384466        0.121013231
                 8      -0.713821653         -0.3486811       0.0293083242       -0.548169131       0.0293083242       -0.548169131       -0.498068419         0.13135562
               8.1      -0.719682507       -0.343399507       0.0219973682       -0.544820972       0.0219973682       -0.544820972       -0.497503903        0.141665997
               8.2      -0.725393526       -0.338091371       0.0148227351       -0.541434922       0.0148227351       -0.541434922       -0.496694118        0.151939683
               8.3       -0.73095773       -0.332759881      0.00778118958       -0.538014003      0.00778118958       -0.538014003       -0.495642235        0.162172167
               8.4      -0.736378098       -0.327408058     0.000869525416       -0.534561055     0.000869525416       -0.534561055       -0.494351385        0.172359103
               8.5      -0.741657582       -0.322038763     -0.00591542355       -0.531078742     -0.00591542355       -0.531078742       -0.492824652        0.182496296
               8.6      -0.746799087       -0.316654703      -0.0125767863       -0.527569563      -0.0125767863       -0.527569563       -0.491065082        0.192579694
               8.7      -0.751805484        -0.31125844      -0.0191176464       -0.524035859      -0.0191176464       -0.524035859       -0.489075672         0.20260538
               8.8      -0.756679596       -0.305852399      -0.0255410464       -0.520479819      -0.0255410464       -0.520479819       -0.486859366        0.212569567
               8.9      -0.761424205       -0.300438871      -0.0318499799       -0.516903487      -0.0318499799       -0.516903487       -0.484419063        0.222468577
                 9      -0.766042044       -0.295020025      -0.0380473942        -0.51330877      -0.0380473942        -0.51330877       -0.481757606        0.232298851
               9.1      -0.770535798       -0.289597908      -0.0441361857        -0.50969744      -0.0441361857        -0.50969744       -0.478877787        0.242056929
               9.2      -0.774908107       -0.284174456      -0.0501192014       -0.506071147      -0.0501192014       -0.506071147       -0.475782342        0.251739445
               9.3      -0.779161561         -0.2787515      -0.0559992372       -0.502431418      -0.0559992372       -0.502431418       -0.472473954        0.261343122
               9.4      -0.783298698       -0.273330765      -0.0617790364       -0.498779666      -0.0617790364       -0.498779666       -0.468955253        0.270864766
               9.5      -0.787322009       -0.267913885      -0.0674612879       -0.495117193      -0.0674612879       -0.495117193       -0.465228812        0.280301252
               9.6      -0.791233932       -0.262502397      -0.0730486329       -0.491445197      -0.0730486329       -0.491445197        -0.46129715        0.289649526
               9.7      -0.795036858       -0.257097756      -0.0785436536       -0.487764777      -0.0785436536       -0.487764777       -0.457162732        0.298906598
               9.8      -0.798733126       -0.251701335      -0.0839488813       -0.484076934      -0.0839488813       -0.484076934        -0.45282797        0.308069526
               9.9      -0.802325027       -0.246314427      -0.0892667945       -0.480382579      -0.0892667945       -0.480382579       -0.448295223        0.317135425
                10      -0.805814799       -0.240938255      -0.0944998183       -0.476682533      -0.0944998183       -0.476682533       -0.443566797        0.326101449
