# GHz S RI R 50.0 
!freq	ReS11	ImS11	
500.0	-0.476312273887	0.290278987021	
500.625	-0.889011599052	0.320721869647	
501.25	-0.912473073365	0.244173013609	
501.875	-0.932795329071	0.269304433139	
502.5	-0.948582699488	0.285167616095	
503.125	-1.08037700203	0.404496159917	
503.75	-0.937512309968	0.277015869626	
504.375	-0.949746412575	0.28695165114	
505.0	-0.939747261036	0.281940426487	
505.625	-0.94098149191	0.280414001884	
506.25	-0.940786228041	0.277069231885	
506.875	-0.944498536695	0.294092351977	
507.5	-0.943881682797	0.288153862067	
508.125	-0.937626624627	0.290869893288	
508.75	-0.937412435836	0.282946520465	
509.375	-0.934023224385	0.286960121371	
510.0	-0.936357513793	0.291379732211	
510.625	-0.936454598503	0.28315142006	
511.25	-0.94656951429	0.274790498892	
511.875	-0.941514939552	0.299274867294	
512.5	-0.95997776997	0.298351422741	
513.125	-0.937714083935	0.291486265607	
513.75	-0.946702239883	0.287046255594	
514.375	-0.924152711121	0.282457569719	
515.0	-0.936979878145	0.291398626697	
515.625	-0.934149523554	0.28994741246	
516.25	-0.940771753395	0.288858683588	
516.875	-0.936126449438	0.290542158006	
517.5	-0.935214215039	0.292274621336	
518.125	-0.942017744637	0.288949678877	
518.75	-0.944287992102	0.290844668466	
519.375	-0.944781239465	0.284185249143	
520.0	-0.941162939513	0.28893645793	
520.625	-0.937803004291	0.29247013337	
521.25	-0.938783661036	0.294527323203	
521.875	-0.941521176582	0.291270382343	
522.5	-0.936748829603	0.293414132056	
523.125	-0.940014770134	0.296310805692	
523.75	-0.940438190953	0.295771450409	
524.375	-0.93742317899	0.298673030426	
525.0	-0.939149074042	0.299018812045	
525.625	-0.938025460062	0.300319816058	
526.25	-0.935648896405	0.295990165306	
526.875	-0.931103967707	0.297346645417	
527.5	-0.933937231564	0.29995337498	
528.125	-0.93519886627	0.294183717656	
528.75	-0.935029064227	0.294370772655	
529.375	-0.934579788942	0.291372066626	
530.0	-0.931948467317	0.294306281458	
530.625	-0.931812953014	0.296916914804	
531.25	-0.936541776806	0.293134568952	
531.875	-0.934546726553	0.294770017225	
532.5	-0.936752337806	0.296057951426	
533.125	-0.936131143897	0.29699781551	
533.75	-0.935193840808	0.29996673566	
534.375	-0.935786792309	0.297565028027	
535.0	-0.929173442657	0.298989334566	
535.625	-0.932714349503	0.298201997752	
536.25	-0.93338351815	0.298262637578	
536.875	-0.935793401271	0.296336509045	
537.5	-0.938806820582	0.297478051717	
538.125	-0.933929022656	0.294275154079	
538.75	-0.934088683933	0.29740726956	
539.375	-0.938519514829	0.297259256722	
540.0	-0.938478110612	0.297598303636	
540.625	-0.937851481623	0.298953390899	
541.25	-0.93777277808	0.297778697709	
541.875	-0.937054288679	0.299495943922	
542.5	-0.938264564546	0.300325902913	
543.125	-0.934972751786	0.300703068647	
543.75	-0.934807782737	0.3015768963	
544.375	-0.935759734244	0.298860393761	
545.0	-0.933930191186	0.299097551192	
545.625	-0.937029893757	0.300292699764	
546.25	-0.934292986137	0.298695087604	
546.875	-0.932513720238	0.299388993801	
547.5	-0.936776258914	0.297713687269	
548.125	-0.936573992203	0.29802643767	
548.75	-0.934721733858	0.300873549011	
549.375	-0.935742822453	0.299171058502	
550.0	-0.934969661239	0.299014417259	
550.625	-0.934560496607	0.300339223159	
551.25	-0.933818741975	0.299452785197	
551.875	-0.932732097769	0.300502824453	
552.5	-0.934525658653	0.298810185974	
553.125	-0.934275567457	0.298298349287	
553.75	-0.934495986318	0.300944502744	
554.375	-0.933408551026	0.300930018884	
555.0	-0.930028158395	0.301519325675	
555.625	-0.933129936393	0.30207655211	
556.25	-0.932682828827	0.299422601783	
556.875	-0.928219192248	0.300459800221	
557.5	-0.930907945456	0.29964522826	
558.125	-0.92827872822	0.297069281524	
558.75	-0.928406108607	0.297411696536	
559.375	-0.931467756374	0.297668027472	
560.0	-0.930813840583	0.296890956022	
560.625	-0.929560317453	0.298771100367	
561.25	-0.929396871689	0.297713805191	
561.875	-0.930367140525	0.294773680626	
562.5	-0.930288097654	0.294762889228	
563.125	-0.928757868472	0.294364812183	
563.75	-0.928357478262	0.295308196121	
564.375	-0.932700666496	0.296865044378	
565.0	-0.930720652145	0.29590462665	
565.625	-0.929896902107	0.2961470935	
566.25	-0.930249324314	0.294726888805	
566.875	-0.926873291907	0.292567963429	
567.5	-0.929290372302	0.296944043035	
568.125	-0.933758227749	0.295200981327	
568.75	-0.930080628884	0.294439493144	
569.375	-0.930055159687	0.295261962905	
570.0	-0.930323239024	0.293771802278	
570.625	-0.930282624151	0.29493530805	
571.25	-0.933537752878	0.297006816266	
571.875	-0.93168225181	0.295350080671	
572.5	-0.930820800369	0.297021910027	
573.125	-0.933111582615	0.295445207004	
573.75	-0.929570101984	0.297214132766	
574.375	-0.930278441298	0.301054261475	
575.0	-0.926665855976	0.295255499502	
575.625	-0.923587205318	0.296837847856	
576.25	-0.927681440868	0.299436751806	
576.875	-0.926036725875	0.293575413416	
577.5	-0.920141734994	0.295244871356	
578.125	-0.923366051509	0.296409803648	
578.75	-0.921811569729	0.292106653355	
579.375	-0.918561657017	0.291167493397	
580.0	-0.922425518446	0.288877346902	
580.625	-0.922272490746	0.284024045642	
581.25	-0.919464414389	0.28452452429	
581.875	-0.922435668477	0.289062476142	
582.5	-0.923328889896	0.284802983311	
583.125	-0.922070946441	0.285439386303	
583.75	-0.924345459636	0.284251237296	
584.375	-0.91982509116	0.282071623522	
585.0	-0.922607688255	0.288381339156	
585.625	-0.925691446817	0.279485400586	
586.25	-0.915169854316	0.279410110686	
586.875	-0.920483735383	0.283692603021	
587.5	-0.926750307656	0.269658038065	
588.125	-0.915303224181	0.274125598122	
588.75	-0.925454031768	0.280536597306	
589.375	-0.925081105411	0.266807703499	
590.0	-0.914539920433	0.272833381542	
590.625	-0.925618054016	0.278073323671	
591.25	-0.923123226359	0.263420620186	
591.875	-0.919554987468	0.270702964158	
592.5	-0.92624946004	0.267364072834	
593.125	-0.918040146273	0.259797991135	
593.75	-0.919703457714	0.274285784884	
594.375	-0.938188372021	0.258240371047	
595.0	-0.910455085998	0.261140983686	
595.625	-0.946585808237	0.248271759892	
596.25	-0.998804943115	0.213492553356	
596.875	-0.912526569082	0.254251760758	
597.5	-0.956569654369	0.283889760634	
598.125	-0.950046552051	0.267114074251	
598.75	-0.916401709107	0.243073419808	
599.375	-0.917386908806	0.265012716915	
600.0	-0.932494659906	0.254106213496	
600.625	-0.92234133547	0.24824398039	
601.25	-0.926735235037	0.257310014416	
601.875	-0.929795617167	0.241200142655	
602.5	-0.919513913494	0.232958953233	
603.125	-0.920203449237	0.250243560656	
603.75	-0.931581944178	0.246861895771	
604.375	-0.932407495966	0.239612504389	
605.0	-0.932960378217	0.246071028776	
605.625	-0.936713773794	0.245582851766	
606.25	-0.929329311372	0.249553858108	
606.875	-0.928457652092	0.26096338356	
607.5	-0.930466933479	0.251447810993	
608.125	-0.917124321987	0.250980902888	
608.75	-0.920226986603	0.258239775582	
609.375	-0.928508145548	0.24853484576	
610.0	-0.911142585385	0.245163646378	
610.625	-0.914429633212	0.256058432674	
611.25	-0.922010461861	0.246430323609	
611.875	-0.909962866355	0.244463811146	
612.5	-0.913176339368	0.248738050107	
613.125	-0.915227051964	0.243963862191	
613.75	-0.909853099729	0.241584520577	
614.375	-0.916219416534	0.246717723708	
615.0	-0.915037970002	0.242960628917	
615.625	-0.910436762852	0.243061393451	
616.25	-0.91652629688	0.244377791086	
616.875	-0.912892249203	0.23584686526	
617.5	-0.896745562209	0.234652758531	
618.125	-0.932917011805	0.236258566046	
618.75	-0.9268209248	0.230953817484	
619.375	-0.906762833572	0.246478175816	
620.0	-0.909010313751	0.258600873792	
620.625	-0.904822742716	0.241212145131	
621.25	-0.904891936577	0.243100776903	
621.875	-0.912161704309	0.250262893275	
622.5	-0.916754118061	0.244345461588	
623.125	-0.910831276189	0.244358013236	
623.75	-0.913105562369	0.245196277877	
624.375	-0.909028921477	0.242518749673	
625.0	-0.904535872051	0.247371213982	
625.625	-0.914100175981	0.249640774478	
626.25	-0.912541322418	0.246828947291	
626.875	-0.90560815451	0.248296867979	
627.5	-0.908377209993	0.247432932809	
628.125	-0.903438574215	0.247669222239	
628.75	-0.899847296878	0.254151148725	
629.375	-0.908069062723	0.254474902227	
630.0	-0.907502456449	0.240386933116	
630.625	-0.895674184548	0.241684781742	
631.25	-0.896574849853	0.252076723084	
631.875	-0.904348546482	0.250638998785	
632.5	-0.899612362313	0.252359791621	
633.125	-0.899562533042	0.255633462032	
633.75	-0.898320661113	0.249087477212	
634.375	-0.888266554797	0.247589855957	
635.0	-0.890246148471	0.25330790098	
635.625	-0.896034176538	0.248831212661	
636.25	-0.894091345807	0.248283586711	
636.875	-0.895560140888	0.250401168453	
637.5	-0.894241878927	0.246675444711	
638.125	-0.890028041671	0.250655908632	
638.75	-0.895443941399	0.255360071565	
639.375	-0.897002672144	0.251165004611	
640.0	-0.887230399004	0.256197596622	
640.625	-0.884355173264	0.247938408917	
641.25	-0.898059627345	0.261371960115	
641.875	-0.883935176427	0.262316410681	
642.5	-0.880543173763	0.255524756781	
643.125	-0.913775089159	0.240772572612	
643.75	-0.879586882071	0.246308056683	
644.375	-0.882348451162	0.251790236091	
645.0	-0.885740991116	0.250179950485	
645.625	-0.882672134723	0.248274012797	
646.25	-0.883925661213	0.250269192495	
646.875	-0.885292989119	0.246668453052	
647.5	-0.881465537898	0.252378753718	
648.125	-0.883477948311	0.256418134654	
648.75	-0.882503613835	0.249485354128	
649.375	-0.876925252357	0.253011691471	
650.0	-0.879917036595	0.256846708117	
650.625	-0.879566462118	0.247911248569	
651.25	-0.874266580826	0.250351237193	
651.875	-0.878831346001	0.252129599484	
652.5	-0.883475482147	0.249648106834	
653.125	-0.876397755894	0.248496952114	
653.75	-0.878654164874	0.254343051764	
654.375	-0.881246653274	0.256927393293	
655.0	-0.877589582491	0.255522957926	
655.625	-0.87776844449	0.25272453133	
656.25	-0.873709863571	0.25571254979	
656.875	-0.875865612178	0.255977272083	
657.5	-0.873964439643	0.257123729936	
658.125	-0.875933203057	0.25771791804	
658.75	-0.876557063456	0.253292735788	
659.375	-0.869223932761	0.259333900792	
660.0	-0.877023521288	0.261499896051	
660.625	-0.871118970299	0.259564761477	
661.25	-0.870234427877	0.265161023761	
661.875	-0.879884908813	0.262183496221	
662.5	-0.86621972446	0.252497533968	
663.125	-0.855704789556	0.258276407573	
663.75	-0.838953575983	0.239887551161	
664.375	-0.87120794944	0.260609417116	
665.0	-0.846835103631	0.262193724078	
665.625	-0.874995088469	0.261059915153	
666.25	-0.866510572922	0.260442183434	
666.875	-0.857161865594	0.26338666626	
667.5	-0.86129640805	0.269241624857	
668.125	-0.86738786318	0.265840887031	
668.75	-0.857688985677	0.261411075531	
669.375	-0.859919293669	0.264277688795	
670.0	-0.86195996869	0.262121236067	
670.625	-0.856344005587	0.267596156863	
671.25	-0.862734353479	0.274410997159	
671.875	-0.863405693191	0.264099188334	
672.5	-0.850446588559	0.264777184773	
673.125	-0.853740885841	0.273201052388	
673.75	-0.859411117488	0.268750357187	
674.375	-0.853306122802	0.26594006329	
675.0	-0.856545163763	0.271338915595	
675.625	-0.85931569853	0.267407567813	
676.25	-0.849939904053	0.269412841662	
676.875	-0.852456174297	0.275323082542	
677.5	-0.854340338518	0.273817763173	
678.125	-0.848912993638	0.268566711612	
678.75	-0.853227494295	0.269155137931	
679.375	-0.852389836841	0.27200166679	
680.0	-0.845854191637	0.27691763819	
680.625	-0.847967946961	0.281248877953	
681.25	-0.846220613267	0.272336439154	
681.875	-0.840253742277	0.267431035855	
682.5	-0.84075087297	0.273113965685	
683.125	-0.845465405541	0.272361852712	
683.75	-0.844591192118	0.268971467075	
684.375	-0.841075899277	0.268577599851	
685.0	-0.844515337149	0.265702978721	
685.625	-0.835797135085	0.266792005725	
686.25	-0.84057759542	0.245722451046	
686.875	-0.797585252832	0.253166389774	
687.5	-0.823265262392	0.34799654808	
688.125	-0.813982718638	0.264309364628	
688.75	-0.832563301425	0.260226205718	
689.375	-0.839069378853	0.259124385874	
690.0	-0.837763206106	0.25601826109	
690.625	-0.845249539721	0.257649706912	
691.25	-0.853454291391	0.246349180228	
691.875	-0.845053494454	0.240640899048	
692.5	-0.8500486158	0.255291924816	
693.125	-0.860483364165	0.259274676951	
693.75	-0.856161784863	0.256466522132	
694.375	-0.854788892644	0.258741151993	
695.0	-0.868176160863	0.253976102447	
695.625	-0.853270602238	0.247170755906	
696.25	-0.843778011951	0.264427685942	
696.875	-0.855239774961	0.272400386207	
697.5	-0.864406916132	0.261565183496	
698.125	-0.858617408117	0.254761156723	
698.75	-0.854970175894	0.253774708495	
699.375	-0.855587308276	0.257178165676	
700.0	-0.851147631314	0.266216845547	
700.625	-0.861989754235	0.276043438026	
701.25	-0.866618505525	0.262614131546	
701.875	-0.854947467711	0.251074910826	
702.5	-0.848971098288	0.261834740385	
703.125	-0.848122157048	0.257235028056	
703.75	-0.847871862736	0.259554151984	
704.375	-0.857109216299	0.268050288566	
705.0	-0.870898583356	0.250262704166	
705.625	-0.850897368422	0.240729175097	
706.25	-0.844572147968	0.255644476956	
706.875	-0.858593459096	0.265189812954	
707.5	-0.86607061048	0.256442428692	
708.125	-0.86117473538	0.258750383135	
708.75	-0.902295614881	0.259054524009	
709.375	-0.886204587117	0.263762017306	
710.0	-0.860994915693	0.288035942636	
710.625	-0.861765217763	0.281123656275	
711.25	-0.860596682267	0.268773216991	
711.875	-0.841763801583	0.260145126614	
712.5	-0.845839331681	0.273919839828	
713.125	-0.85202059819	0.266163310313	
713.75	-0.842638080573	0.265495603484	
714.375	-0.845238619309	0.279353527598	
715.0	-0.855832035062	0.268653952004	
715.625	-0.838927282677	0.256411212182	
716.25	-0.83116468679	0.280920989595	
716.875	-0.845846471793	0.286180981155	
717.5	-0.846262508371	0.271082200365	
718.125	-0.832601754409	0.272946550587	
718.75	-0.838535104756	0.278039188394	
719.375	-0.837100534693	0.265509559415	
720.0	-0.821775767932	0.275602226591	
720.625	-0.836764479386	0.290648462922	
721.25	-0.846394751649	0.274162794793	
721.875	-0.839887746664	0.261630095743	
722.5	-0.822844745716	0.289222032263	
723.125	-0.818966113035	0.296288258967	
723.75	-0.81491580926	0.297449112023	
724.375	-0.827759904036	0.2956353566	
725.0	-0.827825827092	0.257924559454	
725.625	-0.820836678161	0.246343396991	
726.25	-0.801214960686	0.279495190157	
726.875	-0.818263760576	0.297146659548	
727.5	-0.826865249089	0.287357406647	
728.125	-0.817738074382	0.290236364333	
728.75	-0.824008998041	0.283467469698	
729.375	-0.816298161238	0.283096501607	
730.0	-0.788661621974	0.291552452621	
730.625	-0.796143101281	0.309269174531	
731.25	-0.810717300848	0.292318251054	
731.875	-0.805637523313	0.176832143652	
732.5	-0.78913411314	0.205611459043	
733.125	-0.784131238659	0.251316404337	
733.75	-0.777304482906	0.258054226018	
734.375	-0.791924492438	0.294104570044	
735.0	-0.809183210895	0.284089033202	
735.625	-0.800086128327	0.264843192985	
736.25	-0.778650540878	0.274425169728	
736.875	-0.788730984485	0.289677129704	
737.5	-0.788927643621	0.28623875834	
738.125	-0.787743186977	0.280743339078	
738.75	-0.790735831708	0.283242790013	
739.375	-0.788807160714	0.279314992939	
740.0	-0.781092340458	0.275347740761	
740.625	-0.781242381724	0.287412051358	
741.25	-0.793910510895	0.288244099712	
741.875	-0.776135764766	0.267980418217	
742.5	-0.776864399763	0.273020026682	
743.125	-0.782762549785	0.272458188027	
743.75	-0.769988521744	0.271592762671	
744.375	-0.780798004647	0.28405917757	
745.0	-0.791310216525	0.285735117377	
745.625	-0.793178831861	0.270398881009	
746.25	-0.770257743509	0.265068621639	
746.875	-0.781102391044	0.281386275304	
747.5	-0.786641633956	0.271650558812	
748.125	-0.780418799992	0.258509530726	
748.75	-0.784470581266	0.272773164643	
749.375	-0.795096167538	0.26341528449	
750.0	-0.786786839177	0.264755946905	
