# GHz S RI R 50 
!freq	ReS11	ImS11	
500.0	-0.395597081888	0.918424166059	
500.625	-0.392088834876	0.919927358853	
501.25	-0.388581959975	0.921414163328	
501.875	-0.385076473385	0.922884667575	
502.5	-0.381572391296	0.9243389585	
503.125	-0.37806972989	0.92577712185	
503.75	-0.374568505337	0.927199242239	
504.375	-0.3710687338	0.92860540317	
505.0	-0.367570431428	0.929995687054	
505.625	-0.364073614363	0.931370175239	
506.25	-0.360578298735	0.932728948024	
506.875	-0.357084500666	0.934072084683	
507.5	-0.353592236265	0.935399663488	
508.125	-0.350101521633	0.936711761723	
508.75	-0.346612372858	0.938008455709	
509.375	-0.343124806019	0.939289820819	
510.0	-0.339638837184	0.940555931498	
510.625	-0.336154482411	0.941806861281	
511.25	-0.332671757745	0.943042682809	
511.875	-0.329190679223	0.944263467848	
512.5	-0.325711262869	0.945469287307	
513.125	-0.322233524696	0.946660211249	
513.75	-0.318757480707	0.947836308913	
514.375	-0.315283146892	0.948997648725	
515.0	-0.311810539231	0.950144298317	
515.625	-0.308339673693	0.951276324538	
516.25	-0.304870566234	0.952393793472	
516.875	-0.301403232799	0.95349677045	
517.5	-0.297937689322	0.954585320064	
518.125	-0.294473951725	0.955659506182	
518.75	-0.291012035917	0.956719391959	
519.375	-0.287551957797	0.957765039854	
520.0	-0.284093733251	0.958796511637	
520.625	-0.280637378153	0.959813868406	
521.25	-0.277182908364	0.960817170595	
521.875	-0.273730339734	0.961806477993	
522.5	-0.270279688101	0.962781849746	
523.125	-0.266830969289	0.963743344376	
523.75	-0.263384199112	0.964691019787	
524.375	-0.259939393368	0.965624933282	
525.0	-0.256496567845	0.966545141565	
525.625	-0.253055738318	0.96745170076	
526.25	-0.249616920549	0.968344666416	
526.875	-0.246180130286	0.969224093516	
527.5	-0.242745383265	0.970090036493	
528.125	-0.23931269521	0.970942549233	
528.75	-0.235882081829	0.971781685088	
529.375	-0.23245355882	0.972607496882	
530.0	-0.229027141867	0.973420036926	
530.625	-0.225602846637	0.974219357018	
531.25	-0.22218068879	0.975005508461	
531.875	-0.218760683967	0.975778542063	
532.5	-0.215342847797	0.976538508151	
533.125	-0.211927195898	0.977285456578	
533.75	-0.208513743869	0.978019436728	
534.375	-0.205102507301	0.978740497527	
535.0	-0.201693501766	0.979448687449	
535.625	-0.198286742826	0.980144054524	
536.25	-0.194882246026	0.980826646347	
536.875	-0.191480026898	0.98149651008	
537.5	-0.18808010096	0.982153692465	
538.125	-0.184682483716	0.982798239828	
538.75	-0.181287190654	0.983430198085	
539.375	-0.17789423725	0.98404961275	
540.0	-0.174503638963	0.984656528942	
540.625	-0.171115411238	0.985250991391	
541.25	-0.167729569507	0.985833044442	
541.875	-0.164346129186	0.986402732063	
542.5	-0.160965105674	0.986960097854	
543.125	-0.15758651436	0.987505185046	
543.75	-0.154210370613	0.988038036513	
544.375	-0.150836689789	0.988558694774	
545.0	-0.14746548723	0.989067202002	
545.625	-0.144096778261	0.989563600025	
546.25	-0.140730578192	0.990047930336	
546.875	-0.137366902318	0.990520234093	
547.5	-0.134005765918	0.99098055213	
548.125	-0.130647184257	0.991428924959	
548.75	-0.127291172582	0.991865392774	
549.375	-0.123937746125	0.992289995458	
550.0	-0.120586920104	0.992702772586	
550.625	-0.117238709718	0.993103763432	
551.25	-0.113893130153	0.993493006973	
551.875	-0.110550196578	0.99387054189	
552.5	-0.107209924144	0.994236406578	
553.125	-0.103872327989	0.994590639147	
553.75	-0.100537423233	0.994933277426	
554.375	-0.0972052249785	0.99526435897	
555.0	-0.0938757483141	0.995583921063	
555.625	-0.0905490083102	0.995892000718	
556.25	-0.0872250200214	0.996188634688	
556.875	-0.0839037984852	0.996473859466	
557.5	-0.0805853587226	0.996747711289	
558.125	-0.0772697157377	0.997010226141	
558.75	-0.0739568845178	0.99726143976	
559.375	-0.0706468800332	0.997501387639	
560.0	-0.0673397172372	0.99773010503	
560.625	-0.064035411066	0.997947626947	
561.25	-0.0607339764385	0.998153988173	
561.875	-0.0574354282565	0.998349223259	
562.5	-0.0541397814044	0.998533366528	
563.125	-0.0508470507492	0.998706452082	
563.75	-0.0475572511403	0.998868513801	
564.375	-0.0442703974098	0.99901958535	
565.0	-0.0409865043719	0.999159700178	
565.625	-0.0377055868232	0.999288891524	
566.25	-0.0344276595425	0.999407192419	
566.875	-0.0311527372908	0.99951463569	
567.5	-0.027880834811	0.999611253963	
568.125	-0.0246119668283	0.999697079664	
568.75	-0.0213461480494	0.999772145023	
569.375	-0.0180833931631	0.999836482077	
570.0	-0.01482371684	0.999890122673	
570.625	-0.0115671337322	0.999933098471	
571.25	-0.00831365847362	0.999965440944	
571.875	-0.00506330567952	0.999987181386	
572.5	-0.00181608994676	0.999998350907	
573.125	0.00142797414644	0.999998980444	
573.75	0.00466887204054	0.999989100758	
574.375	0.00790658919477	0.999968742435	
575.0	0.0111411110872	0.999937935896	
575.625	0.0143724232147	0.999896711391	
576.25	0.0176005110932	0.999845099007	
576.875	0.0208253602578	0.999783128668	
577.5	0.0240469562624	0.999710830138	
578.125	0.0272652846805	0.99962823302	
578.75	0.0304803311045	0.999535366766	
579.375	0.0336920811464	0.99943226067	
580.0	0.0369005204375	0.999318943877	
580.625	0.0401056346286	0.999195445381	
581.25	0.04330740939	0.999061794031	
581.875	0.0465058304118	0.998918018527	
582.5	0.0497008834036	0.998764147429	
583.125	0.052892554095	0.998600209153	
583.75	0.0560808282353	0.998426231979	
584.375	0.0592656915936	0.998242244047	
585.0	0.0624471299593	0.998048273361	
585.625	0.0656251291417	0.997844347794	
586.25	0.0687996749703	0.997630495085	
586.875	0.0719707532946	0.997406742844	
587.5	0.0751383499846	0.997173118551	
588.125	0.0783024509307	0.996929649563	
588.75	0.0814630420435	0.996676363109	
589.375	0.0846201092543	0.996413286297	
590.0	0.0877736385147	0.996140446113	
590.625	0.0909236157974	0.995857869422	
591.25	0.0940700270953	0.995565582974	
591.875	0.0972128584223	0.9952636134	
592.5	0.100352095813	0.994951987216	
593.125	0.103487725324	0.994630730828	
593.75	0.106619733031	0.994299870526	
594.375	0.109748105031	0.993959432493	
595.0	0.112872827445	0.993609442802	
595.625	0.115993886412	0.993249927418	
596.25	0.119111268092	0.992880912201	
596.875	0.12222495867	0.992502422908	
597.5	0.125334944348	0.992114485191	
598.125	0.128441211353	0.991717124601	
598.75	0.131543745932	0.991310366589	
599.375	0.134642534353	0.990894236507	
600.0	0.137737562907	0.990468759611	
600.625	0.140828817905	0.990033961058	
601.25	0.143916285683	0.989589865912	
601.875	0.146999952595	0.989136499143	
602.5	0.15007980502	0.988673885629	
603.125	0.153155829358	0.988202050157	
603.75	0.15622801203	0.987721017422	
604.375	0.159296339481	0.987230812033	
605.0	0.162360798177	0.986731458511	
605.625	0.165421374607	0.986222981289	
606.25	0.168478055281	0.985705404717	
606.875	0.171530826734	0.985178753059	
607.5	0.174579675522	0.984643050498	
608.125	0.177624588223	0.984098321134	
608.75	0.180665551437	0.983544588986	
609.375	0.183702551791	0.982981877995	
610.0	0.186735575929	0.982410212021	
610.625	0.189764610522	0.981829614849	
611.25	0.192789642261	0.981240110185	
611.875	0.195810657864	0.980641721663	
612.5	0.198827644068	0.98003447284	
613.125	0.201840587634	0.979418387199	
613.75	0.204849475348	0.978793488152	
614.375	0.207854294018	0.97815979904	
615.0	0.210855030475	0.977517343132	
615.625	0.213851671573	0.976866143627	
616.25	0.216844204192	0.976206223658	
616.875	0.219832615233	0.975537606287	
617.5	0.22281689162	0.974860314511	
618.125	0.225797020304	0.974174371261	
618.75	0.228772988256	0.973479799402	
619.375	0.231744782474	0.972776621736	
620.0	0.234712389977	0.972064861	
620.625	0.23767579781	0.97134453987	
621.25	0.24063499304	0.97061568096	
621.875	0.24358996276	0.969878306821	
622.5	0.246540694086	0.969132439948	
623.125	0.24948717416	0.968378102773	
623.75	0.252429390144	0.967615317671	
624.375	0.255367329228	0.96684410696	
625.0	0.258300978627	0.966064492899	
625.625	0.261230325576	0.965276497694	
626.25	0.264155357339	0.964480143491	
626.875	0.267076061202	0.963675452387	
627.5	0.269992424477	0.962862446419	
628.125	0.2729044345	0.962041147576	
628.75	0.275812078631	0.961211577792	
629.375	0.278715344256	0.960373758948	
630.0	0.281614218786	0.959527712876	
630.625	0.284508689656	0.958673461357	
631.25	0.287398744326	0.957811026121	
631.875	0.290284370282	0.956940428851	
632.5	0.293165555035	0.95606169118	
633.125	0.296042286119	0.955174834692	
633.75	0.298914551096	0.954279880927	
634.375	0.301782337553	0.953376851377	
635.0	0.304645633101	0.952465767486	
635.625	0.307504425376	0.951546650656	
636.25	0.310358702042	0.950619522241	
636.875	0.313208450787	0.949684403555	
637.5	0.316053659324	0.948741315864	
638.125	0.318894315393	0.947790280394	
638.75	0.321730406759	0.946831318328	
639.375	0.324561921212	0.945864450806	
640.0	0.32738884657	0.944889698929	
640.625	0.330211170675	0.943907083754	
641.25	0.333028881396	0.942916626302	
641.875	0.335841966628	0.94191834755	
642.5	0.338650414291	0.94091226844	
643.125	0.341454212332	0.939898409872	
643.75	0.344253348725	0.938876792711	
644.375	0.347047811469	0.937847437782	
645.0	0.349837588589	0.936810365875	
645.625	0.352622668138	0.935765597741	
646.25	0.355403038195	0.934713154097	
646.875	0.358178686865	0.933653055624	
647.5	0.360949602279	0.932585322968	
648.125	0.363715772596	0.931509976739	
648.75	0.366477186	0.930427037516	
649.375	0.369233830705	0.929336525842	
650.0	0.371985694947	0.928238462225	
650.625	0.374732766994	0.927132867145	
651.25	0.377475035136	0.926019761047	
651.875	0.380212487695	0.924899164342	
652.5	0.382945113015	0.923771097414	
653.125	0.385672899471	0.922635580613	
653.75	0.388395835463	0.92149263426	
654.375	0.391113909419	0.920342278644	
655.0	0.393827109795	0.919184534025	
655.625	0.396535425073	0.918019420635	
656.25	0.399238843762	0.916846958675	
656.875	0.401937354401	0.915667168319	
657.5	0.404630945553	0.914480069712	
658.125	0.407319605813	0.913285682971	
658.75	0.410003323798	0.912084028187	
659.375	0.412682088158	0.910875125423	
660.0	0.415355887568	0.909658994713	
660.625	0.41802471073	0.90843565607	
661.25	0.420688546376	0.907205129476	
661.875	0.423347383265	0.905967434891	
662.5	0.426001210184	0.904722592247	
663.125	0.428650015947	0.903470621453	
663.75	0.431293789398	0.902211542393	
664.375	0.433932519407	0.900945374926	
665.0	0.436566194875	0.899672138889	
665.625	0.439194804728	0.898391854093	
666.25	0.441818337921	0.897104540328	
666.875	0.444436783441	0.895810217359	
667.5	0.447050130297	0.894508904931	
668.125	0.449658367533	0.893200622765	
668.75	0.452261484216	0.89188539056	
669.375	0.454859469446	0.890563227994	
670.0	0.457452312348	0.889234154724	
670.625	0.460040002078	0.887898190385	
671.25	0.462622527819	0.886555354591	
671.875	0.465199878785	0.885205666937	
672.5	0.467772044217	0.883849146998	
673.125	0.470339013386	0.882485814326	
673.75	0.47290077559	0.881115688458	
674.375	0.475457320159	0.879738788907	
675.0	0.478008636448	0.878355135171	
675.625	0.480554713846	0.876964746726	
676.25	0.483095541766	0.875567643032	
676.875	0.485631109655	0.87416384353	
677.5	0.488161406986	0.872753367641	
678.125	0.490686423262	0.871336234772	
678.75	0.493206148016	0.869912464308	
679.375	0.49572057081	0.868482075621	
680.0	0.498229681236	0.867045088064	
680.625	0.500733468913	0.865601520973	
681.25	0.503231923494	0.864151393667	
681.875	0.505725034657	0.862694725451	
682.5	0.508212792112	0.861231535612	
683.125	0.5106951856	0.859761843422	
683.75	0.513172204889	0.858285668137	
684.375	0.515643839778	0.856803028998	
685.0	0.518110080095	0.855313945229	
685.625	0.520570915701	0.853818436043	
686.25	0.523026336482	0.852316520634	
686.875	0.525476332358	0.850808218185	
687.5	0.527920893278	0.849293547862	
688.125	0.530360009221	0.847772528819	
688.75	0.532793670194	0.846245180194	
689.375	0.535221866238	0.844711521113	
690.0	0.537644587422	0.843171570688	
690.625	0.540061823845	0.841625348017	
691.25	0.542473565637	0.840072872187	
691.875	0.544879802959	0.83851416227	
692.5	0.547280526002	0.836949237325	
693.125	0.549675724987	0.8353781164	
693.75	0.552065390165	0.83380081853	
694.375	0.55444951182	0.832217362738	
695.0	0.556828080263	0.830627768035	
695.625	0.559201085839	0.829032053419	
696.25	0.561568518922	0.827430237878	
696.875	0.563930369918	0.825822340388	
697.5	0.566286629262	0.824208379913	
698.125	0.568637287421	0.822588375407	
698.75	0.570982334893	0.820962345812	
699.375	0.573321762206	0.819330310059	
700.0	0.57565555992	0.817692287069	
700.625	0.577983718627	0.816048295754	
701.25	0.580306228947	0.814398355011	
701.875	0.582623081534	0.812742483733	
702.5	0.584934267071	0.811080700797	
703.125	0.587239776275	0.809413025075	
703.75	0.589539599891	0.807739475425	
704.375	0.591833728698	0.806060070699	
705.0	0.594122153505	0.804374829737	
705.625	0.596404865153	0.802683771371	
706.25	0.598681854513	0.800986914423	
706.875	0.600953112489	0.799284277707	
707.5	0.603218630017	0.797575880027	
708.125	0.605478398063	0.795861740178	
708.75	0.607732407626	0.794141876947	
709.375	0.609980649735	0.792416309114	
710.0	0.612223115452	0.790685055446	
710.625	0.614459795871	0.788948134707	
711.25	0.616690682117	0.78720556565	
711.875	0.618915765346	0.78545736702	
712.5	0.621135036749	0.783703557554	
713.125	0.623348487546	0.781944155982	
713.75	0.625556108989	0.780179181026	
714.375	0.627757892364	0.778408651401	
715.0	0.629953828987	0.776632585812	
715.625	0.632143910207	0.77485100296	
716.25	0.634328127407	0.773063921536	
716.875	0.636506471998	0.771271360226	
717.5	0.638678935426	0.769473337708	
718.125	0.640845509169	0.767669872652	
718.75	0.643006184738	0.765860983723	
719.375	0.645160953674	0.764046689578	
720.0	0.647309807552	0.762227008868	
720.625	0.649452737979	0.760401960236	
721.25	0.651589736596	0.758571562321	
721.875	0.653720795074	0.756735833755	
722.5	0.655845905117	0.754894793161	
723.125	0.657965058464	0.753048459158	
723.75	0.660078246883	0.751196850361	
724.375	0.662185462178	0.749339985374	
725.0	0.664286696183	0.747477882799	
725.625	0.666381940767	0.745610561231	
726.25	0.66847118783	0.74373803926	
726.875	0.670554429305	0.741860335467	
727.5	0.672631657159	0.739977468432	
728.125	0.674702863392	0.738089456727	
728.75	0.676768040034	0.736196318918	
729.375	0.678827179153	0.734298073567	
730.0	0.680880272844	0.73239473923	
730.625	0.682927313241	0.730486334458	
731.25	0.684968292506	0.728572877797	
731.875	0.687003202837	0.726654387788	
732.5	0.689032036465	0.724730882967	
733.125	0.691054785653	0.722802381863	
733.75	0.693071442698	0.720868903003	
734.375	0.69508199993	0.718930464908	
735.0	0.697086449713	0.716987086095	
735.625	0.699084784443	0.715038785074	
736.25	0.701076996551	0.713085580353	
736.875	0.703063078499	0.711127490434	
737.5	0.705043022786	0.709164533815	
738.125	0.70701682194	0.70719672899	
738.75	0.708984468527	0.705224094446	
739.375	0.710945955143	0.70324664867	
740.0	0.71290127442	0.701264410141	
740.625	0.714850419022	0.699277397335	
741.25	0.716793381648	0.697285628725	
741.875	0.718730155029	0.695289122777	
742.5	0.720660731931	0.693287897956	
743.125	0.722585105154	0.691281972722	
743.75	0.72450326753	0.689271365529	
744.375	0.726415211927	0.68725609483	
745.0	0.728320931245	0.685236179073	
745.625	0.730220418419	0.683211636701	
746.25	0.732113666419	0.681182486154	
746.875	0.734000668245	0.679148745869	
747.5	0.735881416936	0.677110434278	
748.125	0.737755905561	0.675067569811	
748.75	0.739624127225	0.673020170892	
749.375	0.741486075067	0.670968255942	
750.0	0.743341742259	0.668911843381	
