# GHz S RI R 50 
!freq	ReS11	ImS11	ReS21	ImS21	ReS12	ImS12	ReS22	ImS22	
500.0	-0.011438021916	-0.0155469656634	0.0924787577324	0.0318637861277	0.0924787577324	0.0318637861277	-0.192559240606	0.0911353302876	
500.625	-0.038137148736	0.0861854647907	0.139817645724	0.0684787746919	0.139817645724	0.0684787746919	-0.164382911226	0.277883287082	
501.25	0.0525722814019	0.172486467067	0.163014183448	-0.108259528524	0.163014183448	-0.108259528524	-0.204631337985	0.189503081433	
501.875	0.0213288791651	-0.0518420165493	0.0241101232864	-0.200598517819	0.0241101232864	-0.200598517819	-0.10623922219	0.209725542759	
502.5	-0.0747071547084	-0.203698536265	0.120430585448	0.192480174214	0.120430585448	0.192480174214	-0.100630675286	0.179836935754	
503.125	-0.00141206766708	0.00454549585151	0.0371629661702	-0.0407184068542	0.0371629661702	-0.0407184068542	0.25170586832	-0.159864843898	
503.75	0.0634082412159	0.129888598205	0.176280572046	-0.0770985011613	0.176280572046	-0.0770985011613	-0.0535243703357	0.178689513744	
504.375	0.0842262227133	-0.093815817562	0.0559776243055	0.169191479793	0.0559776243055	0.169191479793	0.00157717461394	0.153171594765	
505.0	-0.0381747875776	0.0117948861018	0.163808896613	-0.00735275855232	0.163808896613	-0.00735275855232	0.0154762218758	0.152377848638	
505.625	0.0234325614298	-0.0275340516814	0.0195837347394	0.134816162998	0.0195837347394	0.134816162998	0.021555913575	0.148386298429	
506.25	-0.120751986938	0.0485862293736	0.205271841935	0.0294696077117	0.205271841935	0.0294696077117	0.041528801939	0.142224139883	
506.875	0.194704226829	0.394339378299	0.178482048372	-0.285468793856	0.178482048372	-0.285468793856	0.06900055027	0.115568657667	
507.5	0.164264627987	-0.0170767340784	0.0906046041845	0.330039505687	0.0906046041845	0.330039505687	0.0854818501914	0.112031212197	
508.125	-0.149937274266	-0.400087645312	0.271608044204	0.294062503779	0.271608044204	0.294062503779	0.0772233471854	0.0983973154555	
508.75	-0.229268075818	-0.46138843773	0.398865404604	0.188276008746	0.398865404604	0.188276008746	0.100408321231	0.0926244314747	
509.375	-0.237133019286	0.0669259237198	0.324799053114	-0.0170324765071	0.324799053114	-0.0170324765071	0.109306648029	0.0757504461749	
510.0	0.0695448289116	0.123267525278	0.0684034142398	-0.189378952599	0.0684034142398	-0.189378952599	0.131202570679	0.0603899014719	
510.625	0.0275716172912	-0.0140462425797	0.093862935158	0.118108375214	0.093862935158	0.118108375214	0.116832711878	0.0470946869245	
511.25	-0.0139317018845	0.0386145872457	0.106938991512	-0.057805035193	0.106938991512	-0.057805035193	0.120359925095	0.034472719581	
511.875	0.0288225495339	0.00939847610812	0.0100900889591	0.0858591083474	0.0100900889591	0.0858591083474	0.113589927894	0.00927169979947	
512.5	-0.00550886218283	-0.00423506670679	0.0555638557043	-0.0137788182148	0.0555638557043	-0.0137788182148	0.118703590838	-0.00500979581458	
513.125	0.00859751277282	-0.0121363973498	0.0562284536483	0.0751979414907	0.0562284536483	0.0751979414907	0.10349882353	-0.012730252824	
513.75	-0.0120260193449	0.00777876283608	0.0635661507305	-0.0386046245927	0.0635661507305	-0.0386046245927	0.115908311463	-0.027244136115	
514.375	0.0528650795156	0.0486072877853	0.00252996310231	0.153798955632	0.00252996310231	0.153798955632	0.112523486677	-0.0394478091142	
515.0	0.164488284375	-0.142546684146	0.235754173341	0.163710939681	0.235754173341	0.163710939681	0.110882171874	-0.0545739742812	
515.625	-0.0772373383677	-0.0567573383301	0.246570184556	-0.0367941896252	0.246570184556	-0.0367941896252	0.0862896983505	-0.0645391797978	
516.25	-0.01928009133	0.179013357393	0.102215025024	-0.238455110787	0.102215025024	-0.238455110787	0.102313328478	-0.0764710221187	
516.875	0.115180891081	0.0192038534378	0.09863280349	0.190009466791	0.09863280349	0.190009466791	0.0803484650347	-0.096549093742	
517.5	0.0244641924704	-0.117070011623	0.184123427226	0.0599890064426	0.184123427226	0.0599890064426	0.0831453412148	-0.104540443751	
518.125	-0.0683005405196	-0.0381432074385	0.128402142192	-0.0953182750003	0.128402142192	-0.0953182750003	0.0546911549564	-0.122345495376	
518.75	0.0133829072163	0.0123727226496	0.0160201981442	0.162276212044	0.0160201981442	0.162276212044	0.065448268235	-0.118926199016	
519.375	-0.0406200510821	0.0139317656087	0.082206096805	-0.0644687743579	0.082206096805	-0.0644687743579	0.0326306791365	-0.148053345256	
520.0	-0.0260981961898	0.0806831102622	0.00335339331744	0.144597453892	0.00335339331744	0.144597453892	0.0232067263499	-0.154424545284	
520.625	0.0475707528624	0.0193307150524	0.144533420192	0.134805780734	0.144533420192	0.134805780734	0.00277119428896	-0.168082600968	
521.25	-0.0732438885721	-0.17271397241	0.26150054566	-0.0421957105493	0.26150054566	-0.0421957105493	0.0138594882961	-0.16833345011	
521.875	-0.194792748298	0.0642176616184	0.13610065047	-0.26577919946	0.13610065047	-0.26577919946	-0.00375632004997	-0.18443475775	
522.5	0.254191307753	-0.0598915735372	0.233945384851	0.186720312983	0.233945384851	0.186720312983	-0.00307644984215	-0.197996282293	
523.125	0.111116553528	-0.382760302495	0.32383803319	-0.0465648972096	0.32383803319	-0.0465648972096	-0.0336962512511	-0.213259223014	
523.75	-0.0909612750089	-0.149012525513	0.225640740922	-0.209784228375	0.225640740922	-0.209784228375	-0.0377487576362	-0.209945621777	
524.375	-0.110364704883	0.231779132461	0.0445782324812	-0.343918942523	0.0445782324812	-0.343918942523	-0.0625971885783	-0.22530847054	
525.0	0.310020402913	0.252366317741	0.228337333062	0.29092195439	0.228337333062	0.29092195439	-0.0605779837733	-0.233760806141	
525.625	0.0730999947607	-0.201655845607	0.242913444218	-0.0385017093685	0.242913444218	-0.0385017093685	-0.0954086112946	-0.245553694137	
526.25	-0.124821895481	-0.0431919722637	0.0652591427847	-0.20388963058	0.0652591427847	-0.20388963058	-0.105477629828	-0.240054721064	
526.875	0.0467078627877	0.0259003498423	0.125906365533	0.164871959724	0.125906365533	0.164871959724	-0.131442853182	-0.248399327558	
527.5	0.0276198592884	-0.121183404378	0.174945326617	-0.0369769857242	0.174945326617	-0.0369769857242	-0.120787338713	-0.251683977819	
528.125	-0.10794752025	-0.0274219189578	0.0536027439279	-0.186597421104	0.0536027439279	-0.186597421104	-0.157871526109	-0.261588401016	
528.75	0.0461805987889	0.0536263917348	0.112872434879	0.113189692442	0.112872434879	0.113189692442	-0.171140893784	-0.263041934683	
529.375	-0.0119463434831	-0.0382336137366	0.0721817365077	-0.0852761762348	0.0721817365077	-0.0852761762348	-0.192254371573	-0.264184676655	
530.0	0.0108163927649	0.0316472922664	0.0977695160511	0.152388826518	0.0977695160511	0.152388826518	-0.187770976447	-0.25205046959	
530.625	0.182486697057	-0.0811124220082	0.217792034752	0.0324155158565	0.217792034752	0.0324155158565	-0.219071681147	-0.263754868257	
531.25	-0.00200713712485	-0.221337176942	0.16124375877	-0.187584878201	0.16124375877	-0.187584878201	-0.227528762073	-0.25127584838	
531.875	-0.01069181861	0.10161976967	0.147947741193	0.197145850204	0.147947741193	0.197145850204	-0.254532812096	-0.253420530263	
532.5	0.173730029346	0.00637557856565	0.258824416341	0.0265368385117	0.258824416341	0.0265368385117	-0.258683234051	-0.244512568443	
533.125	-0.0415140765086	-0.118067804452	0.167376322233	-0.1634871969	0.167376322233	-0.1634871969	-0.286030860128	-0.250391773963	
533.75	-0.0794203386448	0.0785017579066	0.0586066333693	0.155186103756	0.0586066333693	0.155186103756	-0.285784033669	-0.233291831923	
534.375	0.0476540553107	0.0882764317782	0.178136164221	0.0317577105767	0.178136164221	0.0317577105767	-0.31985606796	-0.231403920995	
535.0	-0.0100659994947	-0.00611168392035	0.0414554295391	-0.0904622426841	0.0414554295391	-0.0904622426841	-0.311089378751	-0.216685983022	
535.625	-0.0480244274439	0.0574802774649	0.0660858963153	0.134568347084	0.0660858963153	0.134568347084	-0.334898056411	-0.217420293051	
536.25	0.0340881412192	0.0206036658854	0.124811336197	0.000322999116901	0.124811336197	0.000322999116901	-0.334974509635	-0.196071211836	
536.875	-0.0330205994556	0.00599319900822	0.0253485804233	0.105361516676	0.0253485804233	0.105361516676	-0.362650294005	-0.199139465566	
537.5	-0.0542965439984	0.0826626382769	0.144582087233	0.0955908492596	0.144582087233	0.0955908492596	-0.34724086384	-0.178549257868	
538.125	0.0153693318956	0.00961551387865	0.158581510805	-0.11735996696	0.158581510805	-0.11735996696	-0.371282110672	-0.185536264639	
538.75	-0.204715872695	0.0199715953209	0.00863886449701	0.24546851866	0.00863886449701	0.24546851866	-0.369996729636	-0.173872132506	
539.375	-0.268859020641	0.116194909861	0.16530531867	0.19614090913	0.16530531867	0.19614090913	-0.393881786604	-0.163371474374	
540.0	-0.0637755136483	0.150884094542	0.273337129175	0.0266046975242	0.273337129175	0.0266046975242	-0.383875054834	-0.149058824073	
540.625	0.106115813734	0.0185425846156	0.253515820003	-0.0787840905239	0.253515820003	-0.0787840905239	-0.396126578397	-0.151414235601	
541.25	0.0743971599031	-0.103470111862	0.140810314629	-0.215745510899	0.140810314629	-0.215745510899	-0.387340638611	-0.137381967803	
541.875	-0.128412799898	-0.140801945046	0.000460670991546	-0.26013437793	0.000460670991546	-0.26013437793	-0.409130448819	-0.13540021417	
542.5	-0.258150119917	-0.023849591927	0.168114304929	0.189453676993	0.168114304929	0.189453676993	-0.397313887325	-0.110174723424	
543.125	-0.0778814215645	0.0923923575034	0.254065321471	-0.0247779552758	0.254065321471	-0.0247779552758	-0.410951112769	-0.118247561111	
543.75	-0.0221126317649	-0.109300129686	0.0652051991641	-0.213636674774	0.0652051991641	-0.213636674774	-0.411985929263	-0.101533110371	
544.375	-0.163111641774	0.0381580164785	0.172205033331	0.127801570023	0.172205033331	0.127801570023	-0.421843145429	-0.0910772184294	
545.0	0.0418542325548	0.108122852066	0.210794589952	-0.0537148555902	0.210794589952	-0.0537148555902	-0.423406182347	-0.0751180290092	
545.625	0.197217998039	-0.0894622685351	0.0939746387436	-0.197622040146	0.0939746387436	-0.197622040146	-0.424408540564	-0.0620075240566	
546.25	0.0609305458168	-0.179813632245	0.104245597243	0.203307933692	0.104245597243	0.203307933692	-0.411548137379	-0.0513092346725	
546.875	0.0628387917115	0.0603532106996	0.229451538652	0.0577384781243	0.229451538652	0.0577384781243	-0.426390108132	-0.0411092659271	
547.5	0.346229643082	0.0966302710467	0.191955712687	-0.155246496444	0.191955712687	-0.155246496444	-0.418106980388	-0.018641611632	
548.125	0.302513781714	-0.109630695655	0.0203815799628	-0.240137736305	0.0203815799628	-0.240137736305	-0.419423880729	-0.0147923392751	
548.75	-0.0538989433042	-0.0775438747515	0.18637961012	0.153956569846	0.18637961012	0.153956569846	-0.408665468388	0.00671618276151	
549.375	-0.0670257771986	0.186838605744	0.238018022969	-0.0282456552397	0.238018022969	-0.0282456552397	-0.421234779204	0.0150274403927	
550.0	0.160153466917	0.0241456163725	0.0970283423009	-0.22088911287	0.0970283423009	-0.22088911287	-0.405392387962	0.0450183629661	
550.625	-0.104021761036	-0.20821256585	0.110335733487	0.210664882171	0.110335733487	0.210664882171	-0.401311658405	0.061254231662	
551.25	-0.275955623493	0.151844874873	0.24064649779	-0.0085642340089	0.24064649779	-0.0085642340089	-0.376641257078	0.0780701240373	
551.875	0.0742944036185	0.104387343223	0.0912347218426	-0.205300803439	0.0912347218426	-0.205300803439	-0.362741281437	0.0944317814485	
552.5	-0.0884959354332	-0.0924286430157	0.129607917744	0.158331544217	0.129607917744	0.158331544217	-0.344605660325	0.12002221125	
553.125	-0.124606771611	0.104093982294	0.190111635679	-0.021485753331	0.190111635679	-0.021485753331	-0.318751681858	0.131183649362	
553.75	-0.00920712448899	-0.0500529217923	0.0682011258849	0.0929913520821	0.0682011258849	0.0929913520821	-0.295150333552	0.14665854286	
554.375	-0.123981107136	0.0523828567387	0.157256721525	-0.0195544203358	0.157256721525	-0.0195544203358	-0.254420094415	0.160782604809	
555.0	0.016173821705	0.0674029576986	0.0577036185811	-0.145776816062	0.0577036185811	-0.145776816062	-0.236710203116	0.176179158223	
555.625	-0.0915412094929	-0.0829143286581	0.120133987622	0.148561557349	0.120133987622	0.148561557349	-0.204891619461	0.192029647611	
556.25	-0.254784804479	0.0813625814871	0.197558326369	-0.00669705523094	0.197558326369	-0.00669705523094	-0.178441044724	0.192297060072	
556.875	0.016360030211	0.189079594119	0.0975305159214	-0.172172820747	0.0975305159214	-0.172172820747	-0.149450687346	0.203402712668	
557.5	0.109809077557	-0.0820141976063	0.0509859014392	0.191898961418	0.0509859014392	0.191898961418	-0.123209391937	0.21018017302	
558.125	-0.00745753328035	-0.194310329971	0.156439015704	0.112065890491	0.156439015704	0.112065890491	-0.0760157841211	0.219687614963	
558.75	-0.0862887482034	-0.0421094677874	0.200642822341	-0.00719151832581	0.200642822341	-0.00719151832581	-0.0603356303143	0.215187862864	
559.375	0.0437199489979	0.179529888697	0.146874664492	-0.144589457834	0.146874664492	-0.144589457834	-0.0252842691055	0.209616815247	
560.0	0.261100153671	0.0667265507257	0.00869943291925	0.211316971881	0.00869943291925	0.211316971881	0.000638775348138	0.206934155293	
560.625	0.164704274811	-0.121355019037	0.133132879815	0.174772802106	0.133132879815	0.174772802106	0.0231101196059	0.204222759456	
561.25	-0.190663450197	-0.0814514663947	0.234228263507	-0.00209435578977	0.234228263507	-0.00209435578977	0.0291831011431	0.187330364972	
561.875	-0.084351766792	0.200681457863	0.157911766807	-0.179544985666	0.157911766807	-0.179544985666	0.0608635912846	0.192920903218	
562.5	0.202137810902	-0.140184210677	0.107807606018	0.217280121251	0.107807606018	0.217280121251	0.0597287454461	0.166064577517	
563.125	0.138999441082	-0.313271998712	0.19043331065	0.147094900524	0.19043331065	0.147094900524	0.0880181035054	0.158170080576	
563.75	-0.111096841781	-0.204853570859	0.23904813444	-0.0083931204615	0.23904813444	-0.0083931204615	0.0859335854009	0.141466140375	
564.375	0.0913482858872	0.152276650634	0.0658463201823	-0.231182331383	0.0658463201823	-0.231182331383	0.0994134745853	0.127044740667	
565.0	0.319510861635	-0.077847693628	0.119944847246	0.221032810214	0.119944847246	0.221032810214	0.0936123172466	0.102947470458	
565.625	-0.0437486175008	-0.230793190943	0.244871854126	0.0337421282532	0.244871854126	0.0337421282532	0.108161365987	0.095289764739	
566.25	-0.276029625672	0.0126080369552	0.226072418285	-0.0928412211473	0.226072418285	-0.0928412211473	0.10501089107	0.068338832761	
566.875	-0.263262090981	0.209943784214	0.130267518784	-0.201933316137	0.130267518784	-0.201933316137	0.116182955487	0.0573107650337	
567.5	0.0265246176545	0.109057715378	0.0389489415695	0.240435619417	0.0389489415695	0.240435619417	0.106220412094	0.0383832422433	
568.125	0.132820298684	-0.281382548513	0.184509512689	0.164848740983	0.184509512689	0.164848740983	0.119939887186	0.0230035994193	
568.75	-0.124490641166	-0.42238224783	0.247104392758	-0.00690626698975	0.247104392758	-0.00690626698975	0.103723535861	-0.00889283073771	
569.375	-0.246483267008	-0.0626856497485	0.172765742153	-0.180874533113	0.172765742153	-0.180874533113	0.0961091938654	-0.0165816160589	
570.0	0.0729078630003	0.220374506762	0.00852507640452	0.262912880387	0.00852507640452	0.262912880387	0.0853203597141	-0.0393331985947	
570.625	0.230460917525	-0.0992382607498	0.225807838948	0.145669450041	0.225807838948	0.145669450041	0.0806041215017	-0.0488408116351	
571.25	-0.244218387548	-0.0776198983468	0.245719460287	-0.106385476617	0.245719460287	-0.106385476617	0.0705282178859	-0.072371969637	
571.875	0.139833086145	0.42669660365	0.0350960898298	0.261627135897	0.0350960898298	0.261627135897	0.0552830037537	-0.0867525970891	
572.5	0.351990493673	-0.076548118097	0.247158968639	0.102163692744	0.247158968639	0.102163692744	0.0366181925196	-0.0993947688412	
573.125	-0.195328740205	0.0425408746626	0.143635795493	-0.232505492857	0.143635795493	-0.232505492857	0.0272466189878	-0.105898499804	
573.75	0.111738972413	0.290874389031	0.076067689837	0.267956381718	0.076067689837	0.267956381718	0.0147593945599	-0.120386273037	
574.375	-0.0662771546774	-0.25949669393	0.261757173663	-0.0732538650826	0.261757173663	-0.0732538650826	0.00592727602247	-0.131871556872	
575.0	-0.159323927534	-0.3296447809	0.250729970036	-0.0872251318579	0.250729970036	-0.0872251318579	-0.0146935493426	-0.149629282852	
575.625	-0.347861517116	0.160708058332	0.0437522069385	-0.258015137497	0.0437522069385	-0.258015137497	-0.0170211865997	-0.154159403085	
576.25	0.00827317898203	0.151713680912	0.130176548565	0.224545475333	0.130176548565	0.224545475333	-0.036632267076	-0.156902897906	
576.875	0.196864773154	-0.192011204407	0.241361599335	0.0897876843301	0.241361599335	0.0897876843301	-0.0474383173819	-0.173245259905	
577.5	-0.0917952763634	-0.404141225092	0.234809279541	-0.111548880691	0.234809279541	-0.111548880691	-0.0714437353062	-0.182934061466	
578.125	-0.306796059705	-0.0892465028281	0.0931465964415	-0.24547197445	0.0931465964415	-0.24547197445	-0.0779016597028	-0.184252219128	
578.75	-0.12246314016	0.214978995952	0.0576727693204	0.270999413583	0.0576727693204	0.270999413583	-0.10389152604	-0.185321716855	
579.375	0.266331931987	-0.0720163561809	0.272220030451	0.0508823084509	0.272220030451	0.0508823084509	-0.104658340209	-0.194382345996	
580.0	-0.0610443010793	-0.247913107477	0.237238872163	-0.139595319868	0.237238872163	-0.139595319868	-0.134533057199	-0.206225909052	
580.625	-0.149593054124	0.347672356113	0.0511499211254	0.270695740242	0.0511499211254	0.270695740242	-0.148647264584	-0.21602367174	
581.25	0.128133524643	0.420753285927	0.191179769818	0.197760342705	0.191179769818	0.197760342705	-0.180749118578	-0.216318053268	
581.875	0.234587232031	0.181323377645	0.264145139931	0.0874739234184	0.264145139931	0.0874739234184	-0.20244772147	-0.212797892282	
582.5	0.0125052363052	-0.223145532557	0.246242974181	-0.138628007955	0.246242974181	-0.138628007955	-0.223462198045	-0.212074549371	
583.125	-0.291307425159	0.143497126472	0.000789767037677	-0.283641781854	0.000789767037677	-0.283641781854	-0.228551428214	-0.215760665693	
583.75	0.275722149832	0.20133020255	0.243278154757	0.13584140098	0.243278154757	0.13584140098	-0.243485371048	-0.215699623576	
584.375	0.214609937644	-0.352326862229	0.250612826067	-0.119148221337	0.250612826067	-0.119148221337	-0.246166937903	-0.211098974736	
585.0	-0.137346507155	-0.273475011375	0.101032500622	-0.251971538085	0.101032500622	-0.251971538085	-0.25975007819	-0.200014958533	
585.625	-0.158861515291	-0.0105591460696	0.0512306300625	-0.264034624272	0.0512306300625	-0.264034624272	-0.264344461166	-0.198853991234	
586.25	0.0222913389289	0.370802741972	0.17496481761	0.208804734036	0.17496481761	0.208804734036	-0.271324673059	-0.198973866598	
586.875	0.276838013496	0.193852855425	0.269278693724	0.0359175191795	0.269278693724	0.0359175191795	-0.278286730317	-0.194535501807	
587.5	0.148193636354	-0.171478351065	0.242181613283	-0.116681406003	0.242181613283	-0.116681406003	-0.303942186455	-0.195624643268	
588.125	-0.182539174996	-0.326558324049	0.110400618695	-0.251192683063	0.110400618695	-0.251192683063	-0.307035127827	-0.185317101426	
588.75	-0.239602492259	0.028786654493	0.123915696062	0.247094539287	0.123915696062	0.247094539287	-0.326605666006	-0.181974206103	
589.375	0.229117602407	-0.0302028609163	0.278017326026	0.0284541125477	0.278017326026	0.0284541125477	-0.331551681632	-0.189375081335	
590.0	0.00904150808334	-0.479676393533	0.170019125757	-0.223085649002	0.170019125757	-0.223085649002	-0.350790265966	-0.185472443342	
590.625	-0.340356572499	-0.118978923826	0.0853018919928	0.268161933254	0.0853018919928	0.268161933254	-0.368798098154	-0.177957550499	
591.25	0.1318453864	0.153760346494	0.273826925379	0.0501485209349	0.273826925379	0.0501485209349	-0.391131646007	-0.175276858135	
591.875	0.1362684579	-0.278948054417	0.179684514994	-0.218187957444	0.179684514994	-0.218187957444	-0.395812176572	-0.162623500372	
